! TOUCHSTONE file generated by CST MICROWAVE STUDIO
! Date and time: Wed Oct 15 17:28:50 2025
! Project name: Teste_Macro_Metasurface_Nanopilar.cst
! Parameters = {H=600; L_x=85; L_y=180; Lambda=1064; Max_L=200; Min_L=70; PathPara=1; Phi=0; Step_L=10; Theta=0; p=520; phaseX=180; phaseY=0}
! Header version: 2018
! Port assignment regex: !\s*Touchstone port\s*([0-9]+)\s*=\s*(CST MWS port|CST DS port)\s*([0-9]+|Zmin|Zmax)\s*\(\"(.*)\"\)(\s*mode\s*([0-9]+))?.*
! Touchstone port assignment:
! Touchstone port 1 = CST MWS port Zmax ("") mode 1
! Touchstone port 2 = CST MWS port Zmax ("") mode 2
! Touchstone port 3 = CST MWS port Zmin ("") mode 1
! Touchstone port 4 = CST MWS port Zmin ("") mode 2
! S-Parameters are not renormalized. Each port impedance will be approximated by the real part at minimum frequency. The values are described via the [Reference] keyword.
! Default impedance is overridden by [Reference]
[Version] 2.0
# GHz S RI R 376.73
[Number of Ports] 4
[Reference]
376.73 376.73 259.888 259.888 
[Number of Frequencies] 51
[Network Data]
281700                  0.113975        0.279646      0.000351706     0.000333642         0.854704       -0.409308     -0.000132752     6.99061e-05
                     0.000358861     0.000340018       -0.0380612       0.0223399     -0.000228409     -8.7482e-05        -0.676384       -0.732355
                        0.854938       -0.409138     -0.000218604    -4.13599e-05         0.148163        0.261251       0.00042111    -0.000185074
                    -0.000112947     2.36824e-05        -0.676219       -0.732279      0.000483238    -8.92555e-05       -0.0250499       0.0369784
281702                  0.114016        0.279686      0.000351724     0.000333707         0.854543       -0.409604     -0.000132714     7.00121e-05
                     0.000358863     0.000340062       -0.0380654       0.0223567     -0.000228497    -8.73764e-05        -0.676587       -0.732166
                        0.854778       -0.409434     -0.000218667    -4.13458e-05         0.148355        0.261201      0.000420917    -0.000185409
                    -0.000112939     2.37797e-05        -0.676423        -0.73209      0.000483209    -8.97167e-05       -0.0250465       0.0369953
281704                  0.114057        0.279725      0.000351742     0.000333772         0.854383         -0.4099     -0.000132675     7.01182e-05
                     0.000358864     0.000340107       -0.0380696       0.0223736     -0.000228584    -8.72707e-05        -0.676791       -0.731977
                        0.854617        -0.40973     -0.000218731    -4.13319e-05         0.148546        0.261152      0.000420724    -0.000185744
                    -0.000112931      2.3877e-05        -0.676626       -0.731901      0.000483179    -9.01778e-05       -0.0250431       0.0370122
281706                  0.114098        0.279765       0.00035176     0.000333837         0.854222       -0.410196     -0.000132637     7.02243e-05
                     0.000358866     0.000340151       -0.0380738       0.0223904     -0.000228672     -8.7165e-05        -0.676995       -0.731788
                        0.854456       -0.410025     -0.000218795    -4.13182e-05         0.148738        0.261103       0.00042053    -0.000186079
                    -0.000112922     2.39743e-05         -0.67683       -0.731712       0.00048315     -9.0639e-05       -0.0250396       0.0370291
281708                  0.114139        0.279805      0.000351778     0.000333902         0.854061       -0.410492     -0.000132599     7.03305e-05
                     0.000358867     0.000340196        -0.038078       0.0224073      -0.00022876    -8.70592e-05        -0.677199       -0.731599
                        0.854296       -0.410321     -0.000218859    -4.13045e-05         0.148929        0.261053      0.000420337    -0.000186414
                    -0.000112914     2.40716e-05        -0.677033       -0.731523      0.000483119    -9.11001e-05       -0.0250361        0.037046
281710                   0.11418        0.279845      0.000351796     0.000333967           0.8539       -0.410788     -0.000132562     7.04367e-05
                     0.000358869     0.000340241       -0.0380822       0.0224242     -0.000228847    -8.69534e-05        -0.677403        -0.73141
                        0.854135       -0.410616     -0.000218924    -4.12908e-05          0.14912        0.261004      0.000420144    -0.000186749
                    -0.000112905     2.41688e-05        -0.677237       -0.731333      0.000483089    -9.15613e-05       -0.0250327       0.0370629
281712                  0.114221        0.279884      0.000351814     0.000334032         0.853739       -0.411084     -0.000132524     7.05429e-05
                      0.00035887     0.000340285       -0.0380864        0.022441     -0.000228935    -8.68476e-05        -0.677606        -0.73122
                        0.853974       -0.410912     -0.000218989    -4.12771e-05         0.149312        0.260954      0.000419951    -0.000187084
                    -0.000112896     2.42661e-05         -0.67744       -0.731144      0.000483058    -9.20225e-05       -0.0250292       0.0370798
281714                  0.114262        0.279924      0.000351833     0.000334097         0.853578        -0.41138     -0.000132487     7.06492e-05
                     0.000358871      0.00034033       -0.0380906       0.0224579     -0.000229022    -8.67417e-05         -0.67781       -0.731031
                        0.853813       -0.411207     -0.000219053    -4.12633e-05         0.149503        0.260904      0.000419759    -0.000187418
                    -0.000112887     2.43634e-05        -0.677643       -0.730954      0.000483028    -9.24837e-05       -0.0250257       0.0370968
281716                  0.114303        0.279964      0.000351851     0.000334162         0.853417       -0.411676     -0.000132449     7.07555e-05
                     0.000358873     0.000340375       -0.0380948       0.0224748      -0.00022911    -8.66357e-05        -0.678014       -0.730841
                        0.853652       -0.411502     -0.000219119    -4.12495e-05         0.149695        0.260854      0.000419566    -0.000187753
                    -0.000112878     2.44606e-05        -0.677847       -0.730765      0.000482996    -9.29449e-05       -0.0250222       0.0371137
281718                  0.114344        0.280004       0.00035187     0.000334227         0.853255       -0.411971     -0.000132412     7.08618e-05
                     0.000358874      0.00034042        -0.038099       0.0224917     -0.000229197    -8.65298e-05        -0.678217       -0.730652
                         0.85349       -0.411798     -0.000219184    -4.12356e-05         0.149886        0.260804      0.000419373    -0.000188088
                    -0.000112869     2.45579e-05         -0.67805       -0.730575      0.000482965    -9.34061e-05       -0.0250187       0.0371306
281720                  0.114385        0.280044      0.000351888     0.000334293         0.853094       -0.412267     -0.000132375     7.09682e-05
                     0.000358875     0.000340465       -0.0381032       0.0225085     -0.000229284    -8.64238e-05        -0.678421       -0.730462
                        0.853329       -0.412093     -0.000219249    -4.12215e-05         0.150078        0.260754      0.000419181    -0.000188422
                     -0.00011286     2.46551e-05        -0.678253       -0.730386      0.000482933    -9.38673e-05       -0.0250151       0.0371476
281722                  0.114427        0.280083      0.000351907     0.000334358         0.852932       -0.412563     -0.000132338     7.10746e-05
                     0.000358876      0.00034051       -0.0381074       0.0225254     -0.000229371    -8.63177e-05        -0.678624       -0.730273
                        0.853167       -0.412388     -0.000219315    -4.12074e-05         0.150269        0.260703      0.000418988    -0.000188757
                     -0.00011285     2.47524e-05        -0.678456       -0.730196      0.000482901    -9.43285e-05       -0.0250116       0.0371645
281724                  0.114468        0.280123      0.000351926     0.000334424          0.85277       -0.412858     -0.000132302      7.1181e-05
                     0.000358877     0.000340555       -0.0381115       0.0225423     -0.000229458    -8.62116e-05        -0.678827       -0.730083
                        0.853006       -0.412683      -0.00021938    -4.11932e-05         0.150461        0.260653      0.000418796    -0.000189091
                    -0.000112841     2.48496e-05        -0.678659       -0.730006      0.000482868    -9.47897e-05        -0.025008       0.0371815
281726                  0.114509        0.280163      0.000351944     0.000334489         0.852608       -0.413154     -0.000132265     7.12875e-05
                     0.000358878     0.000340601       -0.0381157       0.0225592     -0.000229545    -8.61055e-05        -0.679031       -0.729893
                        0.852844       -0.412978     -0.000219446     -4.1179e-05         0.150652        0.260602      0.000418603    -0.000189426
                    -0.000112831     2.49468e-05        -0.678862       -0.729816      0.000482835    -9.52508e-05       -0.0250045       0.0371984
281728                   0.11455        0.280203      0.000351963     0.000334555         0.852446       -0.413449     -0.000132228      7.1394e-05
                     0.000358879     0.000340646       -0.0381199       0.0225761     -0.000229632    -8.59994e-05        -0.679234       -0.729703
                        0.852682       -0.413273     -0.000219511    -4.11647e-05         0.150844        0.260551      0.000418411     -0.00018976
                    -0.000112821      2.5044e-05        -0.679065       -0.729626      0.000482802     -9.5712e-05       -0.0250009       0.0372154
281730                  0.114591        0.280243      0.000351982      0.00033462         0.852284       -0.413744     -0.000132192     7.15006e-05
                      0.00035888     0.000340691       -0.0381241       0.0225929     -0.000229719    -8.58932e-05        -0.679437       -0.729513
                         0.85252       -0.413568     -0.000219577    -4.11503e-05         0.151035        0.260501      0.000418219    -0.000190095
                    -0.000112811     2.51413e-05        -0.679268       -0.729436      0.000482769    -9.61732e-05       -0.0249973       0.0372324
281732                  0.114633        0.280282      0.000352001     0.000334686         0.852122        -0.41404     -0.000132156     7.16072e-05
                     0.000358881     0.000340736       -0.0381283       0.0226098     -0.000229806     -8.5787e-05         -0.67964       -0.729324
                        0.852358       -0.413863     -0.000219642    -4.11359e-05         0.151227        0.260449      0.000418026    -0.000190429
                    -0.000112801     2.52385e-05        -0.679471       -0.729246      0.000482735    -9.66344e-05       -0.0249938       0.0372493
281734                  0.114674        0.280322       0.00035202     0.000334752          0.85196       -0.414335      -0.00013212     7.17138e-05
                     0.000358882     0.000340782       -0.0381324       0.0226267     -0.000229892    -8.56808e-05        -0.679843       -0.729134
                        0.852196       -0.414157     -0.000219708    -4.11214e-05         0.151418        0.260398      0.000417834    -0.000190764
                    -0.000112791     2.53357e-05        -0.679674       -0.729056      0.000482701    -9.70956e-05       -0.0249902       0.0372663
281736                  0.114715        0.280362       0.00035204     0.000334818         0.851797        -0.41463     -0.000132084     7.18205e-05
                     0.000358883     0.000340827       -0.0381366       0.0226436     -0.000229979    -8.55745e-05        -0.680046       -0.728943
                        0.852033       -0.414452     -0.000219774    -4.11068e-05          0.15161        0.260347      0.000417642    -0.000191098
                    -0.000112781     2.54329e-05        -0.679876       -0.728866      0.000482666    -9.75567e-05       -0.0249866       0.0372833
281738                  0.114756        0.280402      0.000352059     0.000334883         0.851635       -0.414925     -0.000132048     7.19272e-05
                     0.000358884     0.000340873       -0.0381408       0.0226605     -0.000230065    -8.54683e-05        -0.680249       -0.728753
                        0.851871       -0.414747      -0.00021984    -4.10922e-05         0.151801        0.260296      0.000417449    -0.000191432
                    -0.000112771     2.55301e-05        -0.680079       -0.728676      0.000482632    -9.80179e-05       -0.0249829       0.0373003
281740                  0.114798        0.280442      0.000352078     0.000334949         0.851472        -0.41522     -0.000132012     7.20339e-05
                     0.000358885     0.000340919       -0.0381449       0.0226774     -0.000230152     -8.5362e-05        -0.680452       -0.728563
                        0.851708       -0.415041     -0.000219906    -4.10776e-05         0.151993        0.260244      0.000417257    -0.000191767
                     -0.00011276     2.56273e-05        -0.680282       -0.728486      0.000482597     -9.8479e-05       -0.0249793       0.0373173
281742                  0.114839        0.280482      0.000352097     0.000335015         0.851309       -0.415515     -0.000131976     7.21407e-05
                     0.000358885     0.000340964       -0.0381491       0.0226943     -0.000230238    -8.52557e-05        -0.680655       -0.728373
                        0.851546       -0.415336     -0.000219971    -4.10629e-05         0.152184        0.260192      0.000417065    -0.000192101
                    -0.000112749     2.57245e-05        -0.680484       -0.728295      0.000482561    -9.89401e-05       -0.0249757       0.0373343
281744                   0.11488        0.280521      0.000352117     0.000335081         0.851146        -0.41581      -0.00013194     7.22475e-05
                     0.000358886      0.00034101       -0.0381533       0.0227112     -0.000230324    -8.51494e-05        -0.680858       -0.728183
                        0.851383       -0.415631     -0.000220037    -4.10482e-05         0.152376        0.260141      0.000416872    -0.000192435
                    -0.000112739     2.58216e-05        -0.680687       -0.728105      0.000482526    -9.94012e-05        -0.024972       0.0373513
281746                  0.114922        0.280561      0.000352136     0.000335147         0.850983       -0.416105     -0.000131905     7.23543e-05
                     0.000358887     0.000341056       -0.0381574       0.0227281     -0.000230411    -8.50431e-05        -0.681061       -0.727992
                         0.85122       -0.415925     -0.000220103    -4.10335e-05         0.152567        0.260089       0.00041668     -0.00019277
                    -0.000112728     2.59188e-05        -0.680889       -0.727915       0.00048249    -9.98623e-05       -0.0249684       0.0373683
281748                  0.114963        0.280601      0.000352156     0.000335213          0.85082         -0.4164     -0.000131869     7.24612e-05
                     0.000358888     0.000341102       -0.0381616       0.0227449     -0.000230497    -8.49368e-05        -0.681264       -0.727802
                        0.851057       -0.416219     -0.000220169    -4.10187e-05         0.152759        0.260037      0.000416488    -0.000193104
                    -0.000112717      2.6016e-05        -0.681092       -0.727724      0.000482453    -0.000100323       -0.0249647       0.0373853
281750                  0.115004        0.280641      0.000352175     0.000335279         0.850657       -0.416695     -0.000131834     7.25681e-05
                     0.000358888     0.000341148       -0.0381657       0.0227618     -0.000230583    -8.48304e-05        -0.681466       -0.727611
                        0.850894       -0.416514     -0.000220235    -4.10038e-05          0.15295        0.259984      0.000416295    -0.000193438
                    -0.000112706     2.61132e-05        -0.681294       -0.727534      0.000482417    -0.000100784        -0.024961       0.0374023
281752                  0.115046        0.280681      0.000352195     0.000335346         0.850494       -0.416989     -0.000131798      7.2675e-05
                     0.000358889     0.000341194       -0.0381699       0.0227787     -0.000230669    -8.47241e-05        -0.681669       -0.727421
                         0.85073       -0.416808     -0.000220301     -4.0989e-05         0.153142        0.259932      0.000416103    -0.000193773
                    -0.000112695     2.62104e-05        -0.681496       -0.727343       0.00048238    -0.000101245       -0.0249573       0.0374193
281754                  0.115087        0.280721      0.000352215     0.000335412          0.85033       -0.417284     -0.000131763      7.2782e-05
                      0.00035889      0.00034124        -0.038174       0.0227956     -0.000230754    -8.46178e-05        -0.681871        -0.72723
                        0.850567       -0.417102     -0.000220367    -4.09741e-05         0.153334         0.25988      0.000415911    -0.000194107
                    -0.000112683     2.63075e-05        -0.681699       -0.727152      0.000482342    -0.000101706       -0.0249536       0.0374364
281756                  0.115128        0.280761      0.000352234     0.000335478         0.850167       -0.417579     -0.000131728      7.2889e-05
                      0.00035889     0.000341286       -0.0381782       0.0228126      -0.00023084    -8.45115e-05        -0.682074        -0.72704
                        0.850404       -0.417396     -0.000220433    -4.09592e-05         0.153525        0.259827      0.000415718    -0.000194441
                    -0.000112672     2.64047e-05        -0.681901       -0.726962      0.000482305    -0.000102167       -0.0249499       0.0374534
281758                   0.11517        0.280801      0.000352254     0.000335544         0.850003       -0.417873     -0.000131693     7.29961e-05
                     0.000358891     0.000341332       -0.0381823       0.0228295     -0.000230926    -8.44052e-05        -0.682277       -0.726849
                         0.85024        -0.41769     -0.000220499    -4.09442e-05         0.153717        0.259774      0.000415526    -0.000194776
                    -0.000112661     2.65019e-05        -0.682103       -0.726771      0.000482267    -0.000102628       -0.0249462       0.0374704
281760                  0.115211        0.280841      0.000352274     0.000335611         0.849839       -0.418168     -0.000131657     7.31031e-05
                     0.000358891     0.000341378       -0.0381865       0.0228464     -0.000231011     -8.4299e-05        -0.682479       -0.726658
                        0.850076       -0.417984     -0.000220565    -4.09292e-05         0.153908        0.259722      0.000415333     -0.00019511
                    -0.000112649      2.6599e-05        -0.682305        -0.72658      0.000482228    -0.000103089       -0.0249425       0.0374875
281762                  0.115253        0.280881      0.000352294     0.000335677         0.849675       -0.418462     -0.000131622     7.32102e-05
                     0.000358892     0.000341424       -0.0381906       0.0228633     -0.000231097    -8.41928e-05        -0.682681       -0.726467
                        0.849913       -0.418278     -0.000220631    -4.09142e-05           0.1541        0.259669       0.00041514    -0.000195445
