! TOUCHSTONE file generated by CST MICROWAVE STUDIO
! Date and time: Wed Oct 15 17:29:55 2025
! Project name: Teste_Macro_Metasurface_Nanopilar.cst
! Parameters = {H=600; L_x=105; L_y=145; Lambda=1064; Max_L=200; Min_L=70; PathPara=1; Phi=0; Step_L=10; Theta=0; p=520; phaseX=180; phaseY=0}
! Header version: 2018
! Port assignment regex: !\s*Touchstone port\s*([0-9]+)\s*=\s*(CST MWS port|CST DS port)\s*([0-9]+|Zmin|Zmax)\s*\(\"(.*)\"\)(\s*mode\s*([0-9]+))?.*
! Touchstone port assignment:
! Touchstone port 1 = CST MWS port Zmax ("") mode 1
! Touchstone port 2 = CST MWS port Zmax ("") mode 2
! Touchstone port 3 = CST MWS port Zmin ("") mode 1
! Touchstone port 4 = CST MWS port Zmin ("") mode 2
! S-Parameters are not renormalized. Each port impedance will be approximated by the real part at minimum frequency. The values are described via the [Reference] keyword.
! Default impedance is overridden by [Reference]
[Version] 2.0
# GHz S RI R 376.73
[Number of Ports] 4
[Reference]
376.73 376.73 259.888 259.888 
[Number of Frequencies] 51
[Network Data]
281700                  0.048077         0.12776      0.000341419      0.00042334          0.97216        0.157049      -0.00018662     0.000606915
                       0.0003219     0.000426645         0.165357       0.0714932     -0.000555656    -0.000431474        -0.837881        0.500059
                        0.972282        0.156807     -0.000583714    -0.000486802       -0.0847811        0.107081      4.81034e-05    -0.000600314
                    -0.000238046     0.000624087         -0.83774        0.500405     -5.32564e-05    -0.000622825       -0.0151184        0.178686
281702                 0.0480966        0.127774       0.00034142     0.000423294         0.972211        0.156718     -0.000186434     0.000606954
                     0.000321882     0.000426583         0.165371       0.0714727     -0.000555839    -0.000431264        -0.837689        0.500377
                        0.972333        0.156477     -0.000583916    -0.000486613       -0.0847317        0.107146       4.7642e-05    -0.000600393
                    -0.000237788     0.000624177        -0.837549        0.500723     -5.36438e-05    -0.000622789       -0.0150073          0.1787
281704                 0.0481162        0.127788      0.000341421     0.000423248         0.972261        0.156388     -0.000186248     0.000606993
                     0.000321864      0.00042652         0.165385       0.0714522     -0.000556022    -0.000431054        -0.837497        0.500695
                        0.972384        0.156147     -0.000584118    -0.000486424       -0.0846822        0.107211      4.71805e-05    -0.000600471
                    -0.000237529     0.000624267        -0.837357        0.501042     -5.40312e-05    -0.000622753       -0.0148963        0.178713
281706                 0.0481358        0.127803      0.000341421     0.000423202         0.972312        0.156058     -0.000186062     0.000607032
                     0.000321846     0.000426457         0.165399       0.0714317     -0.000556205    -0.000430844        -0.837306        0.501013
                        0.972434        0.155817      -0.00058432    -0.000486234       -0.0846327        0.107275       4.6719e-05    -0.000600549
                    -0.000237271     0.000624356        -0.837165         0.50136     -5.44187e-05    -0.000622716       -0.0147852        0.178727
281708                 0.0481555        0.127817      0.000341422     0.000423156         0.972363        0.155727     -0.000185876     0.000607071
                     0.000321828     0.000426395         0.165413       0.0714111     -0.000556387    -0.000430634        -0.837114        0.501331
                        0.972485        0.155486     -0.000584522    -0.000486045       -0.0845832         0.10734      4.62574e-05    -0.000600626
                    -0.000237012     0.000624445        -0.836973        0.501679     -5.48061e-05    -0.000622679       -0.0146741        0.178741
281710                 0.0481751        0.127831      0.000341423      0.00042311         0.972413        0.155397      -0.00018569      0.00060711
                      0.00032181     0.000426332         0.165427       0.0713906     -0.000556569    -0.000430424        -0.836921        0.501649
                        0.972535        0.155156     -0.000584724    -0.000485855       -0.0845335        0.107405      4.57959e-05    -0.000600704
                    -0.000236754     0.000624534        -0.836781        0.501997     -5.51936e-05    -0.000622643       -0.0145631        0.178755
281712                 0.0481947        0.127845      0.000341424     0.000423064         0.972463        0.155067     -0.000185505     0.000607148
                     0.000321792     0.000426269         0.165441         0.07137     -0.000556752    -0.000430213        -0.836729        0.501967
                        0.972586        0.154826     -0.000584926    -0.000485665       -0.0844839        0.107469      4.53342e-05    -0.000600781
                    -0.000236496     0.000624623        -0.836589        0.502315     -5.55811e-05    -0.000622605       -0.0144519        0.178768
281714                 0.0482143         0.12786      0.000341425     0.000423018         0.972514        0.154736     -0.000185319     0.000607187
                     0.000321775     0.000426207         0.165454       0.0713495     -0.000556934    -0.000430003        -0.836537        0.502285
                        0.972636        0.154495     -0.000585128    -0.000485475       -0.0844342        0.107534      4.48726e-05    -0.000600857
                    -0.000236237     0.000624711        -0.836397        0.502633     -5.59686e-05    -0.000622568       -0.0143408        0.178782
281716                 0.0482339        0.127874      0.000341426     0.000422972         0.972564        0.154406     -0.000185133     0.000607225
                     0.000321758     0.000426144         0.165468       0.0713289     -0.000557116    -0.000429792        -0.836344        0.502602
                        0.972686        0.154165     -0.000585329    -0.000485285       -0.0843844        0.107599      4.44109e-05    -0.000600933
                    -0.000235979     0.000624799        -0.836205        0.502951     -5.63561e-05     -0.00062253       -0.0142297        0.178795
281718                 0.0482535        0.127888      0.000341426     0.000422926         0.972614        0.154076     -0.000184947     0.000607263
                     0.000321741     0.000426082         0.165482       0.0713084     -0.000557298    -0.000429581        -0.836152         0.50292
                        0.972736        0.153835      -0.00058553    -0.000485095       -0.0843346        0.107663      4.39491e-05    -0.000601009
                    -0.000235721     0.000624887        -0.836012        0.503269     -5.67437e-05    -0.000622493       -0.0141185        0.178808
281720                 0.0482731        0.127903      0.000341427      0.00042288         0.972663        0.153745     -0.000184762     0.000607301
                     0.000321724      0.00042602         0.165496       0.0712878      -0.00055748    -0.000429371        -0.835959        0.503237
                        0.972786        0.153504     -0.000585732    -0.000484905       -0.0842848        0.107728      4.34873e-05    -0.000601085
                    -0.000235463     0.000624974         -0.83582        0.503587     -5.71313e-05    -0.000622455       -0.0140074        0.178822
281722                 0.0482927        0.127917      0.000341428     0.000422834         0.972713        0.153415     -0.000184576     0.000607339
                     0.000321707     0.000425958          0.16551       0.0712672     -0.000557661     -0.00042916        -0.835766        0.503555
                        0.972835        0.153174     -0.000585933    -0.000484714       -0.0842349        0.107792      4.30254e-05     -0.00060116
                    -0.000235204     0.000625062        -0.835627        0.503905     -5.75189e-05    -0.000622416       -0.0138962        0.178835
281724                 0.0483123        0.127931      0.000341429     0.000422788         0.972763        0.153084      -0.00018439     0.000607377
                      0.00032169     0.000425897         0.165524       0.0712467     -0.000557843    -0.000428949        -0.835573        0.503872
                        0.972885        0.152844     -0.000586133    -0.000484524       -0.0841849        0.107857      4.25635e-05    -0.000601235
                    -0.000234946     0.000625149        -0.835434        0.504223     -5.79065e-05    -0.000622378        -0.013785        0.178848
281726                 0.0483319        0.127945       0.00034143     0.000422743         0.972812        0.152754     -0.000184205     0.000607415
                     0.000321673     0.000425835         0.165538       0.0712261     -0.000558024    -0.000428738         -0.83538         0.50419
                        0.972935        0.152513     -0.000586334    -0.000484333       -0.0841349        0.107921      4.21015e-05     -0.00060131
                    -0.000234688     0.000625236        -0.835241        0.504541     -5.82941e-05    -0.000622339       -0.0136738        0.178861
281728                 0.0483515         0.12796      0.000341431     0.000422697         0.972862        0.152423     -0.000184019     0.000607453
                     0.000321657     0.000425774         0.165552       0.0712055     -0.000558206    -0.000428526        -0.835187        0.504507
                        0.972984        0.152183     -0.000586535    -0.000484142       -0.0840849        0.107986      4.16394e-05    -0.000601384
                     -0.00023443     0.000625323        -0.835048        0.504858     -5.86818e-05      -0.0006223       -0.0135626        0.178874
281730                 0.0483712        0.127974      0.000341432     0.000422651         0.972911        0.152093     -0.000183833     0.000607491
                      0.00032164     0.000425713         0.165566       0.0711849     -0.000558387    -0.000428315        -0.834993        0.504824
                        0.973033        0.151852     -0.000586735    -0.000483951       -0.0840348         0.10805      4.11773e-05    -0.000601458
                    -0.000234173     0.000625409        -0.834855        0.505176     -5.90694e-05    -0.000622261       -0.0134514        0.178887
281732                 0.0483908        0.127988      0.000341433     0.000422606          0.97296        0.151763     -0.000183648     0.000607528
                     0.000321622     0.000425653         0.165579       0.0711643     -0.000558568    -0.000428104          -0.8348        0.505141
                        0.973082        0.151522     -0.000586936     -0.00048376       -0.0839846        0.108115      4.07151e-05    -0.000601532
                    -0.000233915     0.000625495        -0.834661        0.505494     -5.94571e-05    -0.000622222       -0.0133402          0.1789
281734                 0.0484104        0.128002      0.000341434      0.00042256         0.973009        0.151432     -0.000183462     0.000607566
                     0.000321605     0.000425592         0.165593       0.0711437     -0.000558749    -0.000427892        -0.834606        0.505458
                        0.973131        0.151192     -0.000587136    -0.000483569       -0.0839344        0.108179      4.02529e-05    -0.000601605
                    -0.000233657     0.000625582        -0.834468        0.505811     -5.98448e-05    -0.000622182       -0.0132289        0.178913
281736                   0.04843        0.128017      0.000341435     0.000422514         0.973058        0.151102     -0.000183277     0.000607604
                     0.000321587     0.000425532         0.165607       0.0711231      -0.00055893    -0.000427681        -0.834412        0.505775
                         0.97318        0.150861     -0.000587336    -0.000483378       -0.0838842        0.108244      3.97906e-05    -0.000601678
                    -0.000233399     0.000625668        -0.834274        0.506128     -6.02325e-05    -0.000622142       -0.0131176        0.178925
281738                 0.0484496        0.128031      0.000341436     0.000422469         0.973107        0.150771     -0.000183091     0.000607641
                      0.00032157     0.000425471         0.165621       0.0711025     -0.000559111    -0.000427469        -0.834219        0.506092
                        0.973229        0.150531     -0.000587536    -0.000483186       -0.0838339        0.108308      3.93282e-05    -0.000601751
                    -0.000233142     0.000625753        -0.834081        0.506446     -6.06202e-05    -0.000622102       -0.0130064        0.178938
281740                 0.0484692        0.128045      0.000341437     0.000422423         0.973156        0.150441     -0.000182905     0.000607678
                     0.000321552     0.000425411         0.165635       0.0710819     -0.000559292    -0.000427257        -0.834025        0.506409
                        0.973278          0.1502     -0.000587736    -0.000482994       -0.0837836        0.108372      3.88657e-05    -0.000601823
                    -0.000232884     0.000625839        -0.833887        0.506763     -6.10079e-05    -0.000622062       -0.0128951        0.178951
281742                 0.0484888         0.12806      0.000341438     0.000422378         0.973204         0.15011      -0.00018272     0.000607716
                     0.000321534      0.00042535         0.165649       0.0710613     -0.000559473    -0.000427046         -0.83383        0.506726
                        0.973327         0.14987     -0.000587936    -0.000482803       -0.0837332        0.108437      3.84031e-05    -0.000601895
                    -0.000232627     0.000625924        -0.833693         0.50708     -6.13956e-05    -0.000622021       -0.0127838        0.178963
281744                 0.0485084        0.128074      0.000341439     0.000422333         0.973253        0.149779     -0.000182534     0.000607753
                     0.000321515      0.00042529         0.165662       0.0710406     -0.000559653    -0.000426834        -0.833636        0.507043
                        0.973375        0.149539     -0.000588136    -0.000482611       -0.0836828        0.108501      3.79404e-05    -0.000601967
                     -0.00023237      0.00062601        -0.833499        0.507397     -6.17834e-05     -0.00062198       -0.0126724        0.178975
281746                 0.0485281        0.128088       0.00034144     0.000422287         0.973301        0.149449     -0.000182348      0.00060779
                     0.000321497     0.000425229         0.165676         0.07102     -0.000559834    -0.000426622        -0.833442        0.507359
                        0.973423        0.149209     -0.000588335    -0.000482419       -0.0836323        0.108565      3.74777e-05    -0.000602038
                    -0.000232114     0.000626096        -0.833304        0.507715      -6.2171e-05    -0.000621939       -0.0125611        0.178988
281748                 0.0485477        0.128102      0.000341441     0.000422242          0.97335        0.149118     -0.000182163     0.000607827
                     0.000321478     0.000425168          0.16569       0.0709994     -0.000560014    -0.000426411        -0.833247        0.507676
                        0.973472        0.148878     -0.000588534    -0.000482227       -0.0835818         0.10863      3.70149e-05     -0.00060211
                    -0.000231857     0.000626182         -0.83311        0.508032     -6.25586e-05    -0.000621896       -0.0124498           0.179
281750                 0.0485673        0.128117      0.000341442     0.000422196         0.973398        0.148788     -0.000181977     0.000607864
                     0.000321459     0.000425107         0.165704       0.0709787     -0.000560195    -0.000426202        -0.833053        0.507992
                         0.97352        0.148548     -0.000588733    -0.000482034       -0.0835312        0.108694      3.65519e-05     -0.00060218
                    -0.000231599     0.000626269        -0.832916        0.508349     -6.29459e-05    -0.000621853       -0.0123384        0.179012
281752                 0.0485869        0.128131      0.000341442     0.000422151         0.973446        0.148457     -0.000181791     0.000607901
                     0.000321441     0.000425045         0.165718       0.0709581     -0.000560378       -0.000426        -0.832858        0.508309
                        0.973568        0.148217     -0.000588933    -0.000481842       -0.0834806        0.108758      3.60889e-05    -0.000602251
                     -0.00023134     0.000626355        -0.832721        0.508665     -6.33318e-05    -0.000621803        -0.012227        0.179024
281754                 0.0486065        0.128145      0.000341444     0.000422106         0.973494        0.148127     -0.000181606     0.000607937
                     0.000321424     0.000424983         0.165731       0.0709374     -0.000560537    -0.000425713        -0.832663        0.508625
                        0.973616        0.147887     -0.000589132     -0.00048165       -0.0834298        0.108822      3.56258e-05    -0.000602321
                    -0.000231082      0.00062644        -0.832526        0.508982     -6.37326e-05    -0.000621822       -0.0121157        0.179036
281756                 0.0486261        0.128159      0.000341445     0.000422061         0.973542        0.147796      -0.00018142     0.000607974
                     0.000321407     0.000424922         0.165745       0.0709168      -0.00056073    -0.000425545        -0.832468        0.508941
                        0.973664        0.147556     -0.000589331    -0.000481457       -0.0833792        0.108886      3.51625e-05    -0.000602391
                    -0.000230824     0.000626525        -0.832332        0.509299      -6.4113e-05    -0.000621743       -0.0120043        0.179048
281758                 0.0486457        0.128173      0.000341446     0.000422016         0.973589        0.147465     -0.000181234     0.000608011
                      0.00032139     0.000424862         0.165759       0.0708961     -0.000560911    -0.000425337        -0.832273        0.509258
                        0.973711        0.147226     -0.000589529    -0.000481265       -0.0833284         0.10895      3.46991e-05     -0.00060246
                    -0.000230566     0.000626609        -0.832137        0.509616     -6.45001e-05    -0.000621697       -0.0118929         0.17906
281760                 0.0486654        0.128188      0.000341447     0.000421971         0.973637        0.147135     -0.000181049     0.000608047
                     0.000321372     0.000424803         0.165773       0.0708754     -0.000561091    -0.000425125        -0.832078        0.509574
                        0.973759        0.146895     -0.000589728    -0.000481072       -0.0832776        0.109015      3.42356e-05    -0.000602529
                    -0.000230308     0.000626694        -0.831941        0.509932     -6.48877e-05    -0.000621653       -0.0117814        0.179072
281762                  0.048685        0.128202      0.000341448     0.000421926         0.973684        0.146804     -0.000180863     0.000608084
                     0.000321354     0.000424743         0.165786       0.0708548     -0.000561271    -0.000424913        -0.831883         0.50989
                        0.973806        0.146564     -0.000589927    -0.000480879       -0.0832267        0.109079       3.3772e-05    -0.000602598
