! TOUCHSTONE file generated by CST MICROWAVE STUDIO
! Date and time: Wed Oct 15 17:33:59 2025
! Project name: Teste_Macro_Metasurface_Nanopilar.cst
! Parameters = {H=600; L_x=175; L_y=170; Lambda=1064; Max_L=200; Min_L=70; PathPara=1; Phi=0; Step_L=10; Theta=0; p=520; phaseX=180; phaseY=0}
! Header version: 2018
! Port assignment regex: !\s*Touchstone port\s*([0-9]+)\s*=\s*(CST MWS port|CST DS port)\s*([0-9]+|Zmin|Zmax)\s*\(\"(.*)\"\)(\s*mode\s*([0-9]+))?.*
! Touchstone port assignment:
! Touchstone port 1 = CST MWS port Zmax ("") mode 1
! Touchstone port 2 = CST MWS port Zmax ("") mode 2
! Touchstone port 3 = CST MWS port Zmin ("") mode 1
! Touchstone port 4 = CST MWS port Zmin ("") mode 2
! S-Parameters are not renormalized. Each port impedance will be approximated by the real part at minimum frequency. The values are described via the [Reference] keyword.
! Default impedance is overridden by [Reference]
[Version] 2.0
# GHz S RI R 376.73
[Number of Ports] 4
[Reference]
376.73 376.73 259.888 259.888 
[Number of Frequencies] 51
[Network Data]
281700                  0.187096       0.0586368      4.92533e-05     0.000288035         0.415117       -0.884404     -0.000725779    -0.000255121
                     4.96001e-05     0.000283097         0.196011       0.0673493     -0.000654159     -0.00031437         0.371027       -0.901491
                         0.41551       -0.884527     -0.000705097    -0.000354999         0.163235        0.104974      0.000346691    -0.000432904
                     -0.00074627    -0.000226191         0.370949       -0.901529      0.000391443    -0.000373716         0.185192       0.0883424
281702                  0.187101       0.0586384      4.92148e-05     0.000287973          0.41486       -0.884523     -0.000725872    -0.000254918
                     4.96285e-05     0.000282967         0.196018       0.0673521     -0.000654204    -0.000314141         0.370767       -0.901596
                        0.415255       -0.884646     -0.000705255     -0.00035497           0.1633        0.104883      0.000346319    -0.000433073
                    -0.000746354     -0.00022606         0.370689       -0.901633      0.000391154    -0.000373751          0.18525       0.0882395
281704                  0.187105         0.05864      4.91764e-05     0.000287912         0.414604       -0.884642     -0.000725965    -0.000254716
                     4.96566e-05     0.000282838         0.196026       0.0673548      -0.00065425    -0.000313912         0.370506       -0.901701
                        0.414999       -0.884765     -0.000705413    -0.000354941         0.163364        0.104791      0.000345948    -0.000433242
                    -0.000746436    -0.000225928         0.370429       -0.901738      0.000390864    -0.000373785         0.185308       0.0881367
281706                  0.187109       0.0586416      4.91378e-05     0.000287851         0.414348       -0.884761     -0.000726058    -0.000254513
                     4.96843e-05     0.000282709         0.196034       0.0673576     -0.000654295    -0.000313683         0.370246       -0.901806
                        0.414744       -0.884884      -0.00070557    -0.000354914         0.163429        0.104699      0.000345576    -0.000433411
                    -0.000746518    -0.000225796         0.370169       -0.901843      0.000390575    -0.000373818         0.185367       0.0880338
281708                  0.187114       0.0586432      4.90993e-05      0.00028779         0.414091        -0.88488     -0.000726151    -0.000254311
                     4.97115e-05     0.000282581         0.196041       0.0673603     -0.000654341    -0.000313454         0.369986       -0.901911
                        0.414488       -0.885003     -0.000705726    -0.000354889         0.163493        0.104607      0.000345204     -0.00043358
                    -0.000746599    -0.000225663         0.369908       -0.901948      0.000390286     -0.00037385         0.185425       0.0879308
281710                  0.187118       0.0586448      4.90606e-05      0.00028773         0.413835       -0.884999     -0.000726245    -0.000254108
                     4.97384e-05     0.000282454         0.196049        0.067363     -0.000654386    -0.000313225         0.369726       -0.902016
                        0.414232       -0.885122     -0.000705882    -0.000354865         0.163558        0.104516      0.000344833    -0.000433749
                    -0.000746678     -0.00022553         0.369648       -0.902053      0.000389997    -0.000373881         0.185483       0.0878279
281712                  0.187122       0.0586463       4.9022e-05     0.000287669         0.413578       -0.885118     -0.000726338    -0.000253906
                     4.97648e-05     0.000282327         0.196057       0.0673658     -0.000654431    -0.000312995         0.369465        -0.90212
                        0.413976       -0.885241     -0.000706037    -0.000354842         0.163622        0.104424      0.000344461    -0.000433918
                    -0.000746757    -0.000225397         0.369388       -0.902157      0.000389708    -0.000373911         0.185541       0.0877249
281714                  0.187127       0.0586479      4.89833e-05     0.000287609         0.413321       -0.885237     -0.000726431    -0.000253704
                     4.97908e-05     0.000282201         0.196065       0.0673685     -0.000654476    -0.000312766         0.369205       -0.902225
                        0.413721        -0.88536     -0.000706191     -0.00035482         0.163686        0.104332       0.00034409    -0.000434086
                    -0.000746834    -0.000225262         0.369127       -0.902262       0.00038942     -0.00037394         0.185599       0.0876218
281716                  0.187131       0.0586495      4.89446e-05     0.000287549         0.413065       -0.885356     -0.000726524    -0.000253502
                     4.98164e-05     0.000282076         0.196072       0.0673712     -0.000654521    -0.000312536         0.368945       -0.902329
                        0.413465       -0.885478     -0.000706344      -0.0003548         0.163751         0.10424      0.000343718    -0.000434255
                     -0.00074691    -0.000225128         0.368867       -0.902366      0.000389131    -0.000373968         0.185657       0.0875188
281718                  0.187135       0.0586511      4.89058e-05     0.000287489         0.412808       -0.885474     -0.000726617      -0.0002533
                     4.98415e-05     0.000281952          0.19608       0.0673739     -0.000654566    -0.000312306         0.368684       -0.902434
                        0.413209       -0.885597     -0.000706497    -0.000354781         0.163815        0.104148      0.000343346    -0.000434424
                    -0.000746985    -0.000224993         0.368606       -0.902471      0.000388843    -0.000373995         0.185715       0.0874156
281720                   0.18714       0.0586527       4.8867e-05     0.000287429         0.412551       -0.885593     -0.000726711    -0.000253098
                     4.98661e-05     0.000281828         0.196088       0.0673767     -0.000654611    -0.000312076         0.368424       -0.902538
                        0.412953       -0.885715     -0.000706649    -0.000354764         0.163879        0.104056      0.000342975    -0.000434593
                     -0.00074706    -0.000224857         0.368346       -0.902575      0.000388554    -0.000374021         0.185773       0.0873125
281722                  0.187144       0.0586543      4.88282e-05     0.000287369         0.412295       -0.885711     -0.000726804    -0.000252896
                     4.98903e-05     0.000281705         0.196096       0.0673794     -0.000654656    -0.000311846         0.368163       -0.902642
                        0.412697       -0.885834       -0.0007068    -0.000354748         0.163943        0.103964      0.000342604    -0.000434762
                    -0.000747133    -0.000224721         0.368086       -0.902679      0.000388266    -0.000374045          0.18583       0.0872093
281724                  0.187148       0.0586558      4.87893e-05      0.00028731         0.412038        -0.88583     -0.000726897    -0.000252694
                      4.9914e-05     0.000281583         0.196103       0.0673821     -0.000654701    -0.000311615         0.367903       -0.902747
                        0.412441       -0.885952     -0.000706951    -0.000354733         0.164007        0.103872      0.000342232    -0.000434931
                    -0.000747205    -0.000224584         0.367825       -0.902783      0.000387978    -0.000374069         0.185888       0.0871061
281726                  0.187153       0.0586574      4.87504e-05     0.000287251         0.411781       -0.885948     -0.000726991    -0.000252493
                     4.99373e-05     0.000281462         0.196111       0.0673848     -0.000654745    -0.000311385         0.367642       -0.902851
                        0.412185        -0.88607     -0.000707101     -0.00035472         0.164071         0.10378      0.000341861      -0.0004351
                    -0.000747276    -0.000224446         0.367564       -0.902887      0.000387689    -0.000374092         0.185946       0.0870028
281728                  0.187157        0.058659      4.87115e-05     0.000287192         0.411524       -0.886066     -0.000727084    -0.000252291
                       4.996e-05     0.000281341         0.196119       0.0673875      -0.00065479    -0.000311154         0.367382       -0.902955
                        0.411929       -0.886189      -0.00070725    -0.000354709         0.164135        0.103688       0.00034149    -0.000435269
                    -0.000747346    -0.000224308         0.367304       -0.902991      0.000387401    -0.000374114         0.186004       0.0868995
281730                  0.187161       0.0586605      4.86725e-05     0.000287133         0.411267       -0.886184     -0.000727177     -0.00025209
                     4.99822e-05     0.000281221         0.196126       0.0673902     -0.000654834    -0.000310923         0.367121       -0.903059
                        0.411673       -0.886307     -0.000707399    -0.000354698         0.164199        0.103596      0.000341118    -0.000435438
                    -0.000747415    -0.000224169         0.367043       -0.903095      0.000387113    -0.000374135         0.186061       0.0867962
281732                  0.187166       0.0586621      4.86335e-05     0.000287074          0.41101       -0.886303     -0.000727271    -0.000251888
                     5.00039e-05     0.000281101         0.196134       0.0673929     -0.000654878    -0.000310692         0.366861       -0.903163
                        0.411417       -0.886425     -0.000707546    -0.000354689         0.164263        0.103504      0.000340747    -0.000435607
                    -0.000747483     -0.00022403         0.366783       -0.903199      0.000386825    -0.000374155         0.186119       0.0866929
281734                   0.18717       0.0586636      4.85945e-05     0.000287016         0.410753       -0.886421     -0.000727364    -0.000251687
                      5.0025e-05     0.000280983         0.196142       0.0673956     -0.000654923    -0.000310461           0.3666       -0.903267
                        0.411161       -0.886543     -0.000707693    -0.000354682         0.164327        0.103411      0.000340376    -0.000435776
                     -0.00074755     -0.00022389         0.366522       -0.903303      0.000386537    -0.000374174         0.186176       0.0865895
281736                  0.187174       0.0586652      4.85554e-05     0.000286957         0.410496       -0.886539     -0.000727458    -0.000251486
                     5.00456e-05     0.000280865          0.19615       0.0673983     -0.000654967    -0.000310229         0.366339        -0.90337
                        0.410905       -0.886661     -0.000707839    -0.000354676         0.164391        0.103319      0.000340006    -0.000435946
                    -0.000747616     -0.00022375         0.366261       -0.903406      0.000386249    -0.000374192         0.186233        0.086486
281738                  0.187178       0.0586667      4.85163e-05     0.000286899         0.410239       -0.886656     -0.000727551    -0.000251285
                     5.00657e-05     0.000280748         0.196157        0.067401     -0.000655011    -0.000309998         0.366079       -0.903474
                        0.410648       -0.886779     -0.000707984    -0.000354671         0.164454        0.103227      0.000339635    -0.000436115
                     -0.00074768    -0.000223608            0.366        -0.90351      0.000385961    -0.000374209         0.186291       0.0863826
281740                  0.187183       0.0586683      4.84772e-05     0.000286841         0.409982       -0.886774     -0.000727645    -0.000251084
                     5.00851e-05     0.000280632         0.196165       0.0674037     -0.000655055    -0.000309766         0.365818       -0.903578
                        0.410392       -0.886896     -0.000708129    -0.000354668         0.164518        0.103134      0.000339264    -0.000436285
                    -0.000747744    -0.000223466          0.36574       -0.903613      0.000385673    -0.000374226         0.186348       0.0862791
281742                  0.187187       0.0586698       4.8438e-05     0.000286784         0.409725       -0.886892     -0.000727739    -0.000250883
                      5.0104e-05     0.000280516         0.196173       0.0674064     -0.000655099    -0.000309534         0.365557       -0.903681
                        0.410136       -0.887014     -0.000708273    -0.000354666         0.164582        0.103042      0.000338894    -0.000436454
                    -0.000747807    -0.000223323         0.365479       -0.903717      0.000385385    -0.000374241         0.186405       0.0861755
281744                  0.187191       0.0586713      4.83989e-05     0.000286726         0.409468        -0.88701     -0.000727832    -0.000250683
                     5.01223e-05     0.000280401         0.196181        0.067409     -0.000655143    -0.000309302         0.365297       -0.903785
                         0.40988       -0.887132     -0.000708416    -0.000354666         0.164645         0.10295      0.000338524    -0.000436624
                    -0.000747869     -0.00022318         0.365218        -0.90382      0.000385096    -0.000374255         0.186462        0.086072
281746                  0.187196       0.0586729      4.83597e-05     0.000286669         0.409211       -0.887127     -0.000727926    -0.000250482
                       5.014e-05     0.000280287         0.196188       0.0674117     -0.000655186    -0.000309069         0.365036       -0.903888
                        0.409623       -0.887249     -0.000708558    -0.000354667         0.164709        0.102857      0.000338153    -0.000436794
                     -0.00074793    -0.000223036         0.364957       -0.903923      0.000384808    -0.000374269         0.186519       0.0859684
281748                    0.1872       0.0586744      4.83205e-05     0.000286612         0.408954       -0.887245      -0.00072802    -0.000250282
                     5.01571e-05     0.000280173         0.196196       0.0674144      -0.00065523    -0.000308836         0.364775       -0.903991
                        0.409367       -0.887367     -0.000708699     -0.00035467         0.164772        0.102765      0.000337783    -0.000436964
                     -0.00074799    -0.000222891         0.364696       -0.904027       0.00038452    -0.000374282         0.186576       0.0858647
281750                  0.187204       0.0586759      4.82812e-05     0.000286555         0.408696       -0.887362     -0.000728114    -0.000250081
                     5.01735e-05     0.000280061         0.196204       0.0674171     -0.000655273    -0.000308603         0.364514       -0.904095
                        0.409111       -0.887484     -0.000708839    -0.000354674         0.164835        0.102672      0.000337414    -0.000437134
                    -0.000748049    -0.000222745         0.364435        -0.90413      0.000384232    -0.000374294         0.186633       0.0857611
281752                  0.187208       0.0586775      4.82419e-05     0.000286498         0.408439        -0.88748     -0.000728208    -0.000249881
                     5.01894e-05     0.000279949         0.196211       0.0674197     -0.000655317     -0.00030837         0.364253       -0.904198
                        0.408854       -0.887602     -0.000708979     -0.00035468         0.164899        0.102579      0.000337044    -0.000437304
                    -0.000748107    -0.000222599         0.364175       -0.904233      0.000383943    -0.000374305          0.18669       0.0856574
281754                  0.187213        0.058679      4.82027e-05     0.000286442         0.408182       -0.887597     -0.000728302    -0.000249681
                     5.02045e-05     0.000279838         0.196219       0.0674224      -0.00065536    -0.000308137         0.363992       -0.904301
                        0.408598       -0.887719     -0.000709117    -0.000354687         0.164962        0.102487      0.000336675    -0.000437474
                    -0.000748165    -0.000222452         0.363914       -0.904336      0.000383655    -0.000374315         0.186747       0.0855536
281756                  0.187217       0.0586805      4.81634e-05     0.000286385         0.407924       -0.887714     -0.000728396    -0.000249481
                     5.02191e-05     0.000279727         0.196227       0.0674251     -0.000655403    -0.000307903         0.363731       -0.904404
                        0.408341       -0.887836     -0.000709255    -0.000354695         0.165025        0.102394      0.000336305    -0.000437645
                    -0.000748221    -0.000222304         0.363653       -0.904439      0.000383366    -0.000374324         0.186804       0.0854498
281758                  0.187221        0.058682       4.8124e-05     0.000286329         0.407667       -0.887831      -0.00072849    -0.000249281
                      5.0233e-05     0.000279618         0.196235       0.0674277     -0.000655446    -0.000307669          0.36347       -0.904507
                        0.408085       -0.887953     -0.000709392    -0.000354706         0.165088        0.102302      0.000335936    -0.000437815
                    -0.000748276    -0.000222155         0.363392       -0.904542      0.000383078    -0.000374333          0.18686        0.085346
281760                  0.187226       0.0586835      4.80847e-05     0.000286273          0.40741       -0.887948     -0.000728584    -0.000249081
                     5.02462e-05      0.00027951         0.196242       0.0674304     -0.000655489    -0.000307435          0.36321        -0.90461
                        0.407828        -0.88807     -0.000709528    -0.000354717         0.165151        0.102209      0.000335567    -0.000437986
                     -0.00074833    -0.000222005         0.363131       -0.904644      0.000382789    -0.000374341         0.186917       0.0852422
281762                   0.18723        0.058685      4.80454e-05     0.000286217         0.407152       -0.888065     -0.000728678    -0.000248882
                     5.02583e-05     0.000279403          0.19625        0.067433     -0.000655532      -0.0003072         0.362948       -0.904712
                        0.407572       -0.888187     -0.000709663     -0.00035473         0.165214        0.102116      0.000335199    -0.000438157
