! TOUCHSTONE file generated by CST MICROWAVE STUDIO
! Date and time: Wed Oct 15 17:34:48 2025
! Project name: Teste_Macro_Metasurface_Nanopilar.cst
! Parameters = {H=600; L_x=190; L_y=150; Lambda=1064; Max_L=200; Min_L=70; PathPara=1; Phi=0; Step_L=10; Theta=0; p=520; phaseX=180; phaseY=0}
! Header version: 2018
! Port assignment regex: !\s*Touchstone port\s*([0-9]+)\s*=\s*(CST MWS port|CST DS port)\s*([0-9]+|Zmin|Zmax)\s*\(\"(.*)\"\)(\s*mode\s*([0-9]+))?.*
! Touchstone port assignment:
! Touchstone port 1 = CST MWS port Zmax ("") mode 1
! Touchstone port 2 = CST MWS port Zmax ("") mode 2
! Touchstone port 3 = CST MWS port Zmin ("") mode 1
! Touchstone port 4 = CST MWS port Zmin ("") mode 2
! S-Parameters are not renormalized. Each port impedance will be approximated by the real part at minimum frequency. The values are described via the [Reference] keyword.
! Default impedance is overridden by [Reference]
[Version] 2.0
# GHz S RI R 376.73
[Number of Ports] 4
[Reference]
376.73 376.73 259.888 259.888 
[Number of Frequencies] 51
[Network Data]
281700                  0.171851       0.0229489     -0.000441629    -0.000851178         0.663892       -0.722081      0.000521682    -4.02159e-06
                    -0.000410861    -0.000822922         0.219274       0.0785007      0.000436477     0.000288938         0.300977       -0.921073
                        0.664276       -0.722172       0.00047802      0.00029766        0.0367515         0.16669     -0.000920025      9.1958e-05
                      0.00053518    -0.000117967          0.30063       -0.921304      -0.00109002     0.000226971         0.221551       0.0635044
281702                   0.17185       0.0229542     -0.000441732    -0.000851296         0.663677       -0.722279      0.000521793    -4.28366e-06
                    -0.000410897    -0.000822611          0.21929       0.0785058      0.000436531     0.000288744         0.300709       -0.921157
                        0.664062        -0.72237      0.000478307     0.000297653         0.036856        0.166668     -0.000920143     9.32667e-05
                     0.000535319    -0.000118927         0.300363       -0.921387      -0.00108986     0.000227532         0.221604       0.0633823
281704                  0.171849       0.0229596     -0.000441835    -0.000851412         0.663462       -0.722476      0.000521904    -4.54521e-06
                    -0.000410934    -0.000822299         0.219307       0.0785109      0.000436585      0.00028855         0.300441        -0.92124
                        0.663848       -0.722568      0.000478593     0.000297645        0.0369605        0.166646      -0.00092026     9.45735e-05
                     0.000535457    -0.000119888         0.300096        -0.92147      -0.00108971     0.000228091         0.221658       0.0632602
281706                  0.171848       0.0229649     -0.000441938    -0.000851528         0.663246       -0.722674      0.000522014    -4.80625e-06
                    -0.000410969    -0.000821987         0.219324        0.078516      0.000436639     0.000288356         0.300173       -0.921322
                        0.663633       -0.722765      0.000478878     0.000297635        0.0370649        0.166624     -0.000920376     9.58785e-05
                     0.000535594     -0.00012085         0.299829       -0.921553      -0.00108955     0.000228651         0.221711       0.0631381
281708                  0.171847       0.0229702     -0.000442041    -0.000851642         0.663031       -0.722872      0.000522123    -5.06678e-06
                    -0.000411005    -0.000821675          0.21934        0.078521      0.000436693     0.000288163         0.299906       -0.921405
                        0.663419       -0.722963      0.000479163     0.000297623        0.0371693        0.166601      -0.00092049     9.71815e-05
                     0.000535729    -0.000121814         0.299561       -0.921636      -0.00108939      0.00022921         0.221765       0.0630159
281710                  0.171846       0.0229755     -0.000442144    -0.000851754         0.662816       -0.723069      0.000522232    -5.32679e-06
                    -0.000411039    -0.000821362         0.219357       0.0785261      0.000436748     0.000287969         0.299638       -0.921488
                        0.663204       -0.723161      0.000479448     0.000297609        0.0372736        0.166579     -0.000920603     9.84827e-05
                     0.000535864    -0.000122779         0.299294       -0.921719      -0.00108924     0.000229769         0.221818       0.0628937
281712                  0.171845       0.0229808     -0.000442247    -0.000851866           0.6626       -0.723267      0.000522341    -5.58628e-06
                    -0.000411074    -0.000821049         0.219374       0.0785312      0.000436802     0.000287776          0.29937       -0.921571
                         0.66299       -0.723358      0.000479731     0.000297594         0.037378        0.166556     -0.000920714      9.9782e-05
                     0.000535997    -0.000123745         0.299027       -0.921802      -0.00108908     0.000230327         0.221871       0.0627715
281714                  0.171844       0.0229861     -0.000442351    -0.000851976         0.662385       -0.723464      0.000522448    -5.84525e-06
                    -0.000411108    -0.000820736         0.219391       0.0785363      0.000436856     0.000287582         0.299102       -0.921653
                        0.662775       -0.723556      0.000480014     0.000297577        0.0374823        0.166534     -0.000920824     0.000101079
                     0.000536129    -0.000124713         0.298759       -0.921885      -0.00108892     0.000230885         0.221925       0.0626492
281716                  0.171843       0.0229913     -0.000442454    -0.000852085         0.662169       -0.723662      0.000522556    -6.10369e-06
                    -0.000411141    -0.000820422         0.219407       0.0785413       0.00043691     0.000287389         0.298834       -0.921736
                         0.66256       -0.723753      0.000480297     0.000297559        0.0375866        0.166511     -0.000920933     0.000102375
                     0.000536259    -0.000125682         0.298492       -0.921968      -0.00108877     0.000231443         0.221978       0.0625269
281718                  0.171842       0.0229966     -0.000442557    -0.000852193         0.661954       -0.723859      0.000522662    -6.36161e-06
                    -0.000411174    -0.000820108         0.219424       0.0785464      0.000436963     0.000287196         0.298566       -0.921818
                        0.662346       -0.723951      0.000480578     0.000297538        0.0376909        0.166488      -0.00092104     0.000103668
                     0.000536389    -0.000126652         0.298225        -0.92205      -0.00108861     0.000232001         0.222031       0.0624046
281720                   0.17184       0.0230019     -0.000442661    -0.000852299         0.661738       -0.724056      0.000522769      -6.619e-06
                    -0.000411206    -0.000819794         0.219441       0.0785514      0.000437017     0.000287003         0.298299       -0.921901
                        0.662131       -0.724148      0.000480859     0.000297516        0.0377951        0.166466     -0.000921146      0.00010496
                     0.000536517    -0.000127623         0.297957       -0.922133      -0.00108845     0.000232558         0.222084       0.0622822
281722                  0.171839       0.0230071     -0.000442764    -0.000852404         0.661523       -0.724254      0.000522874    -6.87586e-06
                    -0.000411238     -0.00081948         0.219458       0.0785565      0.000437071      0.00028681         0.298031       -0.921983
                        0.661916       -0.724345      0.000481139     0.000297493        0.0378994        0.166443     -0.000921251     0.000106249
                     0.000536643    -0.000128596          0.29769       -0.922215       -0.0010883     0.000233115         0.222137       0.0621598
281724                  0.171838       0.0230123     -0.000442867    -0.000852508         0.661307       -0.724451      0.000522979    -7.13219e-06
                    -0.000411269    -0.000819165         0.219474       0.0785616      0.000437125     0.000286617         0.297763       -0.922065
                        0.661701       -0.724542      0.000481418     0.000297467        0.0380036         0.16642     -0.000921354     0.000107537
                     0.000536769     -0.00012957         0.297422       -0.922298      -0.00108814     0.000233672          0.22219       0.0620373
281726                  0.171837       0.0230176     -0.000442971    -0.000852611         0.661091       -0.724648      0.000523084    -7.38799e-06
                      -0.0004113    -0.000818849         0.219491       0.0785666      0.000437178     0.000286424         0.297495       -0.922147
                        0.661486        -0.72474      0.000481697      0.00029744        0.0381077        0.166397     -0.000921456     0.000108822
                     0.000536893    -0.000130544         0.297155        -0.92238      -0.00108798     0.000234228         0.222242       0.0619149
281728                  0.171836       0.0230228     -0.000443074    -0.000852712         0.660875       -0.724845      0.000523188    -7.64325e-06
                    -0.000411331    -0.000818534         0.219508       0.0785716      0.000437232     0.000286231         0.297227       -0.922229
                        0.661271       -0.724937      0.000481974     0.000297412        0.0382119        0.166374     -0.000921557     0.000110106
                     0.000537016     -0.00013152         0.296887       -0.922462      -0.00108783     0.000234785         0.222295       0.0617923
281730                  0.171835        0.023028     -0.000443177    -0.000852813         0.660659       -0.725042      0.000523291    -7.89798e-06
                    -0.000411361    -0.000818218         0.219525       0.0785767      0.000437285     0.000286038         0.296959       -0.922311
                        0.661056       -0.725134      0.000482251     0.000297382         0.038316        0.166351     -0.000921656     0.000111387
                     0.000537138    -0.000132498          0.29662       -0.922545      -0.00108767     0.000235341         0.222348       0.0616698
281732                  0.171834       0.0230332     -0.000443281    -0.000852912         0.660443       -0.725239      0.000523394    -8.15217e-06
                     -0.00041139    -0.000817902         0.219541       0.0785817      0.000437339     0.000285845         0.296691       -0.922393
                        0.660841       -0.725331      0.000482527      0.00029735        0.0384201        0.166328     -0.000921754     0.000112666
                     0.000537258    -0.000133476         0.296352       -0.922627      -0.00108751     0.000235896           0.2224       0.0615472
281734                  0.171833       0.0230384     -0.000443384     -0.00085301         0.660227       -0.725436      0.000523496    -8.40581e-06
                    -0.000411419    -0.000817586         0.219558       0.0785867      0.000437392     0.000285653         0.296423       -0.922475
                        0.660626       -0.725527      0.000482802     0.000297316        0.0385242        0.166304     -0.000921851     0.000113944
                     0.000537377    -0.000134455         0.296085       -0.922709      -0.00108735     0.000236452         0.222453       0.0614246
281736                  0.171832       0.0230436     -0.000443487    -0.000853106         0.660011       -0.725632      0.000523598    -8.65892e-06
                    -0.000411448    -0.000817269         0.219575       0.0785918      0.000437446      0.00028546         0.296155       -0.922557
                         0.66041       -0.725724      0.000483077     0.000297281        0.0386283        0.166281     -0.000921946     0.000115219
                     0.000537495    -0.000135435         0.295817       -0.922791       -0.0010872     0.000237007         0.222505       0.0613019
281738                  0.171831       0.0230488      -0.00044359    -0.000853201         0.659795       -0.725829      0.000523699    -8.91147e-06
                    -0.000411476    -0.000816953         0.219591       0.0785968      0.000437499     0.000285267         0.295887       -0.922638
                        0.660195       -0.725921       0.00048335     0.000297245        0.0387323        0.166258      -0.00092204     0.000116492
                     0.000537611    -0.000136416         0.295549       -0.922873      -0.00108704     0.000237562         0.222558       0.0611792
281740                   0.17183        0.023054     -0.000443693    -0.000853296         0.659579       -0.726026        0.0005238    -9.16349e-06
                    -0.000411503    -0.000816636         0.219608       0.0786018      0.000437552     0.000285075         0.295618        -0.92272
                         0.65998       -0.726118      0.000483622     0.000297207        0.0388363        0.166234     -0.000922132     0.000117763
                     0.000537726    -0.000137399         0.295282       -0.922954      -0.00108688     0.000238117          0.22261       0.0610565
281742                  0.171829       0.0230591     -0.000443796    -0.000853388         0.659363       -0.726222        0.0005239    -9.41495e-06
                    -0.000411531    -0.000816318         0.219625       0.0786068      0.000437606     0.000284882          0.29535       -0.922802
                        0.659764       -0.726314      0.000483894     0.000297167        0.0389403        0.166211     -0.000922224     0.000119032
                     0.000537839    -0.000138382         0.295014       -0.923036      -0.00108672     0.000238672         0.222662       0.0609337
281744                  0.171828       0.0230643     -0.000443899     -0.00085348         0.659146       -0.726419      0.000523999    -9.66587e-06
                    -0.000411557    -0.000816001         0.219642       0.0786118      0.000437659      0.00028469         0.295082       -0.922883
                        0.659549       -0.726511      0.000484164     0.000297125        0.0390442        0.166187     -0.000922313     0.000120299
                     0.000537952    -0.000139366         0.294747       -0.923118      -0.00108656     0.000239226         0.222714       0.0608109
281746                  0.171827       0.0230694     -0.000444002    -0.000853571          0.65893       -0.726615      0.000524098    -9.91623e-06
                    -0.000411583    -0.000815683         0.219658       0.0786168      0.000437712     0.000284498         0.294814       -0.922964
                        0.659333       -0.726707      0.000484434     0.000297083        0.0391482        0.166164     -0.000922402     0.000121563
                     0.000538062    -0.000140351         0.294479       -0.923199      -0.00108641     0.000239781         0.222766       0.0606881
281748                  0.171826       0.0230746     -0.000444105     -0.00085366         0.658713       -0.726811      0.000524197     -1.0166e-05
                    -0.000411609    -0.000815365         0.219675       0.0786218      0.000437765     0.000284305         0.294546       -0.923046
                        0.659117       -0.726904      0.000484702     0.000297038        0.0392521         0.16614     -0.000922489     0.000122826
                     0.000538172    -0.000141336         0.294211       -0.923281      -0.00108625     0.000240335         0.222818       0.0605652
281750                  0.171825       0.0230797     -0.000444208    -0.000853748         0.658497       -0.727008      0.000524295    -1.04153e-05
                    -0.000411634    -0.000815047         0.219692       0.0786268      0.000437818     0.000284113         0.294278       -0.923127
                        0.658902         -0.7271       0.00048497     0.000296992        0.0393559        0.166116     -0.000922575     0.000124086
                      0.00053828    -0.000142323         0.293943       -0.923362      -0.00108609     0.000240889          0.22287       0.0604423
281752                  0.171824       0.0230848      -0.00044431    -0.000853835          0.65828       -0.727204      0.000524392     -1.0664e-05
                    -0.000411659    -0.000814728         0.219709       0.0786318      0.000437871     0.000283921         0.294009       -0.923208
                        0.658686       -0.727296      0.000485237     0.000296945        0.0394598        0.166092      -0.00092266     0.000125344
                     0.000538386    -0.000143311         0.293676       -0.923443      -0.00108593     0.000241442         0.222922       0.0603193
281754                  0.171823         0.02309     -0.000444412     -0.00085392         0.658064         -0.7274      0.000524489    -1.09121e-05
                    -0.000411683     -0.00081441         0.219725       0.0786368      0.000437924     0.000283729         0.293741       -0.923289
                         0.65847       -0.727492      0.000485503     0.000296896        0.0395636        0.166068     -0.000922744       0.0001266
                     0.000538491    -0.000144299         0.293408       -0.923525      -0.00108577     0.000241996         0.222974       0.0601964
281756                  0.171822       0.0230951     -0.000444515    -0.000854005         0.657847       -0.727596      0.000524585    -1.11597e-05
                    -0.000411707    -0.000814091         0.219742       0.0786417      0.000437976     0.000283537         0.293473        -0.92337
                        0.658254       -0.727689      0.000485767     0.000296845        0.0396674        0.166044     -0.000922826     0.000127854
                     0.000538595    -0.000145288          0.29314       -0.923606      -0.00108561     0.000242549         0.223026       0.0600734
281758                  0.171821       0.0231002     -0.000444617    -0.000854088          0.65763       -0.727792      0.000524681    -1.14067e-05
                     -0.00041173    -0.000813772         0.219759       0.0786467      0.000438029     0.000283344         0.293205       -0.923451
                        0.658038       -0.727885      0.000486031     0.000296793        0.0397712         0.16602     -0.000922907     0.000129106
                     0.000538697    -0.000146277         0.292872       -0.923687      -0.00108545     0.000243102         0.223078       0.0599503
281760                   0.17182       0.0231052     -0.000444719     -0.00085417         0.657414       -0.727988      0.000524776    -1.16532e-05
                    -0.000411753    -0.000813453         0.219776       0.0786517      0.000438082     0.000283152         0.292936       -0.923531
                        0.657822       -0.728081      0.000486294     0.000296739         0.039875        0.165996     -0.000922986     0.000130355
                     0.000538798    -0.000147268         0.292604       -0.923768      -0.00108529     0.000243655         0.223129       0.0598272
281762                  0.171819       0.0231103     -0.000444821    -0.000854251         0.657197       -0.728184      0.000524871    -1.18991e-05
                    -0.000411776    -0.000813133         0.219792       0.0786567      0.000438135      0.00028296         0.292668       -0.923612
                        0.657606       -0.728277      0.000486556     0.000296684        0.0399787        0.165972     -0.000923064     0.000131602
