! TOUCHSTONE file generated by CST MICROWAVE STUDIO
! Date and time: Wed Oct 15 17:28:32 2025
! Project name: Teste_Macro_Metasurface_Nanopilar.cst
! Parameters = {H=600; L_x=80; L_y=175; Lambda=1064; Max_L=200; Min_L=70; PathPara=1; Phi=0; Step_L=10; Theta=0; p=520; phaseX=180; phaseY=0}
! Header version: 2018
! Port assignment regex: !\s*Touchstone port\s*([0-9]+)\s*=\s*(CST MWS port|CST DS port)\s*([0-9]+|Zmin|Zmax)\s*\(\"(.*)\"\)(\s*mode\s*([0-9]+))?.*
! Touchstone port assignment:
! Touchstone port 1 = CST MWS port Zmax ("") mode 1
! Touchstone port 2 = CST MWS port Zmax ("") mode 2
! Touchstone port 3 = CST MWS port Zmin ("") mode 1
! Touchstone port 4 = CST MWS port Zmin ("") mode 2
! S-Parameters are not renormalized. Each port impedance will be approximated by the real part at minimum frequency. The values are described via the [Reference] keyword.
! Default impedance is overridden by [Reference]
[Version] 2.0
# GHz S RI R 376.73
[Number of Ports] 4
[Reference]
376.73 376.73 259.888 259.888 
[Number of Frequencies] 51
[Network Data]
281700                 0.0411021        0.191078      8.28747e-05     0.000105174         0.974174      -0.0310789     -0.000116456     -0.00028151
                     9.79341e-05     9.48032e-05       -0.0279699      -0.0386257       -0.0003813     0.000139442        -0.429207       -0.900932
                        0.974169      -0.0312263     -0.000375619     2.53691e-05       -0.0271177        0.193256      0.000166818     1.39943e-05
                     -0.00013501    -0.000417192        -0.429102       -0.900682      0.000200592    -1.54273e-05        0.0123456       0.0465258
281702                 0.0411265        0.191103      8.29189e-05     0.000105236          0.97416      -0.0314189     -0.000116567    -0.000281487
                     9.80279e-05     9.47683e-05       -0.0279795      -0.0386153     -0.000327494     0.000101273        -0.429442       -0.900821
                        0.974152       -0.031563     -0.000375496     2.54639e-05       -0.0270067        0.193301      0.000166929     1.39063e-05
                    -0.000135138     -0.00041718        -0.429336       -0.900571      0.000199167     0.000161058        0.0123556       0.0465203
281704                 0.0411509        0.191128      8.29633e-05     0.000105298         0.974141      -0.0317523     -0.000116677    -0.000281455
                     9.81325e-05     9.47628e-05       -0.0279891       -0.038605     -0.000381298     0.000139694        -0.429677       -0.900709
                        0.974135      -0.0318998     -0.000375374     2.55587e-05       -0.0268956        0.193346      0.000167024     1.38231e-05
                    -0.000135267    -0.000417171        -0.429571       -0.900459      0.000200714    -1.55598e-05        0.0123657       0.0465149
281706                 0.0411753        0.191153      8.30077e-05      0.00010536         0.974112      -0.0320751     -0.000116787    -0.000281424
                     9.82387e-05     9.47594e-05       -0.0279987      -0.0385946     -0.000336145     8.34056e-05        -0.429911       -0.900597
                        0.974117      -0.0322365     -0.000375253     2.56536e-05       -0.0267844        0.193391      0.000167122      1.3739e-05
                    -0.000135397    -0.000417167        -0.429805       -0.900347      0.000159956     9.97304e-05        0.0123757       0.0465095
281708                 0.0411998        0.191178      8.30523e-05     0.000105422         0.974057      -0.0323819     -0.000116897    -0.000281393
                     9.83456e-05     9.47564e-05       -0.0280083      -0.0385842     -0.000334429     8.57214e-05        -0.430146       -0.900485
                          0.9741      -0.0325732     -0.000375131     2.57485e-05       -0.0266729        0.193438       0.00016722      1.3655e-05
                    -0.000135529    -0.000417165        -0.430039       -0.900235      0.000161904     0.000106156        0.0123857       0.0465041
281710                 0.0412242        0.191202      8.30969e-05     0.000105484         0.973921      -0.0326954     -0.000117008    -0.000281363
                     9.84527e-05     9.47536e-05       -0.0280179      -0.0385738     -0.000334066     8.64102e-05        -0.430381       -0.900373
                        0.974082      -0.0329099     -0.000375011     2.58434e-05       -0.0265609        0.193487      0.000167319     1.35709e-05
                    -0.000135664    -0.000417165        -0.430274       -0.900123      0.000162579      0.00010774        0.0123958       0.0464987
281712                 0.0412486        0.191227      8.31417e-05     0.000105546         0.973746      -0.0332168     -0.000117118    -0.000281332
                     9.85601e-05     9.47508e-05       -0.0280275      -0.0385634     -0.000333961     8.67489e-05        -0.430615       -0.900261
                        0.974064      -0.0332467      -0.00037489     2.59384e-05       -0.0264437         0.19356      0.000167418      1.3487e-05
                      -0.0001358    -0.000417166        -0.430508       -0.900011      0.000162924      0.00010826        0.0124058       0.0464932
281714                 0.0412731        0.191252      8.31865e-05     0.000105607         0.973857      -0.0337283     -0.000117228    -0.000281302
                     9.86677e-05     9.47479e-05       -0.0280371       -0.038553     -0.000333939     8.69706e-05         -0.43085       -0.900148
                        0.974046      -0.0335834      -0.00037477     2.60334e-05       -0.0263421        0.193519      0.000167517     1.34031e-05
                    -0.000135937    -0.000417168        -0.430742       -0.899898      0.000163151     0.000108421        0.0124158       0.0464878
281716                 0.0412975        0.191277      8.32315e-05     0.000105669         0.973939      -0.0340699     -0.000117338    -0.000281272
                     9.87754e-05      9.4745e-05       -0.0280467      -0.0385427     -0.000333951     8.71437e-05        -0.431085       -0.900036
                        0.974028      -0.0339201     -0.000374651     2.61284e-05       -0.0262303        0.193591      0.000167616     1.33194e-05
                    -0.000136076     -0.00041717        -0.430976       -0.899786      0.000163329     0.000108434        0.0124259       0.0464824
281718                  0.041322        0.191302      8.32766e-05     0.000105731         0.973963      -0.0343921     -0.000117448    -0.000281242
                     9.88833e-05      9.4742e-05       -0.0280563      -0.0385323     -0.000333979     8.72938e-05        -0.431319       -0.899924
                         0.97401      -0.0342568     -0.000374532     2.62234e-05       -0.0261185        0.193641      0.000167715     1.32357e-05
                    -0.000136214    -0.000417172         -0.43121       -0.899674      0.000163483     0.000108375        0.0124359        0.046477
281720                 0.0413464        0.191327      8.33218e-05     0.000105792         0.973964      -0.0347183     -0.000117558    -0.000281212
                     9.89914e-05     9.47389e-05       -0.0280659      -0.0385219     -0.000334015     8.74322e-05        -0.431554       -0.899811
                        0.973992      -0.0345935     -0.000374413     2.63185e-05       -0.0260069        0.193687      0.000167815     1.31521e-05
                    -0.000136353    -0.000417174        -0.431445       -0.899562      0.000163624      0.00010828        0.0124459       0.0464715
281722                 0.0413709        0.191352      8.33673e-05     0.000105853         0.973956      -0.0350487     -0.000117668    -0.000281182
                     9.90995e-05     9.47357e-05       -0.0280755      -0.0385115     -0.000334055     8.75641e-05        -0.431788       -0.899699
                        0.973973      -0.0349302     -0.000374295     2.64138e-05       -0.0258953        0.193733      0.000167914     1.30686e-05
                    -0.000136492    -0.000417176        -0.431679       -0.899449      0.000163759     0.000108164        0.0124559       0.0464661
281724                 0.0413953        0.191377      8.34225e-05     0.000105905         0.973943      -0.0353818     -0.000117778    -0.000281152
                     9.92078e-05     9.47323e-05       -0.0280851      -0.0385011     -0.000334098     8.76924e-05        -0.432023       -0.899586
                        0.973955      -0.0352668     -0.000374178     2.65093e-05       -0.0257837        0.193777      0.000168013     1.29852e-05
                     -0.00013663    -0.000417177        -0.431913       -0.899337      0.000163889     0.000108037        0.0124659       0.0464607
281726                 0.0414198        0.191402      8.34573e-05     0.000105976         0.973928      -0.0357165     -0.000117888    -0.000281122
                     9.93163e-05     9.47289e-05       -0.0280946      -0.0384907     -0.000334142     8.78186e-05        -0.432257       -0.899474
                        0.973936      -0.0356035     -0.000374061     2.66044e-05       -0.0256721        0.193822      0.000168113     1.29019e-05
                    -0.000136768    -0.000417178        -0.432147       -0.899224      0.000164018     0.000107904         0.012476       0.0464553
281728                 0.0414442        0.191426      8.35031e-05     0.000106038         0.973911      -0.0360521     -0.000117998    -0.000281092
                     9.94248e-05     9.47254e-05       -0.0281042      -0.0384803     -0.000334187     8.79437e-05        -0.432492       -0.899361
                        0.973917      -0.0359401     -0.000373944     2.66993e-05       -0.0255605        0.193866      0.000168212     1.28187e-05
                    -0.000136906    -0.000417178        -0.432381       -0.899111      0.000164145     0.000107766         0.012486       0.0464499
281730                 0.0414687        0.191451      8.35489e-05     0.000106099         0.973893      -0.0363884     -0.000118108    -0.000281062
                     9.95335e-05     9.47217e-05       -0.0281138      -0.0384699     -0.000334232     8.80681e-05        -0.432726       -0.899249
                        0.973899      -0.0362768     -0.000373828     2.67943e-05       -0.0254488         0.19391      0.000168312     1.27357e-05
                    -0.000137043    -0.000417177        -0.432615       -0.898999      0.000164271     0.000107626         0.012496       0.0464444
281732                 0.0414932        0.191476      8.35947e-05      0.00010616         0.973875      -0.0367249     -0.000118218    -0.000281033
                     9.96423e-05      9.4718e-05       -0.0281234      -0.0384595     -0.000334278     8.81922e-05        -0.432961       -0.899136
                         0.97388      -0.0366134     -0.000373712     2.68894e-05        -0.025337        0.193954      0.000168412     1.26527e-05
                     -0.00013718    -0.000417176        -0.432849       -0.898886      0.000164396     0.000107484         0.012506        0.046439
281734                 0.0415176        0.191501      8.36405e-05     0.000106221         0.973856      -0.0370617     -0.000118328    -0.000281003
                     9.97512e-05     9.47141e-05        -0.028133      -0.0384491     -0.000334324     8.83162e-05        -0.433195       -0.899023
                        0.973861        -0.03695     -0.000373597     2.69845e-05       -0.0252252        0.193998      0.000168511     1.25698e-05
                    -0.000137316    -0.000417174        -0.433083       -0.898773      0.000164521     0.000107341         0.012516       0.0464336
281736                 0.0415421        0.191526      8.36865e-05     0.000106282         0.973837      -0.0373984     -0.000118438    -0.000280973
                     9.98603e-05     9.47101e-05       -0.0281426      -0.0384387     -0.000334369     8.84402e-05        -0.433429        -0.89891
                        0.973841      -0.0372866     -0.000373482     2.70797e-05       -0.0251134        0.194042      0.000168611     1.24869e-05
                    -0.000137452    -0.000417172        -0.433316        -0.89866      0.000164646     0.000107198         0.012526       0.0464282
281738                 0.0415666        0.191551      8.37326e-05     0.000106343         0.973818      -0.0377353     -0.000118548    -0.000280944
                     9.99695e-05      9.4706e-05       -0.0281521      -0.0384283     -0.000334415     8.85643e-05        -0.433664       -0.898797
                        0.973822      -0.0376232     -0.000373368     2.71749e-05       -0.0250016        0.194086      0.000168711     1.24042e-05
                    -0.000137587    -0.000417168         -0.43355       -0.898547      0.000164771     0.000107055         0.012536       0.0464228
281740                  0.041591        0.191576      8.37788e-05     0.000106404         0.973799       -0.038072     -0.000118658    -0.000280914
                     0.000100079     9.47019e-05       -0.0281617      -0.0384179      -0.00033446     8.86885e-05        -0.433898       -0.898684
                        0.973803      -0.0379598     -0.000373254     2.72701e-05       -0.0248896         0.19413      0.000168811     1.23216e-05
                    -0.000137722    -0.000417165        -0.433784       -0.898434      0.000164896     0.000106912         0.012546       0.0464173
281742                 0.0416155        0.191601       8.3825e-05     0.000106464          0.97378      -0.0384088     -0.000118767    -0.000280885
                     0.000100188     9.46976e-05       -0.0281713      -0.0384075     -0.000334505     8.88129e-05        -0.434132       -0.898571
                        0.973783      -0.0382964      -0.00037314     2.73653e-05       -0.0247777        0.194173      0.000168911     1.22391e-05
                    -0.000137857     -0.00041716        -0.434018       -0.898321       0.00016502     0.000106768         0.012556       0.0464119
281744                   0.04164        0.191626      8.38714e-05     0.000106525          0.97376      -0.0387454     -0.000118877    -0.000280856
                     0.000100298     9.46932e-05       -0.0281809      -0.0383971      -0.00033455     8.89374e-05        -0.434366       -0.898458
                        0.973763       -0.038633     -0.000373027     2.74605e-05       -0.0246657        0.194217       0.00016901     1.21567e-05
                    -0.000137992    -0.000417156        -0.434252       -0.898208      0.000165145     0.000106625         0.012566       0.0464065
281746                 0.0416645         0.19165      8.39178e-05     0.000106586         0.973741      -0.0390821     -0.000118987    -0.000280826
                     0.000100408     9.46888e-05       -0.0281905      -0.0383866     -0.000334595     8.90621e-05          -0.4346       -0.898345
                        0.973743      -0.0389695     -0.000372914     2.75557e-05       -0.0245536         0.19426       0.00016911     1.20744e-05
                    -0.000138127     -0.00041715        -0.434486       -0.898095      0.000165269     0.000106481         0.012576       0.0464011
281748                  0.041689        0.191675      8.39643e-05     0.000106646         0.973721      -0.0394186     -0.000119097    -0.000280797
                     0.000100518     9.46843e-05          -0.0282      -0.0383762      -0.00033464     8.91871e-05        -0.434835       -0.898232
                        0.973724      -0.0393061     -0.000372802      2.7651e-05       -0.0244415        0.194304      0.000169211     1.19922e-05
                    -0.000138261    -0.000417145        -0.434719       -0.897982      0.000165393     0.000106338        0.0125859       0.0463957
281750                 0.0417135          0.1917       8.4011e-05     0.000106707         0.973702      -0.0397551     -0.000119207    -0.000280768
                     0.000100628     9.46798e-05       -0.0282096      -0.0383658     -0.000334685     8.93122e-05        -0.435069       -0.898118
                        0.973703      -0.0396426      -0.00037269     2.77463e-05       -0.0243294        0.194347      0.000169311       1.191e-05
                    -0.000138395    -0.000417138        -0.434953       -0.897869      0.000165517     0.000106195        0.0125959       0.0463903
281752                  0.041738        0.191725      8.40577e-05     0.000106767         0.973682      -0.0400916     -0.000119317    -0.000280739
                     0.000100738     9.46752e-05       -0.0282192      -0.0383554     -0.000334729     8.94375e-05        -0.435303       -0.898005
                        0.973683      -0.0399791     -0.000372579     2.78416e-05       -0.0242172        0.194391      0.000169411      1.1828e-05
                    -0.000138529    -0.000417132        -0.435187       -0.897755      0.000165641     0.000106052        0.0126059       0.0463848
281754                 0.0417625         0.19175      8.41045e-05     0.000106828         0.973662       -0.040428     -0.000119426     -0.00028071
                     0.000100848     9.46708e-05       -0.0282288       -0.038345     -0.000334773      8.9563e-05        -0.435537       -0.897892
                        0.973663      -0.0403156     -0.000372468     2.79369e-05        -0.024105        0.194434      0.000169511     1.17461e-05
                    -0.000138663    -0.000417125         -0.43542       -0.897642      0.000165765     0.000105909        0.0126159       0.0463794
281756                  0.041787        0.191775      8.41514e-05     0.000106888         0.973642      -0.0407644     -0.000119536    -0.000280681
                     0.000100959     9.46665e-05       -0.0282383      -0.0383346     -0.000334818     8.96886e-05        -0.435771       -0.897778
                        0.973643      -0.0406521     -0.000372357     2.80322e-05       -0.0239927        0.194477      0.000169611     1.16642e-05
                    -0.000138797    -0.000417117        -0.435654       -0.897528      0.000165889     0.000105765        0.0126259        0.046374
281758                 0.0418115          0.1918      8.41984e-05     0.000106948         0.973623      -0.0411007     -0.000119646    -0.000280652
                      0.00010107     9.46626e-05       -0.0282479      -0.0383242     -0.000334862     8.98145e-05        -0.436005       -0.897665
                        0.973622      -0.0409886     -0.000372247     2.81275e-05       -0.0238804        0.194521      0.000169711     1.15825e-05
                    -0.000138931    -0.000417109        -0.435887       -0.897415      0.000166013     0.000105622        0.0126358       0.0463686
281760                  0.041836        0.191825      8.42455e-05     0.000107009         0.973603       -0.041437     -0.000119755    -0.000280623
                     0.000101182     9.46595e-05       -0.0282575      -0.0383137     -0.000334906     8.99405e-05        -0.436239       -0.897551
                        0.973601      -0.0413251     -0.000372137     2.82228e-05        -0.023768        0.194564      0.000169812     1.15008e-05
                    -0.000139065    -0.000417101        -0.436121       -0.897301      0.000166137     0.000105479        0.0126458       0.0463632
281762                 0.0418605         0.19185      8.42927e-05     0.000107069         0.973583      -0.0417733     -0.000119865    -0.000280594
                     0.000101296     9.46587e-05        -0.028267      -0.0383033     -0.000334949     9.00667e-05        -0.436473       -0.897437
                        0.973581      -0.0416616     -0.000372028     2.83181e-05       -0.0236556        0.194607      0.000169912     1.14193e-05
