! TOUCHSTONE file generated by CST MICROWAVE STUDIO
! Date and time: Wed Oct 15 17:34:14 2025
! Project name: Teste_Macro_Metasurface_Nanopilar.cst
! Parameters = {H=600; L_x=180; L_y=160; Lambda=1064; Max_L=200; Min_L=70; PathPara=1; Phi=0; Step_L=10; Theta=0; p=520; phaseX=180; phaseY=0}
! Header version: 2018
! Port assignment regex: !\s*Touchstone port\s*([0-9]+)\s*=\s*(CST MWS port|CST DS port)\s*([0-9]+|Zmin|Zmax)\s*\(\"(.*)\"\)(\s*mode\s*([0-9]+))?.*
! Touchstone port assignment:
! Touchstone port 1 = CST MWS port Zmax ("") mode 1
! Touchstone port 2 = CST MWS port Zmax ("") mode 2
! Touchstone port 3 = CST MWS port Zmin ("") mode 1
! Touchstone port 4 = CST MWS port Zmin ("") mode 2
! S-Parameters are not renormalized. Each port impedance will be approximated by the real part at minimum frequency. The values are described via the [Reference] keyword.
! Default impedance is overridden by [Reference]
[Version] 2.0
# GHz S RI R 376.73
[Number of Ports] 4
[Reference]
376.73 376.73 259.888 259.888 
[Number of Frequencies] 51
[Network Data]
281700                  0.175182       0.0408992      0.000216455    -2.13322e-05         0.550836       -0.810734        0.0004776     0.000357751
                     0.000242139     7.72633e-06         0.201513       0.0699049      0.000475967     0.000244847         0.370157       -0.900342
                        0.550963       -0.810788      0.000490817     0.000276046         0.101562         0.14568      -9.3077e-06     0.000333758
                     0.000443861     0.000346914         0.370161        -0.90042      2.52204e-05     0.000392042         0.190983       0.0897409
281702                  0.175185       0.0409034      0.000216488    -2.13983e-05           0.5506       -0.810893      0.000477738     0.000357552
                      0.00024212     7.60611e-06         0.201525       0.0699102      0.000476099     0.000244717         0.369897       -0.900445
                        0.550728       -0.810947      0.000490918     0.000275896         0.101651        0.145623     -9.24728e-06     0.000333881
                     0.000443998      0.00034689         0.369901       -0.900523      2.52802e-05     0.000392133         0.191047       0.0896362
281704                  0.175188       0.0409076      0.000216521    -2.14644e-05         0.550365       -0.811052      0.000477875     0.000357352
                     0.000242101     7.48573e-06         0.201537       0.0699156      0.000476232     0.000244586         0.369637       -0.900549
                        0.550492       -0.811106      0.000491019     0.000275747         0.101741        0.145566     -9.18711e-06     0.000334004
                     0.000444134     0.000346866         0.369641       -0.900627      2.53398e-05     0.000392224         0.191112       0.0895315
281706                  0.175191       0.0409118      0.000216554    -2.15305e-05         0.550129       -0.811211      0.000478012     0.000357153
                     0.000242082     7.36519e-06         0.201549       0.0699209      0.000476364     0.000244455         0.369376       -0.900653
                        0.550257       -0.811265       0.00049112     0.000275598         0.101831        0.145508     -9.12725e-06     0.000334127
                     0.000444271     0.000346843         0.369381        -0.90073      2.53991e-05     0.000392315         0.191176       0.0894268
281708                  0.175194        0.040916      0.000216587    -2.15967e-05         0.549894        -0.81137      0.000478148     0.000356952
                     0.000242062     7.24448e-06         0.201562       0.0699263      0.000476497     0.000244324         0.369116       -0.900756
                        0.550022       -0.811424      0.000491221     0.000275449          0.10192        0.145451     -9.06777e-06      0.00033425
                     0.000444408     0.000346821         0.369121       -0.900834      2.54582e-05     0.000392407          0.19124        0.089322
281710                  0.175197       0.0409202       0.00021662    -2.16628e-05         0.549658       -0.811529      0.000478285     0.000356752
                     0.000242042      7.1236e-06         0.201574       0.0699316      0.000476629     0.000244192         0.368857        -0.90086
                        0.549786       -0.811583      0.000491322     0.000275299          0.10201        0.145393     -9.00876e-06     0.000334374
                     0.000444544     0.000346799         0.368861       -0.900937      2.55169e-05     0.000392499         0.191304       0.0892171
281712                    0.1752       0.0409243      0.000216653    -2.17289e-05         0.549423       -0.811688      0.000478421     0.000356551
                     0.000242023     7.00255e-06         0.201586        0.069937      0.000476761     0.000244059         0.368597       -0.900963
                        0.549551       -0.811742      0.000491423     0.000275151         0.102099        0.145336     -8.95031e-06     0.000334499
                     0.000444681     0.000346777         0.368601        -0.90104      2.55752e-05     0.000392591         0.191367       0.0891122
281714                  0.175203       0.0409285      0.000216685     -2.1795e-05         0.549187       -0.811846      0.000478557      0.00035635
                     0.000242003     6.88133e-06         0.201598       0.0699423      0.000476894     0.000243926         0.368337       -0.901067
                        0.549316       -0.811901      0.000491524     0.000275002         0.102188        0.145279     -8.89257e-06     0.000334624
                     0.000444818     0.000346756         0.368341       -0.901143       2.5633e-05     0.000392684         0.191431       0.0890073
281716                  0.175206       0.0409327      0.000216718    -2.18612e-05         0.548951       -0.812005      0.000478693     0.000356148
                     0.000241982     6.75994e-06         0.201611       0.0699476      0.000477026     0.000243792         0.368077        -0.90117
                         0.54908        -0.81206      0.000491625     0.000274853         0.102278        0.145221      -8.8357e-06     0.000334749
                     0.000444955     0.000346735         0.368081       -0.901246      2.56901e-05     0.000392777         0.191495       0.0889023
281718                  0.175209       0.0409369      0.000216751    -2.19273e-05         0.548715       -0.812164      0.000478828     0.000355945
                     0.000241962     6.63838e-06         0.201623       0.0699529      0.000477158     0.000243658         0.367817       -0.901273
                        0.548844       -0.812218      0.000491726     0.000274705         0.102367        0.145163      -8.7799e-06     0.000334876
                     0.000445092     0.000346714         0.367821       -0.901349      2.57464e-05     0.000392871         0.191559       0.0887973
281720                  0.175212        0.040941      0.000216783    -2.19935e-05         0.548479       -0.812322      0.000478963     0.000355742
                     0.000241942     6.51664e-06         0.201635       0.0699583      0.000477291     0.000243522         0.367558       -0.901376
                        0.548609       -0.812377      0.000491827     0.000274557         0.102457        0.145106     -8.72546e-06     0.000335004
                     0.000445228     0.000346694         0.367561       -0.901452      2.58017e-05     0.000392966         0.191623       0.0886922
281722                  0.175215       0.0409452      0.000216816    -2.20597e-05         0.548243       -0.812481      0.000479098     0.000355538
                     0.000241922     6.39474e-06         0.201647       0.0699636      0.000477423     0.000243385         0.367298       -0.901479
                        0.548373       -0.812535      0.000491928     0.000274408         0.102546        0.145048     -8.67271e-06     0.000335134
                     0.000445365     0.000346674         0.367301       -0.901555      2.58556e-05     0.000393061         0.191686       0.0885871
281724                  0.175218       0.0409494      0.000216848    -2.21259e-05         0.548007       -0.812639      0.000479232     0.000355332
                     0.000241901     6.27268e-06          0.20166       0.0699689      0.000477556     0.000243246         0.367038       -0.901582
                        0.548137       -0.812694      0.000492029     0.000274261         0.102635        0.144991     -8.62213e-06     0.000335265
                     0.000445502     0.000346654         0.367041       -0.901658      2.59078e-05     0.000393158          0.19175        0.088482
281726                  0.175221       0.0409535      0.000216881    -2.21921e-05         0.547771       -0.812797      0.000479366     0.000355125
                     0.000241881     6.15045e-06         0.201672       0.0699742      0.000477689     0.000243105         0.366778       -0.901685
                        0.547902       -0.812852       0.00049213     0.000274113         0.102724        0.144933     -8.57431e-06     0.000335399
                     0.000445638     0.000346634          0.36678        -0.90176      2.59576e-05     0.000393257         0.191813       0.0883768
281728                  0.175224       0.0409577      0.000216913    -2.22584e-05         0.547535       -0.812956        0.0004795     0.000354916
                      0.00024186     6.02806e-06         0.201684       0.0699795      0.000477822      0.00024296         0.366519       -0.901788
                        0.547666        -0.81301      0.000492231     0.000273965         0.102814        0.144875     -8.53006e-06     0.000335537
                     0.000445775     0.000346615          0.36652       -0.901863      2.60042e-05     0.000393358         0.191877       0.0882716
281730                  0.175227       0.0409618      0.000216946    -2.23246e-05         0.547299       -0.813114      0.000479633     0.000354705
                      0.00024184     5.90551e-06         0.201696       0.0699848      0.000477956     0.000242811         0.366259       -0.901891
                         0.54743       -0.813169      0.000492332     0.000273818         0.102903        0.144817     -8.49045e-06      0.00033568
                     0.000445911     0.000346596          0.36626       -0.901966      2.60464e-05     0.000393461          0.19194       0.0881663
281732                  0.175231       0.0409659      0.000216978    -2.23909e-05         0.547062       -0.813272      0.000479765      0.00035449
                     0.000241819     5.78281e-06         0.201709       0.0699901      0.000478092     0.000242654         0.365999       -0.901994
                        0.547194       -0.813327      0.000492433      0.00027367         0.102992        0.144759     -8.45686e-06     0.000335831
                     0.000446048     0.000346577            0.366       -0.902068      2.60822e-05     0.000393568         0.192003        0.088061
281734                  0.175234       0.0409701       0.00021701    -2.24572e-05         0.546826        -0.81343      0.000479898     0.000354271
                     0.000241798     5.65995e-06         0.201721       0.0699954      0.000478232     0.000242487         0.365739       -0.902096
                        0.546958       -0.813485      0.000492534     0.000273523         0.103081        0.144701     -8.43104e-06     0.000335993
                     0.000446184     0.000346558         0.365739        -0.90217      2.61084e-05     0.000393678         0.192067       0.0879557
281736                  0.175237       0.0409742      0.000217042    -2.25235e-05          0.54659       -0.813588      0.000480029     0.000354045
                     0.000241778     5.53694e-06         0.201733       0.0700007       0.00047838     0.000242302         0.365479       -0.902199
                        0.546722       -0.813643      0.000492634     0.000273376          0.10317        0.144643      -8.4149e-06     0.000336172
                      0.00044632     0.000346539         0.365479       -0.902273      2.61198e-05     0.000393794          0.19213       0.0878503
281738                   0.17524       0.0409783      0.000217075    -2.25898e-05         0.546353       -0.813746      0.000480162      0.00035381
                     0.000241757     5.41378e-06         0.201745        0.070006      0.000478548     0.000242087         0.365219       -0.902301
                        0.546486       -0.813801      0.000492735     0.000273229         0.103259        0.144585     -8.40963e-06      0.00033638
                     0.000446457      0.00034652         0.365218       -0.902375      2.61076e-05     0.000393915         0.192193       0.0877449
281740                  0.175243       0.0409825      0.000217107    -2.26562e-05         0.546117       -0.813904      0.000480296     0.000353562
                     0.000241736     5.29047e-06         0.201758       0.0700113      0.000478777     0.000241823         0.364959       -0.902404
                         0.54625       -0.813959      0.000492836     0.000273082         0.103348        0.144527     -8.41273e-06     0.000336634
                     0.000446593     0.000346502         0.364958       -0.902477      2.60564e-05     0.000394036         0.192256       0.0876394
281742                  0.175246       0.0409866      0.000217139    -2.27226e-05          0.54588       -0.814061      0.000480436     0.000353297
                     0.000241716     5.16699e-06          0.20177       0.0700165      0.000479197     0.000241524         0.364699       -0.902506
                        0.546014       -0.814117      0.000492937     0.000272936         0.103437        0.144469     -8.40975e-06     0.000336958
                     0.000446729     0.000346483         0.364698       -0.902579       2.5942e-05      0.00039414         0.192319       0.0875339
281744                  0.175249       0.0409907      0.000217171    -2.27889e-05         0.545644       -0.814219      0.000480588     0.000353011
                     0.000241695     5.04332e-06         0.201782       0.0700218      0.000479944     0.000241608         0.364439       -0.902608
                        0.545778       -0.814275      0.000493038     0.000272789         0.103526         0.14441     -8.35819e-06     0.000337378
                     0.000446865     0.000346465         0.364437       -0.902681      2.57439e-05     0.000394175         0.192382       0.0874284
281746                  0.175252       0.0409948      0.000217203    -2.28554e-05         0.545408       -0.814377      0.000480761     0.000352707
                     0.000241674     4.91939e-06         0.201795       0.0700271      0.000480074     0.000242205         0.364179       -0.902711
                        0.545542       -0.814432      0.000493138     0.000272643         0.103614        0.144352     -8.18592e-06     0.000337866
                     0.000447001     0.000346447         0.364177       -0.902783      2.55124e-05     0.000394044         0.192445       0.0873228
281748                  0.175255       0.0409989      0.000217235    -2.29218e-05         0.545171       -0.814534      0.000480955     0.000352404
                     0.000241654     4.79503e-06         0.201807       0.0700323      0.000479871     0.000242285         0.363918       -0.902813
                        0.545306        -0.81459      0.000493239     0.000272497         0.103703        0.144294     -7.88109e-06       0.0003383
                     0.000447137     0.000346429         0.363916       -0.902885      2.54262e-05     0.000393771         0.192508       0.0872172
281750                  0.175258        0.041003      0.000217267    -2.29883e-05         0.544934       -0.814692      0.000481141     0.000352138
                     0.000241633     4.66961e-06         0.201819       0.0700376      0.000479856     0.000242167         0.363658       -0.902915
                        0.545069       -0.814747       0.00049334     0.000272351         0.103792        0.144235     -7.60317e-06     0.000338575
                     0.000447272     0.000346412         0.363656       -0.902987      2.55145e-05      0.00039361         0.192571       0.0871116
281752                  0.175261       0.0410071      0.000217298    -2.30549e-05         0.544698       -0.814849      0.000481277     0.000351936
                     0.000241608     4.53917e-06         0.201831       0.0700429      0.000479982     0.000242032         0.363397       -0.903016
                        0.544833       -0.814905      0.000493441     0.000272205         0.103881        0.144177     -7.53748e-06     0.000338704
                     0.000447407     0.000346406         0.363395       -0.903089      2.55891e-05     0.000393702         0.192633       0.0870059
281754                  0.175264       0.0410112       0.00021733    -2.31214e-05         0.544461       -0.815007      0.000481357     0.000351802
                     0.000241585     4.43733e-06         0.201844       0.0700481      0.000480246     0.000241886         0.363137       -0.903118
                        0.544597       -0.815062      0.000493541     0.000272059         0.103969        0.144118      -7.6903e-06     0.000338671
                     0.000447552     0.000346368         0.363134        -0.90319      2.56274e-05      0.00039406         0.192696       0.0869002
281756                  0.175267       0.0410153      0.000217362    -2.31879e-05         0.544225       -0.815164      0.000481429     0.000351712
                      0.00024157     4.30706e-06         0.201856       0.0700534       0.00048071     0.000241571         0.362876        -0.90322
                         0.54436        -0.81522      0.000493642     0.000271914         0.104058         0.14406     -7.85793e-06     0.000338449
                     0.000447684     0.000346352         0.362874       -0.903292      2.58425e-05     0.000394578         0.192758       0.0867944
281758                   0.17527       0.0410194      0.000217394    -2.32545e-05         0.543988       -0.815321      0.000481525     0.000351624
                      0.00024155     4.18138e-06         0.201868       0.0700586      0.000480919     0.000240674         0.362616       -0.903322
                        0.544124       -0.815377      0.000493743     0.000271769         0.104147        0.144001     -7.86688e-06     0.000338181
                      0.00044782     0.000346335         0.362613       -0.903393      2.62674e-05     0.000394936         0.192821       0.0866887
281760                  0.175273       0.0410234      0.000217425    -2.33211e-05         0.543752       -0.815478      0.000481643     0.000351516
                      0.00024153     4.05662e-06          0.20188       0.0700639      0.000480355     0.000240273         0.362355       -0.903423
                        0.543887       -0.815534      0.000493843     0.000271623         0.104235        0.143942     -7.75634e-06     0.000338008
                     0.000447955     0.000346317         0.362352       -0.903495      2.66515e-05     0.000395063         0.192883       0.0865828
281762                  0.175276       0.0410275      0.000217457    -2.33878e-05         0.543515       -0.815636      0.000481773     0.000351382
                     0.000241509     3.93217e-06         0.201893       0.0700691      0.000480171     0.000240347         0.362094       -0.903524
                        0.543651       -0.815691      0.000493944     0.000271478         0.104324        0.143883     -7.61206e-06      0.00033794
