! TOUCHSTONE file generated by CST MICROWAVE STUDIO
! Date and time: Wed Oct 15 17:33:24 2025
! Project name: Teste_Macro_Metasurface_Nanopilar.cst
! Parameters = {H=600; L_x=165; L_y=165; Lambda=1064; Max_L=200; Min_L=70; PathPara=1; Phi=0; Step_L=10; Theta=0; p=520; phaseX=180; phaseY=0}
! Header version: 2018
! Port assignment regex: !\s*Touchstone port\s*([0-9]+)\s*=\s*(CST MWS port|CST DS port)\s*([0-9]+|Zmin|Zmax)\s*\(\"(.*)\"\)(\s*mode\s*([0-9]+))?.*
! Touchstone port assignment:
! Touchstone port 1 = CST MWS port Zmax ("") mode 1
! Touchstone port 2 = CST MWS port Zmax ("") mode 2
! Touchstone port 3 = CST MWS port Zmin ("") mode 1
! Touchstone port 4 = CST MWS port Zmin ("") mode 2
! S-Parameters are not renormalized. Each port impedance will be approximated by the real part at minimum frequency. The values are described via the [Reference] keyword.
! Default impedance is overridden by [Reference]
[Version] 2.0
# GHz S RI R 376.73
[Number of Ports] 4
[Reference]
376.73 376.73 259.888 259.888 
[Number of Frequencies] 51
[Network Data]
281700                  0.178417       0.0333577      0.000131509     0.000613221         0.574554       -0.793643     -0.000373202    -0.000212411
                       0.0001299     0.000584084         0.178105       0.0340166     -0.000316873    -0.000199288         0.573685        -0.79429
                        0.574863       -0.793877     -0.000222663    -0.000231607        0.0866555        0.156108      0.000694011    -0.000139296
                    -0.000359922    -0.000297503         0.573564       -0.794517       0.00070864    -2.27957e-06        0.0875429        0.155431
281702                  0.178422       0.0333676      0.000131693       0.0006133         0.574323       -0.793809     -0.000373324    -0.000212229
                     0.000130043     0.000584201         0.178111       0.0340265     -0.000316959    -0.000199159         0.573454       -0.794455
                        0.574632       -0.794043     -0.000222909    -0.000231716        0.0867576         0.15606      0.000693985    -0.000139797
                     -0.00036007    -0.000297589         0.573333       -0.794683      0.000708566    -2.66909e-06        0.0876446        0.155383
281704                  0.178428       0.0333776      0.000131878      0.00061338         0.574092       -0.793975     -0.000373446    -0.000212048
                     0.000130186     0.000584317         0.178117       0.0340365     -0.000317044     -0.00019903         0.573223        -0.79462
                        0.574401       -0.794209     -0.000223154    -0.000231824        0.0868596        0.156012      0.000693959    -0.000140298
                    -0.000360218    -0.000297675         0.573102       -0.794848      0.000708492    -3.05888e-06        0.0877463        0.155335
281706                  0.178434       0.0333875      0.000132063     0.000613458         0.573861        -0.79414     -0.000373567    -0.000211866
                      0.00013033     0.000584433         0.178123       0.0340465     -0.000317131    -0.000198901         0.572991       -0.794786
                        0.574169       -0.794374     -0.000223401     -0.00023193        0.0869616        0.155965      0.000693933    -0.000140798
                    -0.000360367    -0.000297761          0.57287       -0.795014      0.000708419    -3.44893e-06        0.0878479        0.155286
281708                  0.178439       0.0333975      0.000132247     0.000613537          0.57363       -0.794306     -0.000373689    -0.000211685
                     0.000130473     0.000584549         0.178128       0.0340564     -0.000317217    -0.000198772          0.57276       -0.794951
                        0.573938        -0.79454     -0.000223647    -0.000232035        0.0870635        0.155917      0.000693907    -0.000141298
                    -0.000360515    -0.000297847         0.572639       -0.795179      0.000708346    -3.83927e-06        0.0879496        0.155238
281710                  0.178445       0.0334074      0.000132432     0.000613615         0.573399       -0.794471      -0.00037381    -0.000211503
                     0.000130616     0.000584666         0.178134       0.0340664     -0.000317304    -0.000198643         0.572529       -0.795116
                        0.573707       -0.794706     -0.000223894    -0.000232138        0.0871654        0.155869      0.000693882    -0.000141797
                    -0.000360663    -0.000297933         0.572408       -0.795344      0.000708273    -4.22989e-06        0.0880511         0.15519
281712                   0.17845       0.0334173      0.000132616     0.000613693         0.573168       -0.794637     -0.000373931    -0.000211322
                     0.000130759     0.000584782          0.17814       0.0340763      -0.00031739    -0.000198514         0.572298       -0.795281
                        0.573476       -0.794871     -0.000224141     -0.00023224        0.0872673        0.155821      0.000693857    -0.000142296
                    -0.000360811     -0.00029802         0.572176       -0.795509        0.0007082     -4.6208e-06        0.0881527        0.155141
281714                  0.178456       0.0334272        0.0001328     0.000613771         0.572936       -0.794802     -0.000374052    -0.000211141
                     0.000130902     0.000584898         0.178145       0.0340863     -0.000317477    -0.000198386         0.572066       -0.795446
                        0.573244       -0.795036     -0.000224388    -0.000232341        0.0873692        0.155773      0.000693831    -0.000142794
                    -0.000360959    -0.000298106         0.571945       -0.795674      0.000708127      -5.012e-06        0.0882542        0.155093
281716                  0.178462       0.0334372      0.000132985     0.000613849         0.572705       -0.794967     -0.000374173     -0.00021096
                     0.000131045     0.000585015         0.178151       0.0340962     -0.000317564    -0.000198257         0.571835       -0.795611
                        0.573013       -0.795202     -0.000224636    -0.000232441         0.087471        0.155725      0.000693806    -0.000143293
                    -0.000361108    -0.000298193         0.571713       -0.795839      0.000708055    -5.40351e-06        0.0883557        0.155044
281718                  0.178467       0.0334471      0.000133169     0.000613926         0.572474       -0.795132     -0.000374294    -0.000210779
                     0.000131188     0.000585131         0.178157       0.0341061     -0.000317652    -0.000198128         0.571603       -0.795776
                        0.572781       -0.795367     -0.000224884     -0.00023254        0.0875728        0.155677      0.000693781     -0.00014379
                    -0.000361256     -0.00029828         0.571482       -0.796004      0.000707983    -5.79534e-06        0.0884572        0.154996
281720                  0.178473        0.033457      0.000133353     0.000614003         0.572243       -0.795298     -0.000374415    -0.000210598
                     0.000131331     0.000585248         0.178162       0.0341161     -0.000317739       -0.000198         0.571372       -0.795941
                         0.57255       -0.795532     -0.000225132    -0.000232637        0.0876746        0.155628      0.000693757    -0.000144288
                    -0.000361404    -0.000298366          0.57125       -0.796169      0.000707911    -6.18748e-06        0.0885586        0.154947
281722                  0.178478       0.0334669      0.000133537      0.00061408         0.572011       -0.795463     -0.000374536    -0.000210417
                     0.000131474     0.000585364         0.178168        0.034126     -0.000317827    -0.000197872          0.57114       -0.796106
                        0.572318       -0.795698      -0.00022538    -0.000232733        0.0877763         0.15558      0.000693732    -0.000144785
                    -0.000361553    -0.000298453         0.571018       -0.796334      0.000707839    -6.57996e-06          0.08866        0.154898
281724                  0.178484       0.0334768      0.000133721     0.000614156          0.57178       -0.795628     -0.000374656    -0.000210236
                     0.000131618     0.000585481         0.178174       0.0341359     -0.000317915    -0.000197743         0.570909       -0.796271
                        0.572087       -0.795863     -0.000225629    -0.000232828         0.087878        0.155532      0.000693707    -0.000145281
                    -0.000361701     -0.00029854         0.570787       -0.796499      0.000707767    -6.97276e-06        0.0887614        0.154849
281726                   0.17849       0.0334867      0.000133905     0.000614233         0.571549       -0.795793     -0.000374777    -0.000210056
                     0.000131761     0.000585597          0.17818       0.0341458     -0.000318003    -0.000197615         0.570677       -0.796435
                        0.571855       -0.796028     -0.000225878    -0.000232921        0.0879796        0.155483      0.000693683    -0.000145778
                     -0.00036185    -0.000298628         0.570555       -0.796663      0.000707696    -7.36591e-06        0.0888627          0.1548
281728                  0.178495       0.0334966      0.000134089     0.000614309         0.571317       -0.795957     -0.000374897    -0.000209875
                     0.000131904     0.000585714         0.178185       0.0341557     -0.000318092    -0.000197487         0.570446         -0.7966
                        0.571624       -0.796193     -0.000226127    -0.000233013        0.0880813        0.155435      0.000693659    -0.000146274
                    -0.000361998    -0.000298715         0.570323       -0.796828      0.000707625    -7.75941e-06         0.088964        0.154752
281730                  0.178501       0.0335064      0.000134272     0.000614384         0.571086       -0.796122     -0.000375017    -0.000209695
                     0.000132047      0.00058583         0.178191       0.0341656     -0.000318181    -0.000197359         0.570214       -0.796764
                        0.571392       -0.796358     -0.000226377    -0.000233104        0.0881829        0.155386      0.000693634     -0.00014677
                    -0.000362147    -0.000298803         0.570091       -0.796992      0.000707554    -8.15327e-06        0.0890653        0.154703
281732                  0.178506       0.0335163      0.000134456      0.00061446         0.570854       -0.796287     -0.000375138    -0.000209515
                      0.00013219     0.000585947         0.178197       0.0341755      -0.00031827    -0.000197231         0.569982       -0.796929
                         0.57116       -0.796522     -0.000226626    -0.000233194        0.0882844        0.155338       0.00069361    -0.000147266
                    -0.000362296     -0.00029889         0.569859       -0.797157      0.000707484    -8.54749e-06        0.0891665        0.154653
281734                  0.178512       0.0335262       0.00013464     0.000614535         0.570622       -0.796451     -0.000375258    -0.000209334
                     0.000132333     0.000586063         0.178202       0.0341854     -0.000318359    -0.000197103          0.56975       -0.797093
                        0.570928       -0.796687     -0.000226876    -0.000233283         0.088386        0.155289      0.000693586    -0.000147761
                    -0.000362444    -0.000298978         0.569627       -0.797321      0.000707414    -8.94209e-06        0.0892677        0.154604
281736                  0.178518       0.0335361      0.000134823      0.00061461         0.570391       -0.796616     -0.000375378    -0.000209154
                     0.000132476      0.00058618         0.178208       0.0341953     -0.000318448    -0.000196975         0.569519       -0.797257
                        0.570697       -0.796852     -0.000227126     -0.00023337        0.0884875         0.15524      0.000693562    -0.000148256
                    -0.000362593    -0.000299066         0.569396       -0.797485      0.000707344    -9.33707e-06        0.0893689        0.154555
281738                  0.178523       0.0335459      0.000135007     0.000614684         0.570159       -0.796781     -0.000375498    -0.000208974
                     0.000132619     0.000586297         0.178214       0.0342052     -0.000318538    -0.000196848         0.569287       -0.797422
                        0.570465       -0.797016     -0.000227377    -0.000233456        0.0885889        0.155192      0.000693538    -0.000148751
                    -0.000362742    -0.000299155         0.569163        -0.79765      0.000707274    -9.73244e-06          0.08947        0.154506
281740                  0.178529       0.0335558       0.00013519     0.000614759         0.569927       -0.796945     -0.000375618    -0.000208795
                     0.000132762     0.000586413          0.17822       0.0342151     -0.000318628     -0.00019672         0.569055       -0.797586
                        0.570233       -0.797181     -0.000227627    -0.000233541        0.0886904        0.155143      0.000693514    -0.000149246
                    -0.000362891    -0.000299243         0.568931       -0.797814      0.000707205    -1.01282e-05        0.0895711        0.154457
281742                  0.178534       0.0335656      0.000135373     0.000614833         0.569696       -0.797109     -0.000375738    -0.000208615
                     0.000132906      0.00058653         0.178225        0.034225     -0.000318718    -0.000196593         0.568823        -0.79775
                        0.570001       -0.797345     -0.000227878    -0.000233625        0.0887918        0.155094       0.00069349     -0.00014974
                     -0.00036304    -0.000299331         0.568699       -0.797978      0.000707136    -1.05244e-05        0.0896722        0.154407
281744                   0.17854       0.0335755      0.000135557     0.000614907         0.569464       -0.797274     -0.000375858    -0.000208435
                     0.000133049     0.000586647         0.178231       0.0342348     -0.000318809    -0.000196466         0.568591       -0.797914
                        0.569769        -0.79751     -0.000228129    -0.000233707        0.0888931        0.155045      0.000693466    -0.000150234
                    -0.000363189     -0.00029942         0.568467       -0.798142      0.000707067     -1.0921e-05        0.0897733        0.154358
281746                  0.178546       0.0335853       0.00013574     0.000614981         0.569232       -0.797438     -0.000375977    -0.000208256
                     0.000133192     0.000586763         0.178237       0.0342447       -0.0003189    -0.000196338         0.568359       -0.798078
                        0.569537       -0.797674      -0.00022838    -0.000233788        0.0889945        0.154996      0.000693443    -0.000150729
                    -0.000363338    -0.000299509         0.568235       -0.798306      0.000706998     -1.1318e-05        0.0898743        0.154308
281748                  0.178551       0.0335952      0.000135923     0.000615054            0.569       -0.797602     -0.000376097    -0.000208076
                     0.000133335      0.00058688         0.178243       0.0342546     -0.000318991    -0.000196211         0.568127       -0.798242
                        0.569305       -0.797838     -0.000228632    -0.000233868        0.0890958        0.154947      0.000693419    -0.000151223
                    -0.000363488    -0.000299598         0.568003        -0.79847       0.00070693    -1.17154e-05        0.0899752        0.154259
281750                  0.178557        0.033605      0.000136106     0.000615127         0.568768       -0.797766     -0.000376217    -0.000207897
                     0.000133478     0.000586997         0.178248       0.0342644     -0.000319083    -0.000196084         0.567895       -0.798406
                        0.569073       -0.798003     -0.000228883    -0.000233947        0.0891971        0.154898      0.000693395    -0.000151716
                    -0.000363637    -0.000299687         0.567771       -0.798634      0.000706862    -1.21133e-05        0.0900762        0.154209
281752                  0.178563       0.0336149      0.000136289       0.0006152         0.568536        -0.79793     -0.000376337    -0.000207718
                     0.000133622     0.000587113         0.178254       0.0342743     -0.000319174    -0.000195957         0.567662       -0.798569
                        0.568841       -0.798167     -0.000229135    -0.000234025        0.0892983        0.154848      0.000693371     -0.00015221
                    -0.000363786    -0.000299777         0.567538       -0.798797      0.000706795    -1.25116e-05        0.0901771         0.15416
281754                  0.178568       0.0336247      0.000136472     0.000615273         0.568304       -0.798094     -0.000376456    -0.000207539
                     0.000133765      0.00058723          0.17826       0.0342841     -0.000319266    -0.000195831          0.56743       -0.798733
                        0.568608       -0.798331     -0.000229387    -0.000234101        0.0893995        0.154799      0.000693348    -0.000152703
                    -0.000363936    -0.000299866         0.567306       -0.798961      0.000706727    -1.29104e-05         0.090278         0.15411
281756                  0.178574       0.0336345      0.000136655     0.000615346         0.568072       -0.798258     -0.000376576     -0.00020736
                     0.000133908     0.000587347         0.178265        0.034294     -0.000319359    -0.000195704         0.567198       -0.798896
                        0.568376       -0.798495     -0.000229639    -0.000234177        0.0895007         0.15475      0.000693324    -0.000153197
                    -0.000364086    -0.000299956         0.567074       -0.799125       0.00070666    -1.33096e-05        0.0903788         0.15406
281758                  0.178579       0.0336443      0.000136837     0.000615418          0.56784       -0.798422     -0.000376695    -0.000207181
                     0.000134051     0.000587464         0.178271       0.0343038     -0.000319452    -0.000195577         0.566966        -0.79906
                        0.568144       -0.798659     -0.000229891    -0.000234251        0.0896018          0.1547        0.0006933     -0.00015369
                    -0.000364235    -0.000300046         0.566841       -0.799288      0.000706594    -1.37093e-05        0.0904796         0.15401
281760                  0.178585       0.0336541       0.00013702      0.00061549         0.567608       -0.798585     -0.000376815    -0.000207002
                     0.000134195      0.00058758         0.178277       0.0343137     -0.000319545    -0.000195451         0.566733       -0.799223
                        0.567911       -0.798822     -0.000230144    -0.000234323        0.0897029        0.154651      0.000693277    -0.000154183
                    -0.000364385    -0.000300136         0.566609       -0.799452      0.000706527    -1.41094e-05        0.0905804         0.15396
281762                  0.178591       0.0336639      0.000137203     0.000615562         0.567375       -0.798749     -0.000376934    -0.000206824
                     0.000134338     0.000587697         0.178283       0.0343235     -0.000319639    -0.000195324         0.566501       -0.799387
                        0.567679       -0.798986     -0.000230396    -0.000234395         0.089804        0.154601      0.000693253    -0.000154676
