! TOUCHSTONE file generated by CST MICROWAVE STUDIO
! Date and time: Wed Oct 15 17:29:55 2025
! Project name: Teste_Macro_Metasurface_Nanopilar.cst
! Parameters = {H=600; L_x=105; L_y=150; Lambda=1064; Max_L=200; Min_L=70; PathPara=1; Phi=0; Step_L=10; Theta=0; p=520; phaseX=180; phaseY=0}
! Header version: 2018
! Port assignment regex: !\s*Touchstone port\s*([0-9]+)\s*=\s*(CST MWS port|CST DS port)\s*([0-9]+|Zmin|Zmax)\s*\(\"(.*)\"\)(\s*mode\s*([0-9]+))?.*
! Touchstone port assignment:
! Touchstone port 1 = CST MWS port Zmax ("") mode 1
! Touchstone port 2 = CST MWS port Zmax ("") mode 2
! Touchstone port 3 = CST MWS port Zmin ("") mode 1
! Touchstone port 4 = CST MWS port Zmin ("") mode 2
! S-Parameters are not renormalized. Each port impedance will be approximated by the real part at minimum frequency. The values are described via the [Reference] keyword.
! Default impedance is overridden by [Reference]
[Version] 2.0
# GHz S RI R 376.73
[Number of Ports] 4
[Reference]
376.73 376.73 259.888 259.888 
[Number of Frequencies] 51
[Network Data]
281700                 0.0702494        0.154066     -0.000702561    -3.87239e-05         0.978221      -0.0624805      0.000126049     0.000490663
                    -0.000796288     1.75686e-05         0.174724       0.0570682     -0.000152866    -0.000557106         -0.75618        0.615039
                        0.978314      -0.0627489     -0.000118505    -0.000544826       -0.0488563        0.161706     -0.000747706     0.000437028
                     8.51582e-05     0.000553014        -0.756118        0.615076     -0.000728514     0.000484561        0.0202679        0.181688
281702                 0.0702674         0.15408     -0.000702552    -3.83527e-05         0.978197      -0.0628041       0.00012627     0.000490651
                     -0.00079632     1.80746e-05         0.174733       0.0570453      -0.00015306    -0.000557143        -0.755941        0.615331
                         0.97829      -0.0630733     -0.000118603    -0.000544856       -0.0487651        0.161755       -0.0007478     0.000437282
                     8.53552e-05     0.000553034        -0.755879        0.615368     -0.000728555     0.000484841        0.0203839        0.181676
281704                 0.0702853        0.154095     -0.000702543    -3.79815e-05         0.978173      -0.0631277      0.000126491      0.00049064
                    -0.000796352     1.85809e-05         0.174742       0.0570224     -0.000153255     -0.00055718        -0.755702        0.615623
                        0.978266      -0.0633977     -0.000118701    -0.000544886       -0.0486739        0.161804     -0.000747895     0.000437536
                     8.55519e-05     0.000553054         -0.75564        0.615661     -0.000728596      0.00048512        0.0204999        0.181665
281706                 0.0703033         0.15411     -0.000702534    -3.76104e-05         0.978148      -0.0634512      0.000126712     0.000490628
                    -0.000796382     1.90874e-05         0.174751       0.0569995     -0.000153449    -0.000557217        -0.755464        0.615916
                        0.978241      -0.0637221     -0.000118799    -0.000544916       -0.0485826        0.161853      -0.00074799      0.00043779
                     8.57485e-05     0.000553074        -0.755401        0.615953     -0.000728636       0.0004854         0.020616        0.181653
281708                 0.0703212        0.154125     -0.000702524    -3.72394e-05         0.978124      -0.0637748      0.000126933     0.000490616
                     -0.00079641     1.95942e-05          0.17476       0.0569766     -0.000153644    -0.000557253        -0.755225        0.616207
                        0.978217      -0.0640464     -0.000118897    -0.000544946       -0.0484913        0.161902     -0.000748084     0.000438044
                     8.59448e-05     0.000553095        -0.755161        0.616245     -0.000728677      0.00048568         0.020732        0.181641
281710                 0.0703392        0.154139     -0.000702513    -3.68684e-05         0.978099      -0.0640983      0.000127155     0.000490603
                    -0.000796438     2.01013e-05         0.174768       0.0569536     -0.000153838     -0.00055729        -0.754986        0.616499
                        0.978192      -0.0643708     -0.000118994    -0.000544976       -0.0483999        0.161951     -0.000748179     0.000438298
                      8.6141e-05     0.000553116        -0.754922        0.616537     -0.000728717     0.000485959         0.020848        0.181629
281712                 0.0703572        0.154154     -0.000702502    -3.64975e-05         0.978075      -0.0644219      0.000127376     0.000490591
                    -0.000796464     2.06086e-05         0.174777       0.0569307     -0.000154033    -0.000557327        -0.754746        0.616791
                        0.978167      -0.0646951     -0.000119091    -0.000545006       -0.0483085           0.162     -0.000748273     0.000438552
                     8.63369e-05     0.000553138        -0.754682        0.616829     -0.000728757     0.000486239         0.020964        0.181617
281714                 0.0703751        0.154169     -0.000702491    -3.61267e-05          0.97805      -0.0647454      0.000127598     0.000490579
                    -0.000796488     2.11161e-05         0.174786       0.0569078     -0.000154228    -0.000557364        -0.754507        0.617083
                        0.978142      -0.0650195     -0.000119188    -0.000545036       -0.0482171        0.162048     -0.000748368     0.000438806
                     8.65326e-05      0.00055316        -0.754442        0.617121     -0.000728797     0.000486519          0.02108        0.181604
281716                 0.0703931        0.154184     -0.000702479    -3.57559e-05         0.978025      -0.0650689      0.000127819     0.000490566
                    -0.000796512      2.1624e-05         0.174795       0.0568848     -0.000154423      -0.0005574        -0.754268        0.617374
                        0.978117      -0.0653438     -0.000119285    -0.000545066       -0.0481256        0.162097     -0.000748462     0.000439061
                     8.67282e-05     0.000553183        -0.754203        0.617412     -0.000728837     0.000486799         0.021196        0.181592
281718                  0.070411        0.154198     -0.000702466    -3.53852e-05            0.978      -0.0653924      0.000128041     0.000490554
                    -0.000796534      2.2132e-05         0.174804       0.0568619     -0.000154618    -0.000557437        -0.754028        0.617666
                        0.978092      -0.0656681     -0.000119381    -0.000545096       -0.0480341        0.162146     -0.000748556     0.000439315
                     8.69235e-05     0.000553205        -0.753963        0.617704     -0.000728876      0.00048708        0.0213119         0.18158
281720                  0.070429        0.154213     -0.000702453    -3.50146e-05         0.977975      -0.0657159      0.000128263     0.000490541
                    -0.000796555     2.26403e-05         0.174813       0.0568389     -0.000154813    -0.000557473        -0.753788        0.617957
                        0.978067      -0.0659924     -0.000119478    -0.000545126       -0.0479425        0.162194     -0.000748651      0.00043957
                     8.71186e-05     0.000553229        -0.753722        0.617996     -0.000728916      0.00048736        0.0214279        0.181567
281722                  0.070447        0.154228     -0.000702439     -3.4644e-05          0.97795      -0.0660393      0.000128485     0.000490528
                    -0.000796574     2.31489e-05         0.174822        0.056816     -0.000155008     -0.00055751        -0.753549        0.618249
                        0.978041      -0.0663167     -0.000119574    -0.000545156       -0.0478509        0.162243     -0.000748745     0.000439824
                     8.73136e-05     0.000553253        -0.753482        0.618287     -0.000728955      0.00048764        0.0215439        0.181555
281724                 0.0704649        0.154243     -0.000702425    -3.42735e-05         0.977925      -0.0663628      0.000128707     0.000490515
                    -0.000796592     2.36576e-05          0.17483        0.056793     -0.000155203    -0.000557546        -0.753309         0.61854
                        0.978016       -0.066641      -0.00011967    -0.000545186       -0.0477592        0.162291     -0.000748839     0.000440079
                     8.75083e-05     0.000553277        -0.753242        0.618579     -0.000728994     0.000487921        0.0216599        0.181542
281726                 0.0704829        0.154257     -0.000702411    -3.39031e-05         0.977899      -0.0666862      0.000128929     0.000490502
                    -0.000796609     2.41666e-05         0.174839       0.0567701     -0.000155398    -0.000557582        -0.753069        0.618831
                         0.97799      -0.0669653     -0.000119766    -0.000545216       -0.0476676         0.16234     -0.000748932     0.000440334
                     8.77029e-05     0.000553301        -0.753001         0.61887     -0.000729033     0.000488201        0.0217758         0.18153
281728                 0.0705009        0.154272     -0.000702396    -3.35328e-05         0.977874      -0.0670097      0.000129151     0.000490489
                    -0.000796624     2.46759e-05         0.174848       0.0567471     -0.000155593    -0.000557619        -0.752828        0.619122
                        0.977964      -0.0672895     -0.000119861    -0.000545246       -0.0475758        0.162388     -0.000749026     0.000440588
                     8.78973e-05     0.000553326        -0.752761        0.619161     -0.000729072     0.000488482        0.0218918        0.181517
281730                 0.0705188        0.154287      -0.00070238    -3.31625e-05         0.977848      -0.0673331      0.000129373     0.000490475
                    -0.000796638     2.51853e-05         0.174857       0.0567242     -0.000155789    -0.000557655        -0.752588        0.619413
                        0.977938      -0.0676137     -0.000119957    -0.000545276        -0.047484        0.162437      -0.00074912     0.000440843
                     8.80915e-05     0.000553352         -0.75252        0.619452      -0.00072911     0.000488763        0.0220077        0.181504
281732                 0.0705368        0.154302     -0.000702364    -3.27923e-05         0.977822      -0.0676565      0.000129595     0.000490462
                    -0.000796651      2.5695e-05         0.174866       0.0567012     -0.000155984    -0.000557691        -0.752348        0.619704
                        0.977912       -0.067938     -0.000120052    -0.000545306       -0.0473922        0.162485     -0.000749213     0.000441098
                     8.82855e-05     0.000553378        -0.752279        0.619743     -0.000729149     0.000489044        0.0221237        0.181491
281734                 0.0705548        0.154316     -0.000702348    -3.24222e-05         0.977797      -0.0679799      0.000129818     0.000490448
                    -0.000796662     2.62049e-05         0.174874       0.0566782      -0.00015618    -0.000557727        -0.752107        0.619995
                        0.977886      -0.0682622     -0.000120147    -0.000545336       -0.0473004        0.162533     -0.000749307     0.000441353
                     8.84794e-05     0.000553405        -0.752038        0.620034     -0.000729187     0.000489325        0.0222396        0.181478
281736                 0.0705727        0.154331     -0.000702331    -3.20521e-05         0.977771      -0.0683033       0.00013004     0.000490435
                    -0.000796672      2.6715e-05         0.174883       0.0566553     -0.000156376    -0.000557763        -0.751867        0.620286
                         0.97786      -0.0685864     -0.000120242    -0.000545366       -0.0472084        0.162581       -0.0007494     0.000441609
                     8.86731e-05     0.000553431        -0.751797        0.620325     -0.000729225     0.000489606        0.0223556        0.181465
281738                 0.0705907        0.154346     -0.000702313    -3.16821e-05         0.977745      -0.0686266      0.000130263     0.000490421
                     -0.00079668     2.72253e-05         0.174892       0.0566323     -0.000156571    -0.000557799        -0.751626        0.620577
                        0.977834      -0.0689106     -0.000120337    -0.000545396       -0.0471165        0.162629     -0.000749493     0.000441864
                     8.88666e-05     0.000553459        -0.751556        0.620616     -0.000729263     0.000489887        0.0224715        0.181452
281740                 0.0706087        0.154361     -0.000702295    -3.13122e-05         0.977718        -0.06895      0.000130485     0.000490408
                    -0.000796688     2.77358e-05         0.174901       0.0566093     -0.000156767    -0.000557835        -0.751385        0.620867
                        0.977807      -0.0692347     -0.000120431    -0.000545426       -0.0470245        0.162677     -0.000749586      0.00044212
                     8.90599e-05     0.000553487        -0.751315        0.620907     -0.000729301     0.000490168        0.0225874        0.181439
281742                 0.0706266        0.154375     -0.000702276    -3.09423e-05         0.977692      -0.0692733      0.000130708     0.000490395
                    -0.000796693     2.82464e-05         0.174909       0.0565863     -0.000156963    -0.000557871        -0.751144        0.621158
                        0.977781      -0.0695589     -0.000120525    -0.000545456       -0.0469325        0.162726     -0.000749678     0.000442376
                     8.92531e-05     0.000553515        -0.751073        0.621197     -0.000729339     0.000490449        0.0227033        0.181425
281744                 0.0706446         0.15439     -0.000702258    -3.05723e-05         0.977666      -0.0695967       0.00013093     0.000490381
                    -0.000796698     2.87573e-05         0.174918       0.0565633     -0.000157159    -0.000557907        -0.750903        0.621448
                        0.977754       -0.069883      -0.00012062    -0.000545486       -0.0468404        0.162774      -0.00074977     0.000442632
                     8.94462e-05     0.000553544        -0.750832        0.621488     -0.000729376     0.000490731        0.0228192        0.181412
281746                 0.0706626        0.154405     -0.000702238    -3.02021e-05         0.977639        -0.06992      0.000131153     0.000490369
                    -0.000796701     2.92684e-05         0.174927       0.0565404     -0.000157355    -0.000557942        -0.750662        0.621738
                        0.977727      -0.0702072     -0.000120714    -0.000545516       -0.0467483        0.162821     -0.000749862      0.00044289
                     8.96391e-05     0.000553574         -0.75059        0.621778     -0.000729413     0.000491012        0.0229351        0.181399
281748                 0.0706805         0.15442      -0.00070222    -2.98297e-05         0.977613      -0.0702433      0.000131375     0.000490357
                    -0.000796703     2.97796e-05         0.174936       0.0565174     -0.000157551    -0.000557978        -0.750421        0.622029
                          0.9777      -0.0705313     -0.000120809    -0.000545545       -0.0466561        0.162869     -0.000749953     0.000443149
                     8.98318e-05     0.000553604        -0.750349        0.622069     -0.000729451     0.000491294         0.023051        0.181385
281750                 0.0706985        0.154434      -0.00070219    -2.94722e-05         0.977586      -0.0705666      0.000131597      0.00049035
                    -0.000796703     3.02911e-05         0.174944       0.0564944     -0.000157748    -0.000558014        -0.750179        0.622319
                        0.977673      -0.0708554     -0.000120896    -0.000545579       -0.0465639        0.162917     -0.000750039     0.000443413
                     9.00244e-05     0.000553634        -0.750107        0.622359     -0.000729487     0.000491576        0.0231669        0.181371
281752                 0.0707165        0.154449     -0.000702173    -2.90978e-05         0.977559      -0.0708899      0.000131832     0.000490382
                    -0.000796702     3.08027e-05         0.174953       0.0564714     -0.000157944    -0.000558049        -0.749931        0.622609
                        0.977646      -0.0711795     -0.000120992    -0.000545608       -0.0464717        0.162965     -0.000750089     0.000443661
                     9.02168e-05     0.000553665        -0.749865        0.622649     -0.000729524     0.000491857        0.0232828        0.181358
281754                 0.0707345        0.154464     -0.000702152    -2.87278e-05         0.977532      -0.0712131      0.000132067     0.000490282
                    -0.000796699     3.13145e-05         0.174962       0.0564484      -0.00015814    -0.000558085        -0.749696        0.622899
                        0.977619      -0.0715036     -0.000121086    -0.000545638       -0.0463794        0.163013     -0.000750216     0.000443881
                     9.04091e-05     0.000553696        -0.749623        0.622939     -0.000729561     0.000492139        0.0233987        0.181344
281756                 0.0707524        0.154479      -0.00070213    -2.83584e-05         0.977505      -0.0715364      0.000132278      0.00049028
                    -0.000796696     3.18264e-05          0.17497       0.0564254     -0.000158337     -0.00055812        -0.749454        0.623189
                        0.977592      -0.0718276     -0.000121179    -0.000545668       -0.0462871         0.16306     -0.000750317     0.000444146
                     9.06012e-05     0.000553728         -0.74938        0.623229     -0.000729597     0.000492421        0.0235145         0.18133
281758                 0.0707704        0.154493     -0.000702107    -2.79892e-05         0.977478      -0.0718596      0.000132499     0.000490269
                     -0.00079669     3.23385e-05         0.174979       0.0564024     -0.000158533    -0.000558156        -0.749212        0.623478
                        0.977564      -0.0721517     -0.000121271    -0.000545698       -0.0461947        0.163108     -0.000750411     0.000444406
                     9.07932e-05     0.000553761        -0.749138        0.623519     -0.000729633     0.000492703        0.0236304        0.181316
281760                 0.0707884        0.154508     -0.000702084    -2.76202e-05         0.977451      -0.0721829      0.000132722     0.000490256
                    -0.000796684     3.28508e-05         0.174988       0.0563793      -0.00015873    -0.000558191         -0.74897        0.623768
                        0.977537      -0.0724757     -0.000121364    -0.000545728       -0.0461023        0.163156     -0.000750503     0.000444664
                     9.09849e-05     0.000553794        -0.748895        0.623809     -0.000729669     0.000492986        0.0237463        0.181302
281762                 0.0708064        0.154523      -0.00070206    -2.72514e-05         0.977424      -0.0725061      0.000132945     0.000490243
                    -0.000796678     3.33614e-05         0.174996       0.0563563     -0.000158926    -0.000558226        -0.748728        0.624058
                        0.977509      -0.0727997     -0.000121456    -0.000545759       -0.0460099        0.163203     -0.000750594     0.000444922
