! TOUCHSTONE file generated by CST MICROWAVE STUDIO
! Date and time: Wed Oct 15 17:28:19 2025
! Project name: Teste_Macro_Metasurface_Nanopilar.cst
! Parameters = {H=600; L_x=80; L_y=70; Lambda=1064; Max_L=200; Min_L=70; PathPara=1; Phi=0; Step_L=10; Theta=0; p=520; phaseX=180; phaseY=0}
! Header version: 2018
! Port assignment regex: !\s*Touchstone port\s*([0-9]+)\s*=\s*(CST MWS port|CST DS port)\s*([0-9]+|Zmin|Zmax)\s*\(\"(.*)\"\)(\s*mode\s*([0-9]+))?.*
! Touchstone port assignment:
! Touchstone port 1 = CST MWS port Zmax ("") mode 1
! Touchstone port 2 = CST MWS port Zmax ("") mode 2
! Touchstone port 3 = CST MWS port Zmin ("") mode 1
! Touchstone port 4 = CST MWS port Zmin ("") mode 2
! S-Parameters are not renormalized. Each port impedance will be approximated by the real part at minimum frequency. The values are described via the [Reference] keyword.
! Default impedance is overridden by [Reference]
[Version] 2.0
# GHz S RI R 376.73
[Number of Ports] 4
[Reference]
376.73 376.73 259.888 259.888 
[Number of Frequencies] 51
[Network Data]
281700                 0.0643574       -0.133101     -0.000312512      3.7797e-05         0.227789       -0.962195      0.000228054     6.24405e-05
                    -0.000308479    -1.46112e-05        0.0525904       -0.126953      0.000190917    -6.27733e-05         0.163212       -0.976843
                        0.228012        -0.96223      0.000244278      -0.0001003      -0.00218448        0.147842     -0.000347422     6.76717e-05
                     3.37204e-05     0.000136395         0.163281       -0.976675     -0.000244312    -0.000133778       0.00838736        0.137187
281702                 0.0643456       -0.133105     -0.000312491     3.78636e-05         0.227562       -0.962249      0.000228048     6.23636e-05
                    -0.000308475     -1.4557e-05        0.0525785       -0.126955      0.000190906    -6.27843e-05         0.162981       -0.976882
                        0.227786       -0.962284      0.000244235    -0.000100406      -0.00212694        0.147841     -0.000347351     6.78154e-05
                     3.38287e-05       0.0001364         0.163049       -0.976714     -0.000244438    -0.000133708       0.00844053        0.137181
281704                 0.0643338       -0.133108     -0.000312471     3.79302e-05         0.227336       -0.962303      0.000228043     6.22868e-05
                    -0.000308471    -1.45028e-05        0.0525666       -0.126957      0.000190896    -6.27954e-05         0.162749       -0.976921
                         0.22756       -0.962337      0.000244192    -0.000100512       -0.0020694         0.14784     -0.000347279      6.7959e-05
                      3.3937e-05     0.000136405         0.162818       -0.976753     -0.000244564    -0.000133638        0.0084937        0.137175
281706                  0.064322       -0.133111      -0.00031245     3.79967e-05          0.22711       -0.962357      0.000228038       6.221e-05
                    -0.000308467    -1.44487e-05        0.0525548       -0.126959      0.000190885    -6.28066e-05         0.162517        -0.97696
                        0.227333       -0.962391      0.000244148    -0.000100618      -0.00201186        0.147838     -0.000347208     6.81025e-05
                     3.40455e-05      0.00013641         0.162586       -0.976792     -0.000244689    -0.000133568       0.00854687        0.137169
281708                 0.0643102       -0.133114     -0.000312429     3.80632e-05         0.226883        -0.96241      0.000228032     6.21333e-05
                    -0.000308463    -1.43946e-05        0.0525429       -0.126961      0.000190874    -6.28179e-05         0.162286       -0.976999
                        0.227107       -0.962445      0.000244105    -0.000100724      -0.00195432        0.147837     -0.000347136     6.82459e-05
                     3.41539e-05     0.000136415         0.162355       -0.976831     -0.000244815    -0.000133498       0.00860003        0.137163
281710                 0.0642984       -0.133118     -0.000312408     3.81297e-05         0.226657       -0.962464      0.000228026     6.20566e-05
                    -0.000308458    -1.43404e-05         0.052531       -0.126963      0.000190863    -6.28293e-05         0.162054       -0.977038
                         0.22688       -0.962499      0.000244061     -0.00010083      -0.00189679        0.147836     -0.000347065     6.83892e-05
                     3.42625e-05      0.00013642         0.162123       -0.976869      -0.00024494    -0.000133428       0.00865319        0.137157
281712                 0.0642866       -0.133121     -0.000312387     3.81962e-05         0.226431       -0.962518      0.000228021       6.198e-05
                    -0.000308454    -1.42864e-05        0.0525191       -0.126965      0.000190853    -6.28407e-05         0.161823       -0.977076
                        0.226654       -0.962552      0.000244018    -0.000100936      -0.00183925        0.147834     -0.000346993     6.85325e-05
                     3.43711e-05     0.000136424         0.161892       -0.976908     -0.000245065    -0.000133358       0.00870635        0.137151
281714                 0.0642749       -0.133124     -0.000312366     3.82626e-05         0.226204       -0.962571      0.000228015     6.19035e-05
                    -0.000308449    -1.42323e-05        0.0525072       -0.126967      0.000190842    -6.28522e-05         0.161591       -0.977115
                        0.226427       -0.962606      0.000243974    -0.000101042      -0.00178172        0.147833     -0.000346921     6.86756e-05
                     3.44798e-05     0.000136429          0.16166       -0.976947      -0.00024519    -0.000133288        0.0087595        0.137145
281716                 0.0642631       -0.133128     -0.000312345      3.8329e-05         0.225978       -0.962625      0.000228009      6.1827e-05
                    -0.000308445    -1.41782e-05        0.0524954       -0.126969      0.000190831    -6.28638e-05         0.161359       -0.977154
                        0.226201        -0.96266       0.00024393    -0.000101148      -0.00172419        0.147831     -0.000346849     6.88187e-05
                     3.45886e-05     0.000136433         0.161429       -0.976986     -0.000245315    -0.000133217       0.00881265        0.137139
281718                 0.0642513       -0.133131     -0.000312324     3.83954e-05         0.225752       -0.962678      0.000228003     6.17505e-05
                     -0.00030844    -1.41242e-05        0.0524835       -0.126971      0.000190821    -6.28754e-05         0.161128       -0.977192
                        0.225974       -0.962713      0.000243886    -0.000101253      -0.00166666         0.14783     -0.000346777     6.89616e-05
                     3.46974e-05     0.000136438         0.161197       -0.977024      -0.00024544    -0.000133147        0.0088658        0.137133
281720                 0.0642395       -0.133134     -0.000312303     3.84617e-05         0.225525       -0.962732      0.000227998     6.16742e-05
                    -0.000308436    -1.40702e-05        0.0524716       -0.126973       0.00019081    -6.28871e-05         0.160896       -0.977231
                        0.225748       -0.962767      0.000243842    -0.000101359      -0.00160914        0.147828     -0.000346705     6.91045e-05
                     3.48063e-05     0.000136442         0.160966       -0.977063     -0.000245564    -0.000133076       0.00891894        0.137127
281722                 0.0642277       -0.133138     -0.000312282      3.8528e-05         0.225299       -0.962785      0.000227992     6.15978e-05
                    -0.000308431    -1.40162e-05        0.0524597       -0.126975      0.000190799    -6.28988e-05         0.160664       -0.977269
                        0.225521        -0.96282      0.000243798    -0.000101465      -0.00155161        0.147827     -0.000346633     6.92473e-05
                     3.49152e-05     0.000136446         0.160734       -0.977101     -0.000245689    -0.000133006       0.00897208         0.13712
281724                 0.0642159       -0.133141     -0.000312261     3.85943e-05         0.225072       -0.962838      0.000227986     6.15215e-05
                    -0.000308427    -1.39622e-05        0.0524479       -0.126977      0.000190789    -6.29105e-05         0.160433       -0.977308
                        0.225295       -0.962873      0.000243754    -0.000101571      -0.00149409        0.147825     -0.000346561       6.939e-05
                     3.50242e-05      0.00013645         0.160502        -0.97714     -0.000245814    -0.000132935       0.00902522        0.137114
281726                 0.0642041       -0.133144      -0.00031224     3.86606e-05         0.224846       -0.962891       0.00022798     6.14452e-05
                    -0.000308422    -1.39082e-05         0.052436       -0.126979      0.000190778    -6.29221e-05         0.160201       -0.977346
                        0.225068       -0.962927       0.00024371    -0.000101677      -0.00143656        0.147824     -0.000346489     6.95326e-05
                     3.51333e-05     0.000136454         0.160271       -0.977178     -0.000245939    -0.000132865       0.00907835        0.137108
281728                 0.0641923       -0.133147     -0.000312218     3.87268e-05         0.224619       -0.962945      0.000227974      6.1369e-05
                    -0.000308417    -1.38542e-05        0.0524241       -0.126981      0.000190767    -6.29336e-05         0.159969       -0.977385
                        0.224842        -0.96298      0.000243666    -0.000101782      -0.00137904        0.147822     -0.000346417     6.96751e-05
                     3.52424e-05     0.000136458         0.160039       -0.977217     -0.000246064    -0.000132794       0.00913148        0.137102
281730                 0.0641805       -0.133151     -0.000312197     3.87931e-05         0.224393       -0.962998      0.000227968     6.12927e-05
                    -0.000308412    -1.38003e-05        0.0524122       -0.126983      0.000190756    -6.29449e-05         0.159738       -0.977423
                        0.224615       -0.963033      0.000243621    -0.000101888      -0.00132152        0.147821     -0.000346345     6.98176e-05
                     3.53516e-05     0.000136462         0.159808       -0.977255     -0.000246191    -0.000132723        0.0091846        0.137096
281732                 0.0641687       -0.133154     -0.000312176     3.88593e-05         0.224167       -0.963051      0.000227962     6.12163e-05
                    -0.000308407    -1.37464e-05        0.0524003       -0.126985      0.000190745    -6.29559e-05         0.159506       -0.977461
                        0.224389       -0.963086      0.000243577    -0.000101994        -0.001264        0.147819     -0.000346272       6.996e-05
                     3.54608e-05     0.000136466         0.159576       -0.977293     -0.000246318    -0.000132653       0.00923772        0.137089
281734                 0.0641569       -0.133157     -0.000312154     3.89255e-05          0.22394       -0.963104      0.000227956     6.11399e-05
                    -0.000308403    -1.36925e-05        0.0523885       -0.126987      0.000190734    -6.29661e-05         0.159274       -0.977499
                        0.224162       -0.963139      0.000243532    -0.000102099      -0.00120649        0.147817       -0.0003462     7.01024e-05
                     3.55701e-05      0.00013647         0.159344       -0.977331     -0.000246448    -0.000132583       0.00929084        0.137083
281736                 0.0641452       -0.133161     -0.000312133     3.89917e-05         0.223714       -0.963157       0.00022795     6.10631e-05
                    -0.000308398    -1.36386e-05        0.0523766       -0.126989      0.000190722    -6.29749e-05         0.159042       -0.977537
                        0.223935       -0.963192      0.000243488    -0.000102205      -0.00114897        0.147816     -0.000346128     7.02449e-05
                     3.56795e-05     0.000136473         0.159113       -0.977369     -0.000246582    -0.000132513       0.00934396        0.137077
281738                 0.0641334       -0.133164     -0.000312111     3.90579e-05         0.223487        -0.96321      0.000227944     6.09859e-05
                    -0.000308393    -1.35847e-05        0.0523647       -0.126991      0.000190708    -6.29808e-05         0.158811       -0.977575
                        0.223709       -0.963245      0.000243443    -0.000102311      -0.00109146        0.147814     -0.000346056     7.03875e-05
                     3.57889e-05     0.000136477         0.158881       -0.977407     -0.000246726    -0.000132444       0.00939707         0.13707
281740                 0.0641216       -0.133167      -0.00031209     3.91241e-05         0.223261       -0.963262      0.000227938     6.09076e-05
                    -0.000308388    -1.35308e-05        0.0523528       -0.126993      0.000190691    -6.29787e-05         0.158579       -0.977613
                        0.223482       -0.963298      0.000243399    -0.000102416      -0.00103395        0.147812     -0.000345983     7.05305e-05
                     3.58984e-05      0.00013648         0.158649       -0.977445     -0.000246893    -0.000132378       0.00945018        0.137064
281742                 0.0641098        -0.13317     -0.000312068     3.91903e-05         0.223034       -0.963315      0.000227932     6.08265e-05
                    -0.000308383    -1.34769e-05        0.0523409       -0.126995      0.000190658     -6.2941e-05         0.158347       -0.977651
                        0.223255       -0.963351      0.000243354    -0.000102522     -0.000976455        0.147811     -0.000345912     7.06749e-05
                     3.60079e-05     0.000136484         0.158418       -0.977483     -0.000247168     -0.00013232       0.00950329        0.137058
281744                  0.064098       -0.133174     -0.000312046     3.92565e-05         0.222806        -0.96337      0.000227928     6.07356e-05
                    -0.000308377    -1.34231e-05        0.0523291       -0.126997      0.000191013    -6.36879e-05         0.158115       -0.977689
                        0.223029       -0.963404      0.000243309    -0.000102627      -0.00091882        0.147809     -0.000345839     7.08241e-05
                     3.61175e-05     0.000136487         0.158186       -0.977521     -0.000244991    -0.000131421       0.00955641        0.137051
281746                 0.0640862       -0.133177     -0.000312024     3.93227e-05          0.22258       -0.963421      0.000227935     6.04842e-05
                    -0.000308372    -1.33693e-05        0.0523172       -0.126999      0.000190716    -6.31389e-05         0.157884       -0.977727
                        0.222802       -0.963457      0.000243265    -0.000102732     -0.000861391        0.147807     -0.000345736     7.09809e-05
                     3.62272e-05      0.00013649         0.157954       -0.977559     -0.000246883    -0.000132107        0.0096093        0.137045
281748                 0.0640744        -0.13318     -0.000312003     3.93889e-05         0.222354       -0.963474      0.000227898     6.06726e-05
                    -0.000308367    -1.33154e-05        0.0523053       -0.127001       0.00019069    -6.31184e-05         0.157652       -0.977765
                        0.222575       -0.963509       0.00024322    -0.000102838     -0.000803892        0.147805      -0.00034567     7.10824e-05
                      3.6337e-05     0.000136493         0.157723       -0.977597      -0.00024711    -0.000132054       0.00966253        0.137038
281750                 0.0640626       -0.133183     -0.000311981     3.94551e-05         0.222127       -0.963526      0.000227898     6.05693e-05
                    -0.000308362    -1.32616e-05        0.0522934       -0.127003      0.000190675    -6.31202e-05          0.15742       -0.977803
                        0.222349       -0.963562      0.000243175    -0.000102943      -0.00074639        0.147804     -0.000345607     7.12249e-05
                     3.64468e-05     0.000136496         0.157491       -0.977635     -0.000247267    -0.000131989       0.00971563        0.137032
281752                 0.0640508       -0.133187     -0.000311959     3.95213e-05         0.221901       -0.963579      0.000227893     6.04866e-05
                    -0.000308357    -1.32079e-05        0.0522815       -0.127005      0.000190662    -6.31283e-05         0.157188        -0.97784
                        0.222122       -0.963615       0.00024313    -0.000103048     -0.000688888        0.147802     -0.000345537     7.13673e-05
                      3.6557e-05     0.000136499         0.157259       -0.977672     -0.000247404    -0.000131919       0.00976871        0.137026
281754                  0.064039        -0.13319     -0.000311937     3.95875e-05         0.221674       -0.963631      0.000227887     6.04083e-05
                    -0.000308351    -1.31543e-05        0.0522697       -0.127007      0.000190651     -6.3139e-05         0.156956       -0.977878
                        0.221895       -0.963667      0.000243086    -0.000103153     -0.000631387          0.1478     -0.000345465      7.1509e-05
                     3.66699e-05     0.000136502         0.157027        -0.97771     -0.000247533    -0.000131849        0.0098218        0.137019
281756                 0.0640272       -0.133193     -0.000311915     3.96537e-05         0.221448       -0.963684       0.00022788     6.03319e-05
                    -0.000308348    -1.30995e-05        0.0522578       -0.127009       0.00019064    -6.31512e-05         0.156725       -0.977915
                        0.221669        -0.96372      0.000243041    -0.000103258     -0.000573888        0.147798     -0.000345393     7.16502e-05
                     3.67743e-05     0.000136507         0.156796       -0.977748     -0.000247658    -0.000131778       0.00987488        0.137013
281758                 0.0640154       -0.133197     -0.000311893     3.97199e-05         0.221221       -0.963736      0.000227874     6.02563e-05
                    -0.000308341    -1.30462e-05        0.0522459       -0.127011       0.00019063    -6.31642e-05         0.156493       -0.977953
                        0.221442       -0.963772      0.000242996    -0.000103363     -0.000516389        0.147796      -0.00034532      7.1791e-05
                     3.68851e-05     0.000136509         0.156564       -0.977785      -0.00024778    -0.000131706       0.00992795        0.137006
281760                 0.0640036         -0.1332     -0.000311871     3.97861e-05         0.220994       -0.963788      0.000227867     6.01814e-05
                    -0.000308336    -1.29926e-05         0.052234       -0.127013       0.00019062     -6.3178e-05         0.156261        -0.97799
                        0.221215       -0.963825      0.000242951    -0.000103467     -0.000458893        0.147794     -0.000345247     7.19316e-05
                     3.69953e-05     0.000136511         0.156332       -0.977823       -0.0002479    -0.000131634       0.00998102        0.136999
281762                 0.0639919       -0.133203     -0.000311849     3.98523e-05         0.220768       -0.963841       0.00022786     6.01069e-05
                    -0.000308331    -1.29388e-05        0.0522221       -0.127015       0.00019061    -6.31922e-05         0.156029       -0.978028
                        0.220988       -0.963877      0.000242906    -0.000103572     -0.000401397        0.147792     -0.000345173     7.20719e-05
