! TOUCHSTONE file generated by CST MICROWAVE STUDIO
! Date and time: Wed Oct 15 17:35:26 2025
! Project name: Teste_Macro_Metasurface_Nanopilar.cst
! Parameters = {H=600; L_x=200; L_y=180; Lambda=1064; Max_L=200; Min_L=70; PathPara=1; Phi=0; Step_L=10; Theta=0; p=520; phaseX=180; phaseY=0}
! Header version: 2018
! Port assignment regex: !\s*Touchstone port\s*([0-9]+)\s*=\s*(CST MWS port|CST DS port)\s*([0-9]+|Zmin|Zmax)\s*\(\"(.*)\"\)(\s*mode\s*([0-9]+))?.*
! Touchstone port assignment:
! Touchstone port 1 = CST MWS port Zmax ("") mode 1
! Touchstone port 2 = CST MWS port Zmax ("") mode 2
! Touchstone port 3 = CST MWS port Zmin ("") mode 1
! Touchstone port 4 = CST MWS port Zmin ("") mode 2
! S-Parameters are not renormalized. Each port impedance will be approximated by the real part at minimum frequency. The values are described via the [Reference] keyword.
! Default impedance is overridden by [Reference]
[Version] 2.0
# GHz S RI R 376.73
[Number of Ports] 4
[Reference]
376.73 376.73 259.888 259.888 
[Number of Frequencies] 51
[Network Data]
281700                  0.311321        0.142295      0.000114602    -4.83235e-05          0.15829         -0.9231     -0.000523597     0.000215499
                     0.000140515    -5.63131e-05         0.507934        0.251454     -0.000473223    -0.000151129         0.107147       -0.807925
                        0.158452       -0.923586     -0.000378405    -0.000206653         0.339391      -0.0314744     -3.98285e-05      -0.0004251
                    -0.000499402     0.000194358         0.106994       -0.807875      6.07776e-05    -0.000302981         0.554856       -0.100564
281702                  0.311338        0.142283      0.000114828    -4.81975e-05         0.158032       -0.923139      -0.00051993     0.000214231
                      0.00014059     -5.6019e-05         0.507914        0.251345     -0.000473823    -0.000151126         0.106842       -0.808019
                         0.15819       -0.923626     -0.000378683    -0.000206597         0.339387      -0.0316477     -4.50684e-05    -0.000422119
                    -0.000499639     0.000194074         0.106694       -0.807967      6.08512e-05    -0.000302923         0.554727       -0.100901
281704                  0.311356        0.142272      0.000115057     -4.8064e-05         0.157775       -0.923179     -0.000516329     0.000212932
                     0.000140661    -5.57195e-05         0.507894        0.251235     -0.000474427    -0.000151118         0.106537       -0.808113
                        0.157929       -0.923666     -0.000378969    -0.000206549         0.339382       -0.031821     -5.02278e-05    -0.000418961
                    -0.000499907     0.000193798         0.106394       -0.808058      6.09246e-05    -0.000302862         0.554598       -0.101238
281706                  0.311374        0.142261       0.00011529    -4.79221e-05         0.157517       -0.923218     -0.000512796     0.000211604
                     0.000140729    -5.54138e-05         0.507875        0.251126     -0.000475035    -0.000151104         0.106233       -0.808206
                        0.157667       -0.923706     -0.000379265     -0.00020651         0.339377      -0.0319944     -5.52986e-05    -0.000415626
                    -0.000500209     0.000193531         0.106094        -0.80815      6.09977e-05    -0.000302797         0.554469       -0.101574
281708                  0.311392         0.14225      0.000115529    -4.77703e-05         0.157259       -0.923258      -0.00050933     0.000210249
                     0.000140793     -5.5101e-05         0.507855        0.251016     -0.000475647    -0.000151083         0.105928       -0.808299
                        0.157405       -0.923746     -0.000379574     -0.00020648         0.339372      -0.0321678     -6.02719e-05    -0.000412113
                    -0.000500554     0.000193276         0.105793       -0.808241      6.10706e-05    -0.000302729          0.55434       -0.101911
281710                  0.311409        0.142238      0.000115774     -4.7607e-05            0.157       -0.923297     -0.000505934     0.000208871
                     0.000140853    -5.47798e-05         0.507835        0.250907     -0.000476263    -0.000151054         0.105624       -0.808392
                        0.157143       -0.923785     -0.000379896    -0.000206461         0.339367      -0.0323412     -6.51383e-05     -0.00040842
                    -0.000500947     0.000193034         0.105493       -0.808333      6.11432e-05    -0.000302656         0.554211       -0.102247
281712                  0.311427        0.142227      0.000116026      -4.743e-05         0.156742       -0.923336     -0.000502606     0.000207472
                     0.000140907    -5.44487e-05         0.507815        0.250798     -0.000476883    -0.000151017         0.105319       -0.808484
                        0.156881       -0.923824     -0.000380236    -0.000206455         0.339362      -0.0325146     -6.98881e-05    -0.000404549
                    -0.000501399     0.000192808         0.105192       -0.808423      6.12152e-05    -0.000302578         0.554082       -0.102582
281714                  0.311445        0.142216      0.000116288    -4.72367e-05         0.156484       -0.923375     -0.000499348     0.000206057
                     0.000140957    -5.41059e-05         0.507796        0.250689     -0.000477507     -0.00015097         0.105015       -0.808577
                        0.156619       -0.923862     -0.000380596    -0.000206466         0.339356       -0.032688     -7.45111e-05      -0.0004005
                    -0.000501922     0.000192602         0.104891       -0.808514      6.12866e-05    -0.000302492         0.553952       -0.102918
281716                  0.311463        0.142204      0.000116561    -4.70234e-05         0.156225       -0.923414     -0.000496158     0.000204631
                     0.000140999     -5.3749e-05         0.507776         0.25058     -0.000478136    -0.000150912         0.104711       -0.808669
                        0.156357         -0.9239     -0.000380982    -0.000206495         0.339351      -0.0328615     -7.89967e-05    -0.000396278
                    -0.000502532      0.00019242         0.104591       -0.808604      6.13573e-05    -0.000302399         0.553823       -0.103253
281718                   0.31148        0.142193      0.000116849    -4.67856e-05         0.155967       -0.923453     -0.000493038     0.000203198
                     0.000141034    -5.33749e-05         0.507756        0.250471     -0.000478768    -0.000150842         0.104406       -0.808761
                        0.156095       -0.923938     -0.000381401    -0.000206546         0.339345       -0.033035     -8.33347e-05    -0.000391885
                     -0.00050325      0.00019227          0.10429       -0.808694      6.14269e-05    -0.000302294         0.553693       -0.103588
281720                  0.311498        0.142181      0.000117158    -4.65167e-05         0.155708       -0.923492     -0.000489984     0.000201766
                     0.000141061    -5.29794e-05         0.507736        0.250363     -0.000479404    -0.000150758         0.104102       -0.808852
                        0.155833       -0.923975     -0.000381863    -0.000206626          0.33934      -0.0332085     -8.75154e-05    -0.000387328
                    -0.000504105     0.000192162         0.103988       -0.808784      6.14952e-05    -0.000302177         0.553564       -0.103923
281722                  0.311516        0.142169      0.000117496    -4.62082e-05         0.155449       -0.923531     -0.000486995     0.000200343
                     0.000141079     -5.2557e-05         0.507716        0.250254     -0.000480043    -0.000150659         0.103798       -0.808943
                         0.15557       -0.924011     -0.000382381    -0.000206739         0.339334      -0.0333821       -9.153e-05    -0.000382616
                    -0.000505138     0.000192111         0.103687       -0.808873      6.15619e-05    -0.000302043         0.553434       -0.104258
281724                  0.311534        0.142158      0.000117876    -4.58479e-05          0.15519        -0.92357     -0.000484068      0.00019894
                     0.000141085    -5.21002e-05         0.507697        0.250146     -0.000480684    -0.000150541         0.103494       -0.809035
                        0.155308       -0.924046     -0.000382976    -0.000206895         0.339328      -0.0335557     -9.53719e-05    -0.000377759
                    -0.000506406     0.000192139         0.103386       -0.808962      6.16265e-05    -0.000301887         0.553304       -0.104592
281726                  0.311552        0.142146      0.000118322    -4.54186e-05         0.154931       -0.923609     -0.000481198     0.000197568
                      0.00014108    -5.15984e-05         0.507677        0.250037     -0.000481326    -0.000150402          0.10319       -0.809125
                        0.155045       -0.924081     -0.000383684    -0.000207104         0.339322      -0.0337293     -9.90379e-05    -0.000372772
                    -0.000507998     0.000192286         0.103084       -0.809051      6.16885e-05    -0.000301703         0.553174       -0.104926
281728                  0.311569        0.142134      0.000118875    -4.48966e-05         0.154672       -0.923648     -0.000478377     0.000196244
                     0.000141062    -5.10367e-05         0.507657        0.249929     -0.000481968    -0.000150239         0.102886       -0.809216
                        0.154783       -0.924114     -0.000384558    -0.000207376         0.339316       -0.033903      -0.00010253    -0.000367674
                    -0.000510048     0.000192619         0.102782       -0.809139      6.17475e-05     -0.00030148         0.553044        -0.10526
281730                  0.311587        0.142121      0.000119619    -4.42521e-05         0.154413       -0.923686     -0.000475597     0.000194987
                     0.000141034    -5.03929e-05         0.507637        0.249821     -0.000482607    -0.000150048         0.102582       -0.809307
                         0.15452       -0.924145     -0.000385699     -0.00020772         0.339309      -0.0340767     -0.000105856    -0.000362486
                    -0.000512779     0.000193263          0.10248       -0.809227       6.1803e-05    -0.000301202         0.552914       -0.105594
281732                  0.311605        0.142108      0.000120731    -4.34668e-05         0.154154       -0.923725     -0.000472844     0.000193825
                     0.000141002    -4.96343e-05         0.507618        0.249713     -0.000483241    -0.000149825         0.102279       -0.809397
                        0.154258       -0.924173     -0.000387293    -0.000208116         0.339303      -0.0342505     -0.000109039    -0.000357236
                    -0.000516581     0.000194483         0.102178       -0.809314      6.18554e-05    -0.000300844         0.552783       -0.105927
281734                  0.311622        0.142094      0.000122598    -4.26425e-05         0.153895       -0.923764       -0.0004701     0.000192795
                     0.000140984    -4.87109e-05         0.507598        0.249605     -0.000483864    -0.000149564         0.101975       -0.809487
                        0.153997       -0.924197     -0.000389712    -0.000208429         0.339297      -0.0344245     -0.000112113     -0.00035196
                    -0.000522187     0.000196907         0.101876         -0.8094      6.19074e-05    -0.000300365         0.552653       -0.106261
281736                  0.311638        0.142078      0.000125919    -4.25617e-05         0.153635       -0.923802     -0.000467343     0.000191946
                     0.000141029    -4.75489e-05         0.507578        0.249498     -0.000484469    -0.000149259         0.101672       -0.809577
                        0.153739       -0.924213      -0.00039368    -0.000208002          0.33929      -0.0345986     -0.000115143      -0.0003467
                    -0.000531074     0.000202342         0.101573       -0.809485      6.19688e-05    -0.000299692         0.552523       -0.106594
281738                  0.311646        0.142055       0.00012994    -4.59876e-05         0.153376       -0.923841     -0.000464541     0.000191355
                     0.000141256     -4.6048e-05         0.507559         0.24939     -0.000485048    -0.000148901         0.101368       -0.809667
                        0.153493       -0.924213     -0.000399638    -0.000204055         0.339284      -0.0347729     -0.000118226    -0.000341514
                    -0.000545835     0.000217527         0.101269       -0.809567      6.20741e-05     -0.00029868         0.552392       -0.106927
281740                  0.311623        0.142067      0.000128743    -5.18931e-05         0.153116        -0.92388     -0.000461655     0.000191137
                     0.000141941    -4.41262e-05         0.507539        0.249283     -0.000485586     -0.00014848         0.101065       -0.809758
                        0.153299       -0.924193     -0.000400626    -0.000192418         0.339277      -0.0349473     -0.000121525    -0.000336488
                    -0.000555001     0.000272894         0.100965       -0.809643      6.23515e-05    -0.000297019         0.552262       -0.107259
281742                  0.311675        0.142079      0.000124749    -5.32688e-05         0.152856       -0.923919     -0.000458639     0.000191479
                     0.000143615    -4.19452e-05         0.507519        0.249175      -0.00048606    -0.000147983         0.100762       -0.809848
                        0.153211       -0.924307     -0.000390236    -0.000187197         0.339272      -0.0351215       -0.0001253    -0.000331757
                    -0.000442075     0.000298335         0.100664       -0.809701      6.33771e-05    -0.000293967         0.552131       -0.107592
281744                  0.311702        0.142061      0.000122552     -5.2343e-05         0.152596       -0.923958     -0.000455458     0.000192704
                     0.000146739    -4.04435e-05         0.507499        0.249069      -0.00048643    -0.000147393          0.10046       -0.809938
                        0.152873       -0.924511     -0.000384227    -0.000190609         0.339266      -0.0352951     -0.000129987    -0.000327581
                    -0.000434379     0.000221914         0.100478       -0.809714      6.85302e-05    -0.000288275            0.552       -0.107924
281746                  0.311723        0.142046       0.00012165    -5.12323e-05         0.152336       -0.923998     -0.000452152     0.000195401
                     0.000150332    -4.10181e-05         0.507479        0.248963     -0.000486626    -0.000146686         0.100158        -0.81003
                        0.152531       -0.924549     -0.000382593    -0.000193909          0.33926      -0.0354681     -0.000136335    -0.000324536
                    -0.000452841     0.000201341         0.100147       -0.809987      8.64694e-05    -0.000294086          0.55187       -0.108257
281748                  0.311742        0.142033      0.000121344    -5.02983e-05         0.152077        -0.92404     -0.000449105     0.000200696
                     0.000152339    -4.30942e-05         0.507472         0.24886     -0.000486492    -0.000145835        0.0998578       -0.810122
                        0.152237       -0.924567     -0.000382412    -0.000196089         0.339253      -0.0356411     -0.000145624    -0.000324122
                    -0.000463809     0.000194926        0.0997991       -0.810059      7.91139e-05    -0.000310666         0.551739       -0.108589
281750                   0.31176         0.14202       0.00012132    -4.95297e-05         0.151822        -0.92408     -0.000448112     0.000210623
                     0.000152622    -4.47535e-05         0.507444        0.248744     -0.000485612    -0.000144859        0.0995603       -0.810216
                        0.151963       -0.924588     -0.000382701    -0.000197543         0.339246      -0.0358142     -0.000159511    -0.000330882
                    -0.000470499     0.000192343        0.0994842       -0.810135      7.21697e-05    -0.000310841         0.551608       -0.108921
281752                  0.311778        0.142007      0.000121445    -4.88749e-05         0.151566       -0.924116     -0.000456027     0.000226624
                     0.000152201    -4.52866e-05         0.507423        0.248638      -0.00048261    -0.000144549        0.0992708       -0.810311
                        0.151697       -0.924611     -0.000383159    -0.000198575         0.339239      -0.0359874     -0.000173904    -0.000358507
                    -0.000474934     0.000191177        0.0991764       -0.810216      6.97276e-05    -0.000309747         0.551477       -0.109254
281754                  0.311796        0.141995      0.000121657    -4.82909e-05         0.151308       -0.924152     -0.000484866     0.000235062
                     0.000151606    -4.47559e-05         0.507403        0.248531     -0.000479769    -0.000153044        0.0989984       -0.810393
                        0.151437       -0.924637     -0.000383691     -0.00019936         0.339232      -0.0361608     -0.000144945    -0.000411457
                    -0.000478074     0.000190683        0.0988709       -0.810298      6.88741e-05    -0.000309025         0.551347       -0.109588
281756                  0.311813        0.141982      0.000121927    -4.77457e-05         0.151048       -0.924189     -0.000510312     0.000211036
                     0.000150735    -4.32021e-05         0.507384        0.248425     -0.000490101    -0.000152977        0.0987064       -0.810435
                         0.15118       -0.924666     -0.000384263    -0.000200002         0.339224      -0.0363343     -7.73662e-05    -0.000399971
                    -0.000480401     0.000190587        0.0985665       -0.810381      6.87761e-05    -0.000308669         0.551226       -0.109927
281758                   0.31183         0.14197      0.000122241    -4.72143e-05         0.150789       -0.924226     -0.000507973      0.00018546
                     0.000148759     -4.0696e-05         0.507364        0.248318      -0.00049139    -0.000148861        0.0983747       -0.810504
                        0.150927       -0.924697     -0.000384867    -0.000200567         0.339217      -0.0365078     -5.91812e-05    -0.000361567
                    -0.000482171     0.000190781        0.0982627       -0.810465      6.92346e-05    -0.000308617         0.551097       -0.110229
281760                  0.311846        0.141958      0.000122589    -4.66756e-05         0.150529       -0.924263     -0.000498613     0.000173131
                     0.000144174    -3.87514e-05         0.507345        0.248212     -0.000491091    -0.000146812        0.0980555       -0.810594
                        0.150675       -0.924732     -0.000385503    -0.000201104         0.339209      -0.0366814     -5.99322e-05     -0.00033901
                    -0.000483514     0.000191227        0.0979592       -0.810548      7.03528e-05    -0.000308855         0.550955       -0.110566
281762                  0.311862        0.141946      0.000122968    -4.61092e-05          0.15027       -0.924301     -0.000490832     0.000167597
                      0.00013876    -4.10717e-05         0.507326        0.248105     -0.000490541    -0.000145627        0.0977458       -0.810686
                        0.150423        -0.92477     -0.000386174    -0.000201651         0.339201       -0.036855      -6.2988e-05    -0.000326345
