! TOUCHSTONE file generated by CST MICROWAVE STUDIO
! Date and time: Wed Oct 15 17:28:24 2025
! Project name: Teste_Macro_Metasurface_Nanopilar.cst
! Parameters = {H=600; L_x=80; L_y=105; Lambda=1064; Max_L=200; Min_L=70; PathPara=1; Phi=0; Step_L=10; Theta=0; p=520; phaseX=180; phaseY=0}
! Header version: 2018
! Port assignment regex: !\s*Touchstone port\s*([0-9]+)\s*=\s*(CST MWS port|CST DS port)\s*([0-9]+|Zmin|Zmax)\s*\(\"(.*)\"\)(\s*mode\s*([0-9]+))?.*
! Touchstone port assignment:
! Touchstone port 1 = CST MWS port Zmax ("") mode 1
! Touchstone port 2 = CST MWS port Zmax ("") mode 2
! Touchstone port 3 = CST MWS port Zmin ("") mode 1
! Touchstone port 4 = CST MWS port Zmin ("") mode 2
! S-Parameters are not renormalized. Each port impedance will be approximated by the real part at minimum frequency. The values are described via the [Reference] keyword.
! Default impedance is overridden by [Reference]
[Version] 2.0
# GHz S RI R 376.73
[Number of Ports] 4
[Reference]
376.73 376.73 259.888 259.888 
[Number of Frequencies] 51
[Network Data]
281700               0.000228243      -0.0330297      4.98674e-05    -0.000138118         -0.41577       -0.907734      7.49481e-06      2.4838e-05
                    -0.000127727     2.87752e-06          0.02201       -0.108128     -7.58624e-05    -6.32047e-05       -0.0218531       -0.992969
                       -0.415242       -0.908019     -6.40555e-05     -1.3759e-05        0.0248483       0.0218662      8.12483e-05     0.000103836
                     2.56174e-05    -0.000136763       -0.0216179       -0.993363     -5.24116e-05     8.95466e-05         0.026652        0.107155
281702                0.00022094      -0.0330201      4.97946e-05    -0.000138145         -0.41601       -0.907625      7.47205e-06     2.49088e-05
                    -0.000127729     2.87723e-06        0.0219975       -0.108126     -7.59148e-05    -6.32092e-05       -0.0220944       -0.992965
                       -0.415481       -0.907909     -6.40336e-05    -1.37849e-05        0.0248478       0.0218523      8.12619e-05       0.0001038
                     2.54921e-05    -0.000136766       -0.0218593       -0.993358     -5.24072e-05     8.96471e-05        0.0266916        0.107141
281704               0.000213638      -0.0330105      4.97219e-05    -0.000138172         -0.41625       -0.907515      7.44872e-06     2.49797e-05
                     -0.00012773     2.87698e-06        0.0219851       -0.108125     -7.59672e-05    -6.32138e-05       -0.0223357        -0.99296
                       -0.415721         -0.9078     -6.40117e-05    -1.38109e-05        0.0248472       0.0218385      8.12753e-05     0.000103764
                     2.53668e-05    -0.000136769       -0.0221007       -0.993353     -5.24029e-05     8.97478e-05        0.0267311        0.107127
281706               0.000206338      -0.0330009      4.96491e-05    -0.000138199        -0.416489       -0.907405      7.42485e-06     2.50509e-05
                    -0.000127731     2.87677e-06        0.0219726       -0.108123     -7.60195e-05    -6.32185e-05       -0.0225771       -0.992954
                        -0.41596       -0.907691     -6.39898e-05     -1.3837e-05        0.0248467       0.0218246      8.12885e-05     0.000103727
                     2.52415e-05    -0.000136772       -0.0223421       -0.993348     -5.23985e-05     8.98486e-05        0.0267707        0.107113
281708               0.000199039      -0.0329913      4.95764e-05    -0.000138225        -0.416729       -0.907295      7.40042e-06     2.51222e-05
                    -0.000127732      2.8766e-06        0.0219601       -0.108121     -7.60718e-05    -6.32233e-05       -0.0228184       -0.992949
                       -0.416199       -0.907581      -6.3968e-05     -1.3863e-05        0.0248462       0.0218108      8.13017e-05     0.000103691
                     2.51163e-05    -0.000136775       -0.0225835       -0.993343     -5.23941e-05     8.99494e-05        0.0268102        0.107098
281710               0.000191742      -0.0329817      4.95037e-05    -0.000138252        -0.416969       -0.907185      7.37545e-06     2.51937e-05
                    -0.000127733     2.87648e-06        0.0219477        -0.10812      -7.6124e-05    -6.32281e-05       -0.0230597       -0.992944
                       -0.416439       -0.907471     -6.39463e-05    -1.38891e-05        0.0248456        0.021797      8.13146e-05     0.000103654
                     2.49911e-05    -0.000136778       -0.0228249       -0.993338     -5.23896e-05     9.00504e-05        0.0268497        0.107084
281712               0.000184446      -0.0329721       4.9431e-05    -0.000138279        -0.417208       -0.907075      7.34995e-06     2.52652e-05
                    -0.000127734     2.87641e-06        0.0219352       -0.108118     -7.61762e-05    -6.32331e-05       -0.0233011       -0.992939
                       -0.416678       -0.907362     -6.39245e-05    -1.39152e-05        0.0248451       0.0217831      8.13273e-05     0.000103617
                     2.48659e-05    -0.000136781       -0.0230663       -0.993333     -5.23852e-05     9.01514e-05        0.0268893         0.10707
281714               0.000177151      -0.0329625      4.93584e-05    -0.000138305        -0.417448       -0.906965      7.32396e-06     2.53368e-05
                    -0.000127735     2.87638e-06        0.0219227       -0.108116     -7.62284e-05    -6.32381e-05       -0.0235424       -0.992934
                       -0.416917       -0.907252     -6.39029e-05    -1.39413e-05        0.0248445       0.0217693      8.13399e-05      0.00010358
                     2.47407e-05    -0.000136784       -0.0233077       -0.993328     -5.23808e-05     9.02526e-05        0.0269288        0.107056
281716               0.000169858      -0.0329529      4.92858e-05    -0.000138332        -0.417688       -0.906855      7.29748e-06     2.54084e-05
                    -0.000127736     2.87641e-06        0.0219102       -0.108115     -7.62804e-05    -6.32432e-05       -0.0237837       -0.992928
                       -0.417157       -0.907142     -6.38812e-05    -1.39675e-05        0.0248439       0.0217555      8.13523e-05     0.000103542
                     2.46155e-05    -0.000136786       -0.0235491       -0.993323     -5.23763e-05     9.03538e-05        0.0269683        0.107042
281718               0.000162566      -0.0329433      4.92131e-05    -0.000138358        -0.417927       -0.906745      7.27058e-06       2.548e-05
                    -0.000127737     2.87648e-06        0.0218978       -0.108113     -7.63325e-05    -6.32484e-05       -0.0240251       -0.992923
                       -0.417396       -0.907032     -6.38596e-05    -1.39937e-05        0.0248433       0.0217417      8.13648e-05     0.000103503
                     2.44903e-05    -0.000136789       -0.0237905       -0.993318     -5.23718e-05     9.04551e-05        0.0270078        0.107028
281720               0.000155276      -0.0329337      4.91406e-05    -0.000138385        -0.418167       -0.906635      7.24329e-06     2.55515e-05
                    -0.000127738     2.87662e-06        0.0218853       -0.108112     -7.63845e-05    -6.32537e-05       -0.0242664       -0.992917
                       -0.417635       -0.906922     -6.38381e-05    -1.40199e-05        0.0248427       0.0217278      8.13778e-05     0.000103462
                     2.43652e-05    -0.000136791       -0.0240319       -0.993312     -5.23673e-05     9.05565e-05        0.0270473        0.107014
281722               0.000147987      -0.0329241       4.9068e-05    -0.000138411        -0.418406       -0.906525      7.21566e-06      2.5623e-05
                    -0.000127739      2.8768e-06        0.0218728        -0.10811     -7.64364e-05    -6.32591e-05       -0.0245077       -0.992912
                       -0.417874       -0.906812     -6.38166e-05    -1.40461e-05        0.0248421        0.021714      8.13921e-05      0.00010342
                       2.424e-05    -0.000136794       -0.0242733       -0.993307     -5.23628e-05      9.0658e-05        0.0270868        0.106999
281724               0.000140699      -0.0329145      4.89955e-05    -0.000138437        -0.418646       -0.906414      7.18777e-06     2.56943e-05
                     -0.00012774     2.87705e-06        0.0218604       -0.108108     -7.64884e-05    -6.32645e-05       -0.0247491       -0.992906
                       -0.418114       -0.906702     -6.37951e-05    -1.40724e-05        0.0248415       0.0217002      8.14092e-05     0.000103377
                     2.41148e-05    -0.000136796       -0.0245147       -0.993302     -5.23583e-05     9.07596e-05        0.0271263        0.106985
281726               0.000133413      -0.0329049       4.8923e-05    -0.000138463        -0.418885       -0.906304      7.15966e-06     2.57656e-05
                    -0.000127741     2.87736e-06        0.0218479       -0.108107     -7.65402e-05      -6.327e-05       -0.0249904       -0.992901
                       -0.418353       -0.906592     -6.37737e-05    -1.40987e-05        0.0248409       0.0216864      8.14301e-05     0.000103336
                     2.39897e-05    -0.000136798       -0.0247561       -0.993296     -5.23538e-05     9.08613e-05        0.0271657        0.106971
281728               0.000126129      -0.0328953      4.88505e-05     -0.00013849        -0.419125       -0.906193      7.13141e-06     2.58367e-05
                    -0.000127742     2.87773e-06        0.0218354       -0.108105      -7.6592e-05    -6.32756e-05       -0.0252317       -0.992895
                       -0.418592       -0.906482     -6.37523e-05    -1.41251e-05        0.0248403       0.0216726      8.14536e-05     0.000103298
                     2.38645e-05    -0.000136801       -0.0249975       -0.993291     -5.23492e-05      9.0963e-05        0.0272052        0.106957
281730               0.000118846      -0.0328857       4.8778e-05    -0.000138516        -0.419364       -0.906083       7.1031e-06     2.59077e-05
                    -0.000127742     2.87817e-06        0.0218229       -0.108103     -7.66438e-05    -6.32812e-05       -0.0254731       -0.992889
                       -0.418831       -0.906371      -6.3731e-05    -1.41514e-05        0.0248397       0.0216589      8.14763e-05     0.000103265
                     2.37392e-05    -0.000136803       -0.0252389       -0.993285     -5.23447e-05     9.10649e-05        0.0272447        0.106942
281732               0.000111564      -0.0328761      4.87056e-05    -0.000138542        -0.419604       -0.905972      7.07479e-06     2.59786e-05
                    -0.000127743     2.87868e-06        0.0218105       -0.108102     -7.66956e-05    -6.32869e-05       -0.0257144       -0.992883
                        -0.41907       -0.906261     -6.37097e-05    -1.41778e-05         0.024839       0.0216451      8.14958e-05     0.000103234
                      2.3614e-05    -0.000136805       -0.0254803        -0.99328     -5.23401e-05     9.11668e-05        0.0272841        0.106928
281734               0.000104284      -0.0328665      4.86331e-05    -0.000138568        -0.419843       -0.905861      7.04655e-06     2.60495e-05
                    -0.000127744     2.87927e-06         0.021798         -0.1081     -7.67473e-05    -6.32927e-05       -0.0259557       -0.992877
                       -0.419309       -0.906151     -6.36885e-05    -1.42043e-05        0.0248384       0.0216313      8.15124e-05     0.000103204
                     2.34887e-05    -0.000136808       -0.0257217       -0.993274     -5.23355e-05     9.12688e-05        0.0273236        0.106914
281736               9.70051e-05      -0.0328569      4.85607e-05    -0.000138594        -0.420082       -0.905751      7.01845e-06     2.61202e-05
                    -0.000127744     2.87994e-06        0.0217855       -0.108098     -7.67989e-05    -6.32985e-05        -0.026197       -0.992871
                       -0.419548        -0.90604     -6.36673e-05    -1.42308e-05        0.0248377       0.0216175       8.1527e-05     0.000103172
                     2.33634e-05     -0.00013681       -0.0259631       -0.993268     -5.23309e-05      9.1371e-05         0.027363          0.1069
281738               8.97278e-05      -0.0328472      4.84882e-05     -0.00013862        -0.420322        -0.90564      6.99055e-06      2.6191e-05
                    -0.000127745     2.88069e-06        0.0217731       -0.108097     -7.68505e-05    -6.33044e-05       -0.0264384       -0.992865
                       -0.419787        -0.90593     -6.36462e-05    -1.42573e-05        0.0248371       0.0216037      8.15406e-05      0.00010314
                      2.3238e-05    -0.000136812       -0.0262045       -0.993262     -5.23263e-05     9.14731e-05        0.0274024        0.106885
281740               8.24519e-05      -0.0328376      4.84157e-05    -0.000138646        -0.420561       -0.905529      6.96291e-06     2.62617e-05
                    -0.000127745     2.88155e-06        0.0217606       -0.108095     -7.69021e-05    -6.33104e-05       -0.0266797       -0.992859
                       -0.420026       -0.905819     -6.36252e-05    -1.42839e-05        0.0248364         0.02159      8.15537e-05     0.000103107
                     2.31127e-05    -0.000136814       -0.0264459       -0.993257     -5.23216e-05     9.15754e-05        0.0274419        0.106871
281742               7.51774e-05       -0.032828      4.83429e-05    -0.000138672          -0.4208       -0.905418      6.93556e-06     2.63325e-05
                    -0.000127746     2.88252e-06        0.0217481       -0.108093     -7.69536e-05    -6.33164e-05        -0.026921       -0.992853
                       -0.420265       -0.905708     -6.36042e-05    -1.43106e-05        0.0248357       0.0215762      8.15667e-05     0.000103073
                     2.29872e-05    -0.000136816       -0.0266873       -0.993251      -5.2317e-05     9.16778e-05        0.0274813        0.106857
281744               6.79044e-05      -0.0328184      4.82694e-05    -0.000138699        -0.421039       -0.905307      6.90856e-06     2.64033e-05
                    -0.000127746     2.88363e-06        0.0217357       -0.108092     -7.70051e-05    -6.33225e-05       -0.0271623       -0.992847
                       -0.420504       -0.905598     -6.35833e-05    -1.43374e-05         0.024835       0.0215624      8.15796e-05     0.000103039
                     2.28618e-05    -0.000136818       -0.0269287       -0.993245     -5.23123e-05     9.17802e-05        0.0275207        0.106842
281746               6.06329e-05      -0.0328088      4.81923e-05    -0.000138728        -0.421279       -0.905196      6.88193e-06     2.64742e-05
                    -0.000127746     2.88492e-06        0.0217232        -0.10809     -7.70566e-05    -6.33287e-05       -0.0274037       -0.992841
                       -0.420743       -0.905487     -6.35629e-05    -1.43647e-05        0.0248344       0.0215487      8.15925e-05     0.000103004
                     2.27363e-05    -0.000136821       -0.0271701       -0.993239     -5.23076e-05     9.18827e-05        0.0275601        0.106828
281748               5.33628e-05      -0.0327991      4.81098e-05    -0.000138712        -0.421518       -0.905085       6.8557e-06     2.65453e-05
                    -0.000127746     2.88648e-06        0.0217106       -0.108088      -7.7108e-05    -6.33349e-05        -0.027645       -0.992834
                       -0.420982       -0.905376     -6.35564e-05    -1.43882e-05        0.0248337       0.0215349      8.16055e-05     0.000102969
                     2.26109e-05    -0.000136823       -0.0274123       -0.993232      -5.2303e-05     9.19854e-05        0.0275995        0.106813
281750               4.60942e-05      -0.0327895      4.80602e-05    -0.000138763        -0.421757       -0.904973      6.82988e-06     2.66165e-05
                    -0.000127746     2.88848e-06        0.0216983       -0.108087     -7.71593e-05    -6.33412e-05       -0.0278863       -0.992828
                       -0.421221       -0.905265     -6.35195e-05    -1.44147e-05        0.0248329       0.0215212      8.16185e-05     0.000102934
                     2.24857e-05    -0.000136826       -0.0276528       -0.993226     -5.22983e-05     9.20881e-05        0.0276389        0.106799
281752               3.88269e-05      -0.0327799      4.79872e-05    -0.000138793        -0.421996       -0.904862      6.80447e-06     2.66879e-05
                    -0.000127745     2.89133e-06        0.0216858       -0.108085     -7.72106e-05    -6.33476e-05       -0.0281276       -0.992822
                       -0.421459       -0.905154     -6.34989e-05    -1.44424e-05        0.0248322       0.0215075      8.16315e-05     0.000102898
                     2.23609e-05    -0.000136829       -0.0278942        -0.99322     -5.22935e-05     9.21909e-05        0.0276783        0.106785
281754                3.1561e-05      -0.0327703      4.79146e-05     -0.00013882        -0.422235       -0.904751      6.77948e-06     2.67595e-05
                    -0.000127742     2.89599e-06        0.0216733       -0.108083     -7.72618e-05    -6.33541e-05       -0.0283689       -0.992815
                       -0.421698       -0.905043     -6.34783e-05    -1.44694e-05        0.0248315       0.0214937      8.16446e-05     0.000102863
                     2.22373e-05    -0.000136834       -0.0281356       -0.993214     -5.22888e-05     9.22938e-05        0.0277176         0.10677
281756               2.42961e-05      -0.0327606      4.78424e-05    -0.000138846        -0.422474       -0.904639       6.7549e-06     2.68313e-05
                     -0.00012773     2.89866e-06        0.0216609       -0.108082     -7.73126e-05    -6.33609e-05       -0.0286103       -0.992809
                       -0.421937       -0.904932     -6.34576e-05    -1.44964e-05        0.0248308         0.02148      8.16576e-05     0.000102827
                     2.21136e-05     -0.00013685        -0.028377       -0.993208     -5.22842e-05     9.23975e-05         0.027757        0.106756
281758               1.70254e-05      -0.0327509      4.77704e-05    -0.000138872        -0.422713       -0.904528      6.73071e-06     2.69032e-05
                    -0.000127729     2.88331e-06        0.0216484        -0.10808      -7.7365e-05    -6.33646e-05       -0.0288516       -0.992802
                       -0.422176        -0.90482     -6.34369e-05    -1.45233e-05        0.0248301       0.0214663      8.16707e-05     0.000102791
                     2.19525e-05    -0.000136843       -0.0286184       -0.993201     -5.22791e-05     9.24986e-05        0.0277964        0.106741
281760               9.77565e-06      -0.0327414      4.76984e-05    -0.000138898        -0.422952       -0.904416      6.70689e-06     2.69753e-05
                    -0.000127736     2.88339e-06        0.0216359       -0.108078     -7.74161e-05    -6.33727e-05       -0.0290929       -0.992795
                       -0.422414       -0.904709     -6.34163e-05    -1.45503e-05        0.0248293       0.0214526      8.16838e-05     0.000102755
                     2.18371e-05    -0.000136833       -0.0288597       -0.993195     -5.22744e-05     9.26022e-05        0.0278357        0.106727
281762               2.51498e-06      -0.0327317      4.76265e-05    -0.000138923        -0.423191       -0.904305      6.68342e-06     2.70476e-05
                    -0.000127737     2.88573e-06        0.0216235       -0.108077     -7.74671e-05    -6.33795e-05       -0.0293342       -0.992789
                       -0.422653       -0.904598     -6.33958e-05    -1.45773e-05        0.0248286       0.0214388      8.16968e-05     0.000102719
