! TOUCHSTONE file generated by CST MICROWAVE STUDIO
! Date and time: Wed Oct 15 17:28:04 2025
! Project name: Teste_Macro_Metasurface_Nanopilar.cst
! Parameters = {H=600; L_x=75; L_y=85; Lambda=1064; Max_L=200; Min_L=70; PathPara=1; Phi=0; Step_L=10; Theta=0; p=520; phaseX=180; phaseY=0}
! Header version: 2018
! Port assignment regex: !\s*Touchstone port\s*([0-9]+)\s*=\s*(CST MWS port|CST DS port)\s*([0-9]+|Zmin|Zmax)\s*\(\"(.*)\"\)(\s*mode\s*([0-9]+))?.*
! Touchstone port assignment:
! Touchstone port 1 = CST MWS port Zmax ("") mode 1
! Touchstone port 2 = CST MWS port Zmax ("") mode 2
! Touchstone port 3 = CST MWS port Zmin ("") mode 1
! Touchstone port 4 = CST MWS port Zmin ("") mode 2
! S-Parameters are not renormalized. Each port impedance will be approximated by the real part at minimum frequency. The values are described via the [Reference] keyword.
! Default impedance is overridden by [Reference]
[Version] 2.0
# GHz S RI R 376.73
[Number of Ports] 4
[Reference]
376.73 376.73 259.888 259.888 
[Number of Frequencies] 51
[Network Data]
281700                 0.0375766       -0.116818      9.84574e-06    -0.000245704        0.0707747       -0.989554      0.000248795    -6.76049e-06
                     4.07722e-05    -0.000232512        0.0502132       -0.127341      0.000163669     0.000184653         0.154813       -0.978031
                       0.0707625       -0.989344      0.000145261     0.000207979        0.0204706        0.120999     -7.40156e-05     0.000353392
                     0.000204502    -1.83502e-05         0.154683       -0.978136      -0.00015255     0.000316701       0.00837545         0.13664
281702                 0.0375646       -0.116818      9.85912e-06    -0.000245704        0.0705372       -0.989571      0.000248861    -6.88878e-06
                     4.07771e-05    -0.000232561         0.050201       -0.127342      0.000163727     0.000184592         0.154581       -0.978068
                        0.070525       -0.989361      0.000145308     0.000207926        0.0205168        0.120987     -7.38385e-05     0.000353309
                     0.000204529    -1.84205e-05         0.154451       -0.978173     -0.000152482     0.000316706       0.00842814        0.136634
281704                 0.0375525       -0.116818      9.87251e-06    -0.000245705        0.0702996       -0.989588      0.000248923     -7.0118e-06
                     4.07821e-05    -0.000232609        0.0501888       -0.127344      0.000163784      0.00018453         0.154349       -0.978105
                       0.0702876       -0.989378      0.000145355     0.000207873        0.0205629        0.120976     -7.36619e-05     0.000353225
                     0.000204557    -1.84909e-05         0.154219        -0.97821     -0.000152413      0.00031671       0.00848083        0.136628
281706                 0.0375404       -0.116818      9.88594e-06    -0.000245706         0.070062       -0.989606      0.000248979    -7.13401e-06
                     4.07872e-05    -0.000232658        0.0501766       -0.127346      0.000163841     0.000184469         0.154117       -0.978142
                       0.0700502       -0.989396      0.000145402      0.00020782         0.020609        0.120965     -7.34857e-05     0.000353141
                     0.000204584    -1.85614e-05         0.153987       -0.978247     -0.000152344     0.000316715       0.00853351        0.136622
281708                 0.0375283       -0.116818      9.89939e-06    -0.000245707        0.0698245       -0.989623      0.000249031    -7.25913e-06
                     4.07922e-05    -0.000232706        0.0501644       -0.127348      0.000163899     0.000184407         0.153885       -0.978179
                       0.0698127       -0.989413       0.00014545     0.000207767        0.0206551        0.120953     -7.33101e-05     0.000353056
                     0.000204612     -1.8632e-05         0.153755       -0.978284     -0.000152276     0.000316719       0.00858619        0.136616
281710                 0.0375162       -0.116819      9.91287e-06    -0.000245708        0.0695869        -0.98964      0.000249081    -7.38756e-06
                     4.07974e-05    -0.000232755        0.0501522       -0.127349      0.000163956     0.000184346         0.153653       -0.978216
                       0.0695753        -0.98943      0.000145497     0.000207714        0.0207012        0.120942     -7.31349e-05     0.000352971
                     0.000204639    -1.87028e-05         0.153522        -0.97832     -0.000152207     0.000316724       0.00863887         0.13661
281712                 0.0375042       -0.116819      9.92638e-06    -0.000245709        0.0693493       -0.989657      0.000249132     -7.5183e-06
                     4.08025e-05    -0.000232804          0.05014       -0.127351      0.000164013     0.000184284         0.153421       -0.978253
                       0.0693378       -0.989447      0.000145544     0.000207661        0.0207473         0.12093     -7.29601e-05     0.000352886
                     0.000204667    -1.87736e-05          0.15329       -0.978357     -0.000152139     0.000316729       0.00869155        0.136604
281714                 0.0374921       -0.116819      9.93992e-06     -0.00024571        0.0691117       -0.989674      0.000249184    -7.65044e-06
                     4.08077e-05    -0.000232853        0.0501278       -0.127353       0.00016407     0.000184223         0.153188       -0.978289
                       0.0691004       -0.989464      0.000145592     0.000207608        0.0207934        0.120918     -7.27858e-05       0.0003528
                     0.000204695    -1.88446e-05         0.153058       -0.978394      -0.00015207     0.000316733       0.00874422        0.136598
281716                   0.03748       -0.116819       9.9535e-06    -0.000245711        0.0688741       -0.989691      0.000249236    -7.78339e-06
                     4.08128e-05    -0.000232902        0.0501156       -0.127355      0.000164127     0.000184161         0.152956       -0.978326
                       0.0688629       -0.989481      0.000145639     0.000207555        0.0208395        0.120907     -7.26119e-05     0.000352714
                     0.000204722    -1.89157e-05         0.152826        -0.97843     -0.000152002     0.000316738       0.00879688        0.136591
281718                 0.0374679       -0.116819      9.96711e-06    -0.000245713        0.0686365       -0.989708      0.000249288    -7.91683e-06
                      4.0818e-05    -0.000232951        0.0501034       -0.127356      0.000164185       0.0001841         0.152724       -0.978363
                       0.0686255       -0.989498      0.000145687     0.000207502        0.0208856        0.120895     -7.24384e-05     0.000352627
                      0.00020475     -1.8987e-05         0.152594       -0.978467     -0.000151934     0.000316743       0.00884955        0.136585
281720                 0.0374558       -0.116819      9.98076e-06    -0.000245714        0.0683989       -0.989725      0.000249341    -8.05058e-06
                     4.08231e-05    -0.000233001        0.0500912       -0.127358      0.000164242     0.000184039         0.152492       -0.978399
                        0.068388       -0.989515      0.000145735     0.000207449        0.0209317        0.120884     -7.22653e-05      0.00035254
                     0.000204777    -1.90584e-05         0.152362       -0.978503     -0.000151865     0.000316748       0.00890221        0.136579
281722                 0.0374438       -0.116819      9.99444e-06    -0.000245715        0.0681613       -0.989742      0.000249394    -8.18454e-06
                     4.08282e-05     -0.00023305         0.050079        -0.12736      0.000164299     0.000183977          0.15226       -0.978436
                       0.0681505       -0.989532      0.000145782     0.000207395        0.0209777        0.120872     -7.20926e-05     0.000352452
                     0.000204805    -1.91301e-05          0.15213        -0.97854     -0.000151797     0.000316752       0.00895487        0.136573
281724                 0.0374317       -0.116819      1.00082e-05    -0.000245717        0.0679237       -0.989759      0.000249447    -8.31867e-06
                     4.08333e-05      -0.0002331        0.0500668       -0.127362      0.000164356     0.000183916         0.152027       -0.978472
                        0.067913       -0.989548       0.00014583     0.000207341        0.0210238         0.12086     -7.19202e-05     0.000352364
                     0.000204832    -1.92019e-05         0.151897       -0.978576     -0.000151729     0.000316757       0.00900752        0.136566
281726                 0.0374196       -0.116819      1.00219e-05    -0.000245718        0.0676861       -0.989775        0.0002495    -8.45293e-06
                     4.08383e-05    -0.000233149        0.0500546       -0.127363      0.000164413     0.000183855         0.151795       -0.978508
                       0.0676756       -0.989565      0.000145878     0.000207287        0.0210698        0.120849     -7.17482e-05     0.000352276
                      0.00020486    -1.92739e-05         0.151665       -0.978613     -0.000151661     0.000316762       0.00906017         0.13656
281728                 0.0374075       -0.116819      1.00357e-05     -0.00024572        0.0674485       -0.989792      0.000249553    -8.58731e-06
                     4.08433e-05    -0.000233199        0.0500424       -0.127365       0.00016447     0.000183794         0.151563       -0.978545
                       0.0674381       -0.989582      0.000145926     0.000207232        0.0211159        0.120837     -7.15766e-05     0.000352187
                     0.000204887    -1.93461e-05         0.151433       -0.978649     -0.000151593     0.000316767       0.00911281        0.136554
281730                 0.0373954       -0.116819      1.00496e-05    -0.000245722        0.0672109       -0.989808      0.000249606     -8.7218e-06
                     4.08482e-05    -0.000233249        0.0500302       -0.127367      0.000164526     0.000183732         0.151331       -0.978581
                       0.0672006       -0.989598      0.000145973     0.000207178        0.0211619        0.120825     -7.14053e-05     0.000352097
                     0.000204915    -1.94186e-05         0.151201       -0.978685     -0.000151525     0.000316772       0.00916546        0.136547
281732                 0.0373834       -0.116819      1.00635e-05    -0.000245723        0.0669733       -0.989825      0.000249659    -8.85639e-06
                      4.0853e-05    -0.000233299         0.050018       -0.127368      0.000164583     0.000183671         0.151099       -0.978617
                       0.0669631       -0.989615       0.00014602     0.000207123         0.021208        0.120814     -7.12342e-05     0.000352007
                     0.000204942    -1.94913e-05         0.150969       -0.978721     -0.000151457     0.000316777        0.0092181        0.136541
281734                 0.0373713        -0.11682      1.00774e-05    -0.000245725        0.0667356       -0.989841      0.000249713    -8.99108e-06
                     4.08577e-05    -0.000233349        0.0500058        -0.12737       0.00016464      0.00018361         0.150866       -0.978653
                       0.0667256       -0.989631      0.000146067     0.000207068         0.021254        0.120802     -7.10635e-05     0.000351917
                     0.000204969    -1.95642e-05         0.150736       -0.978758     -0.000151389     0.000316782       0.00927073        0.136535
281736                 0.0373592        -0.11682      1.00914e-05    -0.000245727         0.066498       -0.989858      0.000249766    -9.12587e-06
                     4.08624e-05    -0.000233399        0.0499936       -0.127372      0.000164697     0.000183549         0.150634       -0.978689
                       0.0664881       -0.989648      0.000146114     0.000207013           0.0213         0.12079     -7.08931e-05     0.000351826
                     0.000204996    -1.96373e-05         0.150504       -0.978794     -0.000151321     0.000316787       0.00932336        0.136528
281738                 0.0373471        -0.11682      1.01054e-05    -0.000245729        0.0662604       -0.989874      0.000249819    -9.26075e-06
                      4.0867e-05    -0.000233449        0.0499814       -0.127374      0.000164754     0.000183488         0.150402       -0.978726
                       0.0662506       -0.989664      0.000146161     0.000206958         0.021346        0.120779     -7.07229e-05     0.000351735
                     0.000205022    -1.97106e-05         0.150272        -0.97883     -0.000151253     0.000316792       0.00937599        0.136522
281740                 0.0373351        -0.11682      1.01195e-05     -0.00024573        0.0660227       -0.989891      0.000249872    -9.39572e-06
                     4.08715e-05      -0.0002335        0.0499692       -0.127375       0.00016481     0.000183426         0.150169       -0.978761
                       0.0660131        -0.98968      0.000146208     0.000206903        0.0213921        0.120767      -7.0553e-05     0.000351643
                     0.000205048    -1.97842e-05          0.15004       -0.978866     -0.000151186     0.000316797       0.00942862        0.136516
281742                  0.037323        -0.11682      1.01336e-05    -0.000245732        0.0657851       -0.989907      0.000249925    -9.53077e-06
                     4.08759e-05     -0.00023355         0.049957       -0.127377      0.000164867     0.000183365         0.149937       -0.978797
                       0.0657756       -0.989697      0.000146254     0.000206849        0.0214381        0.120755     -7.03833e-05      0.00035155
                     0.000205074    -1.98578e-05         0.149807       -0.978902     -0.000151118     0.000316802       0.00948124        0.136509
281744                 0.0373109        -0.11682      1.01478e-05    -0.000245734        0.0655474       -0.989923      0.000249978     -9.6659e-06
                     4.08803e-05      -0.0002336        0.0499448       -0.127379      0.000164924     0.000183304         0.149705       -0.978833
                        0.065538       -0.989713        0.0001463     0.000206794        0.0214841        0.120743     -7.02139e-05     0.000351457
                       0.0002051    -1.99316e-05         0.149575       -0.978937      -0.00015105     0.000316808       0.00953386        0.136503
281746                 0.0372988        -0.11682       1.0162e-05    -0.000245736        0.0653098       -0.989939       0.00025003     -9.8011e-06
                     4.08845e-05    -0.000233651        0.0499326        -0.12738       0.00016498     0.000183243         0.149473       -0.978869
                       0.0653005       -0.989729      0.000146347     0.000206739        0.0215301        0.120731     -7.00447e-05     0.000351364
                     0.000205125    -2.00055e-05         0.149343       -0.978973     -0.000150983     0.000316813       0.00958647        0.136496
281748                 0.0372867        -0.11682      1.01763e-05    -0.000245738        0.0650721       -0.989955      0.000250083    -9.93634e-06
                     4.08887e-05    -0.000233701        0.0499204       -0.127382      0.000165037     0.000183182          0.14924       -0.978905
                        0.065063       -0.989745      0.000146393     0.000206684         0.021576         0.12072     -6.98759e-05      0.00035127
                      0.00020515    -2.00793e-05          0.14911       -0.979009     -0.000150915     0.000316818       0.00963908         0.13649
281750                 0.0372747        -0.11682      1.01906e-05    -0.000245741        0.0648345       -0.989971      0.000250136    -1.00716e-05
                     4.08927e-05    -0.000233751        0.0499082       -0.127384      0.000165093     0.000183121         0.149008       -0.978941
                       0.0648255       -0.989761      0.000146439     0.000206629         0.021622        0.120708     -6.97073e-05     0.000351175
                     0.000205174    -2.01528e-05         0.148878       -0.979045     -0.000150848     0.000316823       0.00969169        0.136483
281752                 0.0372626        -0.11682       1.0205e-05    -0.000245743        0.0645968       -0.989987      0.000250189    -1.02068e-05
                     4.08966e-05    -0.000233802        0.0498959       -0.127386       0.00016515      0.00018306         0.148776       -0.978976
                       0.0645879       -0.989777      0.000146485     0.000206574         0.021668        0.120696      -6.9539e-05     0.000351078
                     0.000205197    -2.02258e-05         0.148646        -0.97908      -0.00015078     0.000316829       0.00974429        0.136476
281754                 0.0372505        -0.11682      1.02194e-05    -0.000245745        0.0643591       -0.990003      0.000250241    -1.03418e-05
                     4.09002e-05    -0.000233852        0.0498837       -0.127387      0.000165206     0.000182999         0.148543       -0.979012
                       0.0643504       -0.989793       0.00014653     0.000206519         0.021714        0.120684     -6.93709e-05      0.00035098
                      0.00020522    -2.02978e-05         0.148414       -0.979116     -0.000150713     0.000316834       0.00979689         0.13647
281756                 0.0372384        -0.11682       1.0234e-05    -0.000245747        0.0641215       -0.990019      0.000250294    -1.04763e-05
                     4.09037e-05    -0.000233902        0.0498715       -0.127389      0.000165263     0.000182938         0.148311       -0.979047
                       0.0641128       -0.989809      0.000146576     0.000206465        0.0217599        0.120672     -6.91999e-05     0.000350875
                     0.000205244    -2.03683e-05         0.148181       -0.979151     -0.000150646     0.000316839       0.00984949        0.136463
281758                 0.0372264        -0.11682      1.02485e-05     -0.00024575        0.0638838       -0.990035      0.000250347    -1.06091e-05
                     4.09075e-05     -0.00023395        0.0498593       -0.127391      0.000165318     0.000182878         0.148078       -0.979083
                       0.0638753       -0.989824      0.000146622      0.00020641        0.0218059         0.12066      -6.9005e-05      0.00035078
                      0.00020527    -2.04379e-05         0.147949       -0.979187     -0.000150579     0.000316847       0.00990205        0.136457
281760                 0.0372143        -0.11682      1.02632e-05    -0.000245752        0.0636461       -0.990051      0.000250398     -1.0732e-05
                     4.09137e-05    -0.000233999        0.0498471       -0.127392      0.000165375     0.000182816         0.147846       -0.979118
                       0.0636377        -0.98984      0.000146668     0.000206356        0.0218518        0.120648     -6.88433e-05     0.000350706
                     0.000205298    -2.05088e-05         0.147717       -0.979222      -0.00015051     0.000316851       0.00995466         0.13645
281762                 0.0372022        -0.11682      1.02779e-05    -0.000245754        0.0634084       -0.990066      0.000250419    -1.09048e-05
                     4.09199e-05    -0.000234051        0.0498349       -0.127394      0.000165432     0.000182755         0.147614       -0.979154
                       0.0634002       -0.989856      0.000146715     0.000206301        0.0218978        0.120636     -6.86823e-05     0.000350611
