! TOUCHSTONE file generated by CST MICROWAVE STUDIO
! Date and time: Wed Oct 15 17:32:28 2025
! Project name: Teste_Macro_Metasurface_Nanopilar.cst
! Parameters = {H=600; L_x=150; L_y=125; Lambda=1064; Max_L=200; Min_L=70; PathPara=1; Phi=0; Step_L=10; Theta=0; p=520; phaseX=180; phaseY=0}
! Header version: 2018
! Port assignment regex: !\s*Touchstone port\s*([0-9]+)\s*=\s*(CST MWS port|CST DS port)\s*([0-9]+|Zmin|Zmax)\s*\(\"(.*)\"\)(\s*mode\s*([0-9]+))?.*
! Touchstone port assignment:
! Touchstone port 1 = CST MWS port Zmax ("") mode 1
! Touchstone port 2 = CST MWS port Zmax ("") mode 2
! Touchstone port 3 = CST MWS port Zmin ("") mode 1
! Touchstone port 4 = CST MWS port Zmin ("") mode 2
! S-Parameters are not renormalized. Each port impedance will be approximated by the real part at minimum frequency. The values are described via the [Reference] keyword.
! Default impedance is overridden by [Reference]
[Version] 2.0
# GHz S RI R 376.73
[Number of Ports] 4
[Reference]
376.73 376.73 259.888 259.888 
[Number of Frequencies] 51
[Network Data]
281700                 0.0676108       0.0969392      0.000389694     0.000536227         0.962583        0.219977     -0.000239798      0.00011243
                     0.000381256     0.000521407         0.144352        0.232647      2.84665e-05    -0.000115658         0.820518       -0.491851
                        0.962224        0.220436     -5.88587e-05     -0.00017978        -0.101813       0.0589671     -0.000111849     0.000610335
                    -0.000292181    -8.68725e-05         0.820383        -0.49196     -0.000169981     0.000622825         0.138615        0.233231
281702                 0.0676253        0.096952      0.000389686      0.00053624         0.962655        0.219653     -0.000239753     0.000112449
                     0.000381251     0.000521382         0.144385        0.232689      2.83088e-05    -0.000115743         0.820333       -0.492129
                        0.962296        0.220112     -5.90323e-05    -0.000179735        -0.101792       0.0590407     -0.000111571     0.000610403
                    -0.000292195    -8.68268e-05         0.820198       -0.492238     -0.000169576     0.000622795         0.138801        0.233181
281704                 0.0676398       0.0969648      0.000389678     0.000536253         0.962727        0.219328     -0.000239709     0.000112468
                     0.000381245     0.000521356         0.144418        0.232732      2.81509e-05    -0.000115829         0.820147       -0.492407
                        0.962368        0.219788     -5.92056e-05    -0.000179691        -0.101771       0.0591143     -0.000111292     0.000610472
                    -0.000292208    -8.67809e-05         0.820013       -0.492517      -0.00016917     0.000622765         0.138987        0.233131
281706                 0.0676543       0.0969776       0.00038967     0.000536266         0.962799        0.219004     -0.000239664     0.000112486
                     0.000381239     0.000521331         0.144451        0.232774      2.79928e-05    -0.000115914         0.819962       -0.492685
                         0.96244        0.219464     -5.93785e-05    -0.000179648         -0.10175       0.0591879     -0.000111014      0.00061054
                    -0.000292221    -8.67349e-05         0.819827       -0.492795     -0.000168764     0.000622735         0.139173        0.233081
281708                 0.0676688       0.0969904      0.000389662     0.000536279         0.962871         0.21868     -0.000239619     0.000112504
                     0.000381233     0.000521305         0.144484        0.232817      2.78344e-05       -0.000116         0.819776       -0.492963
                        0.962512         0.21914     -5.95512e-05    -0.000179604        -0.101729       0.0592615     -0.000110735     0.000610608
                    -0.000292234    -8.66886e-05         0.819641       -0.493073     -0.000168358     0.000622705         0.139359         0.23303
281710                 0.0676833       0.0970031      0.000389655     0.000536293         0.962942        0.218356     -0.000239573     0.000112522
                     0.000381227      0.00052128         0.144516        0.232859      2.76757e-05    -0.000116085          0.81959       -0.493241
                        0.962583        0.218816     -5.97235e-05    -0.000179562        -0.101708       0.0593351     -0.000110456     0.000610675
                    -0.000292247    -8.66422e-05         0.819456       -0.493351     -0.000167952     0.000622674         0.139545         0.23298
281712                 0.0676978       0.0970159      0.000389647     0.000536306         0.963014        0.218032     -0.000239528     0.000112539
                     0.000381221     0.000521254         0.144549        0.232901      2.75168e-05    -0.000116171         0.819404       -0.493518
                        0.962655        0.218492     -5.98955e-05     -0.00017952        -0.101687       0.0594086     -0.000110177     0.000610743
                     -0.00029226    -8.65954e-05          0.81927       -0.493629     -0.000167546     0.000622643         0.139731        0.232929
281714                 0.0677123       0.0970287       0.00038964     0.000536319         0.963085        0.217707     -0.000239482     0.000112556
                     0.000381216     0.000521229         0.144582        0.232944      2.73577e-05    -0.000116257         0.819218       -0.493796
                        0.962727        0.218168     -6.00672e-05    -0.000179478        -0.101666       0.0594822     -0.000109898      0.00061081
                    -0.000292273    -8.65484e-05         0.819084       -0.493907      -0.00016714     0.000622612         0.139917        0.232879
281716                 0.0677267       0.0970415      0.000389633     0.000536332         0.963156        0.217383     -0.000239436     0.000112572
                      0.00038121     0.000521203         0.144615        0.232986      2.71983e-05    -0.000116342         0.819032       -0.494074
                        0.962798        0.217844     -6.02386e-05    -0.000179437        -0.101644       0.0595557     -0.000109618     0.000610876
                    -0.000292285    -8.65011e-05         0.818897       -0.494185     -0.000166734      0.00062258         0.140103        0.232828
281718                 0.0677412       0.0970542      0.000389626     0.000536346         0.963228        0.217059      -0.00023939     0.000112589
                     0.000381205     0.000521177         0.144648        0.233029      2.70387e-05    -0.000116428         0.818845       -0.494351
                        0.962869         0.21752     -6.04097e-05    -0.000179396        -0.101623       0.0596293     -0.000109339     0.000610942
                    -0.000292298    -8.64534e-05         0.818711       -0.494463     -0.000166328     0.000622549         0.140289        0.232777
281720                 0.0677557        0.097067      0.000389619     0.000536359         0.963299        0.216734     -0.000239343     0.000112605
                     0.000381199      0.00052115         0.144681        0.233071      2.68789e-05    -0.000116514         0.818659       -0.494629
                         0.96294        0.217196     -6.05804e-05    -0.000179355        -0.101602       0.0597028     -0.000109059     0.000611008
                    -0.000292309    -8.64053e-05         0.818525        -0.49474     -0.000165921     0.000622517         0.140475        0.232725
281722                 0.0677702       0.0970797      0.000389612     0.000536373          0.96337         0.21641     -0.000239297      0.00011262
                     0.000381193     0.000521124         0.144714        0.233114      2.67189e-05      -0.0001166         0.818472       -0.494906
                        0.963011        0.216872     -6.07508e-05    -0.000179316         -0.10158       0.0597764     -0.000108779     0.000611074
                    -0.000292321    -8.63569e-05         0.818338       -0.495018     -0.000165515     0.000622484         0.140662        0.232674
281724                 0.0677847       0.0970925      0.000389605     0.000536386          0.96344        0.216086      -0.00023925     0.000112636
                     0.000381188     0.000521097         0.144747        0.233156      2.65586e-05    -0.000116685         0.818286       -0.495183
                        0.963082        0.216548     -6.09209e-05    -0.000179276        -0.101559       0.0598499     -0.000108499     0.000611139
                    -0.000292331    -8.63082e-05         0.818152       -0.495296     -0.000165108     0.000622452         0.140848        0.232623
281726                 0.0677992       0.0971052      0.000389599       0.0005364         0.963511        0.215761     -0.000239203     0.000112651
                     0.000381182      0.00052107          0.14478        0.233199      2.63981e-05    -0.000116771         0.818099       -0.495461
                        0.963153        0.216224     -6.10906e-05    -0.000179237        -0.101537       0.0599234     -0.000108219     0.000611204
                     -0.00029234    -8.62599e-05         0.817965       -0.495573     -0.000164702     0.000622419         0.141034        0.232571
281728                 0.0678135       0.0971175      0.000389592     0.000536413         0.963582        0.215437     -0.000239156     0.000112665
                     0.000381176     0.000521042         0.144813        0.233242      2.62374e-05    -0.000116857         0.817912       -0.495738
                        0.963224          0.2159       -6.126e-05    -0.000179199        -0.101516       0.0599969     -0.000107939     0.000611269
                    -0.000292347    -8.62128e-05         0.817778       -0.495851     -0.000164295     0.000622386          0.14122        0.232519
281730                 0.0678283       0.0971307      0.000389586     0.000536427         0.963652        0.215113     -0.000239108      0.00011268
                     0.000381169     0.000521013         0.144846        0.233284      2.60765e-05    -0.000116943         0.817725       -0.496015
                        0.963294        0.215576      -6.1429e-05    -0.000179161        -0.101494       0.0600704     -0.000107658     0.000611333
                    -0.000292354    -8.61682e-05         0.817591       -0.496128     -0.000163888     0.000622353         0.141406        0.232468
281732                 0.0678428       0.0971435       0.00038958      0.00053644         0.963723        0.214788      -0.00023906     0.000112694
                      0.00038116     0.000520984          0.14488        0.233327      2.59153e-05    -0.000117028         0.817538       -0.496292
                        0.963365        0.215251     -6.15977e-05    -0.000179124        -0.101472       0.0601439     -0.000107378     0.000611397
                    -0.000292362    -8.61266e-05         0.817404       -0.496406     -0.000163481     0.000622319         0.141593        0.232416
281734                 0.0678573       0.0971562      0.000389574     0.000536454         0.963793        0.214464     -0.000239012     0.000112707
                      0.00038115     0.000520957         0.144913        0.233369       2.5754e-05    -0.000117114         0.817351        -0.49657
                        0.963435        0.214927     -6.17661e-05    -0.000179087        -0.101451       0.0602174     -0.000107097     0.000611461
                    -0.000292374    -8.60864e-05         0.817216       -0.496683     -0.000163074     0.000622285         0.141779        0.232364
281736                 0.0678718       0.0971689      0.000389568     0.000536468         0.963863        0.214139     -0.000238964     0.000112721
                     0.000381139     0.000520932         0.144946        0.233412      2.55925e-05      -0.0001172         0.817163       -0.496847
                        0.963506        0.214603     -6.19341e-05    -0.000179051        -0.101429       0.0602909     -0.000106816     0.000611524
                    -0.000292389    -8.60453e-05         0.817029       -0.496961     -0.000162667     0.000622251         0.141965        0.232311
281738                 0.0678863       0.0971816      0.000389562     0.000536481         0.963933        0.213815     -0.000238916     0.000112734
                     0.000381129      0.00052091         0.144979        0.233455      2.54307e-05    -0.000117286         0.816976       -0.497124
                        0.963576        0.214279     -6.21018e-05    -0.000179015        -0.101407       0.0603644     -0.000106535     0.000611587
                    -0.000292405     -8.6002e-05         0.816842       -0.497238      -0.00016226     0.000622216         0.142152        0.232259
281740                 0.0679008       0.0971944      0.000389557     0.000536495         0.964003         0.21349     -0.000238867     0.000112746
                     0.000381121     0.000520889         0.145012        0.233498      2.52688e-05    -0.000117372         0.816788       -0.497401
                        0.963646        0.213955     -6.22691e-05     -0.00017898        -0.101385       0.0604378     -0.000106254      0.00061165
                    -0.000292422    -8.59568e-05         0.816654       -0.497515     -0.000161853     0.000622181         0.142338        0.232207
281742                 0.0679153       0.0972071      0.000389551     0.000536509         0.964073        0.213166     -0.000238819     0.000112759
                     0.000381116     0.000520867         0.145045         0.23354      2.51066e-05    -0.000117457           0.8166       -0.497678
                        0.963716         0.21363      -6.2436e-05    -0.000178945        -0.101363       0.0605113     -0.000105972     0.000611712
                    -0.000292439    -8.59102e-05         0.816466       -0.497792     -0.000161446     0.000622146         0.142524        0.232154
281744                 0.0679298       0.0972198      0.000389546     0.000536523         0.964143        0.212841      -0.00023877     0.000112771
                     0.000381111     0.000520844         0.145079        0.233583      2.49442e-05    -0.000117543         0.816413       -0.497954
                        0.963786        0.213306     -6.26026e-05    -0.000178911        -0.101341       0.0605848     -0.000105691     0.000611775
                    -0.000292456    -8.58628e-05         0.816278       -0.498069     -0.000161039      0.00062211         0.142711        0.232101
281746                 0.0679443       0.0972325       0.00038954     0.000536537         0.964212        0.212517      -0.00023872     0.000112782
                     0.000381107      0.00052082         0.145112        0.233626      2.47817e-05    -0.000117629         0.816225       -0.498231
                        0.963855        0.212982     -6.27688e-05    -0.000178877        -0.101319       0.0606582     -0.000105409     0.000611836
                    -0.000292472    -8.58149e-05          0.81609       -0.498347     -0.000160632     0.000622071         0.142897        0.232048
281748                 0.0679588       0.0972452      0.000389535     0.000536551         0.964282        0.212192     -0.000238671     0.000112794
                     0.000381103     0.000520796         0.145145        0.233669      2.46195e-05    -0.000117714         0.816037       -0.498508
                        0.963925        0.212658     -6.29347e-05    -0.000178844        -0.101297       0.0607317     -0.000105127     0.000611898
                    -0.000292488    -8.57668e-05         0.815902       -0.498624      -0.00016022     0.000622034         0.143084        0.231995
281750                 0.0679734       0.0972579       0.00038953     0.000536564         0.964351        0.211868     -0.000238621     0.000112805
                       0.0003811     0.000520772         0.145178        0.233712      2.44572e-05    -0.000117801         0.815848       -0.498785
                        0.963995        0.212333     -6.31002e-05    -0.000178811        -0.101275       0.0608051     -0.000104846     0.000611959
                    -0.000292504    -8.57185e-05         0.815714       -0.498901     -0.000159811        0.000622          0.14327        0.231942
281752                 0.0679879       0.0972706      0.000389525     0.000536578          0.96442        0.211543     -0.000238572     0.000112815
                     0.000381096     0.000520747         0.145212        0.233754      2.42938e-05    -0.000117887          0.81566       -0.499061
                        0.964064        0.212009     -6.32653e-05    -0.000178779        -0.101253       0.0608785     -0.000104564      0.00061202
                     -0.00029252    -8.56701e-05         0.815526       -0.499177     -0.000159403     0.000621964         0.143457        0.231889
281754                 0.0680024       0.0972833       0.00038952     0.000536592         0.964489        0.211219     -0.000238522     0.000112825
                     0.000381092     0.000520722         0.145245        0.233797      2.41304e-05    -0.000117973         0.815472       -0.499338
                        0.964133        0.211685       -6.343e-05    -0.000178747        -0.101231       0.0609519     -0.000104281      0.00061208
                    -0.000292536    -8.56217e-05         0.815337       -0.499454     -0.000158995     0.000621927         0.143643        0.231836
281756                 0.0680169        0.097296      0.000389515     0.000536606         0.964558        0.210894     -0.000238468     0.000112837
                     0.000381088     0.000520697         0.145278         0.23384       2.3967e-05    -0.000118058         0.815283       -0.499614
                        0.964202         0.21136     -6.35944e-05    -0.000178716        -0.101208       0.0610253     -0.000103998      0.00061214
                    -0.000292552    -8.55733e-05         0.815149       -0.499731     -0.000158586     0.000621889          0.14383        0.231782
281758                 0.0680314       0.0973087      0.000389511      0.00053662         0.964627        0.210569      -0.00023842     0.000112846
                     0.000381084     0.000520673         0.145312        0.233883      2.38034e-05    -0.000118144         0.815094       -0.499891
                        0.964271        0.211036     -6.37584e-05    -0.000178686        -0.101186       0.0610987     -0.000103716     0.000612201
                    -0.000292568     -8.5525e-05          0.81496       -0.500008     -0.000158178     0.000621851         0.144016        0.231729
281760                  0.068046       0.0973214      0.000389506     0.000536634         0.964696        0.210245     -0.000238369     0.000112856
                      0.00038108     0.000520648         0.145345        0.233926      2.36396e-05     -0.00011823         0.814905       -0.500167
                         0.96434        0.210712      -6.3922e-05    -0.000178656        -0.101163       0.0611721     -0.000103434      0.00061226
                    -0.000292584    -8.54768e-05         0.814771       -0.500285     -0.000157769     0.000621813         0.144203        0.231675
281762                 0.0680605       0.0973341      0.000389502     0.000536649         0.964765         0.20992     -0.000238318     0.000112865
                     0.000381076     0.000520623         0.145378        0.233969      2.34757e-05    -0.000118316         0.814716       -0.500444
                        0.964409        0.210387     -6.40852e-05    -0.000178626        -0.101141       0.0612455     -0.000103151      0.00061232
