! TOUCHSTONE file generated by CST MICROWAVE STUDIO
! Date and time: Wed Oct 15 17:30:03 2025
! Project name: Teste_Macro_Metasurface_Nanopilar.cst
! Parameters = {H=600; L_x=110; L_y=70; Lambda=1064; Max_L=200; Min_L=70; PathPara=1; Phi=0; Step_L=10; Theta=0; p=520; phaseX=180; phaseY=0}
! Header version: 2018
! Port assignment regex: !\s*Touchstone port\s*([0-9]+)\s*=\s*(CST MWS port|CST DS port)\s*([0-9]+|Zmin|Zmax)\s*\(\"(.*)\"\)(\s*mode\s*([0-9]+))?.*
! Touchstone port assignment:
! Touchstone port 1 = CST MWS port Zmax ("") mode 1
! Touchstone port 2 = CST MWS port Zmax ("") mode 2
! Touchstone port 3 = CST MWS port Zmin ("") mode 1
! Touchstone port 4 = CST MWS port Zmin ("") mode 2
! S-Parameters are not renormalized. Each port impedance will be approximated by the real part at minimum frequency. The values are described via the [Reference] keyword.
! Default impedance is overridden by [Reference]
[Version] 2.0
# GHz S RI R 376.73
[Number of Ports] 4
[Reference]
376.73 376.73 259.888 259.888 
[Number of Frequencies] 51
[Network Data]
281700                  0.044705       -0.124707     -0.000504125     0.000236021         0.126278       -0.982561      0.000264191      -1.191e-05
                    -0.000454829     0.000189738       0.00729374      -0.0348112      0.000310233    -1.17707e-05        -0.388186         -0.9193
                         0.12669       -0.982959      0.000457679    -0.000150757        0.0116404        0.132006     -0.000480096    -9.09652e-05
                     0.000145804    -1.52766e-05        -0.388342       -0.919346     -0.000518219    -8.49855e-05        0.0297425       0.0194123
281702                 0.0446926       -0.124708     -0.000504103     0.000236203         0.126044       -0.982591      0.000264025    -1.16861e-05
                    -0.000454811     0.000189897       0.00728693      -0.0348025      0.000310272    -1.18561e-05        -0.388426       -0.919199
                        0.126456       -0.982989      0.000457661    -0.000150822         0.011691        0.131998     -0.000479949    -9.10104e-05
                     0.000145825    -1.52962e-05        -0.388583       -0.919244     -0.000518244    -8.48667e-05        0.0297417       0.0193956
281704                 0.0446803       -0.124709     -0.000504081     0.000236386          0.12581       -0.982622      0.000263858    -1.14613e-05
                    -0.000454793     0.000190057       0.00728012      -0.0347939      0.000310312    -1.19417e-05        -0.388667       -0.919098
                        0.126222        -0.98302      0.000457643    -0.000150888        0.0117415        0.131991     -0.000479803    -9.10558e-05
                     0.000145846    -1.53156e-05        -0.388823       -0.919143     -0.000518268    -8.47478e-05        0.0297408       0.0193789
281706                  0.044668        -0.12471      -0.00050406     0.000236569         0.125577       -0.982652      0.000263692    -1.12358e-05
                    -0.000454775     0.000190216       0.00727331      -0.0347852      0.000310351    -1.20273e-05        -0.388907       -0.918996
                        0.125989        -0.98305      0.000457626    -0.000150955        0.0117921        0.131983     -0.000479656    -9.11016e-05
                     0.000145867    -1.53348e-05        -0.389063       -0.919041     -0.000518293    -8.46287e-05        0.0297399       0.0193623
281708                 0.0446556       -0.124711     -0.000504039     0.000236753         0.125343       -0.982682      0.000263525    -1.10095e-05
                    -0.000454757     0.000190375       0.00726651      -0.0347765       0.00031039     -1.2113e-05        -0.389147       -0.918895
                        0.125755        -0.98308       0.00045761    -0.000151021        0.0118427        0.131976      -0.00047951    -9.11476e-05
                     0.000145888    -1.53537e-05        -0.389304        -0.91894     -0.000518317    -8.45095e-05         0.029739       0.0193456
281710                 0.0446433       -0.124713     -0.000504018     0.000236936          0.12511       -0.982713      0.000263358    -1.07825e-05
                     -0.00045474     0.000190534        0.0072597      -0.0347679      0.000310429    -1.21988e-05        -0.389388       -0.918793
                        0.125521       -0.983111      0.000457594    -0.000151088        0.0118932        0.131968     -0.000479364     -9.1194e-05
                      0.00014591    -1.53725e-05        -0.389544       -0.918838     -0.000518342    -8.43902e-05        0.0297381       0.0193289
281712                  0.044631       -0.124714     -0.000503998      0.00023712         0.124876       -0.982743       0.00026319    -1.05546e-05
                    -0.000454723     0.000190693        0.0072529      -0.0347592      0.000310468    -1.22847e-05        -0.389628       -0.918691
                        0.125288       -0.983141      0.000457578    -0.000151155        0.0119438         0.13196     -0.000479218    -9.12406e-05
                     0.000145932     -1.5391e-05        -0.389785       -0.918736     -0.000518366    -8.42707e-05        0.0297372       0.0193122
281714                 0.0446186       -0.124715     -0.000503978     0.000237304         0.124642       -0.982773      0.000263023     -1.0326e-05
                    -0.000454706     0.000190851        0.0072461      -0.0347505      0.000310507    -1.23708e-05        -0.389869        -0.91859
                        0.125054       -0.983171      0.000457563    -0.000151223        0.0119943        0.131953     -0.000479072    -9.12875e-05
                     0.000145954    -1.54095e-05        -0.390025       -0.918635      -0.00051839    -8.41511e-05        0.0297363       0.0192956
281716                 0.0446063       -0.124716     -0.000503958     0.000237487         0.124409       -0.982803      0.000262855    -1.00967e-05
                    -0.000454689     0.000191008        0.0072393      -0.0347418      0.000310546    -1.24569e-05        -0.390109       -0.918488
                         0.12482       -0.983201      0.000457549    -0.000151291        0.0120448        0.131945     -0.000478926    -9.13348e-05
                     0.000145977    -1.54278e-05        -0.390265       -0.918533     -0.000518414    -8.40314e-05        0.0297354       0.0192789
281718                 0.0445939       -0.124717     -0.000503938     0.000237671         0.124175       -0.982833      0.000262687    -9.86654e-06
                    -0.000454672     0.000191165        0.0072325      -0.0347332      0.000310585    -1.25431e-05        -0.390349       -0.918386
                        0.124586       -0.983231      0.000457534    -0.000151359        0.0120954        0.131937      -0.00047878    -9.13823e-05
                        0.000146     -1.5446e-05        -0.390505       -0.918431     -0.000518438    -8.39116e-05        0.0297344       0.0192623
281720                 0.0445816       -0.124718     -0.000503918     0.000237855         0.123941       -0.982863      0.000262519    -9.63565e-06
                    -0.000454654     0.000191322       0.00722571      -0.0347245      0.000310623    -1.26294e-05        -0.390589       -0.918284
                        0.124352       -0.983261      0.000457521    -0.000151428        0.0121459         0.13193     -0.000478634    -9.14302e-05
                     0.000146023     -1.5464e-05        -0.390746       -0.918329     -0.000518462    -8.37917e-05        0.0297335       0.0192456
281722                 0.0445693        -0.12472     -0.000503898      0.00023804         0.123708       -0.982893       0.00026235      -9.404e-06
                    -0.000454636     0.000191478       0.00721891      -0.0347158      0.000310662    -1.27158e-05         -0.39083       -0.918182
                        0.124119       -0.983291      0.000457507    -0.000151497        0.0121964        0.131922     -0.000478489    -9.14783e-05
                     0.000146046     -1.5482e-05        -0.390986       -0.918227     -0.000518486    -8.36716e-05        0.0297325        0.019229
281724                 0.0445569       -0.124721     -0.000503879     0.000238224         0.123474       -0.982923      0.000262182    -9.17159e-06
                    -0.000454617     0.000191633       0.00721212      -0.0347071        0.0003107    -1.28023e-05         -0.39107        -0.91808
                        0.123885       -0.983321      0.000457494    -0.000151566         0.012247        0.131914     -0.000478343    -9.15268e-05
                      0.00014607       -1.55e-05        -0.391226       -0.918125      -0.00051851    -8.35514e-05        0.0297315       0.0192123
281726                 0.0445446       -0.124722     -0.000503859     0.000238408          0.12324       -0.982953      0.000262013    -8.93842e-06
                    -0.000454597     0.000191789       0.00720532      -0.0346984      0.000310738    -1.28888e-05         -0.39131       -0.917978
                        0.123651       -0.983351      0.000457481    -0.000151635        0.0122975        0.131906     -0.000478197    -9.15755e-05
                     0.000146093    -1.55178e-05        -0.391466       -0.918023     -0.000518533     -8.3431e-05        0.0297306       0.0191957
281728                 0.0445323       -0.124723      -0.00050384     0.000238592         0.123006       -0.982982      0.000261844    -8.70451e-06
                    -0.000454576     0.000191945       0.00719853      -0.0346898      0.000310777    -1.29755e-05         -0.39155       -0.917876
                        0.123417        -0.98338      0.000457468    -0.000151705         0.012348        0.131899     -0.000478052    -9.16245e-05
                     0.000146117    -1.55356e-05        -0.391706       -0.917921     -0.000518557    -8.33106e-05        0.0297296       0.0191791
281730                 0.0445199       -0.124724      -0.00050382     0.000238777         0.122773       -0.983012      0.000261674    -8.46984e-06
                    -0.000454555     0.000192102       0.00719174      -0.0346811      0.000310815    -1.30623e-05         -0.39179       -0.917774
                        0.123184        -0.98341      0.000457456    -0.000151775        0.0123985        0.131891     -0.000477906    -9.16738e-05
                     0.000146141    -1.55534e-05        -0.391946       -0.917818      -0.00051858      -8.319e-05        0.0297286       0.0191624
281732                 0.0445076       -0.124725       -0.0005038     0.000238961         0.122539       -0.983042      0.000261505    -8.23442e-06
                    -0.000454534     0.000192258       0.00718495      -0.0346724      0.000310853    -1.31492e-05         -0.39203       -0.917672
                         0.12295        -0.98344      0.000457444    -0.000151845         0.012449        0.131883      -0.00047776    -9.17233e-05
                     0.000146165    -1.55711e-05        -0.392186       -0.917716     -0.000518604    -8.30693e-05        0.0297276       0.0191458
281734                 0.0444953       -0.124726     -0.000503781     0.000239146         0.122305       -0.983071      0.000261335    -7.99825e-06
                    -0.000454512     0.000192415       0.00717816      -0.0346637      0.000310891    -1.32361e-05        -0.392271        -0.91757
                        0.122716       -0.983469      0.000457432    -0.000151915        0.0124995        0.131875     -0.000477614    -9.17732e-05
                     0.000146189    -1.55888e-05        -0.392426       -0.917614     -0.000518627    -8.29485e-05        0.0297266       0.0191292
281736                 0.0444829       -0.124728     -0.000503761      0.00023933         0.122071       -0.983101      0.000261165    -7.76134e-06
                     -0.00045449     0.000192573       0.00717138       -0.034655      0.000310929    -1.33232e-05        -0.392511       -0.917467
                        0.122482       -0.983499       0.00045742    -0.000151985          0.01255        0.131867     -0.000477469    -9.18232e-05
                     0.000146214    -1.56064e-05        -0.392666       -0.917511      -0.00051865    -8.28276e-05        0.0297256       0.0191126
281738                 0.0444706       -0.124729      -0.00050374     0.000239515         0.121838        -0.98313      0.000260995    -7.52369e-06
                    -0.000454468     0.000192731       0.00716459      -0.0346463      0.000310967    -1.34103e-05        -0.392751       -0.917365
                        0.122248       -0.983528      0.000457407    -0.000152055        0.0126005        0.131859     -0.000477323    -9.18736e-05
                     0.000146239    -1.56241e-05        -0.392906       -0.917409     -0.000518673    -8.27066e-05        0.0297245        0.019096
281740                 0.0444582        -0.12473      -0.00050372     0.000239699         0.121604        -0.98316      0.000260825    -7.28529e-06
                    -0.000454446     0.000192889       0.00715781      -0.0346376      0.000311004    -1.34976e-05        -0.392991       -0.917262
                        0.122014       -0.983558      0.000457394    -0.000152125         0.012651        0.131851     -0.000477177    -9.19242e-05
                     0.000146263    -1.56417e-05        -0.393146       -0.917306     -0.000518697    -8.25854e-05        0.0297235       0.0190794
281742                 0.0444459       -0.124731     -0.000503698     0.000239883          0.12137       -0.983189      0.000260655    -7.04615e-06
                    -0.000454425     0.000193047       0.00715103       -0.034629      0.000311042    -1.35849e-05        -0.393231        -0.91716
                         0.12178       -0.983587      0.000457378    -0.000152192        0.0127015        0.131844     -0.000477031    -9.19751e-05
                     0.000146288    -1.56593e-05        -0.393386       -0.917204     -0.000518719    -8.24641e-05        0.0297225       0.0190628
281744                 0.0444336       -0.124732     -0.000503673     0.000240067         0.121136       -0.983219      0.000260484    -6.80627e-06
                    -0.000454403     0.000193206       0.00714425      -0.0346203      0.000311079    -1.36724e-05        -0.393471       -0.917057
                        0.121547       -0.983616      0.000457353    -0.000152254         0.012752        0.131836     -0.000476885    -9.20263e-05
                     0.000146313    -1.56768e-05        -0.393626       -0.917101     -0.000518742    -8.23427e-05        0.0297214       0.0190462
281746                 0.0444212       -0.124733     -0.000503627     0.000240247         0.120903       -0.983248      0.000260313    -6.56566e-06
                    -0.000454381     0.000193364       0.00713739      -0.0346116      0.000311117    -1.37599e-05        -0.393711       -0.916954
                        0.121313       -0.983646       0.00045723    -0.000152207        0.0128025        0.131828     -0.000476738    -9.20779e-05
                     0.000146338    -1.56944e-05        -0.393867       -0.916998     -0.000518765    -8.22212e-05        0.0297203       0.0190296
281748                 0.0444089       -0.124734     -0.000503707     0.000240463         0.120669       -0.983277      0.000260142    -6.32429e-06
                    -0.000454359     0.000193523       0.00713068      -0.0346029      0.000311154    -1.38475e-05        -0.393951       -0.916852
                        0.121079       -0.983675      0.000457428    -0.000152456        0.0128529         0.13182     -0.000476592    -9.21299e-05
                     0.000146364    -1.57119e-05        -0.394106       -0.916895     -0.000518788    -8.20996e-05        0.0297193        0.019013
281750                 0.0443966       -0.124736     -0.000503647     0.000240631         0.120435       -0.983306       0.00025997    -6.08218e-06
                    -0.000454337     0.000193682       0.00712391      -0.0345942      0.000311191    -1.39352e-05        -0.394191       -0.916749
                        0.120845       -0.983704      0.000457384    -0.000152511        0.0129034        0.131812     -0.000476446    -9.21827e-05
                     0.000146389    -1.57295e-05        -0.394346       -0.916792      -0.00051881    -8.19778e-05        0.0297182       0.0189964
281752                 0.0443842       -0.124737     -0.000503621     0.000240814         0.120201       -0.983335      0.000259798    -5.83929e-06
                    -0.000454316     0.000193841       0.00711713      -0.0345855      0.000311228     -1.4023e-05         -0.39443       -0.916646
                        0.120611       -0.983733      0.000457366    -0.000152578        0.0129539        0.131804       -0.0004763    -9.22368e-05
                     0.000146415    -1.57472e-05        -0.394586       -0.916689     -0.000518833    -8.18559e-05        0.0297171       0.0189798
281754                 0.0443719       -0.124738     -0.000503598     0.000240998         0.119967       -0.983364      0.000259626    -5.59552e-06
                    -0.000454295        0.000194       0.00711036      -0.0345768      0.000311265    -1.41109e-05         -0.39467       -0.916543
                        0.120377       -0.983762      0.000457353    -0.000152649        0.0130043        0.131796     -0.000476155    -9.22946e-05
                     0.000146442    -1.57653e-05        -0.394825       -0.916586     -0.000518855     -8.1734e-05         0.029716       0.0189632
281756                 0.0443596       -0.124739     -0.000503577     0.000241183         0.119734       -0.983393      0.000259449    -5.35012e-06
                    -0.000454274     0.000194159       0.00710358      -0.0345681      0.000311302    -1.41989e-05         -0.39491        -0.91644
                        0.120143       -0.983791      0.000457342    -0.000152721        0.0130548        0.131788      -0.00047601    -9.23761e-05
                     0.000146468    -1.57893e-05        -0.395065       -0.916483     -0.000518878    -8.16119e-05        0.0297149       0.0189467
281758                 0.0443472        -0.12474     -0.000503557     0.000241368           0.1195       -0.983422      0.000259289     -5.1094e-06
                    -0.000454255     0.000194317       0.00709681      -0.0345594       0.00031134    -1.42861e-05         -0.39515       -0.916337
                        0.119909        -0.98382      0.000457332    -0.000152794        0.0131052        0.131779     -0.000475816    -9.23439e-05
                     0.000146487    -1.58022e-05        -0.395305        -0.91638     -0.000518897    -8.14915e-05        0.0297137       0.0189301
281760                 0.0443349       -0.124741     -0.000503536     0.000241553         0.119266       -0.983451      0.000259114    -4.86216e-06
                    -0.000454236     0.000194473       0.00709004      -0.0345507      0.000311376    -1.43751e-05         -0.39539       -0.916234
                        0.119675       -0.983849      0.000457323    -0.000152867        0.0131557        0.131771     -0.000475698    -9.24186e-05
                     0.000146514    -1.58181e-05        -0.395545       -0.916277     -0.000518922    -8.13673e-05        0.0297126       0.0189135
281762                 0.0443225       -0.124742     -0.000503516     0.000241739         0.119032        -0.98348       0.00025894    -4.61549e-06
                    -0.000454212     0.000194626       0.00708327       -0.034542      0.000311412    -1.44634e-05        -0.395629       -0.916131
                        0.119441       -0.983877      0.000457314    -0.000152941        0.0132061        0.131763     -0.000475554    -9.24764e-05
