! TOUCHSTONE file generated by CST MICROWAVE STUDIO
! Date and time: Wed Oct 15 17:33:01 2025
! Project name: Teste_Macro_Metasurface_Nanopilar.cst
! Parameters = {H=600; L_x=160; L_y=115; Lambda=1064; Max_L=200; Min_L=70; PathPara=1; Phi=0; Step_L=10; Theta=0; p=520; phaseX=180; phaseY=0}
! Header version: 2018
! Port assignment regex: !\s*Touchstone port\s*([0-9]+)\s*=\s*(CST MWS port|CST DS port)\s*([0-9]+|Zmin|Zmax)\s*\(\"(.*)\"\)(\s*mode\s*([0-9]+))?.*
! Touchstone port assignment:
! Touchstone port 1 = CST MWS port Zmax ("") mode 1
! Touchstone port 2 = CST MWS port Zmax ("") mode 2
! Touchstone port 3 = CST MWS port Zmin ("") mode 1
! Touchstone port 4 = CST MWS port Zmin ("") mode 2
! S-Parameters are not renormalized. Each port impedance will be approximated by the real part at minimum frequency. The values are described via the [Reference] keyword.
! Default impedance is overridden by [Reference]
[Version] 2.0
# GHz S RI R 376.73
[Number of Ports] 4
[Reference]
376.73 376.73 259.888 259.888 
[Number of Frequencies] 51
[Network Data]
281700                 0.0623665       0.0121035       0.00014291      0.00021724          0.65239        0.745439       -0.0004669     0.000686841
                     0.000135555     0.000170479         0.210234        0.346087      0.000301222     0.000488405         0.638536       -0.643384
                        0.652002        0.745161      0.000427945     0.000387786      -0.00371837      -0.0606893     -0.000289448     0.000492965
                    -0.000471175     0.000608444         0.639644       -0.642389     -0.000224873      0.00037637         0.348782        0.196997
281702                  0.062361       0.0121212      0.000143369      0.00021727          0.65267        0.745195     -0.000466832     0.000687157
                      0.00013584     0.000170331         0.210331        0.346174      0.000301628     0.000488096         0.638221       -0.643613
                        0.652281        0.744916      0.000428488     0.000387502      -0.00378251      -0.0606835     -0.000289228     0.000493245
                    -0.000471195     0.000608695         0.639331       -0.642618     -0.000224709     0.000376602          0.34904        0.196788
281704                 0.0623555       0.0121389      0.000143828       0.0002173         0.652949         0.74495     -0.000466763     0.000687473
                     0.000136125     0.000170183         0.210429        0.346261      0.000302035     0.000487786         0.637905       -0.643842
                        0.652561        0.744672      0.000429031     0.000387218      -0.00384663      -0.0606776     -0.000289007     0.000493525
                    -0.000471216     0.000608945         0.639017       -0.642848     -0.000224544     0.000376834         0.349299        0.196579
281706                 0.0623499       0.0121566      0.000144287     0.000217329         0.653229        0.744706     -0.000466695     0.000687789
                     0.000136411     0.000170035         0.210527        0.346348      0.000302441     0.000487475          0.63759       -0.644071
                        0.652841        0.744427      0.000429574     0.000386933      -0.00391075      -0.0606717     -0.000288786     0.000493805
                    -0.000471236     0.000609196         0.638703       -0.643077     -0.000224379     0.000377066         0.349557        0.196371
281708                 0.0623444       0.0121742      0.000144747     0.000217359         0.653508        0.744461     -0.000466627     0.000688105
                     0.000136696     0.000169887         0.210625        0.346434      0.000302848     0.000487163         0.637274       -0.644299
                         0.65312        0.744183      0.000430118     0.000386648      -0.00397486      -0.0606657     -0.000288565     0.000494086
                    -0.000471257     0.000609447          0.63839       -0.643307     -0.000224213     0.000377299         0.349815        0.196161
281710                 0.0623389       0.0121919      0.000145207     0.000217388         0.653787        0.744216     -0.000466558     0.000688422
                     0.000136982     0.000169738         0.210723        0.346521      0.000303255     0.000486851         0.636959       -0.644528
                          0.6534        0.743938      0.000430663     0.000386362      -0.00403896      -0.0606597     -0.000288343     0.000494367
                    -0.000471278     0.000609698         0.638076       -0.643536     -0.000224047     0.000377532         0.350073        0.195952
281712                 0.0623334       0.0122096      0.000145668     0.000217417         0.654067        0.743972      -0.00046649     0.000688739
                     0.000137268     0.000169589         0.210822        0.346608      0.000303662     0.000486538         0.636643       -0.644756
                        0.653679        0.743693      0.000431208     0.000386076      -0.00410306      -0.0606536     -0.000288122     0.000494649
                    -0.000471299      0.00060995         0.637761       -0.643765      -0.00022388     0.000377765         0.350332        0.195742
281714                 0.0623279       0.0122273      0.000146129     0.000217446         0.654346        0.743727     -0.000466421     0.000689056
                     0.000137554      0.00016944          0.21092        0.346695      0.000304069     0.000486224         0.636326       -0.644985
                        0.653958        0.743448      0.000431753      0.00038579      -0.00416715      -0.0606475     -0.000287899      0.00049493
                     -0.00047132     0.000610201         0.637447       -0.643994     -0.000223712     0.000377999          0.35059        0.195532
281716                 0.0623225        0.012245       0.00014659     0.000217474         0.654625        0.743482     -0.000466352     0.000689373
                      0.00013784     0.000169291         0.211018        0.346782      0.000304476     0.000485909          0.63601       -0.645213
                        0.654237        0.743203      0.000432299     0.000385503      -0.00423123      -0.0606413     -0.000287677     0.000495213
                    -0.000471341     0.000610453         0.637133       -0.644222     -0.000223544     0.000378233         0.350848        0.195322
281718                  0.062317       0.0122627      0.000147051     0.000217503         0.654903        0.743236     -0.000466284      0.00068969
                     0.000138126     0.000169142         0.211117        0.346869      0.000304884     0.000485594         0.635693       -0.645441
                        0.654516        0.742958      0.000432845     0.000385215       -0.0042953       -0.060635     -0.000287454     0.000495495
                    -0.000471362     0.000610706         0.636818       -0.644451     -0.000223375     0.000378467         0.351106        0.195111
281720                 0.0623115       0.0122804      0.000147513     0.000217531         0.655182        0.742991     -0.000466215     0.000690008
                     0.000138412     0.000168992         0.211215        0.346956      0.000305291     0.000485277         0.635377       -0.645669
                        0.654795        0.742713      0.000433392     0.000384927      -0.00435936      -0.0606287     -0.000287231     0.000495778
                    -0.000471384     0.000610958         0.636503       -0.644679     -0.000223206     0.000378702         0.351364          0.1949
281722                  0.062306       0.0122981      0.000147976     0.000217559         0.655461        0.742746     -0.000466146     0.000690326
                     0.000138699     0.000168842         0.211314        0.347043      0.000305699      0.00048496          0.63506       -0.645897
                        0.655074        0.742467      0.000433939     0.000384639      -0.00442342      -0.0606224     -0.000287007     0.000496062
                    -0.000471405     0.000611211         0.636188       -0.644908     -0.000223036     0.000378937         0.351622        0.194689
281724                 0.0623006       0.0123158      0.000148438     0.000217586         0.655739          0.7425     -0.000466077     0.000690643
                     0.000138985     0.000168692         0.211413         0.34713      0.000306106     0.000484642         0.634743       -0.646124
                        0.655353        0.742222      0.000434486     0.000384351      -0.00448746       -0.060616     -0.000286784     0.000496345
                    -0.000471427     0.000611463         0.635872       -0.645136     -0.000222866     0.000379172          0.35188        0.194477
281726                 0.0622951       0.0123334      0.000148901     0.000217614         0.656018        0.742255     -0.000466008     0.000690961
                     0.000139272     0.000168542         0.211512        0.347217      0.000306514     0.000484324         0.634425       -0.646352
                        0.655632        0.741976      0.000435034     0.000384062       -0.0045515      -0.0606095      -0.00028656     0.000496629
                    -0.000471448     0.000611717         0.635557       -0.645364     -0.000222695     0.000379408         0.352138        0.194265
281728                 0.0622897       0.0123511      0.000149365     0.000217641         0.656296        0.742009     -0.000465939      0.00069128
                     0.000139559     0.000168391         0.211611        0.347305      0.000306922     0.000484004         0.634108       -0.646579
                         0.65591        0.741731      0.000435582     0.000383772      -0.00461553       -0.060603     -0.000286335     0.000496914
                     -0.00047147      0.00061197         0.635241       -0.645592     -0.000222523     0.000379644         0.352396        0.194053
281730                 0.0622842       0.0123688      0.000149828     0.000217668         0.656575        0.741763      -0.00046587     0.000691598
                     0.000139846     0.000168241          0.21171        0.347392      0.000307331     0.000483684          0.63379       -0.646807
                        0.656189        0.741485      0.000436131     0.000383482      -0.00467956      -0.0605964     -0.000286111     0.000497199
                    -0.000471492     0.000612223         0.634925       -0.645819     -0.000222351      0.00037988         0.352654        0.193841
281732                 0.0622788       0.0123865      0.000150292     0.000217694         0.656853        0.741517     -0.000465801     0.000691917
                     0.000140133      0.00016809         0.211809        0.347479      0.000307739     0.000483363         0.633472       -0.647034
                        0.656467        0.741239       0.00043668     0.000383192      -0.00474357      -0.0605897     -0.000285886     0.000497484
                    -0.000471514     0.000612477         0.634609       -0.646047     -0.000222178     0.000380117         0.352912        0.193628
281734                 0.0622734       0.0124042      0.000150757     0.000217721         0.657131        0.741272     -0.000465732     0.000692236
                      0.00014042     0.000167939         0.211908        0.347567      0.000308147     0.000483041         0.633154       -0.647261
                        0.656745        0.740993      0.000437229     0.000382901      -0.00480758       -0.060583      -0.00028566     0.000497769
                    -0.000471537     0.000612731         0.634293       -0.646274     -0.000222005     0.000380354          0.35317        0.193415
281736                 0.0622679       0.0124219      0.000151221     0.000217747         0.657409        0.741025     -0.000465663     0.000692555
                     0.000140708     0.000167788         0.212007        0.347654      0.000308556     0.000482718         0.632836       -0.647487
                        0.657023        0.740747      0.000437779      0.00038261      -0.00487158      -0.0605763     -0.000285435     0.000498055
                    -0.000471559     0.000612985         0.633976       -0.646502     -0.000221831     0.000380591         0.353428        0.193202
281738                 0.0622625       0.0124396      0.000151686     0.000217772         0.657687        0.740779     -0.000465594     0.000692874
                     0.000140995     0.000167636         0.212107        0.347741      0.000308965     0.000482395         0.632518       -0.647714
                        0.657301        0.740501      0.000438329     0.000382319      -0.00493557      -0.0605695     -0.000285209     0.000498342
                    -0.000471581      0.00061324          0.63366       -0.646729     -0.000221656     0.000380829         0.353686        0.192989
281740                 0.0622571       0.0124573      0.000152151     0.000217798         0.657964        0.740533     -0.000465524     0.000693193
                     0.000141283     0.000167485         0.212206        0.347829      0.000309373     0.000482071         0.632199       -0.647941
                        0.657579        0.740255      0.000438879     0.000382027      -0.00499955      -0.0605626     -0.000284983     0.000498628
                    -0.000471604     0.000613495         0.633343       -0.646956     -0.000221481     0.000381067         0.353944        0.192775
281742                 0.0622517        0.012475      0.000152617     0.000217823         0.658242        0.740287     -0.000465455     0.000693513
                      0.00014157     0.000167333         0.212306        0.347916      0.000309782     0.000481746          0.63188       -0.648167
                        0.657857        0.740008       0.00043943     0.000381735      -0.00506352      -0.0605557     -0.000284756     0.000498915
                    -0.000471626     0.000613749         0.633026       -0.647183     -0.000221305     0.000381305         0.354202        0.192561
281744                 0.0622463       0.0124927      0.000153083     0.000217848          0.65852         0.74004     -0.000465385     0.000693833
                     0.000141858     0.000167181         0.212406        0.348004      0.000310192      0.00048142         0.631561       -0.648393
                        0.658135        0.739762      0.000439981     0.000381442      -0.00512749      -0.0605487     -0.000284529     0.000499203
                    -0.000471649     0.000614004         0.632709        -0.64741     -0.000221129     0.000381544          0.35446        0.192346
281746                 0.0622409       0.0125104      0.000153549     0.000217872         0.658797        0.739794     -0.000465316     0.000694152
                     0.000142146     0.000167029         0.212505        0.348091      0.000310601     0.000481093         0.631242        -0.64862
                        0.658413        0.739515      0.000440533     0.000381149      -0.00519144      -0.0605417     -0.000284302      0.00049949
                    -0.000471672      0.00061426         0.632391       -0.647636     -0.000220952     0.000381783         0.354718        0.192132
281748                 0.0622355       0.0125281      0.000154016     0.000217897         0.659075        0.739547     -0.000465246     0.000694473
                     0.000142435     0.000166876         0.212605        0.348179       0.00031101     0.000480766         0.630923       -0.648846
                         0.65869        0.739269      0.000441085     0.000380855      -0.00525539      -0.0605346     -0.000284075     0.000499779
                    -0.000471695     0.000614515         0.632074       -0.647863     -0.000220774     0.000382022         0.354976        0.191917
281750                 0.0622301       0.0125458      0.000154482     0.000217921         0.659352          0.7393     -0.000465176     0.000694793
                     0.000142723     0.000166724         0.212705        0.348266       0.00031142     0.000480437         0.630603       -0.649072
                        0.658968        0.739022      0.000441637     0.000380561      -0.00531933      -0.0605275     -0.000283847     0.000500067
                    -0.000471718     0.000614771         0.631756       -0.648089     -0.000220596     0.000382262         0.355233        0.191702
281752                 0.0622248       0.0125635      0.000154949     0.000217944         0.659629        0.739053     -0.000465106     0.000695114
                     0.000143012     0.000166571         0.212805        0.348354      0.000311829     0.000480108         0.630283       -0.649297
                        0.659245        0.738775       0.00044219     0.000380267      -0.00538326      -0.0605203     -0.000283619     0.000500356
                    -0.000471741     0.000615027         0.631438       -0.648315     -0.000220417     0.000382502         0.355491        0.191486
281754                 0.0622194       0.0125812      0.000155417     0.000217968         0.659906        0.738807     -0.000465036     0.000695435
                       0.0001433     0.000166418         0.212906        0.348442      0.000312239     0.000479778         0.629964       -0.649523
                        0.659522        0.738528      0.000442743     0.000379972      -0.00544718       -0.060513     -0.000283392     0.000500647
                    -0.000471764     0.000615283          0.63112       -0.648542     -0.000220238     0.000382743         0.355749         0.19127
281756                  0.062214       0.0125989      0.000155884     0.000217991         0.660183         0.73856     -0.000464963     0.000695759
                     0.000143589     0.000166264         0.213006        0.348529      0.000312649     0.000479448         0.629643       -0.649748
                          0.6598        0.738281      0.000443296     0.000379677      -0.00551109      -0.0605057     -0.000283165     0.000500943
                    -0.000471787     0.000615539         0.630801       -0.648768     -0.000220058     0.000382984         0.356007        0.191054
281758                 0.0622087       0.0126166      0.000156352     0.000218013          0.66046        0.738312     -0.000464916     0.000696078
                     0.000143878     0.000166111         0.213106        0.348617      0.000313059     0.000479116         0.629323       -0.649974
                        0.660077        0.738034      0.000443849     0.000379381        -0.005575      -0.0604984     -0.000282921     0.000501224
                     -0.00047181     0.000615796         0.630483       -0.648993     -0.000219877     0.000383225         0.356264        0.190838
281760                 0.0622033       0.0126343      0.000156821     0.000218036         0.660737        0.738065     -0.000464834     0.000696395
                     0.000144167     0.000165957         0.213207        0.348705      0.000313469     0.000478784         0.629003       -0.650199
                        0.660354        0.737787      0.000444403     0.000379085      -0.00563889       -0.060491     -0.000282697     0.000501513
                    -0.000471834     0.000616052         0.630164       -0.649219     -0.000219696     0.000383466         0.356522        0.190621
281762                  0.062198        0.012652      0.000157289     0.000218058         0.661013        0.737818     -0.000464762     0.000696717
                     0.000144456     0.000165803         0.213307        0.348793      0.000313879     0.000478451         0.628682       -0.650424
                         0.66063        0.737539      0.000444958     0.000378788      -0.00570278      -0.0604835     -0.000282469     0.000501804
