! TOUCHSTONE file generated by CST MICROWAVE STUDIO
! Date and time: Wed Oct 15 17:34:35 2025
! Project name: Teste_Macro_Metasurface_Nanopilar.cst
! Parameters = {H=600; L_x=185; L_y=190; Lambda=1064; Max_L=200; Min_L=70; PathPara=1; Phi=0; Step_L=10; Theta=0; p=520; phaseX=180; phaseY=0}
! Header version: 2018
! Port assignment regex: !\s*Touchstone port\s*([0-9]+)\s*=\s*(CST MWS port|CST DS port)\s*([0-9]+|Zmin|Zmax)\s*\(\"(.*)\"\)(\s*mode\s*([0-9]+))?.*
! Touchstone port assignment:
! Touchstone port 1 = CST MWS port Zmax ("") mode 1
! Touchstone port 2 = CST MWS port Zmax ("") mode 2
! Touchstone port 3 = CST MWS port Zmin ("") mode 1
! Touchstone port 4 = CST MWS port Zmin ("") mode 2
! S-Parameters are not renormalized. Each port impedance will be approximated by the real part at minimum frequency. The values are described via the [Reference] keyword.
! Default impedance is overridden by [Reference]
[Version] 2.0
# GHz S RI R 376.73
[Number of Ports] 4
[Reference]
376.73 376.73 259.888 259.888 
[Number of Frequencies] 51
[Network Data]
281700                  0.392191        0.193064        -0.000389    -0.000368508         0.149594       -0.882161      0.000564266    -0.000184462
                    -0.000379562    -0.000362412          0.34262        0.163204      0.000639037    -4.37377e-05         0.159962       -0.907868
                        0.149656       -0.882438      0.000373822    -0.000167768         0.432342      -0.0513951      -0.00053853     0.000615041
                     0.000373827    -0.000110593         0.160153        -0.90774     -0.000439272     0.000715361         0.376171      -0.0367877
281702                  0.392197        0.193025     -0.000389312    -0.000368464         0.149322       -0.882214      0.000564223    -0.000184935
                    -0.000379726    -0.000362367         0.342635        0.163185      0.000639104    -4.41413e-05           0.1597       -0.907912
                        0.149384       -0.882491      0.000373178    -0.000167818         0.432303      -0.0516258     -0.000538257     0.000615095
                     0.000373857    -0.000110328         0.159891       -0.907784      -0.00043863     0.000715734         0.376157      -0.0369818
281704                  0.392204        0.192985     -0.000389624     -0.00036842          0.14905       -0.882267      0.000564179    -0.000185407
                    -0.000379889    -0.000362321         0.342651        0.163167      0.000639172    -4.45448e-05         0.159438       -0.907956
                        0.149112       -0.882543       0.00037253    -0.000167866         0.432264      -0.0518565     -0.000537984     0.000615149
                     0.000373887    -0.000110062         0.159628       -0.907828     -0.000437988     0.000716105         0.376144      -0.0371759
281706                   0.39221        0.192946     -0.000389937    -0.000368374         0.148778        -0.88232      0.000564134    -0.000185878
                    -0.000380051    -0.000362276         0.342666        0.163148      0.000639242    -4.49482e-05         0.159176          -0.908
                         0.14884       -0.882595      0.000371878    -0.000167911         0.432224      -0.0520871     -0.000537711     0.000615204
                     0.000373918    -0.000109793         0.159366       -0.907872     -0.000437345     0.000716475         0.376131      -0.0373699
281708                  0.392217        0.192907     -0.000390249    -0.000368329         0.148506       -0.882373      0.000564089    -0.000186347
                    -0.000380212     -0.00036223         0.342682        0.163129      0.000639313    -4.53513e-05         0.158914       -0.908044
                        0.148568       -0.882647      0.000371223    -0.000167954         0.432185      -0.0523177     -0.000537438      0.00061526
                      0.00037395    -0.000109522         0.159104       -0.907916     -0.000436702     0.000716843         0.376117       -0.037564
281710                  0.392223        0.192867     -0.000390562    -0.000368282         0.148233       -0.882425      0.000564042    -0.000186816
                    -0.000380372    -0.000362184         0.342697         0.16311      0.000639385    -4.57544e-05         0.158652       -0.908087
                        0.148296       -0.882699      0.000370564    -0.000167994         0.432145      -0.0525482     -0.000537166     0.000615317
                     0.000373983     -0.00010925         0.158842        -0.90796     -0.000436059      0.00071721         0.376104       -0.037758
281712                   0.39223        0.192828     -0.000390875    -0.000368235         0.147961       -0.882478      0.000563995    -0.000187284
                    -0.000380531    -0.000362139         0.342712        0.163091      0.000639459    -4.61572e-05          0.15839       -0.908131
                        0.148024       -0.882751      0.000369902    -0.000168032         0.432105      -0.0527787     -0.000536893     0.000615374
                     0.000374016    -0.000108975          0.15858       -0.908004     -0.000435415     0.000717576          0.37609      -0.0379521
281714                  0.392236        0.192789     -0.000391188    -0.000368188         0.147689        -0.88253      0.000563947     -0.00018775
                     -0.00038069    -0.000362093         0.342728        0.163072      0.000639534    -4.65599e-05         0.158128       -0.908174
                        0.147752       -0.882802      0.000369235    -0.000168066         0.432065      -0.0530092     -0.000536621     0.000615432
                     0.000374051    -0.000108698         0.158317       -0.908048     -0.000434771     0.000717939         0.376076      -0.0381461
281716                  0.392243         0.19275     -0.000391501    -0.000368139         0.147417       -0.882583      0.000563898    -0.000188216
                    -0.000380847    -0.000362047         0.342743        0.163053       0.00063961    -4.69624e-05         0.157866       -0.908218
                         0.14748       -0.882854      0.000368565    -0.000168098         0.432026      -0.0532396     -0.000536348     0.000615491
                     0.000374086    -0.000108419         0.158055       -0.908092     -0.000434127     0.000718302         0.376062      -0.0383402
281718                  0.392249         0.19271     -0.000391814     -0.00036809         0.147145       -0.882635      0.000563849     -0.00018868
                    -0.000381004    -0.000362002         0.342759        0.163034      0.000639687    -4.73647e-05         0.157604       -0.908261
                        0.147208       -0.882905      0.000367891    -0.000168127         0.431985        -0.05347     -0.000536076      0.00061555
                     0.000374122    -0.000108139         0.157793       -0.908135     -0.000433482     0.000718662         0.376048      -0.0385342
281720                  0.392256        0.192671     -0.000392128    -0.000368041         0.146872       -0.882688      0.000563798    -0.000189143
                     -0.00038116    -0.000361956         0.342774        0.163015      0.000639766    -4.77668e-05         0.157342       -0.908304
                        0.146936       -0.882957      0.000367214    -0.000168153         0.431945      -0.0537004     -0.000535803     0.000615611
                     0.000374158    -0.000107856         0.157531       -0.908179     -0.000432837     0.000719022         0.376034      -0.0387282
281722                  0.392262        0.192632     -0.000392442    -0.000367991           0.1466        -0.88274      0.000563747    -0.000189605
                    -0.000381315     -0.00036191          0.34279        0.162996      0.000639846    -4.81687e-05          0.15708       -0.908347
                        0.146664       -0.883008      0.000366532    -0.000168176         0.431905      -0.0539307     -0.000535531     0.000615672
                     0.000374196    -0.000107571         0.157269       -0.908223     -0.000432192     0.000719379          0.37602      -0.0389222
281724                  0.392269        0.192593     -0.000392756     -0.00036794         0.146328       -0.882792      0.000563695    -0.000190065
                    -0.000381469    -0.000361865         0.342805        0.162977      0.000639927    -4.85704e-05         0.156817        -0.90839
                        0.146392       -0.883059      0.000365847    -0.000168196         0.431865       -0.054161     -0.000535258     0.000615733
                     0.000374235    -0.000107284         0.157007       -0.908266     -0.000431547     0.000719735         0.376006      -0.0391162
281726                  0.392275        0.192553     -0.000393071    -0.000367888         0.146056       -0.882844      0.000563643    -0.000190525
                    -0.000381622    -0.000361819          0.34282        0.162958      0.000640009    -4.89718e-05         0.156555       -0.908433
                         0.14612        -0.88311      0.000365157    -0.000168213         0.431824      -0.0543912     -0.000534986     0.000615796
                     0.000374274    -0.000106995         0.156744       -0.908309     -0.000430901     0.000720089         0.375991      -0.0393102
281728                  0.392282        0.192514     -0.000393385    -0.000367836         0.145783       -0.882896      0.000563589    -0.000190983
                    -0.000381774    -0.000361774         0.342836        0.162939      0.000640093    -4.93731e-05         0.156293       -0.908476
                        0.145848       -0.883161      0.000364464    -0.000168226         0.431784      -0.0546214     -0.000534713     0.000615859
                     0.000374315    -0.000106704         0.156482       -0.908353     -0.000430255     0.000720442         0.375977      -0.0395042
281730                  0.392289        0.192475       -0.0003937    -0.000367783         0.145511       -0.882948      0.000563535     -0.00019144
                    -0.000381925    -0.000361728         0.342851         0.16292      0.000640178    -4.97742e-05         0.156031       -0.908519
                        0.145576       -0.883212      0.000363767    -0.000168236         0.431743      -0.0548516      -0.00053444     0.000615923
                     0.000374356    -0.000106411          0.15622       -0.908396     -0.000429609     0.000720793         0.375962      -0.0396982
281732                  0.392295        0.192436     -0.000394015     -0.00036773         0.145239       -0.882999       0.00056348    -0.000191896
                    -0.000382076    -0.000361683         0.342867        0.162901      0.000640264     -5.0175e-05         0.155769       -0.908562
                        0.145304       -0.883263      0.000363065    -0.000168243         0.431702      -0.0550818     -0.000534168     0.000615988
                     0.000374399    -0.000106115         0.155958       -0.908439     -0.000428963     0.000721142         0.375948      -0.0398922
281734                  0.392302        0.192397     -0.000394331    -0.000367675         0.144967       -0.883051      0.000563425    -0.000192351
                    -0.000382225    -0.000361638         0.342882        0.162882      0.000640352    -5.05756e-05         0.155507       -0.908605
                        0.145031       -0.883314       0.00036236    -0.000168246         0.431661      -0.0553119     -0.000533895     0.000616053
                     0.000374443    -0.000105818         0.155696       -0.908482     -0.000428316      0.00072149         0.375933      -0.0400862
281736                  0.392308        0.192358     -0.000394647     -0.00036762         0.144695       -0.883102      0.000563368    -0.000192804
                    -0.000382374    -0.000361593         0.342897        0.162863       0.00064044    -5.09759e-05         0.155245       -0.908647
                        0.144759       -0.883364       0.00036165    -0.000168246          0.43162      -0.0555419     -0.000533622      0.00061612
                     0.000374488    -0.000105518         0.155434       -0.908525      -0.00042767     0.000721835         0.375918      -0.0402801
281738                  0.392315        0.192319     -0.000394963    -0.000367565         0.144422       -0.883154      0.000563311    -0.000193256
                    -0.000382522    -0.000361548         0.342913        0.162844       0.00064053     -5.1376e-05         0.154983        -0.90869
                        0.144487       -0.883415      0.000360937    -0.000168242         0.431579       -0.055772     -0.000533349     0.000616187
                     0.000374534    -0.000105217         0.155172       -0.908568     -0.000427023     0.000722179         0.375903      -0.0404741
281740                  0.392322         0.19228     -0.000395279    -0.000367508          0.14415       -0.883205      0.000563254    -0.000193707
                    -0.000382668    -0.000361503         0.342928        0.162826      0.000640621    -5.17758e-05          0.15472       -0.908732
                        0.144215       -0.883465      0.000360219    -0.000168235         0.431538       -0.056002     -0.000533076     0.000616254
                     0.000374581    -0.000104913          0.15491       -0.908611     -0.000426376     0.000722521         0.375888       -0.040668
281742                  0.392328        0.192241     -0.000395596    -0.000367451         0.143878       -0.883256      0.000563196    -0.000194157
                    -0.000382814    -0.000361459         0.342944        0.162807      0.000640713    -5.21754e-05         0.154458       -0.908775
                        0.143943       -0.883516      0.000359497    -0.000168223         0.431497      -0.0562319     -0.000532802     0.000616323
                     0.000374629    -0.000104607         0.154647       -0.908654     -0.000425729     0.000722862         0.375873       -0.040862
281744                  0.392335        0.192202     -0.000395913    -0.000367394         0.143606       -0.883308      0.000563137    -0.000194605
                    -0.000382959    -0.000361414         0.342959        0.162788      0.000640807    -5.25747e-05         0.154196       -0.908817
                        0.143671       -0.883566      0.000358771    -0.000168208         0.431455      -0.0564619     -0.000532529     0.000616392
                     0.000374679    -0.000104298         0.154385       -0.908696     -0.000425082       0.0007232         0.375857      -0.0410559
281746                  0.392341        0.192163      -0.00039623    -0.000367335         0.143333       -0.883359      0.000563077    -0.000195053
                    -0.000383104     -0.00036137         0.342975        0.162769      0.000640902    -5.29738e-05         0.153934       -0.908859
                        0.143399       -0.883616      0.000358041    -0.000168188         0.431414      -0.0566917     -0.000532255     0.000616462
                      0.00037473    -0.000103988         0.154123       -0.908739     -0.000424434     0.000723536         0.375842      -0.0412499
281748                  0.392348        0.192124     -0.000396548    -0.000367277         0.143061        -0.88341      0.000563017    -0.000195499
                    -0.000383247    -0.000361326          0.34299         0.16275      0.000640998    -5.33726e-05         0.153672       -0.908901
                        0.143127       -0.883666      0.000357306    -0.000168165         0.431372      -0.0569216     -0.000531981     0.000616533
                     0.000374783    -0.000103675         0.153861       -0.908782     -0.000423787     0.000723871         0.375827      -0.0414438
281750                  0.392355        0.192085     -0.000396866    -0.000367217         0.142789        -0.88346      0.000562957    -0.000195943
                     -0.00038339    -0.000361282         0.343005        0.162731      0.000641095    -5.37711e-05          0.15341       -0.908944
                        0.142855       -0.883716      0.000356567    -0.000168137         0.431331      -0.0571514     -0.000531707     0.000616604
                     0.000374837     -0.00010336         0.153599       -0.908824     -0.000423139     0.000724204         0.375811      -0.0416377
281752                  0.392361        0.192046     -0.000397185    -0.000367157         0.142517       -0.883511      0.000562896    -0.000196387
                    -0.000383531    -0.000361239         0.343021        0.162712      0.000641193    -5.41694e-05         0.153147       -0.908986
                        0.142583       -0.883766      0.000355824    -0.000168106         0.431289      -0.0573812     -0.000531432     0.000616677
                     0.000374892    -0.000103043         0.153336       -0.908867     -0.000422492     0.000724534         0.375795      -0.0418316
281754                  0.392368        0.192007     -0.000397505    -0.000367097         0.142244       -0.883562      0.000562834    -0.000196829
                    -0.000383672    -0.000361195         0.343036        0.162693      0.000641293    -5.45673e-05         0.152885       -0.909027
                        0.142311       -0.883816      0.000355076     -0.00016807         0.431247      -0.0576109     -0.000531157      0.00061675
                     0.000374949    -0.000102724         0.153074       -0.908909     -0.000421844     0.000724862          0.37578      -0.0420255
281756                  0.392375        0.191968     -0.000397825    -0.000367037         0.141972       -0.883612      0.000562772     -0.00019727
                    -0.000383812    -0.000361152         0.343052        0.162674      0.000641393     -5.4965e-05         0.152623       -0.909069
                        0.142039       -0.883865      0.000354325    -0.000168029         0.431205      -0.0578406     -0.000530882     0.000616823
                     0.000375007    -0.000102403         0.152812       -0.908952     -0.000421196     0.000725189         0.375764      -0.0422194
281758                  0.392381        0.191929     -0.000398147    -0.000366976           0.1417       -0.883663       0.00056271     -0.00019771
                    -0.000383951     -0.00036111         0.343067        0.162655      0.000641495    -5.53624e-05         0.152361       -0.909111
                        0.141766       -0.883915      0.000353568    -0.000167984         0.431163      -0.0580703     -0.000530606     0.000616898
                     0.000375067    -0.000102079          0.15255       -0.908994     -0.000420548     0.000725513         0.375748      -0.0424133
281760                  0.392388         0.19189     -0.000398471    -0.000366914         0.141427       -0.883713      0.000562647    -0.000198149
                    -0.000384089    -0.000361067         0.343083        0.162636      0.000641598    -5.57595e-05         0.152098       -0.909153
                        0.141494       -0.883964      0.000352808    -0.000167934         0.431121      -0.0582999      -0.00053033     0.000616972
                     0.000375128    -0.000101753         0.152287       -0.909036       -0.0004199     0.000725835         0.375732      -0.0426072
281762                  0.392395        0.191851     -0.000398797    -0.000366852         0.141155       -0.883764      0.000562584    -0.000198586
                    -0.000384226    -0.000361025         0.343098        0.162618      0.000641702    -5.61564e-05         0.151836       -0.909194
                        0.141222       -0.884014      0.000352042    -0.000167879         0.431078      -0.0585295     -0.000530054     0.000617048
