! TOUCHSTONE file generated by CST MICROWAVE STUDIO
! Date and time: Wed Oct 15 17:29:38 2025
! Project name: Teste_Macro_Metasurface_Nanopilar.cst
! Parameters = {H=600; L_x=100; L_y=155; Lambda=1064; Max_L=200; Min_L=70; PathPara=1; Phi=0; Step_L=10; Theta=0; p=520; phaseX=180; phaseY=0}
! Header version: 2018
! Port assignment regex: !\s*Touchstone port\s*([0-9]+)\s*=\s*(CST MWS port|CST DS port)\s*([0-9]+|Zmin|Zmax)\s*\(\"(.*)\"\)(\s*mode\s*([0-9]+))?.*
! Touchstone port assignment:
! Touchstone port 1 = CST MWS port Zmax ("") mode 1
! Touchstone port 2 = CST MWS port Zmax ("") mode 2
! Touchstone port 3 = CST MWS port Zmin ("") mode 1
! Touchstone port 4 = CST MWS port Zmin ("") mode 2
! S-Parameters are not renormalized. Each port impedance will be approximated by the real part at minimum frequency. The values are described via the [Reference] keyword.
! Default impedance is overridden by [Reference]
[Version] 2.0
# GHz S RI R 376.73
[Number of Ports] 4
[Reference]
376.73 376.73 259.888 259.888 
[Number of Frequencies] 51
[Network Data]
281700                 0.0733256         0.16821     -0.000290759     0.000358454         0.971693       -0.107949     -0.000160951    -0.000287528
                    -0.000271964     0.000418572         0.112473        0.122414     -0.000150674     0.000298341         -0.96656        0.158072
                        0.972306       -0.107523     -0.000127406     0.000262509       -0.0332985        0.180013     -0.000208422    -0.000316256
                    -0.000217553    -0.000196283         -0.96698        0.158496     -0.000235527    -0.000209733       -0.0662101        0.151916
281702                 0.0733461        0.168226     -0.000290673     0.000358383         0.971654        -0.10827     -0.000161092     -0.00028746
                    -0.000271864     0.000418462         0.112498        0.122411     -0.000150524     0.000298418        -0.966501        0.158414
                        0.972266       -0.107844     -0.000127273     0.000262603       -0.0331956        0.180055     -0.000208519    -0.000316051
                    -0.000217539    -0.000196274        -0.966921        0.158839     -0.000235506    -0.000209533       -0.0661271        0.151967
281704                 0.0733665        0.168242     -0.000290587     0.000358311         0.971613       -0.108591     -0.000161242     -0.00028741
                    -0.000271764     0.000418352         0.112523        0.122407     -0.000150375     0.000298495        -0.966442        0.158756
                        0.972225       -0.108166     -0.000127141     0.000262698       -0.0330927        0.180097     -0.000208613    -0.000315846
                    -0.000217526    -0.000196265        -0.966862        0.159182     -0.000235486    -0.000209333        -0.066044        0.152019
281706                 0.0733869        0.168258     -0.000290502     0.000358239         0.971573       -0.108913     -0.000161394    -0.000287362
                    -0.000271663     0.000418242         0.112548        0.122404     -0.000150225     0.000298572        -0.966383        0.159098
                        0.972185       -0.108487     -0.000127008     0.000262792       -0.0329897        0.180139     -0.000208706    -0.000315642
                    -0.000217512    -0.000196256        -0.966803        0.159525     -0.000235465    -0.000209133       -0.0659609         0.15207
281708                 0.0734073        0.168274     -0.000290416     0.000358168         0.971533       -0.109234     -0.000161548    -0.000287316
                    -0.000271563     0.000418132         0.112572          0.1224     -0.000150075     0.000298649        -0.966324         0.15944
                        0.972144       -0.108809     -0.000126875     0.000262886       -0.0328867         0.18018     -0.000208796    -0.000315438
                    -0.000217498    -0.000196247        -0.966743        0.159868     -0.000235444    -0.000208934       -0.0658778        0.152122
281710                 0.0734278         0.16829      -0.00029033     0.000358096         0.971493       -0.109555     -0.000161702     -0.00028727
                    -0.000271463     0.000418022         0.112597        0.122396     -0.000149926     0.000298726        -0.966265        0.159782
                        0.972104        -0.10913     -0.000126742      0.00026298       -0.0327837        0.180222     -0.000208885    -0.000315235
                    -0.000217485    -0.000196238        -0.966684        0.160211     -0.000235423    -0.000208734       -0.0657946        0.152173
281712                 0.0734482        0.168306     -0.000290245     0.000358024         0.971452       -0.109876     -0.000161856    -0.000287225
                    -0.000271363     0.000417912         0.112622        0.122393     -0.000149776     0.000298803        -0.966205        0.160124
                        0.972063       -0.109452     -0.000126609     0.000263074       -0.0326806        0.180263     -0.000208973    -0.000315032
                    -0.000217472    -0.000196229        -0.966624        0.160554     -0.000235402    -0.000208535       -0.0657113        0.152225
281714                 0.0734686        0.168322      -0.00029016     0.000357952         0.971412       -0.110198     -0.000162011    -0.000287179
                    -0.000271263     0.000417802         0.112647        0.122389     -0.000149626      0.00029888        -0.966146        0.160466
                        0.972022       -0.109773     -0.000126476     0.000263168       -0.0325774        0.180305     -0.000209059    -0.000314829
                    -0.000217458     -0.00019622        -0.966564        0.160897      -0.00023538    -0.000208335        -0.065628        0.152276
281716                  0.073489        0.168338     -0.000290074     0.000357881         0.971371       -0.110519     -0.000162165    -0.000287133
                    -0.000271163     0.000417692         0.112672        0.122386     -0.000149477     0.000298957        -0.966086        0.160807
                        0.971982       -0.110095     -0.000126343     0.000263262       -0.0324743        0.180346     -0.000209144    -0.000314626
                    -0.000217445    -0.000196211        -0.966504        0.161239     -0.000235359    -0.000208136       -0.0655447        0.152327
281718                 0.0735095        0.168354     -0.000289989     0.000357809          0.97133        -0.11084      -0.00016232    -0.000287087
                    -0.000271064     0.000417582         0.112697        0.122382     -0.000149327     0.000299033        -0.966026        0.161149
                        0.971941       -0.110416     -0.000126209     0.000263356        -0.032371        0.180388     -0.000209229    -0.000314422
                    -0.000217432    -0.000196203        -0.966444        0.161582     -0.000235338    -0.000207937       -0.0654614        0.152378
281720                 0.0735299         0.16837     -0.000289904     0.000357737         0.971289       -0.111161     -0.000162474    -0.000287041
                    -0.000270964     0.000417472         0.112721        0.122379     -0.000149178      0.00029911        -0.965966        0.161491
                        0.971899       -0.110738     -0.000126075      0.00026345       -0.0322678        0.180429     -0.000209313    -0.000314219
                     -0.00021742    -0.000196194        -0.966384        0.161925     -0.000235316    -0.000207738        -0.065378        0.152429
281722                 0.0735503        0.168386     -0.000289819     0.000357665         0.971248       -0.111482     -0.000162629    -0.000286994
                    -0.000270864     0.000417362         0.112746        0.122375     -0.000149028     0.000299186        -0.965906        0.161833
                        0.971858       -0.111059     -0.000125942     0.000263543       -0.0321645         0.18047     -0.000209396    -0.000314016
                    -0.000217407    -0.000196185        -0.966324        0.162268     -0.000235295    -0.000207538       -0.0652945         0.15248
281724                 0.0735708        0.168401     -0.000289734     0.000357593         0.971207       -0.111803     -0.000162784    -0.000286948
                    -0.000270765     0.000417252         0.112771        0.122371     -0.000148879     0.000299263        -0.965846        0.162175
                        0.971817       -0.111381     -0.000125808     0.000263637       -0.0320612        0.180512     -0.000209479    -0.000313813
                    -0.000217394    -0.000196177        -0.966263        0.162611     -0.000235273    -0.000207339       -0.0652111        0.152531
281726                 0.0735912        0.168417     -0.000289649     0.000357521         0.971166       -0.112124     -0.000162939    -0.000286901
                    -0.000270665     0.000417142         0.112796        0.122368     -0.000148729     0.000299339        -0.965786        0.162517
                        0.971775       -0.111702     -0.000125674     0.000263731       -0.0319578        0.180553     -0.000209561    -0.000313609
                    -0.000217382    -0.000196168        -0.966203        0.162954     -0.000235252     -0.00020714       -0.0651275        0.152582
281728                 0.0736116        0.168433     -0.000289564     0.000357449         0.971124       -0.112446     -0.000163093    -0.000286855
                    -0.000270566     0.000417032         0.112821        0.122364     -0.000148579     0.000299415        -0.965725        0.162859
                        0.971734       -0.112023     -0.000125539     0.000263824       -0.0318544        0.180594     -0.000209643    -0.000313405
                    -0.000217369     -0.00019616        -0.966142        0.163296      -0.00023523    -0.000206941        -0.065044        0.152633
281730                  0.073632        0.168449     -0.000289479     0.000357377         0.971083       -0.112767     -0.000163248    -0.000286808
                    -0.000270467     0.000416921         0.112846         0.12236      -0.00014843     0.000299491        -0.965665        0.163201
                        0.971692       -0.112345     -0.000125405     0.000263918        -0.031751        0.180635     -0.000209726    -0.000313202
                    -0.000217357    -0.000196151        -0.966082        0.163639     -0.000235208    -0.000206743       -0.0649604        0.152684
281732                 0.0736525        0.168465     -0.000289395     0.000357304         0.971041       -0.113088     -0.000163403    -0.000286761
                    -0.000270367     0.000416811          0.11287        0.122357      -0.00014828     0.000299567        -0.965604        0.163542
                        0.971651       -0.112666     -0.000125271     0.000264011       -0.0316475        0.180676     -0.000209808    -0.000312998
                    -0.000217345    -0.000196143        -0.966021        0.163982     -0.000235186    -0.000206544       -0.0648767        0.152735
281734                 0.0736729        0.168481      -0.00028931     0.000357232            0.971       -0.113409     -0.000163558    -0.000286714
                    -0.000270268     0.000416701         0.112895        0.122353     -0.000148131     0.000299643        -0.965543        0.163884
                        0.971609       -0.112987     -0.000125136     0.000264105       -0.0315439        0.180717      -0.00020989    -0.000312794
                    -0.000217333    -0.000196134         -0.96596        0.164325     -0.000235164    -0.000206345       -0.0647931        0.152786
281736                 0.0736934        0.168497     -0.000289226      0.00035716         0.970958        -0.11373     -0.000163712    -0.000286667
                    -0.000270169     0.000416591          0.11292        0.122349     -0.000147981     0.000299719        -0.965482        0.164226
                        0.971567       -0.113309     -0.000125001     0.000264198       -0.0314404        0.180758     -0.000209972     -0.00031259
                    -0.000217322    -0.000196126        -0.965899        0.164667     -0.000235142    -0.000206146       -0.0647094        0.152837
281738                 0.0737138        0.168513     -0.000289141     0.000357088         0.970916       -0.114051     -0.000163867    -0.000286619
                     -0.00027007      0.00041648         0.112945        0.122346     -0.000147832     0.000299795        -0.965421        0.164568
                        0.971525        -0.11363     -0.000124866     0.000264291       -0.0313368        0.180799     -0.000210054    -0.000312386
                     -0.00021731    -0.000196118        -0.965837         0.16501      -0.00023512    -0.000205948       -0.0646256        0.152887
281740                 0.0737342        0.168529     -0.000289057     0.000357016         0.970874       -0.114372     -0.000164022    -0.000286572
                    -0.000269971      0.00041637          0.11297        0.122342     -0.000147683      0.00029987         -0.96536        0.164909
                        0.971482       -0.113951     -0.000124731     0.000264384       -0.0312331        0.180839     -0.000210136    -0.000312181
                    -0.000217298    -0.000196109        -0.965776        0.165353     -0.000235098    -0.000205749       -0.0645418        0.152938
281742                 0.0737547        0.168545     -0.000288973     0.000356943         0.970832       -0.114693     -0.000164177    -0.000286524
                    -0.000269872      0.00041626         0.112995        0.122338     -0.000147533     0.000299946        -0.965299        0.165251
                         0.97144       -0.114272     -0.000124596     0.000264477       -0.0311295         0.18088     -0.000210219    -0.000311977
                    -0.000217287    -0.000196101        -0.965715        0.165695     -0.000235076    -0.000205551        -0.064458        0.152989
281744                 0.0737751        0.168561     -0.000288888     0.000356871          0.97079       -0.115014     -0.000164332    -0.000286476
                    -0.000269774     0.000416149         0.113019        0.122335     -0.000147384     0.000300021        -0.965237        0.165593
                        0.971398       -0.114594     -0.000124461     0.000264571       -0.0310257        0.180921     -0.000210301    -0.000311773
                    -0.000217276    -0.000196093        -0.965653        0.166038     -0.000235054    -0.000205353       -0.0643741        0.153039
281746                 0.0737955        0.168577     -0.000288804     0.000356799         0.970747       -0.115335     -0.000164486    -0.000286428
                    -0.000269675     0.000416039         0.113044        0.122331     -0.000147234     0.000300097        -0.965176        0.165935
                        0.971355       -0.114915     -0.000124325     0.000264664        -0.030922        0.180961     -0.000210384    -0.000311568
                    -0.000217265    -0.000196085        -0.965591        0.166381     -0.000235031    -0.000205154       -0.0642902         0.15309
281748                  0.073816        0.168593      -0.00028872     0.000356726         0.970705       -0.115656     -0.000164641     -0.00028638
                    -0.000269577     0.000415928         0.113069        0.122327     -0.000147085     0.000300172        -0.965114        0.166276
                        0.971313       -0.115236      -0.00012419     0.000264756       -0.0308182        0.181002     -0.000210467    -0.000311363
                    -0.000217254    -0.000196077        -0.965529        0.166723     -0.000235009    -0.000204956       -0.0642062         0.15314
281750                 0.0738364        0.168609     -0.000288636     0.000356654         0.970662       -0.115977     -0.000164796    -0.000286331
                    -0.000269478     0.000415818         0.113094        0.122324     -0.000146935     0.000300247        -0.965052        0.166618
                         0.97127       -0.115557     -0.000124054     0.000264849       -0.0307143        0.181042      -0.00021055    -0.000311159
                    -0.000217243    -0.000196069        -0.965467        0.167066     -0.000234986    -0.000204758       -0.0641222        0.153191
281752                 0.0738569        0.168624     -0.000288552     0.000356581          0.97062       -0.116297      -0.00016495    -0.000286283
                     -0.00026938     0.000415707         0.113119         0.12232     -0.000146786     0.000300323         -0.96499         0.16696
                        0.971227       -0.115878     -0.000123918     0.000264942       -0.0306105        0.181083     -0.000210633    -0.000310954
                    -0.000217232    -0.000196061        -0.965405        0.167409     -0.000234963     -0.00020456       -0.0640382        0.153241
281754                 0.0738773         0.16864     -0.000288469     0.000356509         0.970577       -0.116618     -0.000165105    -0.000286234
                    -0.000269282     0.000415597         0.113144        0.122316     -0.000146637     0.000300398        -0.964928        0.167301
                        0.971184       -0.116199     -0.000123782     0.000265035       -0.0305065        0.181123     -0.000210717    -0.000310749
                    -0.000217222    -0.000196053        -0.965343        0.167751     -0.000234941    -0.000204362       -0.0639541        0.153291
281756                 0.0738978        0.168656     -0.000288385     0.000356436         0.970534       -0.116939      -0.00016526    -0.000286185
                    -0.000269183     0.000415486         0.113168        0.122313     -0.000146487     0.000300473        -0.964866        0.167643
                        0.971141       -0.116521     -0.000123646     0.000265128       -0.0304026        0.181163       -0.0002108    -0.000310544
                    -0.000217212    -0.000196045        -0.965281        0.168094     -0.000234918    -0.000204164         -0.06387        0.153342
281758                 0.0739182        0.168672     -0.000288302     0.000356364         0.970491        -0.11726     -0.000165415    -0.000286136
                    -0.000269085     0.000415376         0.113193        0.122309     -0.000146338     0.000300548        -0.964804        0.167985
                        0.971098       -0.116842     -0.000123509      0.00026522       -0.0302986        0.181204     -0.000210884    -0.000310339
                    -0.000217201    -0.000196037        -0.965218        0.168436     -0.000234895    -0.000203966       -0.0637859        0.153392
281760                 0.0739386        0.168688     -0.000288218     0.000356291         0.970448       -0.117581     -0.000165569    -0.000286087
                    -0.000268987     0.000415265         0.113218        0.122305     -0.000146189     0.000300623        -0.964742        0.168326
                        0.971055       -0.117163     -0.000123373     0.000265312       -0.0301946        0.181244     -0.000210967    -0.000310134
                    -0.000217191    -0.000196029        -0.965156        0.168779     -0.000234872    -0.000203769       -0.0637017        0.153442
281762                 0.0739591        0.168704     -0.000288134     0.000356218         0.970405       -0.117902     -0.000165724    -0.000286038
                    -0.000268889     0.000415155         0.113243        0.122301     -0.000146039     0.000300697        -0.964679        0.168668
                        0.971012       -0.117484     -0.000123237     0.000265405       -0.0300905        0.181284     -0.000211051    -0.000309928
