! TOUCHSTONE file generated by CST MICROWAVE STUDIO
! Date and time: Wed Oct 15 17:28:59 2025
! Project name: Teste_Macro_Metasurface_Nanopilar.cst
! Parameters = {H=600; L_x=90; L_y=115; Lambda=1064; Max_L=200; Min_L=70; PathPara=1; Phi=0; Step_L=10; Theta=0; p=520; phaseX=180; phaseY=0}
! Header version: 2018
! Port assignment regex: !\s*Touchstone port\s*([0-9]+)\s*=\s*(CST MWS port|CST DS port)\s*([0-9]+|Zmin|Zmax)\s*\(\"(.*)\"\)(\s*mode\s*([0-9]+))?.*
! Touchstone port assignment:
! Touchstone port 1 = CST MWS port Zmax ("") mode 1
! Touchstone port 2 = CST MWS port Zmax ("") mode 2
! Touchstone port 3 = CST MWS port Zmin ("") mode 1
! Touchstone port 4 = CST MWS port Zmin ("") mode 2
! S-Parameters are not renormalized. Each port impedance will be approximated by the real part at minimum frequency. The values are described via the [Reference] keyword.
! Default impedance is overridden by [Reference]
[Version] 2.0
# GHz S RI R 376.73
[Number of Ports] 4
[Reference]
376.73 376.73 259.888 259.888 
[Number of Frequencies] 51
[Network Data]
281700                 0.0773528       0.0633756     -0.000308491    -4.09573e-05        -0.919048       -0.368522      0.000251753    -0.000305713
                    -0.000279343    -2.52985e-05       -0.0144396      -0.0515303      0.000232329    -0.000254891        -0.358379       -0.931342
                       -0.919662       -0.368855      0.000246135    -0.000280188       -0.0993535     -0.00644488     -6.64095e-05     0.000197278
                     0.000230064    -7.59243e-05        -0.357886       -0.930822       1.7746e-05     0.000299245        0.0236165        0.048314
281702                 0.0773665       0.0633813     -0.000308527    -4.07933e-05        -0.919163       -0.368228      0.000251645    -0.000305871
                    -0.000279387    -2.51763e-05       -0.0144498      -0.0515211      0.000232259    -0.000254982        -0.358621       -0.931249
                       -0.919778       -0.368561      0.000246096    -0.000280318       -0.0993715     -0.00638677     -6.63466e-05     0.000197256
                     0.000230086    -7.60777e-05        -0.358128       -0.930729      1.78332e-05     0.000299226        0.0236278       0.0483018
281704                 0.0773801       0.0633869     -0.000308563    -4.06292e-05        -0.919279       -0.367934      0.000251537     -0.00030603
                     -0.00027943     -2.5054e-05         -0.01446      -0.0515119       0.00023219    -0.000255072        -0.358863       -0.931156
                       -0.919894       -0.368267      0.000246057    -0.000280448       -0.0993894     -0.00632864     -6.62836e-05     0.000197234
                     0.000230106    -7.62313e-05         -0.35837       -0.930636      1.79203e-05     0.000299208        0.0236391       0.0482896
281706                 0.0773938       0.0633925     -0.000308599    -4.04649e-05        -0.919395        -0.36764      0.000251429    -0.000306188
                    -0.000279473    -2.49316e-05       -0.0144703      -0.0515027      0.000232121    -0.000255163        -0.359106       -0.931063
                        -0.92001       -0.367972      0.000246018    -0.000280578       -0.0994074     -0.00627049     -6.62207e-05     0.000197212
                     0.000230127     -7.6385e-05        -0.358612       -0.930543      1.80075e-05     0.000299189        0.0236504       0.0482773
281708                 0.0774075       0.0633981     -0.000308635    -4.03005e-05        -0.919511       -0.367346      0.000251321    -0.000306346
                    -0.000279517    -2.48092e-05       -0.0144805      -0.0514935      0.000232051    -0.000255254        -0.359348        -0.93097
                       -0.920125       -0.367678      0.000245979    -0.000280708       -0.0994253     -0.00621232     -6.61578e-05      0.00019719
                     0.000230148    -7.65388e-05        -0.358854        -0.93045      1.80946e-05      0.00029917        0.0236617       0.0482651
281710                 0.0774212       0.0634038     -0.000308671    -4.01359e-05        -0.919626       -0.367052      0.000251213    -0.000306505
                     -0.00027956    -2.46867e-05       -0.0144907      -0.0514843      0.000231982    -0.000255344         -0.35959       -0.930877
                       -0.920241       -0.367384       0.00024594    -0.000280838       -0.0994431     -0.00615414     -6.60949e-05     0.000197168
                     0.000230168    -7.66927e-05        -0.359096       -0.930357      1.81817e-05     0.000299151         0.023673       0.0482529
281712                 0.0774348       0.0634094     -0.000308707    -3.99712e-05        -0.919742       -0.366757      0.000251104    -0.000306663
                    -0.000279603    -2.45641e-05        -0.014501      -0.0514751      0.000231912    -0.000255435        -0.359832       -0.930783
                       -0.920356       -0.367089        0.0002459    -0.000280968       -0.0994609     -0.00609594     -6.60321e-05     0.000197145
                     0.000230189    -7.68467e-05        -0.359338       -0.930264      1.82688e-05     0.000299132        0.0236842       0.0482407
281714                 0.0774485        0.063415     -0.000308743    -3.98064e-05        -0.919857       -0.366463      0.000250996    -0.000306821
                    -0.000279646    -2.44415e-05       -0.0145112      -0.0514659      0.000231843    -0.000255525        -0.360074        -0.93069
                       -0.920472       -0.366795      0.000245861    -0.000281098       -0.0994787     -0.00603773     -6.59692e-05     0.000197123
                     0.000230209    -7.70009e-05         -0.35958       -0.930171      1.83559e-05     0.000299113        0.0236955       0.0482285
281716                 0.0774622       0.0634206     -0.000308779    -3.96414e-05        -0.919973       -0.366169      0.000250887    -0.000306979
                    -0.000279688    -2.43189e-05       -0.0145214      -0.0514567      0.000231773    -0.000255616        -0.360316       -0.930597
                       -0.920587         -0.3665      0.000245822    -0.000281228       -0.0994965     -0.00597949     -6.59064e-05       0.0001971
                     0.000230229    -7.71552e-05        -0.359822       -0.930077      1.84431e-05     0.000299093        0.0237068       0.0482163
281718                 0.0774759       0.0634262     -0.000308814    -3.94763e-05        -0.920088       -0.365874      0.000250779    -0.000307137
                    -0.000279731    -2.41961e-05       -0.0145316      -0.0514475      0.000231703    -0.000255706        -0.360558       -0.930503
                       -0.920702       -0.366205      0.000245783    -0.000281358       -0.0995142     -0.00592124     -6.58436e-05     0.000197078
                     0.000230249    -7.73096e-05        -0.360064       -0.929984      1.85302e-05     0.000299074         0.023718        0.048204
281720                 0.0774896       0.0634318      -0.00030885     -3.9311e-05        -0.920203        -0.36558       0.00025067    -0.000307295
                    -0.000279774    -2.40733e-05       -0.0145419      -0.0514383      0.000231633    -0.000255796          -0.3608        -0.93041
                       -0.920818       -0.365911      0.000245744    -0.000281489       -0.0995319     -0.00586297     -6.57809e-05     0.000197055
                     0.000230269    -7.74642e-05        -0.360305        -0.92989      1.86173e-05     0.000299054        0.0237293       0.0481918
281722                 0.0775033       0.0634374     -0.000308885    -3.91456e-05        -0.920318       -0.365286      0.000250561    -0.000307453
                    -0.000279817    -2.39505e-05       -0.0145521      -0.0514291      0.000231563    -0.000255886        -0.361042       -0.930316
                       -0.920933       -0.365616      0.000245705    -0.000281619       -0.0995495     -0.00580469     -6.57181e-05     0.000197032
                     0.000230289    -7.76188e-05        -0.360547       -0.929797      1.87045e-05     0.000299035        0.0237405       0.0481796
281724                  0.077517        0.063443     -0.000308921      -3.898e-05        -0.920433       -0.364991      0.000250452     -0.00030761
                    -0.000279859    -2.38276e-05       -0.0145623      -0.0514199      0.000231493    -0.000255976        -0.361284       -0.930222
                       -0.921048       -0.365321      0.000245666    -0.000281749       -0.0995672     -0.00574638     -6.56554e-05      0.00019701
                     0.000230309    -7.77736e-05        -0.360789       -0.929703      1.87917e-05     0.000299015        0.0237517       0.0481674
281726                 0.0775307       0.0634486     -0.000308956    -3.88143e-05        -0.920548       -0.364696      0.000250343    -0.000307768
                    -0.000279902    -2.37047e-05       -0.0145725      -0.0514107      0.000231422    -0.000256066        -0.361526       -0.930129
                       -0.921163       -0.365027      0.000245627    -0.000281879       -0.0995848     -0.00568806     -6.55926e-05     0.000196987
                     0.000230329    -7.79284e-05        -0.361031       -0.929609      1.88789e-05     0.000298995         0.023763       0.0481551
281728                 0.0775444       0.0634542     -0.000308992    -3.86484e-05        -0.920662       -0.364402      0.000250234    -0.000307926
                    -0.000279944    -2.35816e-05       -0.0145827      -0.0514015      0.000231352    -0.000256156        -0.361768       -0.930035
                       -0.921277       -0.364732      0.000245589     -0.00028201       -0.0996023     -0.00562973     -6.55299e-05     0.000196963
                     0.000230349    -7.80833e-05        -0.361272       -0.929516      1.89661e-05     0.000298975        0.0237742       0.0481429
281730                 0.0775581       0.0634598     -0.000309027    -3.84824e-05        -0.920777       -0.364107      0.000250125    -0.000308083
                    -0.000279987    -2.34586e-05        -0.014593      -0.0513923      0.000231282    -0.000256246         -0.36201       -0.929941
                       -0.921392       -0.364437       0.00024555     -0.00028214       -0.0996198     -0.00557137     -6.54672e-05      0.00019694
                     0.000230368    -7.82383e-05        -0.361514       -0.929422      1.90534e-05     0.000298954        0.0237854       0.0481307
281732                 0.0775718       0.0634654     -0.000309062    -3.83162e-05        -0.920892       -0.363812      0.000250016     -0.00030824
                    -0.000280029    -2.33355e-05       -0.0146032      -0.0513831      0.000231211    -0.000256336        -0.362252       -0.929847
                       -0.921507       -0.364142      0.000245511     -0.00028227       -0.0996373       -0.005513     -6.54045e-05     0.000196917
                     0.000230388    -7.83933e-05        -0.361756       -0.929328      1.91408e-05     0.000298934        0.0237966       0.0481185
281734                 0.0775855       0.0634709     -0.000309098    -3.81497e-05        -0.921006       -0.363518      0.000249907    -0.000308398
                    -0.000280072    -2.32123e-05       -0.0146134      -0.0513739       0.00023114    -0.000256425        -0.362494       -0.929753
                       -0.921621       -0.363847      0.000245472    -0.000282401       -0.0996548     -0.00545461     -6.53419e-05     0.000196893
                     0.000230408    -7.85484e-05        -0.361997       -0.929234      1.92282e-05     0.000298913        0.0238078       0.0481062
281736                 0.0775993       0.0634765     -0.000309133    -3.79831e-05        -0.921121       -0.363223      0.000249798    -0.000308555
                    -0.000280114    -2.30891e-05       -0.0146236      -0.0513647       0.00023107    -0.000256515        -0.362736       -0.929659
                       -0.921736       -0.363552      0.000245433    -0.000282531       -0.0996722     -0.00539621     -6.52792e-05      0.00019687
                     0.000230427    -7.87034e-05        -0.362239        -0.92914      1.93156e-05     0.000298892         0.023819        0.048094
281738                  0.077613       0.0634821     -0.000309168    -3.78161e-05        -0.921235       -0.362928      0.000249689    -0.000308712
                    -0.000280156    -2.29659e-05       -0.0146338      -0.0513555      0.000230999    -0.000256604        -0.362977       -0.929565
                        -0.92185       -0.363257      0.000245395    -0.000282662       -0.0996896     -0.00533779     -6.52165e-05     0.000196846
                     0.000230447    -7.88585e-05        -0.362481       -0.929046      1.94032e-05     0.000298871        0.0238302       0.0480818
281740                 0.0776267       0.0634877     -0.000309203    -3.76489e-05        -0.921349       -0.362633       0.00024958    -0.000308869
                    -0.000280199    -2.28427e-05        -0.014644      -0.0513462      0.000230928    -0.000256693        -0.363219       -0.929471
                       -0.921964       -0.362962      0.000245357    -0.000282792       -0.0997069     -0.00527935     -6.51539e-05     0.000196822
                     0.000230466    -7.90136e-05        -0.362722       -0.928952      1.94908e-05      0.00029885        0.0238414       0.0480696
281742                 0.0776404       0.0634932     -0.000309238    -3.74812e-05        -0.921463       -0.362338      0.000249471    -0.000309026
                    -0.000280241    -2.27194e-05       -0.0146542       -0.051337      0.000230857    -0.000256783        -0.363461       -0.929377
                       -0.922078       -0.362667      0.000245318    -0.000282923       -0.0997242     -0.00522089     -6.50912e-05     0.000196798
                     0.000230485    -7.91688e-05        -0.362964       -0.928858      1.95786e-05     0.000298829        0.0238526       0.0480573
281744                 0.0776542       0.0634988     -0.000309273     -3.7313e-05        -0.921577       -0.362043      0.000249362    -0.000309183
                    -0.000280284    -2.25962e-05       -0.0146645      -0.0513278      0.000230786    -0.000256872        -0.363703       -0.929282
                       -0.922192       -0.362372      0.000245281    -0.000283054       -0.0997415     -0.00516242     -6.50285e-05     0.000196774
                     0.000230504    -7.93239e-05        -0.363205       -0.928763      1.96665e-05     0.000298807        0.0238637       0.0480451
281746                 0.0776679       0.0635044     -0.000309308     -3.7144e-05        -0.921691       -0.361748      0.000249252     -0.00030934
                    -0.000280326    -2.24729e-05       -0.0146747      -0.0513186      0.000230715    -0.000256961        -0.363945       -0.929188
                       -0.922306       -0.362076      0.000245244    -0.000283186       -0.0997587     -0.00510393     -6.49659e-05      0.00019675
                     0.000230524    -7.94791e-05        -0.363447       -0.928669      1.97545e-05     0.000298785        0.0238749       0.0480329
281748                 0.0776816       0.0635099     -0.000309343    -3.69737e-05        -0.921805       -0.361453      0.000249143    -0.000309497
                    -0.000280369    -2.23498e-05       -0.0146849      -0.0513094      0.000230643     -0.00025705        -0.364186       -0.929094
                        -0.92242       -0.361781      0.000245207    -0.000283318        -0.099776     -0.00504542     -6.49032e-05     0.000196725
                     0.000230542    -7.96343e-05        -0.363688       -0.928575      1.98427e-05     0.000298763        0.0238861       0.0480206
281750                 0.0776954       0.0635155     -0.000309379    -3.68013e-05        -0.921919       -0.361158      0.000249034    -0.000309653
                    -0.000280412    -2.22267e-05       -0.0146951      -0.0513001      0.000230572    -0.000257138        -0.364428       -0.928999
                       -0.922534       -0.361486      0.000245173    -0.000283451       -0.0997931      -0.0049869     -6.48406e-05     0.000196701
                     0.000230561    -7.97895e-05         -0.36393        -0.92848       1.9931e-05     0.000298741        0.0238972       0.0480084
281752                 0.0777091        0.063521     -0.000309414    -3.66245e-05        -0.922032       -0.360863      0.000248925     -0.00030981
                    -0.000280455    -2.21038e-05       -0.0147053      -0.0512909        0.0002305    -0.000257227         -0.36467       -0.928905
                       -0.922648       -0.361191      0.000245143    -0.000283585       -0.0998103     -0.00492836     -6.47779e-05     0.000196676
                      0.00023058    -7.99448e-05        -0.364171       -0.928386      2.00195e-05     0.000298718        0.0239084       0.0479962
281754                 0.0777228       0.0635266     -0.000309452    -3.64353e-05        -0.922146       -0.360568      0.000248816    -0.000309966
                    -0.000280498    -2.19812e-05       -0.0147155      -0.0512817      0.000230428    -0.000257316        -0.364911        -0.92881
                       -0.922761       -0.360895      0.000245123    -0.000283724       -0.0998274      -0.0048698     -6.47153e-05     0.000196651
                     0.000230599    -8.01002e-05        -0.364413       -0.928291      2.01082e-05     0.000298696        0.0239195        0.047984
281756                 0.0777366       0.0635321     -0.000309509    -3.61813e-05        -0.922259       -0.360273      0.000248706    -0.000310123
                    -0.000280542    -2.18589e-05       -0.0147256      -0.0512725      0.000230357    -0.000257404        -0.365153       -0.928715
                       -0.922875         -0.3606      0.000245162    -0.000283872       -0.0998445     -0.00481123     -6.46527e-05     0.000196626
                     0.000230617    -8.02556e-05        -0.364654       -0.928197      2.01971e-05     0.000298673        0.0239306       0.0479717
281758                 0.0777503       0.0635377     -0.000309593    -3.64407e-05        -0.922373       -0.359978      0.000248597    -0.000310279
                    -0.000280586    -2.17373e-05       -0.0147361       -0.051263      0.000230285    -0.000257492        -0.365395       -0.928621
                       -0.922988       -0.360304      0.000244874    -0.000283657       -0.0998615     -0.00475264     -6.45901e-05     0.000196601
                     0.000230636    -8.04111e-05        -0.364896         -0.9281      2.02861e-05      0.00029865        0.0239418       0.0479595
281760                 0.0777641       0.0635432     -0.000309554    -3.60706e-05        -0.922486       -0.359682      0.000248488    -0.000310436
                    -0.000280629    -2.16165e-05       -0.0147462      -0.0512539      0.000230213    -0.000257581        -0.365636       -0.928526
                       -0.923101       -0.360009      0.000244889    -0.000284031       -0.0998785     -0.00469403     -6.45275e-05     0.000196576
                     0.000230654    -8.05667e-05        -0.365137       -0.928007      2.03752e-05     0.000298627        0.0239529       0.0479473
281762                 0.0777779       0.0635487     -0.000309585    -3.58714e-05        -0.922599       -0.359387      0.000248378    -0.000310592
                    -0.000280673    -2.14967e-05       -0.0147563      -0.0512447       0.00023014    -0.000257669        -0.365878       -0.928431
                       -0.923215       -0.359713      0.000244874    -0.000284187       -0.0998955      -0.0046354      -6.4465e-05      0.00019655
