! TOUCHSTONE file generated by CST MICROWAVE STUDIO
! Date and time: Wed Oct 15 17:32:07 2025
! Project name: Teste_Macro_Metasurface_Nanopilar.cst
! Parameters = {H=600; L_x=145; L_y=100; Lambda=1064; Max_L=200; Min_L=70; PathPara=1; Phi=0; Step_L=10; Theta=0; p=520; phaseX=180; phaseY=0}
! Header version: 2018
! Port assignment regex: !\s*Touchstone port\s*([0-9]+)\s*=\s*(CST MWS port|CST DS port)\s*([0-9]+|Zmin|Zmax)\s*\(\"(.*)\"\)(\s*mode\s*([0-9]+))?.*
! Touchstone port assignment:
! Touchstone port 1 = CST MWS port Zmax ("") mode 1
! Touchstone port 2 = CST MWS port Zmax ("") mode 2
! Touchstone port 3 = CST MWS port Zmin ("") mode 1
! Touchstone port 4 = CST MWS port Zmin ("") mode 2
! S-Parameters are not renormalized. Each port impedance will be approximated by the real part at minimum frequency. The values are described via the [Reference] keyword.
! Default impedance is overridden by [Reference]
[Version] 2.0
# GHz S RI R 376.73
[Number of Ports] 4
[Reference]
376.73 376.73 259.888 259.888 
[Number of Frequencies] 51
[Network Data]
281700                  0.076076        0.118488     -0.000546673     0.000301717        -0.982314      -0.0683742      0.000174716     0.000384761
                    -0.000537987     0.000276737        0.0168161        0.107864      0.000376884    -0.000218235         0.931238        0.328681
                       -0.982728      -0.0678451      0.000257801    -0.000233858       -0.0904026        0.107481     -0.000390911    -0.000340797
                     0.000184739     0.000373997         0.931484        0.328269      -0.00031248    -0.000570096       -0.0799759       0.0750108
281702                 0.0760986        0.118495     -0.000546449     0.000301838        -0.982334      -0.0680397      0.000174798     0.000384742
                    -0.000537743     0.000276868        0.0168353        0.107885      0.000376723    -0.000218373         0.931351        0.328353
                       -0.982749      -0.0675105       0.00025773    -0.000233888       -0.0903528        0.107545     -0.000390932    -0.000340606
                     0.000184767     0.000373926         0.931597        0.327941     -0.000312648    -0.000569895       -0.0799515        0.075071
281704                 0.0761213        0.118501     -0.000546225     0.000301958        -0.982354      -0.0677052      0.000174879     0.000384722
                      -0.0005375        0.000277        0.0168545        0.107906      0.000376562     -0.00021851         0.931464        0.328026
                       -0.982769      -0.0671759      0.000257659    -0.000233918        -0.090303         0.10761     -0.000390954    -0.000340414
                     0.000184794     0.000373855          0.93171        0.327614     -0.000312816    -0.000569694       -0.0799271       0.0751311
281706                 0.0761439        0.118507     -0.000546002     0.000302078        -0.982373      -0.0673707      0.000174959       0.0003847
                    -0.000537256     0.000277131        0.0168737        0.107927      0.000376401    -0.000218647         0.931577        0.327699
                       -0.982789      -0.0668413      0.000257588    -0.000233949       -0.0902532        0.107675     -0.000390975    -0.000340223
                     0.000184821     0.000373785         0.931823        0.327286     -0.000312984    -0.000569493       -0.0799027       0.0751913
281708                 0.0761666        0.118513     -0.000545778     0.000302198        -0.982393      -0.0670362      0.000175035     0.000384676
                    -0.000537013     0.000277262        0.0168928        0.107948       0.00037624    -0.000218784          0.93169        0.327371
                       -0.982809      -0.0665066      0.000257518    -0.000233979       -0.0902033        0.107739     -0.000390995    -0.000340032
                     0.000184849     0.000373714         0.931936        0.326958     -0.000313152    -0.000569293       -0.0798781       0.0752514
281710                 0.0761893         0.11852     -0.000545554     0.000302317        -0.982412      -0.0667016      0.000175106     0.000384653
                    -0.000536769     0.000277394         0.016912        0.107969      0.000376079     -0.00021892         0.931802        0.327044
                       -0.982828       -0.066172      0.000257447    -0.000234009       -0.0901533        0.107804     -0.000391015    -0.000339843
                     0.000184876     0.000373644         0.932049         0.32663      -0.00031332    -0.000569092       -0.0798536       0.0753116
281712                  0.076212        0.118526      -0.00054533     0.000302437        -0.982432      -0.0663671      0.000175173     0.000384637
                    -0.000536525     0.000277525        0.0169312         0.10799      0.000375917    -0.000219057         0.931915        0.326716
                       -0.982848      -0.0658373      0.000257377    -0.000234039       -0.0901033        0.107868     -0.000391035    -0.000339653
                     0.000184903     0.000373573         0.932162        0.326303     -0.000313488    -0.000568891        -0.079829       0.0753717
281714                 0.0762346        0.118532     -0.000545106     0.000302556        -0.982451      -0.0660325      0.000175243     0.000384627
                    -0.000536281     0.000277657        0.0169504        0.108011      0.000375756    -0.000219193         0.932027        0.326389
                       -0.982868      -0.0655026      0.000257307    -0.000234069       -0.0900533        0.107933     -0.000391055    -0.000339465
                      0.00018493     0.000373502         0.932274        0.325975     -0.000313655     -0.00056869       -0.0798043       0.0754319
281716                 0.0762573        0.118538     -0.000544883     0.000302676         -0.98247       -0.065698      0.000175319      0.00038462
                    -0.000536037     0.000277788        0.0169695        0.108031      0.000375594    -0.000219329         0.932139        0.326061
                       -0.982887       -0.065168      0.000257237    -0.000234099       -0.0900032        0.107997     -0.000391075    -0.000339278
                     0.000184958     0.000373432         0.932387        0.325647     -0.000313823     -0.00056849       -0.0797796        0.075492
281718                   0.07628        0.118544     -0.000544659     0.000302795         -0.98249      -0.0653634      0.000175399     0.000384611
                    -0.000535792      0.00027792        0.0169887        0.108052      0.000375432    -0.000219465         0.932251        0.325733
                       -0.982906      -0.0648333      0.000257167    -0.000234128       -0.0899531        0.108062     -0.000391096    -0.000339091
                     0.000184985     0.000373361         0.932499        0.325319     -0.000313991    -0.000568289       -0.0797549       0.0755522
281720                 0.0763027         0.11855     -0.000544435     0.000302914        -0.982508      -0.0650288      0.000175479     0.000384599
                    -0.000535548     0.000278051        0.0170079        0.108073       0.00037527    -0.000219601         0.932364        0.325406
                       -0.982926      -0.0644985      0.000257098    -0.000234158       -0.0899029        0.108126     -0.000391117    -0.000338904
                     0.000185012     0.000373291         0.932611        0.324991     -0.000314158    -0.000568089       -0.0797301       0.0756123
281722                 0.0763254        0.118557     -0.000544211     0.000303032        -0.982527      -0.0646942      0.000175561     0.000384587
                    -0.000535303     0.000278183        0.0170271        0.108094      0.000375108    -0.000219737         0.932475        0.325078
                       -0.982945      -0.0641638      0.000257028    -0.000234188       -0.0898527        0.108191     -0.000391138    -0.000338718
                      0.00018504      0.00037322         0.932723        0.324663     -0.000314325    -0.000567888       -0.0797053       0.0756724
281724                 0.0763481        0.118563     -0.000543987     0.000303151        -0.982546      -0.0643595      0.000175642     0.000384573
                    -0.000535058     0.000278315        0.0170463        0.108115      0.000374946    -0.000219872         0.932587         0.32475
                       -0.982964      -0.0638291      0.000256959    -0.000234217       -0.0898025        0.108255      -0.00039116    -0.000338532
                     0.000185067      0.00037315         0.932835        0.324335     -0.000314493    -0.000567688       -0.0796804       0.0757326
281726                 0.0763708        0.118569     -0.000543763      0.00030327        -0.982565      -0.0640249      0.000175723     0.000384558
                    -0.000534813     0.000278446        0.0170655        0.108136      0.000374783    -0.000220008         0.932699        0.324423
                       -0.982983      -0.0634943       0.00025689    -0.000234247       -0.0897522         0.10832     -0.000391183    -0.000338345
                     0.000185094     0.000373079         0.932947        0.324007      -0.00031466    -0.000567487       -0.0796555       0.0757927
281728                 0.0763935        0.118575     -0.000543539     0.000303388        -0.982583      -0.0636902      0.000175804     0.000384544
                    -0.000534568     0.000278578        0.0170847        0.108157      0.000374621    -0.000220143          0.93281        0.324095
                       -0.983001      -0.0631595       0.00025682    -0.000234276       -0.0897018        0.108384     -0.000391206    -0.000338159
                     0.000185122     0.000373009         0.933059        0.323679     -0.000314827    -0.000567287       -0.0796305       0.0758528
281730                 0.0764162        0.118581     -0.000543316     0.000303506        -0.982602      -0.0633556      0.000175885     0.000384528
                    -0.000534323      0.00027871        0.0171039        0.108178      0.000374458    -0.000220278         0.932922        0.323767
                        -0.98302      -0.0628247      0.000256751    -0.000234306       -0.0896514        0.108448     -0.000391229    -0.000337972
                     0.000185149     0.000372939          0.93317        0.323351     -0.000314994    -0.000567087       -0.0796055       0.0759129
281732                 0.0764389        0.118587     -0.000543092     0.000303624         -0.98262      -0.0630209      0.000175966     0.000384513
                    -0.000534077     0.000278842        0.0171231        0.108199      0.000374296    -0.000220413         0.933033        0.323439
                       -0.983039      -0.0624899      0.000256683    -0.000234335        -0.089601        0.108513     -0.000391252    -0.000337785
                     0.000185176     0.000372868         0.933282        0.323022     -0.000315161    -0.000566887       -0.0795805        0.075973
281734                 0.0764616        0.118594     -0.000542868     0.000303742        -0.982638      -0.0626862      0.000176047     0.000384497
                    -0.000533832     0.000278974        0.0171423         0.10822      0.000374133    -0.000220548         0.933144        0.323111
                       -0.983057      -0.0621551      0.000256614    -0.000234364       -0.0895505        0.108577     -0.000391276    -0.000337598
                     0.000185204     0.000372798         0.933393        0.322694     -0.000315327    -0.000566687       -0.0795554       0.0760331
281736                 0.0764843          0.1186     -0.000542644      0.00030386        -0.982656      -0.0623515      0.000176127     0.000384482
                    -0.000533586     0.000279106        0.0171615         0.10824       0.00037397    -0.000220682         0.933255        0.322784
                       -0.983075      -0.0618203      0.000256545    -0.000234393          -0.0895        0.108641     -0.000391299    -0.000337411
                     0.000185231     0.000372728         0.933504        0.322366     -0.000315494    -0.000566487       -0.0795302       0.0760933
281738                  0.076507        0.118606      -0.00054242     0.000303978        -0.982674      -0.0620168      0.000176208     0.000384466
                     -0.00053334     0.000279238        0.0171807        0.108261      0.000373807    -0.000220817         0.933366        0.322456
                       -0.983093      -0.0614854      0.000256476    -0.000234422       -0.0894494        0.108705     -0.000391322    -0.000337223
                     0.000185258     0.000372657         0.933615        0.322038      -0.00031566    -0.000566287        -0.079505       0.0761534
281740                 0.0765297        0.118612     -0.000542196     0.000304095        -0.982692      -0.0616821      0.000176288      0.00038445
                    -0.000533094      0.00027937        0.0171999        0.108282      0.000373644    -0.000220951         0.933477        0.322128
                       -0.983112      -0.0611506      0.000256408    -0.000234452       -0.0893988         0.10877     -0.000391345    -0.000337035
                     0.000185286     0.000372587         0.933726        0.321709     -0.000315827    -0.000566088       -0.0794798       0.0762135
281742                 0.0765525        0.118618     -0.000541972     0.000304213         -0.98271      -0.0613473      0.000176368     0.000384434
                    -0.000532847     0.000279502        0.0172191        0.108303       0.00037348    -0.000221085         0.933588          0.3218
                        -0.98313      -0.0608157      0.000256339    -0.000234481       -0.0893481        0.108834     -0.000391368    -0.000336847
                     0.000185313     0.000372517         0.933837        0.321381     -0.000315993    -0.000565888       -0.0794545       0.0762735
281744                 0.0765752        0.118624     -0.000541748      0.00030433        -0.982727      -0.0610126      0.000176449     0.000384418
                    -0.000532601     0.000279634        0.0172384        0.108324      0.000373317    -0.000221219         0.933699        0.321472
                       -0.983147      -0.0604808      0.000256271     -0.00023451       -0.0892974        0.108898     -0.000391391    -0.000336659
                     0.000185341     0.000372447         0.933948        0.321053     -0.000316159    -0.000565689       -0.0794292       0.0763336
281746                 0.0765979         0.11863     -0.000541524     0.000304447        -0.982745      -0.0606778      0.000176529     0.000384402
                    -0.000532354     0.000279766        0.0172576        0.108345      0.000373154    -0.000221353         0.933809        0.321144
                       -0.983165      -0.0601459      0.000256203    -0.000234538       -0.0892466        0.108962     -0.000391414    -0.000336471
                     0.000185368     0.000372377         0.934059        0.320724     -0.000316324    -0.000565489       -0.0794038       0.0763937
281748                 0.0766206        0.118636     -0.000541301     0.000304564        -0.982762       -0.060343      0.000176609     0.000384385
                    -0.000532107     0.000279898        0.0172768        0.108366       0.00037299    -0.000221487         0.933919        0.320815
                       -0.983183       -0.059811      0.000256135    -0.000234567       -0.0891958        0.109026     -0.000391437    -0.000336283
                     0.000185396     0.000372306         0.934169        0.320396      -0.00031649     -0.00056529       -0.0793784       0.0764538
281750                 0.0766434        0.118642     -0.000541077     0.000304681        -0.982779      -0.0600082       0.00017669     0.000384369
                     -0.00053186     0.000280031         0.017296        0.108387      0.000372827    -0.000221621          0.93403        0.320487
                         -0.9832      -0.0594761      0.000256067    -0.000234596        -0.089145         0.10909     -0.000391459    -0.000336095
                     0.000185423     0.000372236          0.93428        0.320067     -0.000316655    -0.000565091       -0.0793529       0.0765139
281752                 0.0766661        0.118648     -0.000540853     0.000304798        -0.982796      -0.0596734       0.00017677     0.000384353
                    -0.000531612     0.000280163        0.0173152        0.108407      0.000372663    -0.000221754          0.93414        0.320159
                       -0.983218      -0.0591411      0.000255999    -0.000234625       -0.0890941        0.109154     -0.000391481    -0.000335907
                     0.000185451     0.000372166          0.93439        0.319739      -0.00031682    -0.000564892       -0.0793274        0.076574
281754                 0.0766888        0.118655     -0.000540629     0.000304915        -0.982814      -0.0593386       0.00017685     0.000384337
                    -0.000531365     0.000280295        0.0173345        0.108428      0.000372499    -0.000221888          0.93425        0.319831
                       -0.983235      -0.0588062      0.000255931    -0.000234654       -0.0890431        0.109218     -0.000391504    -0.000335719
                     0.000185478     0.000372096           0.9345         0.31941     -0.000316985    -0.000564693       -0.0793019        0.076634
281756                 0.0767116        0.118661     -0.000540405     0.000305032         -0.98283      -0.0590038       0.00017693     0.000384321
                    -0.000531117     0.000280428        0.0173537        0.108449      0.000372335    -0.000222021          0.93436        0.319503
                       -0.983252      -0.0584712      0.000255863    -0.000234682       -0.0889921        0.109282     -0.000391526    -0.000335531
                     0.000185506     0.000372026          0.93461        0.319082      -0.00031715    -0.000564494       -0.0792763       0.0766941
281758                 0.0767343        0.118667     -0.000540181     0.000305148        -0.982847      -0.0586689      0.000177011     0.000384304
                    -0.000530869     0.000280561        0.0173729         0.10847      0.000372171    -0.000222154          0.93447        0.319175
                       -0.983269      -0.0581362      0.000255795    -0.000234711       -0.0889411        0.109346     -0.000391548    -0.000335343
                     0.000185533     0.000371956          0.93472        0.318753     -0.000317314    -0.000564296       -0.0792506       0.0767542
281760                 0.0767571        0.118673     -0.000539958     0.000305265        -0.982864      -0.0583341      0.000177091     0.000384288
                    -0.000530621     0.000280693        0.0173922        0.108491      0.000372007    -0.000222287         0.934579        0.318846
                       -0.983286      -0.0578012      0.000255727    -0.000234739         -0.08889         0.10941     -0.000391569    -0.000335155
                     0.000185561     0.000371886          0.93483        0.318425     -0.000317479    -0.000564097       -0.0792249       0.0768142
281762                 0.0767798        0.118679     -0.000539734     0.000305381        -0.982881      -0.0579992      0.000177172     0.000384272
                    -0.000530372     0.000280826        0.0174114        0.108512      0.000371843     -0.00022242         0.934689        0.318518
                       -0.983303      -0.0574662      0.000255659    -0.000234768       -0.0888389        0.109474     -0.000391591    -0.000334967
