! TOUCHSTONE file generated by CST MICROWAVE STUDIO
! Date and time: Wed Oct 15 17:29:29 2025
! Project name: Teste_Macro_Metasurface_Nanopilar.cst
! Parameters = {H=600; L_x=100; L_y=80; Lambda=1064; Max_L=200; Min_L=70; PathPara=1; Phi=0; Step_L=10; Theta=0; p=520; phaseX=180; phaseY=0}
! Header version: 2018
! Port assignment regex: !\s*Touchstone port\s*([0-9]+)\s*=\s*(CST MWS port|CST DS port)\s*([0-9]+|Zmin|Zmax)\s*\(\"(.*)\"\)(\s*mode\s*([0-9]+))?.*
! Touchstone port assignment:
! Touchstone port 1 = CST MWS port Zmax ("") mode 1
! Touchstone port 2 = CST MWS port Zmax ("") mode 2
! Touchstone port 3 = CST MWS port Zmin ("") mode 1
! Touchstone port 4 = CST MWS port Zmin ("") mode 2
! S-Parameters are not renormalized. Each port impedance will be approximated by the real part at minimum frequency. The values are described via the [Reference] keyword.
! Default impedance is overridden by [Reference]
[Version] 2.0
# GHz S RI R 376.73
[Number of Ports] 4
[Reference]
376.73 376.73 259.888 259.888 
[Number of Frequencies] 51
[Network Data]
281700                  0.027261       -0.111328      0.000577098      5.1307e-05       0.00561779       -0.992724     -5.26221e-05     0.000290436
                     0.000511499     2.09326e-05        0.0032682      -0.0619355     -0.000264927    -0.000113228        -0.273506       -0.958241
                      0.00577516       -0.993027     -0.000320208    -9.34954e-05         0.025807        0.111749      0.000411705    -0.000259851
                    -0.000252164      0.00028522        -0.273787        -0.95908      0.000615138    -0.000275959        0.0351726       0.0511472
281702                 0.0272486       -0.111327      0.000577026     5.12696e-05       0.00537746       -0.992726      -5.2512e-05     0.000290418
                     0.000511434     2.07706e-05       0.00325811      -0.0619289      -0.00026488    -0.000113134         -0.27375       -0.958171
                      0.00553458       -0.993028     -0.000320117    -9.35672e-05        0.0258488        0.111735      0.000411579    -0.000259893
                     -0.00025199     0.000285304        -0.274032        -0.95901      0.000614991    -0.000276217        0.0351867        0.051129
281704                 0.0272363       -0.111326      0.000576952     5.12325e-05       0.00513713       -0.992728     -5.24019e-05       0.0002904
                     0.000511369     2.06089e-05       0.00324803      -0.0619223     -0.000264833     -0.00011304        -0.273995       -0.958101
                        0.005294        -0.99303     -0.000320025    -9.36398e-05        0.0258906        0.111722      0.000411453    -0.000259936
                    -0.000251815     0.000285388        -0.274277        -0.95894      0.000614844    -0.000276476        0.0352008       0.0511107
281706                 0.0272239       -0.111325      0.000576878     5.11957e-05       0.00489679       -0.992731     -5.22921e-05     0.000290382
                     0.000511304     2.04474e-05       0.00323795      -0.0619156     -0.000264786    -0.000112947        -0.274239       -0.958032
                      0.00505342       -0.993032     -0.000319933    -9.37132e-05        0.0259324        0.111708      0.000411328    -0.000259978
                    -0.000251641     0.000285473        -0.274523        -0.95887      0.000614697    -0.000276735        0.0352148       0.0510925
281708                 0.0272116       -0.111324      0.000576804      5.1159e-05       0.00465645       -0.992733     -5.21824e-05     0.000290363
                     0.000511239     2.02862e-05       0.00322787       -0.061909     -0.000264738    -0.000112853        -0.274484       -0.957962
                      0.00481283       -0.993034     -0.000319841    -9.37875e-05        0.0259742        0.111695      0.000411202    -0.000260021
                    -0.000251467     0.000285557        -0.274768         -0.9588      0.000614549    -0.000276994        0.0352289       0.0510742
281710                 0.0271992       -0.111324      0.000576729     5.11226e-05       0.00441611       -0.992734     -5.20728e-05     0.000290345
                     0.000511174     2.01253e-05       0.00321779      -0.0619024     -0.000264691     -0.00011276        -0.274729       -0.957892
                      0.00457225       -0.993035     -0.000319748    -9.38627e-05         0.026016        0.111681      0.000411076    -0.000260063
                    -0.000251292     0.000285642        -0.275013       -0.958729      0.000614402    -0.000277254        0.0352429        0.051056
281712                 0.0271869       -0.111323      0.000576653     5.10865e-05       0.00417576       -0.992736     -5.19635e-05     0.000290327
                      0.00051111     1.99648e-05       0.00320771      -0.0618958     -0.000264644    -0.000112668        -0.274973       -0.957822
                      0.00433166       -0.993037     -0.000319656    -9.39387e-05        0.0260577        0.111668      0.000410951    -0.000260105
                    -0.000251118     0.000285727        -0.275258       -0.958659      0.000614254    -0.000277515        0.0352569       0.0510377
281714                 0.0271745       -0.111322      0.000576577     5.10506e-05       0.00393541       -0.992738     -5.18542e-05     0.000290308
                     0.000511045     1.98045e-05       0.00319763      -0.0618891     -0.000264597    -0.000112575        -0.275218       -0.957753
                      0.00409108       -0.993038     -0.000319564    -9.40156e-05        0.0260995        0.111654      0.000410825    -0.000260148
                    -0.000250943     0.000285813        -0.275503       -0.958588      0.000614106    -0.000277775        0.0352709       0.0510195
281716                 0.0271622       -0.111321      0.000576501     5.10149e-05       0.00369506        -0.99274     -5.17452e-05     0.000290289
                     0.000510981     1.96444e-05       0.00318755      -0.0618825      -0.00026455    -0.000112483        -0.275462       -0.957683
                       0.0038505        -0.99304     -0.000319471    -9.40933e-05        0.0261412         0.11164        0.0004107     -0.00026019
                    -0.000250768     0.000285898        -0.275748       -0.958518      0.000613958    -0.000278036         0.035285       0.0510012
281718                 0.0271498        -0.11132      0.000576424     5.09794e-05       0.00345471       -0.992742     -5.16363e-05     0.000290271
                     0.000510917     1.94847e-05       0.00317748      -0.0618759     -0.000264502    -0.000112391        -0.275707       -0.957612
                      0.00360991       -0.993041     -0.000319378     -9.4172e-05         0.026183        0.111627      0.000410574    -0.000260232
                    -0.000250593     0.000285984        -0.275993       -0.958447      0.000613809    -0.000278298         0.035299       0.0509829
281720                 0.0271375       -0.111319      0.000576346     5.09442e-05       0.00321435       -0.992743     -5.15275e-05     0.000290252
                     0.000510853     1.93253e-05        0.0031674      -0.0618692     -0.000264455      -0.0001123        -0.275951       -0.957542
                      0.00336933       -0.993042     -0.000319286    -9.42515e-05        0.0262247        0.111613      0.000410449    -0.000260274
                    -0.000250418      0.00028607        -0.276238       -0.958376       0.00061366    -0.000278559        0.0353129       0.0509647
281722                 0.0271251       -0.111318      0.000576268     5.09093e-05       0.00297399       -0.992745      -5.1419e-05     0.000290233
                     0.000510789     1.91661e-05       0.00315732      -0.0618626     -0.000264407    -0.000112208        -0.276196       -0.957472
                      0.00312874       -0.993044     -0.000319193    -9.43319e-05        0.0262665        0.111599      0.000410324    -0.000260316
                    -0.000250243     0.000286156        -0.276483       -0.958306       0.00061351    -0.000278821        0.0353269       0.0509464
281724                 0.0271128       -0.111318      0.000576189     5.08745e-05       0.00273362       -0.992746     -5.13105e-05     0.000290214
                     0.000510725     1.90072e-05       0.00314725       -0.061856      -0.00026436    -0.000112117         -0.27644       -0.957402
                      0.00288816       -0.993045     -0.000319099    -9.44133e-05        0.0263082        0.111586      0.000410199    -0.000260358
                    -0.000250068     0.000286242        -0.276728       -0.958235      0.000613361    -0.000279083        0.0353409       0.0509281
281726                 0.0271004       -0.111317      0.000576109       5.084e-05       0.00249326       -0.992748     -5.12023e-05     0.000290195
                     0.000510662     1.88486e-05       0.00313717      -0.0618493     -0.000264312    -0.000112026        -0.276685       -0.957332
                      0.00264757       -0.993046     -0.000319006    -9.44955e-05        0.0263499        0.111572      0.000410073      -0.0002604
                    -0.000249893     0.000286329        -0.276973       -0.958164       0.00061321    -0.000279346        0.0353549       0.0509099
281728                 0.0270881       -0.111316      0.000576029     5.08057e-05       0.00225289       -0.992749     -5.10942e-05     0.000290176
                     0.000510598     1.86903e-05        0.0031271      -0.0618427     -0.000264264    -0.000111935        -0.276929       -0.957261
                      0.00240699       -0.993047     -0.000318913    -9.45786e-05        0.0263916        0.111558      0.000409948    -0.000260442
                    -0.000249717     0.000286415        -0.277218       -0.958093       0.00061306    -0.000279608        0.0353688       0.0508916
281730                 0.0270758       -0.111315      0.000575949     5.07717e-05       0.00201252       -0.992751     -5.09863e-05     0.000290157
                     0.000510535     1.85323e-05       0.00311702      -0.0618361     -0.000264216    -0.000111845        -0.277173       -0.957191
                       0.0021664       -0.993048     -0.000318819    -9.46627e-05        0.0264333        0.111544      0.000409823    -0.000260484
                    -0.000249542     0.000286502        -0.277463       -0.958022      0.000612909     -0.00027987        0.0353827       0.0508733
281732                 0.0270634       -0.111314      0.000575868     5.07379e-05       0.00177215       -0.992752     -5.08785e-05     0.000290138
                     0.000510472     1.83745e-05       0.00310695      -0.0618294     -0.000264168    -0.000111754        -0.277418        -0.95712
                      0.00192582       -0.993049     -0.000318725    -9.47476e-05         0.026475        0.111531      0.000409698    -0.000260526
                    -0.000249366     0.000286589        -0.277708       -0.957951      0.000612757    -0.000280133        0.0353967        0.050855
281734                 0.0270511       -0.111313      0.000575786     5.07043e-05       0.00153178       -0.992753     -5.07709e-05     0.000290119
                     0.000510408     1.82171e-05       0.00309687      -0.0618228      -0.00026412    -0.000111664        -0.277662        -0.95705
                      0.00168523        -0.99305     -0.000318631    -9.48335e-05        0.0265167        0.111517      0.000409574    -0.000260568
                     -0.00024919     0.000286677        -0.277953        -0.95788      0.000612606    -0.000280395        0.0354106       0.0508368
281736                 0.0270387       -0.111312      0.000575704     5.06709e-05        0.0012914       -0.992754     -5.06634e-05       0.0002901
                     0.000510345     1.80599e-05        0.0030868      -0.0618161     -0.000264072    -0.000111575        -0.277906       -0.956979
                      0.00144465       -0.993051     -0.000318537    -9.49203e-05        0.0265584        0.111503      0.000409449     -0.00026061
                    -0.000249015     0.000286764        -0.278198       -0.957809      0.000612453    -0.000280658        0.0354245       0.0508185
281738                 0.0270264       -0.111311      0.000575621     5.06378e-05       0.00105103       -0.992755     -5.05561e-05      0.00029008
                     0.000510283     1.79029e-05       0.00307673      -0.0618095     -0.000264024    -0.000111485        -0.278151       -0.956909
                      0.00120406       -0.993052     -0.000318443    -9.50081e-05        0.0266001        0.111489      0.000409324    -0.000260652
                    -0.000248839     0.000286852        -0.278443       -0.957737      0.000612301    -0.000280921        0.0354384       0.0508002
281740                  0.027014       -0.111311      0.000575538     5.06049e-05      0.000810653       -0.992756      -5.0449e-05     0.000290061
                      0.00051022     1.77463e-05       0.00306666      -0.0618028     -0.000263975    -0.000111395        -0.278395       -0.956838
                     0.000963478       -0.993052     -0.000318349    -9.50968e-05        0.0266417        0.111475      0.000409199    -0.000260694
                    -0.000248663      0.00028694        -0.278688       -0.957666      0.000612148    -0.000281183        0.0354523       0.0507819
281742                 0.0270017        -0.11131      0.000575454     5.05722e-05      0.000570277       -0.992757      -5.0342e-05     0.000290041
                     0.000510157     1.75899e-05       0.00305659      -0.0617962     -0.000263927    -0.000111306        -0.278639       -0.956767
                     0.000722893       -0.993053     -0.000318254    -9.51864e-05        0.0266834        0.111462      0.000409075    -0.000260736
                    -0.000248487     0.000287028        -0.278932       -0.957595      0.000611995    -0.000281446        0.0354662       0.0507636
281744                 0.0269893       -0.111309      0.000575369     5.05397e-05      0.000329901       -0.992758     -5.02352e-05     0.000290021
                     0.000510095     1.74338e-05       0.00304652      -0.0617896     -0.000263878    -0.000111217        -0.278884       -0.956696
                     0.000482308       -0.993054     -0.000318159     -9.5277e-05         0.026725        0.111448       0.00040895    -0.000260778
                     -0.00024831     0.000287116        -0.279177       -0.957523      0.000611841    -0.000281708        0.0354801       0.0507453
281746                  0.026977       -0.111308      0.000575284     5.05075e-05      8.95237e-05       -0.992759     -5.01285e-05     0.000290002
                     0.000510032      1.7278e-05       0.00303645      -0.0617829     -0.000263829    -0.000111128        -0.279128       -0.956625
                     0.000241723       -0.993054     -0.000318064    -9.53685e-05        0.0267667        0.111434      0.000408826    -0.000260819
                    -0.000248134     0.000287205        -0.279422       -0.957452      0.000611687    -0.000281971        0.0354939        0.050727
281748                 0.0269647       -0.111307      0.000575198     5.04754e-05     -0.000150853        -0.99276      -5.0022e-05     0.000289982
                      0.00050997     1.71225e-05       0.00302638      -0.0617763      -0.00026378    -0.000111039        -0.279372       -0.956554
                     1.13737e-06       -0.993055     -0.000317969     -9.5461e-05        0.0268083         0.11142      0.000408701    -0.000260861
                    -0.000247958     0.000287293        -0.279667        -0.95738      0.000611533    -0.000282233        0.0355078       0.0507087
281750                 0.0269523       -0.111306      0.000575111     5.04436e-05      -0.00039123       -0.992761     -4.99157e-05     0.000289962
                     0.000509908     1.69672e-05       0.00301631      -0.0617696     -0.000263731    -0.000110951        -0.279616       -0.956483
                    -0.000239448       -0.993055     -0.000317873    -9.55545e-05          0.02685        0.111406      0.000408577    -0.000260903
                    -0.000247781     0.000287382        -0.279911       -0.957309      0.000611378    -0.000282495        0.0355216       0.0506904
281752                   0.02694       -0.111305      0.000575024      5.0412e-05     -0.000631607       -0.992762     -4.98095e-05     0.000289942
                     0.000509846     1.68122e-05       0.00300624      -0.0617629     -0.000263682    -0.000110862        -0.279861       -0.956412
                    -0.000480033       -0.993056     -0.000317778    -9.56489e-05        0.0268916        0.111392      0.000408453    -0.000260945
                    -0.000247605     0.000287471        -0.280156       -0.957237      0.000611223    -0.000282757        0.0355355       0.0506721
281754                 0.0269276       -0.111304      0.000574937     5.03806e-05     -0.000871983       -0.992762     -4.97035e-05     0.000289921
                     0.000509784     1.66574e-05       0.00299617      -0.0617563     -0.000263633    -0.000110774        -0.280105       -0.956341
                    -0.000720618       -0.993056     -0.000317682    -9.57443e-05        0.0269332        0.111378      0.000408329    -0.000260986
                    -0.000247428      0.00028756        -0.280401       -0.957165      0.000611067     -0.00028302        0.0355493       0.0506538
281756                 0.0269153       -0.111304      0.000574848     5.03495e-05      -0.00111236       -0.992763     -4.95976e-05     0.000289901
                     0.000509722     1.65029e-05       0.00298611      -0.0617496     -0.000263583    -0.000110686        -0.280349        -0.95627
                    -0.000961203       -0.993056     -0.000317586    -9.58407e-05        0.0269748        0.111364      0.000408205    -0.000261028
                    -0.000247251     0.000287649        -0.280646       -0.957093      0.000610912    -0.000283281        0.0355631       0.0506355
281758                 0.0269029       -0.111303      0.000574759     5.03185e-05      -0.00135273       -0.992763     -4.94919e-05     0.000289881
                      0.00050966     1.63487e-05       0.00297604       -0.061743     -0.000263533    -0.000110598        -0.280593       -0.956198
                     -0.00120179       -0.993056     -0.000317489     -9.5938e-05        0.0270164         0.11135      0.000408081     -0.00026107
                    -0.000247074     0.000287739         -0.28089       -0.957021      0.000610755    -0.000283543        0.0355769       0.0506172
281760                 0.0268906       -0.111302       0.00057467     5.02877e-05      -0.00159311       -0.992764     -4.93863e-05      0.00028986
                     0.000509599     1.61948e-05       0.00296597      -0.0617363     -0.000263484     -0.00011051        -0.280837       -0.956127
                     -0.00144237       -0.993057     -0.000317393    -9.60363e-05         0.027058        0.111336      0.000407957    -0.000261111
                    -0.000246897     0.000287829        -0.281135        -0.95695      0.000610599    -0.000283805        0.0355907       0.0505988
281762                 0.0268783       -0.111301       0.00057458     5.02571e-05      -0.00183348       -0.992764     -4.92809e-05     0.000289839
                     0.000509537     1.60411e-05       0.00295591      -0.0617297     -0.000263434    -0.000110422        -0.281082       -0.956055
                     -0.00168296       -0.993057     -0.000317296    -9.61354e-05        0.0270996        0.111322      0.000407833    -0.000261153
