! TOUCHSTONE file generated by CST MICROWAVE STUDIO
! Date and time: Wed Oct 15 17:32:40 2025
! Project name: Teste_Macro_Metasurface_Nanopilar.cst
! Parameters = {H=600; L_x=155; L_y=85; Lambda=1064; Max_L=200; Min_L=70; PathPara=1; Phi=0; Step_L=10; Theta=0; p=520; phaseX=180; phaseY=0}
! Header version: 2018
! Port assignment regex: !\s*Touchstone port\s*([0-9]+)\s*=\s*(CST MWS port|CST DS port)\s*([0-9]+|Zmin|Zmax)\s*\(\"(.*)\"\)(\s*mode\s*([0-9]+))?.*
! Touchstone port assignment:
! Touchstone port 1 = CST MWS port Zmax ("") mode 1
! Touchstone port 2 = CST MWS port Zmax ("") mode 2
! Touchstone port 3 = CST MWS port Zmin ("") mode 1
! Touchstone port 4 = CST MWS port Zmin ("") mode 2
! S-Parameters are not renormalized. Each port impedance will be approximated by the real part at minimum frequency. The values are described via the [Reference] keyword.
! Default impedance is overridden by [Reference]
[Version] 2.0
# GHz S RI R 376.73
[Number of Ports] 4
[Reference]
376.73 376.73 259.888 259.888 
[Number of Frequencies] 51
[Network Data]
281700                -0.0291419      -0.0198788     -0.000634564     6.75375e-05        -0.495965       -0.865681     -0.000209752     9.32893e-05
                    -0.000630988     3.85306e-05       -0.0209632       0.0960601      0.000198047    -0.000115664         0.850754        0.502128
                        -0.49598       -0.865696      0.000215271     -0.00018358       0.00233822       0.0357372      0.000133239     -0.00060643
                    -0.000140675     7.85616e-05         0.850682        0.502143      9.93854e-05    -0.000576988       -0.0738893       0.0668914
281702                -0.0291489      -0.0198662     -0.000634424     6.76694e-05        -0.496196       -0.865549     -0.000209733     9.34013e-05
                    -0.000630978      3.8772e-05       -0.0209427       0.0960882      0.000198105    -0.000115734         0.850934        0.501818
                       -0.496211       -0.865564      0.000215145    -0.000183604       0.00234282       0.0357357       0.00013308    -0.000606518
                    -0.000140677     7.86791e-05         0.850863        0.501833      9.92763e-05    -0.000577018       -0.0738753       0.0669405
281704                 -0.029156      -0.0198536     -0.000634285      6.7801e-05        -0.496427       -0.865416     -0.000209713     9.35132e-05
                    -0.000630968     3.90134e-05       -0.0209223       0.0961164      0.000198164    -0.000115805         0.851115        0.501507
                       -0.496442       -0.865431      0.000215019    -0.000183627       0.00234742       0.0357342      0.000132921    -0.000606605
                     -0.00014068      7.8797e-05         0.851044        0.501524       9.9167e-05    -0.000577049       -0.0738612       0.0669896
281706                 -0.029163      -0.0198409     -0.000634146     6.79321e-05        -0.496658       -0.865284     -0.000209694     9.36251e-05
                    -0.000630958     3.92549e-05       -0.0209018       0.0961445      0.000198223    -0.000115875         0.851296        0.501197
                       -0.496673       -0.865299      0.000214894    -0.000183651       0.00235201       0.0357327      0.000132762    -0.000606692
                    -0.000140683     7.89152e-05         0.851225        0.501214      9.90575e-05     -0.00057708       -0.0738471       0.0670388
281708                  -0.02917      -0.0198283     -0.000634007     6.80628e-05        -0.496889       -0.865152     -0.000209674      9.3737e-05
                    -0.000630948     3.94966e-05       -0.0208813       0.0961726      0.000198281    -0.000115946         0.851476        0.500886
                       -0.496904       -0.865166      0.000214768    -0.000183673       0.00235661       0.0357312      0.000132602    -0.000606779
                    -0.000140685     7.90337e-05         0.851406        0.500904      9.89479e-05    -0.000577111        -0.073833       0.0670879
281710                 -0.029177      -0.0198157     -0.000633868      6.8193e-05        -0.497119       -0.865019     -0.000209654     9.38489e-05
                    -0.000630937     3.97383e-05       -0.0208608       0.0962007      0.000198339    -0.000116017         0.851657        0.500576
                       -0.497134       -0.865034      0.000214643    -0.000183696        0.0023612       0.0357297      0.000132443    -0.000606866
                    -0.000140688     7.91526e-05         0.851586        0.500594      9.88381e-05    -0.000577142       -0.0738188        0.067137
281712                 -0.029184      -0.0198031     -0.000633729     6.83226e-05         -0.49735       -0.864886     -0.000209634     9.39609e-05
                    -0.000630926     3.99801e-05       -0.0208403       0.0962289      0.000198398    -0.000116088         0.851837        0.500265
                       -0.497365       -0.864901      0.000214518    -0.000183718       0.00236579       0.0357282      0.000132283    -0.000606953
                     -0.00014069     7.92717e-05         0.851766        0.500285      9.87282e-05    -0.000577173       -0.0738046       0.0671861
281714                 -0.029191      -0.0197904     -0.000633591     6.84516e-05        -0.497581       -0.864754     -0.000209613     9.40729e-05
                    -0.000630916      4.0222e-05       -0.0208198        0.096257      0.000198456     -0.00011616         0.852017        0.499955
                       -0.497596       -0.864768      0.000214394    -0.000183741       0.00237039       0.0357268      0.000132124    -0.000607039
                    -0.000140693      7.9391e-05         0.851947        0.499975      9.86181e-05    -0.000577205       -0.0737904       0.0672353
281716                 -0.029198      -0.0197778     -0.000633455     6.85805e-05        -0.497812       -0.864621     -0.000209593     9.41849e-05
                    -0.000630905      4.0464e-05       -0.0207993       0.0962851      0.000198514    -0.000116231         0.852197        0.499644
                       -0.497826       -0.864635       0.00021427    -0.000183764       0.00237498       0.0357253      0.000131964    -0.000607126
                    -0.000140697     7.95103e-05         0.852127        0.499665      9.85078e-05    -0.000577236       -0.0737761       0.0672844
281718                 -0.029205      -0.0197652     -0.000633318     6.87131e-05        -0.498042       -0.864488     -0.000209572      9.4297e-05
                    -0.000630894      4.0706e-05       -0.0207788       0.0963132      0.000198572    -0.000116303         0.852377        0.499333
                       -0.498057       -0.864503      0.000214144    -0.000183787       0.00237957       0.0357238      0.000131804    -0.000607213
                      -0.0001407     7.96296e-05         0.852307        0.499355      9.83974e-05    -0.000577268       -0.0737618       0.0673336
281720                 -0.029212      -0.0197525     -0.000633177     6.88438e-05        -0.498273       -0.864355     -0.000209552     9.44093e-05
                    -0.000630883     4.09481e-05       -0.0207583       0.0963412       0.00019863    -0.000116375         0.852557        0.499022
                       -0.498287        -0.86437      0.000214018     -0.00018381       0.00238416       0.0357224      0.000131645    -0.000607299
                    -0.000140704     7.97487e-05         0.852487        0.499045      9.82869e-05      -0.0005773       -0.0737475       0.0673827
281722                 -0.029219      -0.0197399     -0.000633037     6.89717e-05        -0.498504       -0.864222     -0.000209532     9.45218e-05
                    -0.000630872     4.11902e-05       -0.0207378       0.0963693      0.000198688    -0.000116448         0.852736        0.498711
                       -0.498518       -0.864237      0.000213891    -0.000183832       0.00238875       0.0357209      0.000131485    -0.000607386
                    -0.000140708     7.98676e-05         0.852667        0.498735      9.81762e-05    -0.000577332       -0.0737331       0.0674319
281724                 -0.029226      -0.0197273     -0.000632898     6.90991e-05        -0.498734       -0.864089     -0.000209511     9.46346e-05
                    -0.000630861     4.14323e-05       -0.0207173       0.0963974      0.000198746     -0.00011652         0.852916          0.4984
                       -0.498748       -0.864104      0.000213765    -0.000183853       0.00239334       0.0357194      0.000131325    -0.000607473
                    -0.000140712     7.99862e-05         0.852846        0.498425      9.80653e-05    -0.000577364       -0.0737187       0.0674811
281726                 -0.029233      -0.0197146     -0.000632759     6.92262e-05        -0.498965       -0.863956     -0.000209492     9.47477e-05
                    -0.000630851     4.16743e-05       -0.0206967       0.0964255      0.000198803    -0.000116593         0.853095        0.498089
                       -0.498979       -0.863971      0.000213639    -0.000183873       0.00239793        0.035718      0.000131166    -0.000607559
                    -0.000140716     8.01046e-05         0.853026        0.498114      9.79543e-05    -0.000577396       -0.0737042       0.0675303
281728                  -0.02924       -0.019702     -0.000632621     6.93529e-05        -0.499195       -0.863823     -0.000209474     9.48608e-05
                     -0.00063084     4.19161e-05       -0.0206762       0.0964535      0.000198861    -0.000116666         0.853275        0.497778
                       -0.499209       -0.863837      0.000213513    -0.000183893       0.00240252       0.0357165      0.000131006    -0.000607647
                    -0.000140719     8.02227e-05         0.853205        0.497804      9.78431e-05    -0.000577428       -0.0736897       0.0675795
281730                 -0.029247      -0.0196894     -0.000632483     6.94793e-05        -0.499426        -0.86369     -0.000209458     9.49715e-05
                    -0.000630829     4.21578e-05       -0.0206557       0.0964816      0.000198918    -0.000116739         0.853454        0.497467
                       -0.499439       -0.863704      0.000213387    -0.000183912        0.0024071       0.0357151      0.000130847    -0.000607734
                    -0.000140723     8.03406e-05         0.853385        0.497494      9.77318e-05     -0.00057746       -0.0736752       0.0676287
281732                 -0.029254      -0.0196767     -0.000632345     6.96054e-05        -0.499656       -0.863557      -0.00020944     9.50779e-05
                    -0.000630819     4.23992e-05       -0.0206351       0.0965096      0.000198976    -0.000116813         0.853633        0.497156
                        -0.49967       -0.863571      0.000213261    -0.000183931       0.00241169       0.0357136      0.000130689    -0.000607823
                    -0.000140727     8.04584e-05         0.853564        0.497183      9.76203e-05    -0.000577493       -0.0736607       0.0676779
281734                 -0.029261      -0.0196641     -0.000632208      6.9731e-05        -0.499886       -0.863423     -0.000209418     9.51839e-05
                    -0.000630808     4.26403e-05       -0.0206146       0.0965377      0.000199033    -0.000116886         0.853812        0.496844
                         -0.4999       -0.863438      0.000213136     -0.00018395       0.00241628       0.0357122      0.000130533    -0.000607915
                     -0.00014073     8.05759e-05         0.853743        0.496873      9.75087e-05    -0.000577526       -0.0736461       0.0677271
281736                 -0.029268      -0.0196514      -0.00063207     6.98562e-05        -0.500117        -0.86329     -0.000209394     9.52924e-05
                    -0.000630797     4.28811e-05       -0.0205941       0.0965657      0.000199091     -0.00011696         0.853991        0.496533
                        -0.50013       -0.863304       0.00021301    -0.000183968       0.00242086       0.0357107      0.000130383    -0.000608021
                    -0.000140733     8.06933e-05         0.853922        0.496562      9.73969e-05    -0.000577558       -0.0736315       0.0677763
281738                 -0.029275      -0.0196388     -0.000631933     6.99811e-05        -0.500347       -0.863157      -0.00020937     9.54025e-05
                    -0.000630786     4.31216e-05       -0.0205735       0.0965937      0.000199148    -0.000117034         0.854169        0.496222
                        -0.50036       -0.863171      0.000212885    -0.000183986       0.00242545       0.0357093      0.000130136    -0.000608283
                    -0.000140736     8.08105e-05         0.854101        0.496252       9.7285e-05    -0.000577591       -0.0736168       0.0678256
281740                 -0.029282      -0.0196262     -0.000631795     7.01055e-05        -0.500577       -0.863023     -0.000209347     9.55133e-05
                    -0.000630775     4.33618e-05        -0.020553       0.0966218      0.000199205    -0.000117109         0.854348         0.49591
                        -0.50059       -0.863037       0.00021276    -0.000184004       0.00243003       0.0357079       0.00012998    -0.000608119
                    -0.000140739     8.09276e-05          0.85428        0.495941       9.7173e-05    -0.000577624       -0.0736021       0.0678748
281742                -0.0292889      -0.0196135     -0.000631658     7.02295e-05        -0.500808        -0.86289     -0.000209324     9.56243e-05
                    -0.000630764     4.36018e-05       -0.0205324       0.0966498      0.000199262    -0.000117183         0.854527        0.495599
                       -0.500821       -0.862903      0.000212635    -0.000184021       0.00243461       0.0357064      0.000129848    -0.000608217
                    -0.000140742     8.10447e-05         0.854458         0.49563      9.70608e-05    -0.000577657       -0.0735874       0.0679241
281744                -0.0292959      -0.0196009     -0.000631521     7.03531e-05        -0.501038       -0.862756     -0.000209302     9.57352e-05
                    -0.000630752     4.38415e-05       -0.0205119       0.0966778      0.000199319    -0.000117258         0.854705        0.495287
                       -0.501051        -0.86277       0.00021251    -0.000184038        0.0024392        0.035705      0.000129695    -0.000608308
                    -0.000140745     8.11616e-05         0.854637         0.49532      9.69485e-05    -0.000577691       -0.0735726       0.0679733
281746                -0.0293029      -0.0195882     -0.000631385     7.04762e-05        -0.501268       -0.862622     -0.000209279     9.58461e-05
                    -0.000630741      4.4081e-05       -0.0204913       0.0967058      0.000199376    -0.000117333         0.854883        0.494975
                       -0.501281       -0.862636      0.000212385    -0.000184055       0.00244378       0.0357036      0.000129538    -0.000608395
                    -0.000140747     8.12784e-05         0.854815        0.495009       9.6836e-05    -0.000577724       -0.0735578       0.0680226
281748                -0.0293099      -0.0195756     -0.000631248     7.05989e-05        -0.501498       -0.862489     -0.000209257     9.59569e-05
                    -0.000630729     4.43203e-05       -0.0204708       0.0967338      0.000199433    -0.000117408         0.855061        0.494664
                       -0.501511       -0.862502       0.00021226    -0.000184071       0.00244836       0.0357021      0.000129378    -0.000608482
                     -0.00014075     8.13952e-05         0.854993        0.494698      9.67233e-05    -0.000577758       -0.0735429       0.0680718
281750                -0.0293168       -0.019563     -0.000631112     7.07212e-05        -0.501728       -0.862355     -0.000209234     9.60676e-05
                    -0.000630716     4.45594e-05       -0.0204502       0.0967618       0.00019949    -0.000117483         0.855239        0.494352
                       -0.501741       -0.862368      0.000212136    -0.000184086       0.00245294       0.0357007      0.000129218    -0.000608567
                    -0.000140752     8.15119e-05         0.855172        0.494387      9.66106e-05    -0.000577791       -0.0735281       0.0681211
281752                -0.0293238      -0.0195503     -0.000630976     7.08431e-05        -0.501958       -0.862221     -0.000209211     9.61783e-05
                    -0.000630704     4.47983e-05       -0.0204296       0.0967898      0.000199547    -0.000117559         0.855417         0.49404
                       -0.501971       -0.862235      0.000212011    -0.000184102       0.00245752       0.0356993      0.000129057    -0.000608652
                    -0.000140754     8.16285e-05          0.85535        0.494076      9.64976e-05    -0.000577825       -0.0735132       0.0681704
281754                -0.0293308      -0.0195377      -0.00063084     7.09645e-05        -0.502188       -0.862087     -0.000209189     9.62888e-05
                    -0.000630691     4.50372e-05        -0.020409       0.0968178      0.000199603    -0.000117634         0.855595        0.493728
                       -0.502201       -0.862101      0.000211887    -0.000184117        0.0024621       0.0356979      0.000128896    -0.000608737
                    -0.000140756      8.1745e-05         0.855528        0.493765      9.63846e-05    -0.000577859       -0.0734982       0.0682197
281756                -0.0293378       -0.019525     -0.000630704     7.10855e-05        -0.502418       -0.861953     -0.000209166     9.63992e-05
                    -0.000630679     4.52758e-05       -0.0203885       0.0968457       0.00019966     -0.00011771         0.855773        0.493416
                       -0.502431       -0.861967      0.000211762    -0.000184131       0.00246668       0.0356965      0.000128734    -0.000608821
                    -0.000140758     8.18615e-05         0.855705        0.493454      9.62713e-05    -0.000577893       -0.0734832        0.068269
281758                -0.0293447      -0.0195124     -0.000630568      7.1206e-05        -0.502648       -0.861819     -0.000209143     9.65095e-05
                    -0.000630666     4.55144e-05       -0.0203679       0.0968737      0.000199716    -0.000117787          0.85595        0.493104
                       -0.502661       -0.861832      0.000211638    -0.000184146       0.00247126       0.0356951      0.000128572    -0.000608905
                     -0.00014076     8.19779e-05         0.855883        0.493143      9.61578e-05    -0.000577927       -0.0734682       0.0683183
281760                -0.0293517      -0.0194997     -0.000630433     7.13261e-05        -0.502878       -0.861685      -0.00020912     9.66197e-05
                    -0.000630653     4.57529e-05       -0.0203473       0.0969017      0.000199772    -0.000117863         0.856128        0.492792
                        -0.50289       -0.861698      0.000211514     -0.00018416       0.00247584       0.0356937       0.00012841    -0.000608989
                    -0.000140762     8.20942e-05         0.856061        0.492832       9.6044e-05    -0.000577961       -0.0734532       0.0683676
281762                -0.0293587      -0.0194871     -0.000630298     7.14458e-05        -0.503108       -0.861551     -0.000209098     9.67297e-05
                     -0.00063064     4.59912e-05       -0.0203267       0.0969296      0.000199828    -0.000117939         0.856305         0.49248
                        -0.50312       -0.861564       0.00021139    -0.000184173       0.00248041       0.0356923      0.000128247    -0.000609073
