! TOUCHSTONE file generated by CST MICROWAVE STUDIO
! Date and time: Wed Oct 15 17:27:46 2025
! Project name: Teste_Macro_Metasurface_Nanopilar.cst
! Parameters = {H=600; L_x=70; L_y=80; Lambda=1064; Max_L=200; Min_L=70; PathPara=1; Phi=0; Step_L=10; Theta=0; p=520; phaseX=180; phaseY=0}
! Header version: 2018
! Port assignment regex: !\s*Touchstone port\s*([0-9]+)\s*=\s*(CST MWS port|CST DS port)\s*([0-9]+|Zmin|Zmax)\s*\(\"(.*)\"\)(\s*mode\s*([0-9]+))?.*
! Touchstone port assignment:
! Touchstone port 1 = CST MWS port Zmax ("") mode 1
! Touchstone port 2 = CST MWS port Zmax ("") mode 2
! Touchstone port 3 = CST MWS port Zmin ("") mode 1
! Touchstone port 4 = CST MWS port Zmin ("") mode 2
! S-Parameters are not renormalized. Each port impedance will be approximated by the real part at minimum frequency. The values are described via the [Reference] keyword.
! Default impedance is overridden by [Reference]
[Version] 2.0
# GHz S RI R 376.73
[Number of Ports] 4
[Reference]
376.73 376.73 259.888 259.888 
[Number of Frequencies] 51
[Network Data]
281700                 0.0522682       -0.127402     -0.000131109    -0.000373228          0.16403       -0.976359       0.00012543     0.000114514
                    -8.97089e-05    -0.000324781        0.0639794       -0.133068      0.000144194      -2.044e-05         0.229789        -0.96203
                        0.164151       -0.976355      0.000142112     9.49008e-05       0.00775021         0.13751     -0.000227784     0.000302807
                     0.000110273     0.000164444         0.229602       -0.961627      -0.00028895     0.000175806      -0.00313844        0.147643
281702                 0.0522563       -0.127404     -0.000131295    -0.000373283         0.163799       -0.976398      0.000125408     0.000114514
                    -8.98279e-05    -0.000324796        0.0639677       -0.133071      0.000144163    -2.04181e-05         0.229563       -0.962085
                        0.163919       -0.976394      0.000142177     9.48808e-05       0.00780355        0.137505     -0.000227816     0.000302868
                     0.000110416     0.000164334         0.229376       -0.961681     -0.000288978     0.000175842      -0.00308087        0.147642
281704                 0.0522444       -0.127406     -0.000131481    -0.000373338         0.163567       -0.976437      0.000125385     0.000114515
                    -8.99471e-05     -0.00032481        0.0639559       -0.133074      0.000144132    -2.03963e-05         0.229336       -0.962139
                        0.163688       -0.976433      0.000142242     9.48607e-05       0.00785688        0.137499     -0.000227849     0.000302929
                     0.000110559     0.000164224          0.22915       -0.961736     -0.000289007     0.000175877       -0.0030233         0.14764
281706                 0.0522325       -0.127407     -0.000131667    -0.000373393         0.163336       -0.976476      0.000125363     0.000114515
                    -9.00664e-05    -0.000324825        0.0639441       -0.133078        0.0001441    -2.03746e-05          0.22911       -0.962193
                        0.163456       -0.976472      0.000142307     9.48407e-05       0.00791022        0.137493     -0.000227881      0.00030299
                     0.000110701     0.000164114         0.228923        -0.96179     -0.000289036     0.000175912      -0.00296574        0.147639
281708                 0.0522206       -0.127409     -0.000131854    -0.000373447         0.163105       -0.976515       0.00012534     0.000114515
                     -9.0186e-05     -0.00032484        0.0639324       -0.133081      0.000144069    -2.03529e-05         0.228884       -0.962247
                        0.163225       -0.976511      0.000142372     9.48206e-05       0.00796355        0.137487     -0.000227914     0.000303051
                     0.000110844     0.000164003         0.228697       -0.961844     -0.000289066     0.000175947      -0.00290817        0.147638
281710                 0.0522087       -0.127411     -0.000132041    -0.000373502         0.162873       -0.976554      0.000125318     0.000114515
                    -9.03057e-05    -0.000324854        0.0639206       -0.133084      0.000144037    -2.03311e-05         0.228657       -0.962301
                        0.162993        -0.97655      0.000142437     9.48005e-05       0.00801687        0.137481     -0.000227946     0.000303113
                     0.000110986     0.000163893         0.228471       -0.961898     -0.000289096     0.000175981       -0.0028506        0.147637
281712                 0.0521968       -0.127413     -0.000132227    -0.000373557         0.162642       -0.976593      0.000125296     0.000114515
                    -9.04256e-05    -0.000324869        0.0639088       -0.133087      0.000144005    -2.03094e-05         0.228431       -0.962355
                        0.162762       -0.976589      0.000142502     9.47804e-05       0.00807019        0.137475     -0.000227979     0.000303174
                     0.000111129     0.000163783         0.228245       -0.961952     -0.000289127     0.000176016      -0.00279304        0.147635
281714                 0.0521849       -0.127414     -0.000132414    -0.000373612          0.16241       -0.976632      0.000125273     0.000114515
                    -9.05458e-05    -0.000324884        0.0638971        -0.13309      0.000143973    -2.02877e-05         0.228205       -0.962409
                         0.16253       -0.976628      0.000142566     9.47602e-05       0.00812351        0.137469     -0.000228011     0.000303236
                     0.000111271     0.000163672         0.228018       -0.962006     -0.000289159     0.000176051      -0.00273548        0.147634
281716                  0.052173       -0.127416     -0.000132601    -0.000373667         0.162179       -0.976671      0.000125251     0.000114515
                    -9.06661e-05    -0.000324899        0.0638853       -0.133093      0.000143941     -2.0266e-05         0.227978       -0.962463
                        0.162298       -0.976667      0.000142631       9.474e-05       0.00817683        0.137463     -0.000228044     0.000303297
                     0.000111413     0.000163561         0.227792       -0.962059     -0.000289191     0.000176086      -0.00267792        0.147633
281718                 0.0521611       -0.127418     -0.000132789    -0.000373722         0.161947        -0.97671      0.000125229     0.000114515
                    -9.07867e-05    -0.000324914        0.0638736       -0.133096      0.000143909    -2.02443e-05         0.227752       -0.962517
                        0.162067       -0.976706      0.000142696     9.47198e-05       0.00823014        0.137457     -0.000228077     0.000303359
                     0.000111555     0.000163451         0.227566       -0.962113     -0.000289224     0.000176122      -0.00262036        0.147632
281720                 0.0521492        -0.12742     -0.000132976    -0.000373777         0.161716       -0.976748      0.000125206     0.000114515
                    -9.09074e-05    -0.000324929        0.0638618       -0.133099      0.000143877    -2.02225e-05         0.227525       -0.962571
                        0.161835       -0.976744      0.000142761     9.46996e-05       0.00828345        0.137451     -0.000228109     0.000303421
                     0.000111697      0.00016334          0.22734       -0.962167     -0.000289257     0.000176158       -0.0025628         0.14763
281722                 0.0521373       -0.127421     -0.000133163    -0.000373832         0.161484       -0.976787      0.000125184     0.000114515
                    -9.10284e-05    -0.000324944          0.06385       -0.133102      0.000143845    -2.02007e-05         0.227299       -0.962625
                        0.161604       -0.976783      0.000142826     9.46794e-05       0.00833676        0.137445     -0.000228142     0.000303483
                      0.00011184     0.000163229         0.227113       -0.962221     -0.000289291     0.000176195      -0.00250524        0.147629
281724                 0.0521254       -0.127423     -0.000133351    -0.000373887         0.161253       -0.976826      0.000125162     0.000114515
                    -9.11496e-05     -0.00032496        0.0638383       -0.133105      0.000143812    -2.01788e-05         0.227072       -0.962678
                        0.161372       -0.976822       0.00014289     9.46591e-05       0.00839006        0.137439     -0.000228175     0.000303545
                     0.000111982     0.000163118         0.226887       -0.962274     -0.000289324     0.000176233      -0.00244769        0.147627
281726                 0.0521135       -0.127425     -0.000133538    -0.000373943         0.161021       -0.976864       0.00012514     0.000114515
                     -9.1271e-05    -0.000324975        0.0638265       -0.133108       0.00014378    -2.01568e-05         0.226846       -0.962732
                        0.161141        -0.97686      0.000142955     9.46388e-05       0.00844335        0.137432     -0.000228208     0.000303607
                     0.000112124     0.000163007         0.226661       -0.962328     -0.000289357     0.000176271      -0.00239014        0.147626
281728                 0.0521016       -0.127427     -0.000133726    -0.000373998          0.16079       -0.976903      0.000125118     0.000114515
                    -9.13926e-05     -0.00032499        0.0638147       -0.133111      0.000143747    -2.01347e-05          0.22662       -0.962786
                        0.160909       -0.976899      0.000143019     9.46185e-05       0.00849665        0.137426     -0.000228241     0.000303669
                     0.000112266     0.000162896         0.226434       -0.962381     -0.000289389     0.000176309      -0.00233258        0.147625
281730                 0.0520897       -0.127429     -0.000133913    -0.000374053         0.160558       -0.976941      0.000125095     0.000114515
                    -9.15144e-05    -0.000325006         0.063803       -0.133114      0.000143714    -2.01126e-05         0.226393       -0.962839
                        0.160677       -0.976937      0.000143084     9.45982e-05       0.00854994         0.13742     -0.000228274     0.000303731
                     0.000112408     0.000162785         0.226208       -0.962435     -0.000289422     0.000176348      -0.00227503        0.147623
281732                 0.0520778        -0.12743     -0.000134101    -0.000374108         0.160326       -0.976979      0.000125073     0.000114515
                    -9.16365e-05    -0.000325021        0.0637912       -0.133117      0.000143681    -2.00904e-05         0.226167       -0.962893
                        0.160446       -0.976975      0.000143148     9.45778e-05       0.00860323        0.137414     -0.000228307     0.000303794
                      0.00011255     0.000162674         0.225981       -0.962488     -0.000289454     0.000176387      -0.00221749        0.147622
281734                 0.0520659       -0.127432     -0.000134289    -0.000374164         0.160095       -0.977018      0.000125051     0.000114515
                    -9.17589e-05    -0.000325037        0.0637794        -0.13312      0.000143648     -2.0068e-05          0.22594       -0.962946
                        0.160214       -0.977014      0.000143213     9.45575e-05       0.00865651        0.137408      -0.00022834     0.000303856
                     0.000112692     0.000162563         0.225755       -0.962541     -0.000289486     0.000176426      -0.00215994         0.14762
281736                  0.052054       -0.127434     -0.000134477    -0.000374219         0.159863       -0.977056      0.000125029     0.000114514
                    -9.18814e-05    -0.000325053        0.0637677       -0.133123      0.000143616    -2.00456e-05         0.225714          -0.963
                        0.159982       -0.977052      0.000143277     9.45371e-05       0.00870979        0.137402     -0.000228373     0.000303918
                     0.000112834     0.000162451         0.225529       -0.962595     -0.000289518     0.000176465      -0.00210239        0.147618
281738                 0.0520421       -0.127436     -0.000134664    -0.000374274         0.159632       -0.977094      0.000125007     0.000114514
                    -9.20042e-05    -0.000325069        0.0637559       -0.133126      0.000143583     -2.0023e-05         0.225487       -0.963053
                        0.159751        -0.97709      0.000143342     9.45167e-05       0.00876307        0.137395     -0.000228407     0.000303981
                     0.000112976      0.00016234         0.225302       -0.962648     -0.000289549     0.000176504      -0.00204485        0.147617
281740                 0.0520302       -0.127437     -0.000134852     -0.00037433           0.1594       -0.977132      0.000124985     0.000114514
                    -9.21273e-05    -0.000325085        0.0637441       -0.133129      0.000143549    -2.00003e-05          0.22526       -0.963106
                        0.159519       -0.977128      0.000143406     9.44963e-05       0.00881634        0.137389      -0.00022844     0.000304044
                     0.000113118     0.000162228         0.225076       -0.962701     -0.000289581     0.000176544       -0.0019873        0.147615
281742                 0.0520183       -0.127439      -0.00013504    -0.000374385         0.159168        -0.97717      0.000124963     0.000114513
                    -9.22506e-05    -0.000325101        0.0637324       -0.133132      0.000143516    -1.99775e-05         0.225034       -0.963159
                        0.159288       -0.977166       0.00014347     9.44759e-05       0.00886961        0.137383     -0.000228473     0.000304106
                      0.00011326     0.000162117         0.224849       -0.962754     -0.000289612     0.000176583      -0.00192976        0.147614
281744                 0.0520064       -0.127441     -0.000135227     -0.00037444         0.158937       -0.977209      0.000124941     0.000114513
                    -9.23742e-05    -0.000325117        0.0637206       -0.133135      0.000143483    -1.99545e-05         0.224807       -0.963213
                        0.159056       -0.977205      0.000143534     9.44555e-05       0.00892287        0.137376     -0.000228507     0.000304169
                     0.000113403     0.000162005         0.224623       -0.962807     -0.000289643     0.000176622      -0.00187222        0.147612
281746                 0.0519945       -0.127443     -0.000135415    -0.000374495         0.158705       -0.977247      0.000124919     0.000114513
                     -9.2498e-05    -0.000325133        0.0637089       -0.133138       0.00014345    -1.99315e-05         0.224581       -0.963266
                        0.158824       -0.977243      0.000143598     9.44351e-05       0.00897614         0.13737      -0.00022854     0.000304232
                     0.000113545     0.000161893         0.224396        -0.96286     -0.000289674     0.000176661      -0.00181468         0.14761
281748                 0.0519826       -0.127444     -0.000135603     -0.00037455         0.158473       -0.977284      0.000124897     0.000114512
                    -9.26221e-05    -0.000325149        0.0636971       -0.133141      0.000143417    -1.99083e-05         0.224354       -0.963319
                        0.158592        -0.97728      0.000143662     9.44147e-05       0.00902939        0.137364     -0.000228574     0.000304295
                     0.000113687     0.000161781          0.22417       -0.962913     -0.000289705     0.000176701      -0.00175715        0.147609
281750                 0.0519707       -0.127446      -0.00013579    -0.000374605         0.158242       -0.977322      0.000124875     0.000114512
                    -9.27464e-05    -0.000325165        0.0636853       -0.133144      0.000143384    -1.98851e-05         0.224128       -0.963372
                        0.158361       -0.977318      0.000143726     9.43943e-05       0.00908265        0.137357     -0.000228607     0.000304358
                      0.00011383     0.000161669         0.223943       -0.962966     -0.000289736      0.00017674      -0.00169961        0.147607
281752                 0.0519588       -0.127448     -0.000135978     -0.00037466          0.15801        -0.97736      0.000124853     0.000114511
                    -9.28711e-05    -0.000325182        0.0636736       -0.133147      0.000143351    -1.98617e-05         0.223901       -0.963425
                        0.158129       -0.977356       0.00014379     9.43739e-05        0.0091359        0.137351     -0.000228641     0.000304421
                     0.000113972     0.000161557         0.223717       -0.963019     -0.000289767     0.000176779      -0.00164208        0.147605
281754                 0.0519469        -0.12745     -0.000136165    -0.000374715         0.157778       -0.977398      0.000124831     0.000114511
                     -9.2996e-05    -0.000325198        0.0636618        -0.13315      0.000143319    -1.98382e-05         0.223674       -0.963478
                        0.157897       -0.977394      0.000143854     9.43536e-05       0.00918915        0.137345     -0.000228674     0.000304484
                     0.000114115     0.000161445          0.22349       -0.963072     -0.000289798     0.000176818      -0.00158455        0.147604
281756                  0.051935       -0.127451     -0.000136353     -0.00037477         0.157547       -0.977436      0.000124809      0.00011451
                    -9.31212e-05    -0.000325215          0.06365       -0.133153      0.000143286    -1.98147e-05         0.223448       -0.963531
                        0.157666       -0.977432      0.000143917     9.43333e-05       0.00924239        0.137338     -0.000228708     0.000304548
                     0.000114257     0.000161333         0.223264       -0.963125     -0.000289828     0.000176857      -0.00152702        0.147602
281758                 0.0519231       -0.127453      -0.00013654    -0.000374824         0.157315       -0.977473      0.000124787      0.00011451
                    -9.32467e-05    -0.000325232        0.0636383       -0.133156      0.000143253    -1.97911e-05         0.223221       -0.963583
                        0.157434       -0.977469      0.000143981     9.43131e-05       0.00929563        0.137332     -0.000228742     0.000304611
                       0.0001144      0.00016122         0.223037       -0.963177     -0.000289859     0.000176896      -0.00146949          0.1476
281760                 0.0519112       -0.127455     -0.000136727    -0.000374878         0.157083       -0.977511      0.000124766     0.000114509
                    -9.33725e-05    -0.000325249        0.0636265       -0.133159       0.00014322    -1.97674e-05         0.222994       -0.963636
                        0.157202       -0.977507      0.000144045     9.42933e-05       0.00934887        0.137325     -0.000228776     0.000304675
                     0.000114543     0.000161108         0.222811        -0.96323      -0.00028989     0.000176935      -0.00141196        0.147598
281762                 0.0518993       -0.127456     -0.000136915    -0.000374932         0.156852       -0.977549      0.000124744     0.000114508
                    -9.34986e-05    -0.000325266        0.0636147       -0.133162      0.000143188    -1.97436e-05         0.222768       -0.963689
                         0.15697       -0.977544      0.000144109      9.4274e-05        0.0094021        0.137319      -0.00022881     0.000304738
