! TOUCHSTONE file generated by CST MICROWAVE STUDIO
! Date and time: Wed Oct 15 17:31:18 2025
! Project name: Teste_Macro_Metasurface_Nanopilar.cst
! Parameters = {H=600; L_x=130; L_y=120; Lambda=1064; Max_L=200; Min_L=70; PathPara=1; Phi=0; Step_L=10; Theta=0; p=520; phaseX=180; phaseY=0}
! Header version: 2018
! Port assignment regex: !\s*Touchstone port\s*([0-9]+)\s*=\s*(CST MWS port|CST DS port)\s*([0-9]+|Zmin|Zmax)\s*\(\"(.*)\"\)(\s*mode\s*([0-9]+))?.*
! Touchstone port assignment:
! Touchstone port 1 = CST MWS port Zmax ("") mode 1
! Touchstone port 2 = CST MWS port Zmax ("") mode 2
! Touchstone port 3 = CST MWS port Zmin ("") mode 1
! Touchstone port 4 = CST MWS port Zmin ("") mode 2
! S-Parameters are not renormalized. Each port impedance will be approximated by the real part at minimum frequency. The values are described via the [Reference] keyword.
! Default impedance is overridden by [Reference]
[Version] 2.0
# GHz S RI R 376.73
[Number of Ports] 4
[Reference]
376.73 376.73 259.888 259.888 
[Number of Frequencies] 51
[Network Data]
281700                 0.0406124      -0.0232026     -0.000648724     0.000180477         0.392275        0.909159     -0.000336488     7.82124e-05
                    -0.000656166     0.000214009        0.0192541       0.0636878     -0.000143811     0.000309604         0.826279        0.545947
                        0.391884        0.908777     -0.000114193     0.000381775        0.0431604      -0.0110588     -0.000362526     0.000615593
                    -0.000371147     7.67646e-05         0.826111        0.546207     -0.000236682     0.000694128       -0.0658065      0.00944689
281702                 0.0405981      -0.0231795     -0.000648855     0.000180708         0.392634        0.909005     -0.000349128     9.88464e-05
                    -0.000656313     0.000214178        0.0192661       0.0637113     -0.000143694     0.000309779         0.826943        0.545428
                        0.392244        0.908623     -0.000114048     0.000381822        0.0431246      -0.0110986     -0.000375595     0.000515917
                    -0.000371153     7.68333e-05         0.826308        0.545906     -0.000236527     0.000694243       -0.0658334      0.00952359
281704                 0.0405838      -0.0231564     -0.000648985     0.000180938         0.392993        0.908851     -0.000348969     9.88942e-05
                    -0.000656459     0.000214348        0.0192782       0.0637347     -0.000143578     0.000309954         0.827141        0.545127
                        0.392605         0.90847     -0.000113902     0.000381868        0.0430888      -0.0111384     -0.000375086     0.000516421
                    -0.000371159      7.6902e-05         0.826506        0.545605     -0.000236371     0.000694359        -0.065853      0.00956913
281706                 0.0405695      -0.0231333     -0.000649115     0.000181169         0.393352        0.908697      -0.00034884     9.89858e-05
                    -0.000656606     0.000214517        0.0192903       0.0637582     -0.000143462     0.000310129         0.827338        0.544826
                        0.392965        0.908316     -0.000113757     0.000381914         0.043053      -0.0111781     -0.000374714     0.000516884
                    -0.000371165     7.69708e-05         0.826703        0.545304     -0.000236214     0.000694476       -0.0658725      0.00961481
281708                 0.0405551      -0.0231101     -0.000649245       0.0001814          0.39371        0.908543     -0.000348719     9.90882e-05
                    -0.000656752     0.000214687        0.0193023       0.0637816     -0.000143346     0.000310304         0.827535        0.544525
                        0.393325        0.908162     -0.000113611     0.000381959        0.0430172      -0.0112178     -0.000374374     0.000517337
                    -0.000371171     7.70396e-05         0.826901        0.545002     -0.000236057     0.000694592        -0.065892      0.00966054
281710                 0.0405408       -0.023087     -0.000649374     0.000181631         0.394069        0.908389     -0.000348601     9.91949e-05
                    -0.000656899     0.000214856        0.0193144       0.0638051      -0.00014323     0.000310479         0.827732        0.544224
                        0.393685        0.908008     -0.000113466     0.000382005        0.0429813      -0.0112574     -0.000374048     0.000517785
                    -0.000371178     7.71085e-05         0.827098        0.544701     -0.000235899     0.000694709       -0.0659115      0.00970631
281712                 0.0405266      -0.0230639     -0.000649504     0.000181862         0.394428        0.908235     -0.000348485     9.93036e-05
                    -0.000657046     0.000215026        0.0193265       0.0638285     -0.000143114     0.000310653         0.827929        0.543923
                        0.394045        0.907853      -0.00011332     0.000382051        0.0429454       -0.011297     -0.000373728     0.000518231
                    -0.000371185     7.71773e-05         0.827295          0.5444     -0.000235742     0.000694826       -0.0659309       0.0097521
281714                 0.0405123      -0.0230408     -0.000649633     0.000182094         0.394786        0.908081     -0.000348369     9.94134e-05
                    -0.000657192     0.000215196        0.0193386       0.0638519     -0.000142998     0.000310828         0.828125        0.543622
                        0.394405        0.907699     -0.000113174     0.000382097        0.0429094      -0.0113366     -0.000373411     0.000518676
                    -0.000371192     7.72462e-05         0.827492        0.544098     -0.000235583     0.000694943       -0.0659504      0.00979793
281716                  0.040498      -0.0230176     -0.000649762     0.000182325         0.395145        0.907926     -0.000348254     9.95239e-05
                    -0.000657339     0.000215367        0.0193507       0.0638753     -0.000142883     0.000311003         0.828321        0.543321
                        0.394764        0.907544     -0.000113029     0.000382142        0.0428734      -0.0113761     -0.000373096      0.00051912
                    -0.000371199     7.73152e-05         0.827688        0.543797     -0.000235424     0.000695061       -0.0659697      0.00984378
281718                 0.0404837      -0.0229945     -0.000649891     0.000182557         0.395503        0.907771     -0.000348139     9.96347e-05
                    -0.000657485     0.000215537        0.0193628       0.0638988     -0.000142767     0.000311178         0.828517        0.543019
                        0.395124         0.90739     -0.000112883     0.000382188        0.0428374      -0.0114155     -0.000372782     0.000519563
                    -0.000371206     7.73841e-05         0.827885        0.543496     -0.000235265     0.000695179       -0.0659891      0.00988966
281720                 0.0404695      -0.0229714      -0.00065002     0.000182789         0.395862        0.907616     -0.000348024     9.97457e-05
                    -0.000657632     0.000215707        0.0193749       0.0639222     -0.000142652     0.000311352         0.828713        0.542718
                        0.395484        0.907235     -0.000112737     0.000382233        0.0428014       -0.011455     -0.000372469     0.000520006
                    -0.000371214     7.74532e-05         0.828082        0.543194     -0.000235105     0.000695297       -0.0660084      0.00993557
281722                 0.0404552      -0.0229482     -0.000650149     0.000183022          0.39622        0.907461      -0.00034791     9.98569e-05
                    -0.000657778     0.000215878         0.019387       0.0639456     -0.000142537     0.000311527         0.828909        0.542417
                        0.395843         0.90708     -0.000112591     0.000382278        0.0427653      -0.0114944     -0.000372156     0.000520448
                    -0.000371221     7.75222e-05         0.828278        0.542892     -0.000234945     0.000695415       -0.0660277       0.0099815
281724                  0.040441      -0.0229251     -0.000650277     0.000183254         0.396578        0.907306     -0.000347795     9.99682e-05
                    -0.000657925     0.000216049        0.0193991        0.063969     -0.000142422     0.000311702         0.829105        0.542115
                        0.396203        0.906925     -0.000112446     0.000382324        0.0427292      -0.0115337     -0.000371843     0.000520891
                    -0.000371229     7.75913e-05         0.828475        0.542591     -0.000234784     0.000695533       -0.0660469       0.0100275
281726                 0.0404268      -0.0229019     -0.000650406     0.000183487         0.396937        0.907151     -0.000347681     0.000100079
                    -0.000658072      0.00021622        0.0194112       0.0639924     -0.000142307     0.000311876         0.829301        0.541814
                        0.396562        0.906769       -0.0001123     0.000382369        0.0426931       -0.011573      -0.00037153     0.000521332
                    -0.000371237     7.76604e-05         0.828671        0.542289     -0.000234623     0.000695652       -0.0660661       0.0100734
281728                 0.0404126      -0.0228788     -0.000650534      0.00018372         0.397295        0.906995     -0.000347567     0.000100191
                    -0.000658218     0.000216391        0.0194234       0.0640158     -0.000142193     0.000312051         0.829496        0.541512
                        0.396922        0.906614     -0.000112154     0.000382414        0.0426569      -0.0116123     -0.000371217     0.000521774
                    -0.000371245     7.77295e-05         0.828867        0.541987     -0.000234461     0.000695771       -0.0660853       0.0101194
281730                 0.0403984      -0.0228556     -0.000650663     0.000183953         0.397653         0.90684     -0.000347452     0.000100302
                    -0.000658365     0.000216562        0.0194355       0.0640392     -0.000142078     0.000312225         0.829692         0.54121
                        0.397281        0.906458     -0.000112008      0.00038246        0.0426207      -0.0116515     -0.000370903     0.000522215
                    -0.000371253     7.77987e-05         0.829063        0.541685     -0.000234299      0.00069589       -0.0661044       0.0101655
281732                 0.0403842      -0.0228324     -0.000650791     0.000184186         0.398011        0.906684     -0.000347338     0.000100413
                    -0.000658511     0.000216734        0.0194476       0.0640626     -0.000141964       0.0003124         0.829887        0.540909
                         0.39764        0.906303     -0.000111862     0.000382505        0.0425845      -0.0116907     -0.000370589     0.000522656
                    -0.000371262     7.78679e-05         0.829259        0.541383     -0.000234137     0.000696009       -0.0661235       0.0102115
281734                   0.04037      -0.0228093     -0.000650919      0.00018442         0.398369        0.906528     -0.000347224     0.000100524
                    -0.000658658     0.000216906        0.0194598       0.0640859     -0.000141849     0.000312574         0.830082        0.540607
                        0.397999        0.906147     -0.000111716      0.00038255        0.0425482      -0.0117298     -0.000370275     0.000523097
                     -0.00037127     7.79371e-05         0.829455        0.541081     -0.000233973     0.000696129       -0.0661426       0.0102576
281736                 0.0403558      -0.0227861     -0.000651047     0.000184654         0.398727        0.906372     -0.000347109     0.000100635
                    -0.000658804     0.000217077        0.0194719       0.0641093     -0.000141735     0.000312748         0.830277        0.540305
                        0.398358        0.905991      -0.00011157     0.000382596        0.0425119      -0.0117689     -0.000369961     0.000523537
                    -0.000371279     7.80064e-05          0.82965        0.540779     -0.000233809     0.000696249       -0.0661616       0.0103037
281738                 0.0403416      -0.0227629     -0.000651175     0.000184888         0.399084        0.906216     -0.000346995     0.000100746
                    -0.000658951      0.00021725        0.0194841       0.0641327     -0.000141621     0.000312922         0.830472        0.540003
                        0.398718        0.905835     -0.000111425     0.000382641        0.0424756       -0.011808     -0.000369647     0.000523977
                    -0.000371288     7.80757e-05         0.829846        0.540477     -0.000233645     0.000696369       -0.0661806       0.0103499
281740                 0.0403274      -0.0227397     -0.000651303     0.000185122         0.399442        0.906059      -0.00034688     0.000100857
                    -0.000659098     0.000217422        0.0194962        0.064156     -0.000141507     0.000313096         0.830667        0.539701
                        0.399076        0.905679     -0.000111279     0.000382686        0.0424392       -0.011847     -0.000369332     0.000524417
                    -0.000371297      7.8145e-05         0.830041        0.540175     -0.000233479     0.000696488       -0.0661996        0.010396
281742                 0.0403133      -0.0227166      -0.00065143     0.000185356           0.3998        0.905903     -0.000346766     0.000100968
                    -0.000659245     0.000217595        0.0195084       0.0641794     -0.000141393     0.000313268         0.830862        0.539399
                        0.399435        0.905522     -0.000111133     0.000382732        0.0424028       -0.011886     -0.000369016     0.000524857
                    -0.000371306     7.82144e-05         0.830236        0.539873      -0.00023331     0.000696609       -0.0662185       0.0104422
281744                 0.0402991      -0.0226934     -0.000651558     0.000185591         0.400157        0.905746     -0.000346651     0.000101078
                    -0.000659392     0.000217767        0.0195205       0.0642028     -0.000141276     0.000313427         0.831057        0.539097
                        0.399794        0.905366     -0.000110987     0.000382777        0.0423664      -0.0119249     -0.000368701     0.000525297
                    -0.000371316     7.82838e-05         0.830432         0.53957     -0.000233137     0.000696743       -0.0662374       0.0104884
281746                  0.040285      -0.0226702     -0.000651685     0.000185826         0.400515        0.905589     -0.000346536     0.000101189
                    -0.000659539      0.00021794        0.0195327       0.0642261      -0.00014116     0.000313635         0.831251        0.538795
                        0.400153        0.905209     -0.000110841     0.000382823        0.0423299      -0.0119638     -0.000368385     0.000525736
                    -0.000371325     7.83533e-05         0.830627        0.539268     -0.000232987     0.000696866       -0.0662563       0.0105347
281748                 0.0402709       -0.022647     -0.000651813     0.000186061         0.400872        0.905432     -0.000346422     0.000101299
                    -0.000659686     0.000218113        0.0195449       0.0642495      -0.00014105     0.000313802         0.831445        0.538492
                        0.400512        0.905052     -0.000110695     0.000382868        0.0422934      -0.0120027     -0.000368068     0.000526175
                    -0.000371335     7.84227e-05         0.830822        0.538965     -0.000232823     0.000696982       -0.0662751       0.0105809
281750                 0.0402568      -0.0226238      -0.00065194     0.000186296          0.40123        0.905275     -0.000346307      0.00010141
                    -0.000659833     0.000218286        0.0195571       0.0642728     -0.000140938     0.000313974          0.83164         0.53819
                         0.40087        0.904895     -0.000110549     0.000382914        0.0422569      -0.0120415     -0.000367751     0.000526614
                    -0.000371345     7.84923e-05         0.831017        0.538663     -0.000232656     0.000697102       -0.0662939       0.0106272
281752                 0.0402426      -0.0226006     -0.000652067     0.000186531         0.401587        0.905118     -0.000346192      0.00010152
                     -0.00065998     0.000218459        0.0195693       0.0642961     -0.000140824     0.000314147         0.831834        0.537888
                        0.401229        0.904738     -0.000110403     0.000382959        0.0422203      -0.0120802     -0.000367434     0.000527053
                    -0.000371355     7.85618e-05         0.831211         0.53836     -0.000232489     0.000697223       -0.0663126       0.0106735
281754                 0.0402285      -0.0225774     -0.000652194     0.000186767         0.401944        0.904961     -0.000346077      0.00010163
                    -0.000660127     0.000218633        0.0195814       0.0643195     -0.000140711     0.000314321         0.832028        0.537585
                        0.401587        0.904581     -0.000110257     0.000383005        0.0421838       -0.012119     -0.000367117     0.000527492
                    -0.000371365     7.86313e-05         0.831406        0.538058     -0.000232321     0.000697345       -0.0663314       0.0107198
281756                 0.0402145      -0.0225542     -0.000652321     0.000187003         0.402302        0.904803     -0.000345962     0.000101741
                    -0.000660274     0.000218806        0.0195936       0.0643428     -0.000140598     0.000314495         0.832222        0.537283
                        0.401946        0.904423     -0.000110111     0.000383051        0.0421471      -0.0121577       -0.0003668      0.00052793
                    -0.000371376     7.87009e-05           0.8316        0.537755     -0.000232153     0.000697467       -0.0663501       0.0107662
281758                 0.0402004       -0.022531     -0.000652448     0.000187239         0.402659        0.904646     -0.000345847     0.000101851
                    -0.000660422      0.00021898        0.0196058       0.0643661     -0.000140485     0.000314669         0.832416         0.53698
                        0.402304        0.904266     -0.000109965     0.000383096        0.0421105      -0.0121963     -0.000366482     0.000528368
                    -0.000371386     7.87705e-05         0.831795        0.537452     -0.000231984      0.00069759       -0.0663687       0.0108126
281760                 0.0401863      -0.0225077     -0.000652575     0.000187475         0.403016        0.904488     -0.000345732     0.000101961
                    -0.000660569     0.000219153         0.019618       0.0643894     -0.000140372     0.000314842          0.83261        0.536678
                        0.402662        0.904108     -0.000109819     0.000383142        0.0420738      -0.0122349     -0.000366163     0.000528806
                    -0.000371397     7.88401e-05         0.831989        0.537149     -0.000231815     0.000697712       -0.0663873        0.010859
281762                 0.0401722      -0.0224845     -0.000652702     0.000187712         0.403373         0.90433     -0.000345617     0.000102071
                    -0.000660716     0.000219327        0.0196303       0.0644128      -0.00014026     0.000315016         0.832803        0.536375
                        0.403021        0.903951     -0.000109673     0.000383188        0.0420371      -0.0122735     -0.000365845     0.000529244
