! TOUCHSTONE file generated by CST MICROWAVE STUDIO
! Date and time: Wed Oct 15 17:30:59 2025
! Project name: Teste_Macro_Metasurface_Nanopilar.cst
! Parameters = {H=600; L_x=125; L_y=105; Lambda=1064; Max_L=200; Min_L=70; PathPara=1; Phi=0; Step_L=10; Theta=0; p=520; phaseX=180; phaseY=0}
! Header version: 2018
! Port assignment regex: !\s*Touchstone port\s*([0-9]+)\s*=\s*(CST MWS port|CST DS port)\s*([0-9]+|Zmin|Zmax)\s*\(\"(.*)\"\)(\s*mode\s*([0-9]+))?.*
! Touchstone port assignment:
! Touchstone port 1 = CST MWS port Zmax ("") mode 1
! Touchstone port 2 = CST MWS port Zmax ("") mode 2
! Touchstone port 3 = CST MWS port Zmin ("") mode 1
! Touchstone port 4 = CST MWS port Zmin ("") mode 2
! S-Parameters are not renormalized. Each port impedance will be approximated by the real part at minimum frequency. The values are described via the [Reference] keyword.
! Default impedance is overridden by [Reference]
[Version] 2.0
# GHz S RI R 376.73
[Number of Ports] 4
[Reference]
376.73 376.73 259.888 259.888 
[Number of Frequencies] 51
[Network Data]
281700                 0.0923209       0.0991347     -0.000139956    -0.000511923        -0.982628      -0.0666144     -0.000103591     -0.00041122
                    -0.000122181    -0.000521233        0.0800209      -0.0890033     -0.000361515    -0.000189899        -0.172596        0.967903
                       -0.982672      -0.0666271     -0.000301184    -0.000145436        -0.103721       0.0864868     -0.000532705    -0.000244863
                    -0.000206267    -0.000397408        -0.173441         0.96767     -0.000561807    -0.000259438        0.0418287        0.111523
281702                 0.0923419       0.0991369     -0.000140039     -0.00051183        -0.982648      -0.0662767     -0.000103716    -0.000411124
                    -0.000122139    -0.000521198        0.0799873      -0.0889987     -0.000361602    -0.000189719        -0.172199        0.967977
                       -0.982692      -0.0662885     -0.000301283    -0.000145314        -0.103683       0.0865572     -0.000532831     -0.00024459
                     -0.00020696     -0.00039717        -0.173044        0.967744     -0.000561922    -0.000259097        0.0418899        0.111472
281704                 0.0923629        0.099139     -0.000140123    -0.000511737        -0.982668      -0.0659391     -0.000103841    -0.000411027
                    -0.000122107    -0.000521161        0.0799536      -0.0889941      -0.00036169    -0.000189539        -0.171802        0.968051
                       -0.982712        -0.06595     -0.000301381    -0.000145192        -0.103645       0.0866275     -0.000532957    -0.000244318
                    -0.000207614    -0.000396938        -0.172647        0.967817     -0.000562036    -0.000258756         0.041951        0.111422
281706                 0.0923839       0.0991411     -0.000140207    -0.000511645        -0.982688      -0.0656015     -0.000103966     -0.00041093
                    -0.000122084    -0.000521123          0.07992      -0.0889895     -0.000361778    -0.000189359        -0.171405        0.968124
                       -0.982732      -0.0656115      -0.00030148     -0.00014507        -0.103607       0.0866979     -0.000533082    -0.000244045
                    -0.000208227    -0.000396715         -0.17225        0.967891      -0.00056215    -0.000258415        0.0420121        0.111371
281708                 0.0924049       0.0991432      -0.00014029    -0.000511552        -0.982708      -0.0652638     -0.000104091    -0.000410833
                    -0.000122072    -0.000521085        0.0798864      -0.0889849     -0.000361865    -0.000189179        -0.171008        0.968198
                       -0.982751       -0.065273     -0.000301578    -0.000144948        -0.103569       0.0867682     -0.000533208    -0.000243772
                    -0.000208792    -0.000396503        -0.171853        0.967964     -0.000562264    -0.000258074        0.0420731        0.111321
281710                 0.0924259       0.0991453     -0.000140373     -0.00051146        -0.982728      -0.0649261     -0.000104216    -0.000410736
                    -0.000122072    -0.000521045        0.0798528      -0.0889803     -0.000361953    -0.000188999        -0.170611        0.968271
                       -0.982771      -0.0649346     -0.000301677    -0.000144826         -0.10353       0.0868386     -0.000533333    -0.000243499
                    -0.000209305    -0.000396302        -0.171456        0.968038     -0.000562378    -0.000257733        0.0421341         0.11127
281712                 0.0924469       0.0991473     -0.000140456    -0.000511367        -0.982747      -0.0645884      -0.00010434     -0.00041064
                    -0.000122086    -0.000521003        0.0798192      -0.0889756     -0.000362041    -0.000188819        -0.170214        0.968344
                        -0.98279      -0.0645963     -0.000301775    -0.000144704        -0.103492       0.0869089     -0.000533457    -0.000243226
                    -0.000209758    -0.000396116        -0.171059        0.968111     -0.000562492    -0.000257391        0.0421951        0.111219
281714                  0.092468       0.0991493     -0.000140539    -0.000511275        -0.982767      -0.0642507     -0.000104465    -0.000410543
                    -0.000122115     -0.00052096        0.0797856       -0.088971     -0.000362128    -0.000188639        -0.169816        0.968417
                       -0.982809      -0.0642581     -0.000301873    -0.000144582        -0.103453       0.0869792     -0.000533582    -0.000242952
                    -0.000210144    -0.000395946        -0.170662        0.968184     -0.000562605     -0.00025705         0.042256        0.111168
281716                 0.0924891       0.0991513     -0.000140622    -0.000511183        -0.982786       -0.063913     -0.000104589    -0.000410445
                    -0.000122163    -0.000520915         0.079752      -0.0889663     -0.000362216    -0.000188459        -0.169419         0.96849
                       -0.982829      -0.0639199     -0.000301971    -0.000144459        -0.103415       0.0870494     -0.000533706    -0.000242678
                    -0.000210454    -0.000395796        -0.170265        0.968257     -0.000562718    -0.000256708        0.0423168        0.111118
281718                 0.0925102       0.0991533     -0.000140705     -0.00051109        -0.982805      -0.0635753     -0.000104713    -0.000410348
                     -0.00012223    -0.000520867        0.0797184      -0.0889616     -0.000362303    -0.000188278        -0.169022        0.968562
                       -0.982848      -0.0635819     -0.000302069    -0.000144337        -0.103376       0.0871197      -0.00053383    -0.000242404
                    -0.000210679    -0.000395668        -0.169868        0.968329     -0.000562831    -0.000256367        0.0423776        0.111067
281720                 0.0925313       0.0991552     -0.000140788    -0.000510998        -0.982825      -0.0632375     -0.000104837    -0.000410251
                     -0.00012232    -0.000520817        0.0796848      -0.0889569     -0.000362391    -0.000188097        -0.168625        0.968635
                       -0.982866      -0.0632439     -0.000302167    -0.000144214        -0.103338       0.0871899     -0.000533954    -0.000242129
                    -0.000210804    -0.000395565         -0.16947        0.968402     -0.000562944    -0.000256025        0.0424383        0.111016
281722                 0.0925525       0.0991571      -0.00014087    -0.000510906        -0.982844      -0.0628998     -0.000104961    -0.000410154
                    -0.000122437    -0.000520764        0.0796511      -0.0889522     -0.000362479    -0.000187917        -0.168227        0.968707
                       -0.982885      -0.0629061     -0.000302265    -0.000144092        -0.103299       0.0872602     -0.000534078    -0.000241855
                    -0.000210817    -0.000395493        -0.169073        0.968474     -0.000563056    -0.000255683         0.042499        0.110965
281724                 0.0925737       0.0991589     -0.000140953    -0.000510814        -0.982863       -0.062562     -0.000105085    -0.000410057
                    -0.000122584    -0.000520708        0.0796175      -0.0889475     -0.000362566    -0.000187736         -0.16783        0.968779
                       -0.982904      -0.0625685     -0.000302362    -0.000143969        -0.103261       0.0873304     -0.000534201     -0.00024158
                      -0.0002107    -0.000395454        -0.168676        0.968546     -0.000563169    -0.000255342        0.0425597        0.110914
281726                  0.092595       0.0991607     -0.000141035    -0.000510722        -0.982881      -0.0622242     -0.000105209    -0.000409959
                    -0.000122766    -0.000520647        0.0795839      -0.0889427     -0.000362654    -0.000187555        -0.167433        0.968851
                       -0.982922       -0.062231      -0.00030246    -0.000143847        -0.103222       0.0874006     -0.000534324    -0.000241305
                    -0.000210434    -0.000395454        -0.168279        0.968618     -0.000563281       -0.000255        0.0426202        0.110863
281728                 0.0926162       0.0991624     -0.000141117    -0.000510631          -0.9829      -0.0618864     -0.000105333    -0.000409862
                    -0.000122989    -0.000520582        0.0795503       -0.088938     -0.000362741    -0.000187374        -0.167035        0.968923
                       -0.982941      -0.0618937     -0.000302557    -0.000143724        -0.103183       0.0874707     -0.000534447    -0.000241029
                    -0.000209996    -0.000395498        -0.167881         0.96869     -0.000563393    -0.000254658        0.0426808        0.110812
281730                 0.0926376       0.0991641       -0.0001412    -0.000510539        -0.982919      -0.0615486     -0.000105456    -0.000409764
                    -0.000123258    -0.000520511        0.0795167      -0.0889332     -0.000362829    -0.000187193        -0.166638        0.968995
                        -0.98296      -0.0615566     -0.000302655    -0.000143601        -0.103144       0.0875409      -0.00053457    -0.000240753
                    -0.000209361    -0.000395591        -0.167484        0.968762     -0.000563504    -0.000254315        0.0427413        0.110761
281732                  0.092659       0.0991656     -0.000141282    -0.000510447        -0.982937      -0.0612107      -0.00010558    -0.000409667
                     -0.00012358    -0.000520434        0.0794831      -0.0889285     -0.000362916    -0.000187012         -0.16624        0.969066
                       -0.982978      -0.0612198     -0.000302752    -0.000143479        -0.103105        0.087611     -0.000534692    -0.000240477
                    -0.000208501    -0.000395737        -0.167087        0.968833     -0.000563616    -0.000253973        0.0428017         0.11071
281734                 0.0926805       0.0991671     -0.000141364    -0.000510356        -0.982955      -0.0608729     -0.000105703    -0.000409569
                    -0.000123961    -0.000520349        0.0794495      -0.0889237     -0.000363003    -0.000186831        -0.165843        0.969137
                       -0.982997      -0.0608832      -0.00030285    -0.000143356        -0.103066       0.0876812     -0.000534815    -0.000240201
                     -0.00020739     -0.00039594        -0.166689        0.968904     -0.000563727    -0.000253631        0.0428621        0.110659
281736                  0.092702       0.0991685     -0.000141446    -0.000510264        -0.982974       -0.060535     -0.000105827    -0.000409472
                    -0.000124406    -0.000520255        0.0794159      -0.0889189     -0.000363091     -0.00018665        -0.165445        0.969208
                       -0.983015      -0.0605468     -0.000302947    -0.000143233        -0.103027       0.0877513     -0.000534937    -0.000239925
                    -0.000206009      -0.0003962        -0.166292        0.968976     -0.000563838    -0.000253288        0.0429224        0.110608
281738                 0.0927236       0.0991698     -0.000141528    -0.000510173        -0.982992      -0.0601971      -0.00010595    -0.000409374
                    -0.000124914    -0.000520152        0.0793823      -0.0889141     -0.000363178    -0.000186469        -0.165048        0.969279
                       -0.983034      -0.0602107     -0.000303044     -0.00014311        -0.102988       0.0878214     -0.000535058    -0.000239648
                    -0.000204361    -0.000396508        -0.165894        0.969047     -0.000563949    -0.000252946        0.0429827        0.110557
281740                 0.0927453       0.0991711      -0.00014161    -0.000510081         -0.98301      -0.0598592     -0.000106073    -0.000409277
                    -0.000125472    -0.000520042        0.0793487      -0.0889092     -0.000363265    -0.000186287         -0.16465         0.96935
                       -0.983053      -0.0598747     -0.000303141    -0.000142988        -0.102949       0.0878914      -0.00053518    -0.000239371
                    -0.000202505    -0.000396846        -0.165497        0.969117      -0.00056406    -0.000252603         0.043043        0.110506
281742                  0.092767       0.0991723     -0.000141692     -0.00050999        -0.983028      -0.0595213     -0.000106196    -0.000409179
                    -0.000126039    -0.000519929        0.0793151      -0.0889044     -0.000363353    -0.000186106        -0.164252        0.969421
                       -0.983071      -0.0595387     -0.000303238    -0.000142865         -0.10291       0.0879615     -0.000535301    -0.000239093
                    -0.000200619    -0.000397171        -0.165099        0.969188      -0.00056417    -0.000252261        0.0431032        0.110454
281744                 0.0927886       0.0991737     -0.000141773    -0.000509899        -0.983045      -0.0591834     -0.000106319    -0.000409082
                    -0.000126513    -0.000519827        0.0792815      -0.0888996      -0.00036344    -0.000185924        -0.163855        0.969491
                        -0.98309      -0.0592021     -0.000303335    -0.000142742        -0.102871       0.0880316     -0.000535423    -0.000238816
                    -0.000199126      -0.0003974        -0.164702        0.969259     -0.000564281    -0.000251918        0.0431633        0.110403
281746                 0.0928098       0.0991754     -0.000141855    -0.000509808        -0.983063      -0.0588455     -0.000106442    -0.000408985
                    -0.000126681    -0.000519766        0.0792479      -0.0888947     -0.000363527    -0.000185742        -0.163457        0.969562
                       -0.983108      -0.0588643     -0.000303431    -0.000142619        -0.102832       0.0881016     -0.000535543    -0.000238537
                    -0.000198923    -0.000397368        -0.164304        0.969329     -0.000564391    -0.000251575        0.0432234        0.110352
281748                 0.0928303        0.099178     -0.000141937    -0.000509717        -0.983081      -0.0585075     -0.000106564    -0.000408892
                     -0.00012615    -0.000519798        0.0792143      -0.0888898     -0.000363614    -0.000185561        -0.163059        0.969632
                       -0.983124      -0.0585234     -0.000303528    -0.000142496        -0.102793       0.0881716     -0.000535664    -0.000238258
                    -0.000201668    -0.000396741        -0.163907        0.969399       -0.0005645    -0.000251232        0.0432834          0.1103
281750                 0.0928494       0.0991823     -0.000142018    -0.000509626        -0.983098      -0.0581696     -0.000106685     -0.00040877
                    -0.000124353    -0.000519987        0.0791807       -0.088885     -0.000363701    -0.000185379        -0.162662        0.969702
                       -0.983138      -0.0581765     -0.000303625    -0.000142374        -0.102753       0.0882416     -0.000535784    -0.000237975
                    -0.000209765    -0.000394797        -0.163509        0.969469      -0.00056461    -0.000250889        0.0433434        0.110249
281752                 0.0928669       0.0991893       -0.0001421    -0.000509535        -0.983115      -0.0578316     -0.000106809    -0.000408684
                    -0.000120875    -0.000520344        0.0791471      -0.0888801     -0.000363789    -0.000185197        -0.162264        0.969771
                       -0.983143      -0.0578187     -0.000303721    -0.000142251        -0.102714       0.0883116      -0.00053592    -0.000237681
                    -0.000225012    -0.000390219        -0.163111        0.969539      -0.00056472    -0.000250546        0.0434033        0.110198
281754                 0.0928837       0.0991988     -0.000142181    -0.000509444        -0.983132      -0.0574936     -0.000106932    -0.000408587
                    -0.000116126    -0.000520747        0.0791135      -0.0888752     -0.000363876    -0.000185015        -0.161866        0.969841
                        -0.98313      -0.0574458     -0.000303818    -0.000142128        -0.102675       0.0883815     -0.000536045    -0.000237433
                    -0.000245498    -0.000381917        -0.162714        0.969609     -0.000564829    -0.000250203        0.0434632        0.110146
281756                 0.0929015       0.0992092     -0.000142263    -0.000509353         -0.98315      -0.0571556     -0.000107054    -0.000408489
                    -0.000111475     -0.00052103        0.0790799      -0.0888702     -0.000363963    -0.000184833        -0.161468        0.969911
                       -0.983084      -0.0570661     -0.000303914    -0.000142005        -0.102635       0.0884515     -0.000536157    -0.000237154
                    -0.000265057    -0.000371355        -0.162316        0.969678     -0.000564938     -0.00024986        0.0435231        0.110095
281758                 0.0929209       0.0992177     -0.000142344    -0.000509262        -0.983167      -0.0568176     -0.000107176    -0.000408391
                    -0.000108123    -0.000521156        0.0790463      -0.0888653      -0.00036405    -0.000184651         -0.16107         0.96998
                       -0.983014      -0.0567065     -0.000304011    -0.000141883        -0.102596       0.0885214     -0.000536275    -0.000236875
                    -0.000278734     -0.00036216        -0.161918        0.969748     -0.000565047    -0.000249517        0.0435828        0.110043
281760                 0.0929414       0.0992234     -0.000142426    -0.000509171        -0.983183      -0.0564795     -0.000107298    -0.000408293
                    -0.000106276    -0.000521184        0.0790127      -0.0888604     -0.000364138    -0.000184468        -0.160672        0.970049
                       -0.982958      -0.0563737     -0.000304107     -0.00014176        -0.102556       0.0885913     -0.000536394    -0.000236595
                    -0.000286201    -0.000356395         -0.16152        0.969817     -0.000565155    -0.000249174        0.0436426        0.109991
281762                 0.0929623        0.099227     -0.000142507    -0.000509081          -0.9832      -0.0561414      -0.00010742    -0.000408195
                     -0.00010552    -0.000521168        0.0789791      -0.0888554      -0.00036423     -0.00018428        -0.160274        0.970118
                       -0.982939       -0.056045     -0.000304203    -0.000141638        -0.102517       0.0886612     -0.000536514    -0.000236316
