! TOUCHSTONE file generated by CST MICROWAVE STUDIO
! Date and time: Wed Oct 15 17:32:57 2025
! Project name: Teste_Macro_Metasurface_Nanopilar.cst
! Parameters = {H=600; L_x=160; L_y=85; Lambda=1064; Max_L=200; Min_L=70; PathPara=1; Phi=0; Step_L=10; Theta=0; p=520; phaseX=180; phaseY=0}
! Header version: 2018
! Port assignment regex: !\s*Touchstone port\s*([0-9]+)\s*=\s*(CST MWS port|CST DS port)\s*([0-9]+|Zmin|Zmax)\s*\(\"(.*)\"\)(\s*mode\s*([0-9]+))?.*
! Touchstone port assignment:
! Touchstone port 1 = CST MWS port Zmax ("") mode 1
! Touchstone port 2 = CST MWS port Zmax ("") mode 2
! Touchstone port 3 = CST MWS port Zmin ("") mode 1
! Touchstone port 4 = CST MWS port Zmin ("") mode 2
! S-Parameters are not renormalized. Each port impedance will be approximated by the real part at minimum frequency. The values are described via the [Reference] keyword.
! Default impedance is overridden by [Reference]
[Version] 2.0
# GHz S RI R 376.73
[Number of Ports] 4
[Reference]
376.73 376.73 259.888 259.888 
[Number of Frequencies] 51
[Network Data]
281700                 -0.031359       -0.013806     -0.000254388    -0.000311984         -0.53828       -0.840576     -0.000117239     6.00515e-05
                    -0.000284749    -0.000206585       0.00749311        0.133713      0.000165599    -7.48535e-05          0.94493        0.276657
                       -0.537389        -0.84048      6.75266e-05    -0.000101371     -0.000630918       0.0348993     -0.000192862    -0.000207302
                    -4.84258e-05     0.000120246         0.945326         0.27637     -0.000205161    -0.000139288       -0.0775241        0.110004
281702                -0.0313665      -0.0137928     -0.000254401    -0.000311953        -0.538507        -0.84043     -0.000117105     6.01654e-05
                    -0.000284882    -0.000206584       0.00751568        0.133735      0.000165588    -7.49415e-05         0.945024        0.276324
                       -0.537615       -0.840335       6.7316e-05    -0.000101387     -0.000627352        0.034901     -0.000193155    -0.000207274
                    -4.83883e-05     0.000120252         0.945421        0.276037     -0.000205395    -0.000139279        -0.077478        0.110065
281704                -0.0313741      -0.0137796     -0.000254414    -0.000311921        -0.538733       -0.840284      -0.00011697     6.02791e-05
                    -0.000285015    -0.000206583       0.00753825        0.133758      0.000165578    -7.50293e-05         0.945118        0.275991
                       -0.537841        -0.84019      6.71047e-05    -0.000101403     -0.000623785       0.0349028     -0.000193447    -0.000207247
                    -4.83507e-05     0.000120257         0.945515        0.275704     -0.000205628     -0.00013927       -0.0774318        0.110126
281706                -0.0313817      -0.0137664     -0.000254426    -0.000311888        -0.538959       -0.840139     -0.000116836     6.03924e-05
                    -0.000285147    -0.000206582       0.00756082         0.13378      0.000165567    -7.51169e-05         0.945212        0.275658
                       -0.538067       -0.840045      6.68927e-05    -0.000101419     -0.000620217       0.0349045     -0.000193738     -0.00020722
                     -4.8313e-05     0.000120262          0.94561        0.275371     -0.000205862     -0.00013926       -0.0773856        0.110187
281708                -0.0313893      -0.0137532     -0.000254438    -0.000311855        -0.539185       -0.839993     -0.000116701     6.05055e-05
                     -0.00028528     -0.00020658        0.0075834        0.133803      0.000165557    -7.52043e-05         0.945305        0.275325
                       -0.538293         -0.8399      6.66799e-05    -0.000101435     -0.000616648       0.0349063     -0.000194029    -0.000207194
                    -4.82753e-05     0.000120267         0.945704        0.275038     -0.000206096     -0.00013925       -0.0773394        0.110248
281710                -0.0313968        -0.01374     -0.000254449    -0.000311822        -0.539411       -0.839847     -0.000116565     6.06184e-05
                    -0.000285412    -0.000206579       0.00760598        0.133826      0.000165546    -7.52915e-05         0.945399        0.274992
                       -0.538519       -0.839755      6.64665e-05    -0.000101451     -0.000613078        0.034908      -0.00019432    -0.000207168
                    -4.82376e-05     0.000120272         0.945798        0.274705      -0.00020633     -0.00013924       -0.0772931        0.110309
281712                -0.0314044      -0.0137268     -0.000254461    -0.000311788        -0.539637       -0.839701     -0.000116429      6.0731e-05
                    -0.000285545    -0.000206577       0.00762856        0.133848      0.000165535    -7.53786e-05         0.945492        0.274659
                       -0.538745        -0.83961      6.62523e-05    -0.000101467     -0.000609508       0.0349098      -0.00019461    -0.000207143
                    -4.81997e-05     0.000120277         0.945892        0.274372     -0.000206564     -0.00013923       -0.0772468         0.11037
281714                 -0.031412      -0.0137136     -0.000254471    -0.000311754        -0.539863       -0.839555     -0.000116293     6.08434e-05
                    -0.000285678    -0.000206576       0.00765114        0.133871      0.000165525    -7.54654e-05         0.945585        0.274326
                       -0.538971       -0.839464      6.60374e-05    -0.000101484     -0.000605936       0.0349115       -0.0001949    -0.000207119
                    -4.81619e-05     0.000120283         0.945986        0.274039     -0.000206799    -0.000139219       -0.0772004        0.110431
281716                -0.0314195      -0.0137003     -0.000254481     -0.00031172        -0.540088       -0.839409     -0.000116157     6.09556e-05
                     -0.00028581    -0.000206574       0.00767372        0.133893      0.000165514    -7.55522e-05         0.945678        0.273992
                       -0.539197       -0.839319      6.58218e-05      -0.0001015     -0.000602363       0.0349133      -0.00019519    -0.000207094
                    -4.81239e-05     0.000120288          0.94608        0.273706     -0.000207033    -0.000139208        -0.077154        0.110492
281718                -0.0314271      -0.0136871     -0.000254491    -0.000311685        -0.540314       -0.839263      -0.00011602     6.10675e-05
                    -0.000285943    -0.000206572       0.00769631        0.133916      0.000165504    -7.56387e-05         0.945771        0.273659
                       -0.539423       -0.839174      6.56055e-05    -0.000101516      -0.00059879       0.0349151      -0.00019548     -0.00020707
                    -4.80859e-05     0.000120293         0.946174        0.273373     -0.000207268    -0.000139197       -0.0771075        0.110553
281720                -0.0314347      -0.0136739       -0.0002545     -0.00031165         -0.54054       -0.839116     -0.000115883     6.11793e-05
                    -0.000286075     -0.00020657        0.0077189        0.133938      0.000165493    -7.57251e-05         0.945864        0.273326
                       -0.539649       -0.839028      6.53884e-05    -0.000101532     -0.000595215       0.0349169     -0.000195769    -0.000207047
                    -4.80479e-05     0.000120298         0.946268        0.273039     -0.000207503    -0.000139186        -0.077061        0.110614
281722                -0.0314422      -0.0136607     -0.000254509    -0.000311614        -0.540766        -0.83897     -0.000115746     6.12909e-05
                    -0.000286208    -0.000206568       0.00774149        0.133961      0.000165482    -7.58113e-05         0.945957        0.272993
                       -0.539874       -0.838883      6.51706e-05    -0.000101549     -0.000591639       0.0349186     -0.000196058    -0.000207023
                    -4.80097e-05     0.000120303         0.946361        0.272706     -0.000207739    -0.000139174       -0.0770144        0.110675
281724                -0.0314498      -0.0136475     -0.000254517    -0.000311578        -0.540991       -0.838824     -0.000115608     6.14024e-05
                     -0.00028634    -0.000206565       0.00776408        0.133983      0.000165472    -7.58974e-05          0.94605        0.272659
                         -0.5401       -0.838737       6.4952e-05    -0.000101565     -0.000588062       0.0349204     -0.000196347       -0.000207
                    -4.79716e-05     0.000120308         0.946455        0.272373     -0.000207974    -0.000139162       -0.0769678        0.110736
281726                -0.0314574      -0.0136343     -0.000254525    -0.000311541        -0.541217       -0.838677     -0.000115471     6.15136e-05
                    -0.000286472    -0.000206563       0.00778668        0.134006      0.000165461    -7.59833e-05         0.946142        0.272326
                       -0.540326       -0.838592      6.47327e-05    -0.000101581     -0.000584485       0.0349222     -0.000196636    -0.000206976
                    -4.79333e-05     0.000120313         0.946548         0.27204     -0.000208209     -0.00013915       -0.0769211        0.110797
281728                -0.0314649       -0.013621     -0.000254533    -0.000311504        -0.541443       -0.838531     -0.000115332     6.16248e-05
                    -0.000286605     -0.00020656       0.00780927        0.134028       0.00016545    -7.60691e-05         0.946235        0.271992
                       -0.540551       -0.838446      6.45127e-05    -0.000101598     -0.000580906        0.034924     -0.000196925    -0.000206953
                     -4.7895e-05     0.000120319         0.946641        0.271706     -0.000208445    -0.000139138       -0.0768744        0.110858
281730                -0.0314725      -0.0136078      -0.00025454    -0.000311467        -0.541668       -0.838384     -0.000115194     6.17358e-05
                    -0.000286737    -0.000206557       0.00783187        0.134051      0.000165439    -7.61547e-05         0.946327        0.271659
                       -0.540777       -0.838301      6.42919e-05    -0.000101614     -0.000577326       0.0349258     -0.000197214     -0.00020693
                    -4.78567e-05     0.000120324         0.946734        0.271373     -0.000208681    -0.000139126       -0.0768277        0.110918
281732                  -0.03148      -0.0135946     -0.000254546    -0.000311429        -0.541894       -0.838238     -0.000115056     6.18467e-05
                     -0.00028687    -0.000206554       0.00785447        0.134074      0.000165429    -7.62402e-05         0.946419        0.271326
                       -0.541003       -0.838155      6.40703e-05    -0.000101631     -0.000573745       0.0349276     -0.000197503    -0.000206907
                    -4.78182e-05     0.000120329         0.946827         0.27104     -0.000208917    -0.000139113       -0.0767809        0.110979
281734                -0.0314876      -0.0135814     -0.000254552    -0.000311391        -0.542119       -0.838091     -0.000114917     6.19575e-05
                    -0.000287002    -0.000206551       0.00787708        0.134096      0.000165418    -7.63256e-05         0.946511        0.270992
                       -0.541228       -0.838009       6.3848e-05    -0.000101647     -0.000570163       0.0349294     -0.000197791    -0.000206885
                    -4.77797e-05     0.000120334          0.94692        0.270706     -0.000209153      -0.0001391        -0.076734         0.11104
281736                -0.0314951      -0.0135681     -0.000254558    -0.000311352        -0.542345       -0.837944     -0.000114778     6.20682e-05
                    -0.000287134    -0.000206548       0.00789968        0.134119      0.000165407    -7.64108e-05         0.946603        0.270659
                       -0.541454       -0.837863      6.36249e-05    -0.000101664      -0.00056658       0.0349312      -0.00019808    -0.000206862
                    -4.77412e-05     0.000120339         0.947013        0.270373      -0.00020939    -0.000139087       -0.0766871        0.111101
281738                -0.0315027      -0.0135549     -0.000254563    -0.000311313         -0.54257       -0.837798     -0.000114639     6.21788e-05
                    -0.000287267    -0.000206545       0.00792229        0.134141      0.000165396    -7.64958e-05         0.946695        0.270325
                       -0.541679       -0.837717       6.3401e-05     -0.00010168     -0.000562995        0.034933     -0.000198369    -0.000206839
                    -4.77026e-05     0.000120344         0.947105        0.270039     -0.000209626    -0.000139074       -0.0766402        0.111162
281740                -0.0315102      -0.0135417     -0.000254567    -0.000311273        -0.542796       -0.837651     -0.000114499     6.22894e-05
                    -0.000287399    -0.000206541        0.0079449        0.134164      0.000165384    -7.65808e-05         0.946787        0.269992
                       -0.541905       -0.837571      6.31764e-05    -0.000101697      -0.00055941       0.0349349     -0.000198657    -0.000206816
                    -4.76639e-05      0.00012035         0.947198        0.269706     -0.000209863     -0.00013906       -0.0765932        0.111222
281742                -0.0315178      -0.0135284     -0.000254572    -0.000311233        -0.543021       -0.837504      -0.00011436     6.23999e-05
                    -0.000287531    -0.000206538       0.00796751        0.134186      0.000165373    -7.66656e-05         0.946878        0.269658
                        -0.54213       -0.837425      6.29509e-05    -0.000101714     -0.000555823       0.0349367     -0.000198946    -0.000206793
                    -4.76252e-05     0.000120355          0.94729        0.269372       -0.0002101    -0.000139046       -0.0765461        0.111283
281744                -0.0315253      -0.0135152     -0.000254575    -0.000311193        -0.543246       -0.837357      -0.00011422     6.25103e-05
                    -0.000287664    -0.000206534       0.00799012        0.134209      0.000165362    -7.67503e-05          0.94697        0.269324
                       -0.542355       -0.837279      6.27247e-05     -0.00010173     -0.000552236       0.0349385     -0.000199234     -0.00020677
                    -4.75864e-05      0.00012036         0.947382        0.269039     -0.000210337    -0.000139033       -0.0764991        0.111344
281746                -0.0315329       -0.013502     -0.000254578    -0.000311152        -0.543472        -0.83721      -0.00011408     6.26207e-05
                    -0.000287796     -0.00020653       0.00801274        0.134231      0.000165351    -7.68348e-05         0.947061        0.268991
                       -0.542581       -0.837133      6.24977e-05    -0.000101747     -0.000548647       0.0349403     -0.000199523    -0.000206747
                    -4.75476e-05     0.000120365         0.947474        0.268705     -0.000210574    -0.000139018       -0.0764519        0.111405
281748                -0.0315404      -0.0134887     -0.000254581     -0.00031111        -0.543697       -0.837063      -0.00011394      6.2731e-05
                    -0.000287928    -0.000206526       0.00803535        0.134254      0.000165339    -7.69193e-05         0.947152        0.268657
                       -0.542806       -0.836986      6.22699e-05    -0.000101764     -0.000545057       0.0349422     -0.000199812    -0.000206724
                    -4.75087e-05      0.00012037         0.947566        0.268372     -0.000210811    -0.000139004       -0.0764047        0.111465
281750                -0.0315479      -0.0134755     -0.000254583    -0.000311069        -0.543922       -0.836916       -0.0001138     6.28413e-05
                    -0.000288061    -0.000206522       0.00805797        0.134276      0.000165328    -7.70036e-05         0.947244        0.268323
                       -0.543031        -0.83684      6.20413e-05     -0.00010178     -0.000541466        0.034944       -0.0002001      -0.0002067
                    -4.74697e-05     0.000120376         0.947658        0.268038     -0.000211048     -0.00013899       -0.0763575        0.111526
281752                -0.0315555      -0.0134622     -0.000254584    -0.000311026        -0.544147       -0.836769      -0.00011366     6.29516e-05
                    -0.000288193    -0.000206518       0.00808059        0.134299      0.000165316    -7.70878e-05         0.947335         0.26799
                       -0.543257       -0.836694      6.18119e-05    -0.000101797     -0.000537873       0.0349459     -0.000200389    -0.000206677
                    -4.74307e-05     0.000120381          0.94775        0.267705     -0.000211286    -0.000138975       -0.0763103        0.111587
281754                 -0.031563       -0.013449     -0.000254585    -0.000310984        -0.544372       -0.836621      -0.00011352     6.30619e-05
                    -0.000288325    -0.000206513       0.00810322        0.134321      0.000165305    -7.71719e-05         0.947425        0.267656
                       -0.543482       -0.836547      6.15817e-05    -0.000101814      -0.00053428       0.0349477     -0.000200678    -0.000206653
                    -4.73916e-05     0.000120386         0.947841        0.267371     -0.000211523     -0.00013896       -0.0762629        0.111647
281756                -0.0315705      -0.0134358     -0.000254586     -0.00031094        -0.544597       -0.836474      -0.00011338     6.31721e-05
                    -0.000288458    -0.000206509       0.00812584        0.134344      0.000165293    -7.72559e-05         0.947516        0.267322
                       -0.543707       -0.836401      6.13507e-05     -0.00010183     -0.000530685       0.0349496     -0.000200967     -0.00020663
                    -4.73525e-05     0.000120392         0.947933        0.267037     -0.000211761    -0.000138946       -0.0762156        0.111708
281758                -0.0315781      -0.0134225     -0.000254586    -0.000310897        -0.544822       -0.836327      -0.00011324     6.32823e-05
                     -0.00028859    -0.000206504       0.00814847        0.134366      0.000165281    -7.73398e-05         0.947607        0.266989
                       -0.543932       -0.836254      6.11189e-05    -0.000101847     -0.000527089       0.0349514     -0.000201256    -0.000206606
                    -4.73133e-05     0.000120397         0.948024        0.266704     -0.000211999    -0.000138931       -0.0761682        0.111768
281760                -0.0315856      -0.0134093     -0.000254586    -0.000310853        -0.545047       -0.836179     -0.000113101     6.33925e-05
                    -0.000288722    -0.000206499        0.0081711        0.134388      0.000165269    -7.74235e-05         0.947697        0.266655
                       -0.544157       -0.836107      6.08863e-05    -0.000101864     -0.000523491       0.0349533     -0.000201545    -0.000206582
                    -4.72741e-05     0.000120402         0.948115         0.26637     -0.000212237    -0.000138915       -0.0761207        0.111829
281762                -0.0315931       -0.013396     -0.000254585    -0.000310808        -0.545272       -0.836032     -0.000112961     6.35026e-05
                    -0.000288855    -0.000206494       0.00819373        0.134411      0.000165257    -7.75072e-05         0.947788        0.266321
                       -0.544382       -0.835961      6.06528e-05    -0.000101881     -0.000519893       0.0349551     -0.000201835    -0.000206557
