! TOUCHSTONE file generated by CST MICROWAVE STUDIO
! Date and time: Wed Oct 15 17:30:56 2025
! Project name: Teste_Macro_Metasurface_Nanopilar.cst
! Parameters = {H=600; L_x=125; L_y=80; Lambda=1064; Max_L=200; Min_L=70; PathPara=1; Phi=0; Step_L=10; Theta=0; p=520; phaseX=180; phaseY=0}
! Header version: 2018
! Port assignment regex: !\s*Touchstone port\s*([0-9]+)\s*=\s*(CST MWS port|CST DS port)\s*([0-9]+|Zmin|Zmax)\s*\(\"(.*)\"\)(\s*mode\s*([0-9]+))?.*
! Touchstone port assignment:
! Touchstone port 1 = CST MWS port Zmax ("") mode 1
! Touchstone port 2 = CST MWS port Zmax ("") mode 2
! Touchstone port 3 = CST MWS port Zmin ("") mode 1
! Touchstone port 4 = CST MWS port Zmin ("") mode 2
! S-Parameters are not renormalized. Each port impedance will be approximated by the real part at minimum frequency. The values are described via the [Reference] keyword.
! Default impedance is overridden by [Reference]
[Version] 2.0
# GHz S RI R 376.73
[Number of Ports] 4
[Reference]
376.73 376.73 259.888 259.888 
[Number of Frequencies] 51
[Network Data]
281700                0.00678988      -0.0912952      0.000451027     0.000423699         -0.13112       -0.986636     -0.000240991     0.000118693
                     0.000406073     0.000452064         0.143481       0.0362465     -0.000128593     0.000205616         -0.97734       -0.110019
                       -0.130989       -0.986651     -0.000197505     0.000272709        0.0302391       0.0865469     -0.000460891    -0.000406642
                     -0.00022811     0.000170397        -0.977166       -0.110232     -0.000394391    -0.000368324        -0.147369      0.00445236
281702                0.00677796      -0.0912914      0.000451294     0.000423638        -0.131364       -0.986604     -0.000240928     0.000118714
                     0.000406252     0.000452033         0.143495       0.0362371     -0.000128553     0.000205676        -0.977375       -0.109688
                       -0.131233       -0.986618     -0.000197491      0.00027269        0.0302694       0.0865314     -0.000461036    -0.000406573
                    -0.000228005     0.000170337        -0.977201       -0.109902     -0.000394525    -0.000368316        -0.147377      0.00453976
281704                0.00676603      -0.0912877      0.000451562     0.000423576        -0.131608       -0.986572     -0.000240865     0.000118735
                     0.000406431     0.000452001         0.143508       0.0362277     -0.000128513     0.000205735         -0.97741       -0.109358
                       -0.131477       -0.986586     -0.000197476      0.00027267        0.0302997       0.0865159     -0.000461181    -0.000406505
                      -0.0002279     0.000170276        -0.977236       -0.109571     -0.000394658    -0.000368308        -0.147385      0.00462716
281706                0.00675411      -0.0912839       0.00045183     0.000423514        -0.131852        -0.98654     -0.000240802     0.000118756
                      0.00040661      0.00045197         0.143522       0.0362183     -0.000128474     0.000205795        -0.977445       -0.109027
                       -0.131721       -0.986554     -0.000197462      0.00027265        0.0303299       0.0865004     -0.000461326    -0.000406435
                    -0.000227796     0.000170215        -0.977271       -0.109241     -0.000394791      -0.0003683        -0.147393      0.00471458
281708                0.00674219      -0.0912801      0.000452098     0.000423452        -0.132096       -0.986507     -0.000240739     0.000118777
                     0.000406789     0.000451938         0.143535       0.0362089     -0.000128434     0.000205854        -0.977479       -0.108697
                       -0.131965       -0.986522     -0.000197447     0.000272629        0.0303602       0.0864849     -0.000461471    -0.000406366
                    -0.000227691     0.000170154        -0.977305        -0.10891     -0.000394925    -0.000368291        -0.147401      0.00480201
281710                0.00673027      -0.0912763      0.000452366      0.00042339         -0.13234       -0.986475     -0.000240676     0.000118799
                     0.000406968     0.000451907         0.143549       0.0361994     -0.000128394     0.000205913        -0.977514       -0.108366
                       -0.132209        -0.98649     -0.000197432     0.000272608        0.0303904       0.0864694     -0.000461616    -0.000406297
                    -0.000227587     0.000170093         -0.97734        -0.10858     -0.000395058    -0.000368283        -0.147409      0.00488944
281712                0.00671835      -0.0912725      0.000452635     0.000423327        -0.132584       -0.986443     -0.000240613      0.00011882
                     0.000407147     0.000451875         0.143562         0.03619     -0.000128354     0.000205973        -0.977548       -0.108036
                       -0.132453       -0.986457     -0.000197418     0.000272587        0.0304207       0.0864539     -0.000461762    -0.000406228
                    -0.000227482     0.000170032        -0.977374       -0.108249     -0.000395192    -0.000368275        -0.147417      0.00497689
281714                0.00670643      -0.0912688      0.000452904     0.000423264        -0.132828        -0.98641     -0.000240551     0.000118841
                     0.000407326     0.000451843         0.143576       0.0361806     -0.000128315     0.000206032        -0.977583       -0.107705
                       -0.132697       -0.986425     -0.000197403     0.000272566        0.0304509       0.0864383     -0.000461907    -0.000406159
                    -0.000227378     0.000169971        -0.977409       -0.107919     -0.000395326    -0.000368266        -0.147425      0.00506435
281716                0.00669451       -0.091265      0.000453172       0.0004232        -0.133072       -0.986377     -0.000240488     0.000118862
                     0.000407505     0.000451812         0.143589       0.0361711     -0.000128275     0.000206091        -0.977617       -0.107374
                       -0.132941       -0.986393     -0.000197389     0.000272544        0.0304812       0.0864228     -0.000462052     -0.00040609
                    -0.000227274      0.00016991        -0.977443       -0.107588     -0.000395459    -0.000368258        -0.147433      0.00515182
281718                0.00668259      -0.0912612      0.000453441     0.000423136        -0.133316       -0.986345     -0.000240425     0.000118883
                     0.000407685      0.00045178         0.143603       0.0361617     -0.000128235     0.000206151        -0.977651       -0.107044
                       -0.133185        -0.98636     -0.000197374     0.000272522        0.0305114       0.0864072     -0.000462197    -0.000406021
                    -0.000227169     0.000169849        -0.977477       -0.107257     -0.000395593     -0.00036825         -0.14744       0.0052393
281720                0.00667067      -0.0912574       0.00045371     0.000423071         -0.13356       -0.986312     -0.000240362     0.000118904
                     0.000407864     0.000451748         0.143616       0.0361522     -0.000128196      0.00020621        -0.977685       -0.106713
                       -0.133429       -0.986327      -0.00019736     0.000272499        0.0305416       0.0863917     -0.000462342    -0.000405951
                    -0.000227065     0.000169788        -0.977511       -0.106927     -0.000395727    -0.000368241        -0.147448      0.00532679
281722                0.00665875      -0.0912536       0.00045398     0.000423006        -0.133804       -0.986279       -0.0002403     0.000118925
                     0.000408044     0.000451716         0.143629       0.0361428     -0.000128156     0.000206269        -0.977719       -0.106382
                       -0.133673       -0.986295     -0.000197346     0.000272476        0.0305718       0.0863761     -0.000462487    -0.000405882
                    -0.000226961     0.000169727        -0.977545       -0.106596     -0.000395861    -0.000368232        -0.147456      0.00541429
281724                0.00664683      -0.0912498      0.000454249     0.000422941        -0.134048       -0.986247     -0.000240237     0.000118946
                     0.000408224     0.000451684         0.143643       0.0361333     -0.000128117     0.000206329        -0.977753       -0.106052
                       -0.133917       -0.986262     -0.000197332     0.000272452         0.030602       0.0863605     -0.000462632    -0.000405812
                    -0.000226857     0.000169666        -0.977579       -0.106265     -0.000395995    -0.000368223        -0.147463       0.0055018
281726                0.00663491      -0.0912461      0.000454519     0.000422875        -0.134292       -0.986214     -0.000240174     0.000118967
                     0.000408404     0.000451652         0.143656       0.0361238     -0.000128077     0.000206388        -0.977786       -0.105721
                       -0.134161       -0.986229     -0.000197318     0.000272428        0.0306322       0.0863449     -0.000462777    -0.000405743
                    -0.000226753     0.000169605        -0.977612       -0.105935     -0.000396129    -0.000368213        -0.147471      0.00558932
281728                  0.006623      -0.0912423      0.000454788     0.000422808        -0.134536       -0.986181     -0.000240111     0.000118988
                     0.000408584     0.000451619          0.14367       0.0361144     -0.000128038     0.000206446         -0.97782        -0.10539
                       -0.134405       -0.986196     -0.000197305     0.000272403        0.0306624       0.0863293     -0.000462922    -0.000405673
                     -0.00022665     0.000169543        -0.977646       -0.105604     -0.000396264    -0.000368203        -0.147478      0.00567685
281730                0.00661108      -0.0912385      0.000455058      0.00042274         -0.13478       -0.986148     -0.000240049     0.000119009
                     0.000408764     0.000451587         0.143683       0.0361049     -0.000127998     0.000206503        -0.977853        -0.10506
                       -0.134649       -0.986164     -0.000197292     0.000272377        0.0306926       0.0863137     -0.000463068    -0.000405604
                    -0.000226546     0.000169482        -0.977679       -0.105273     -0.000396399     -0.00036819        -0.147486      0.00576439
281732                0.00659916      -0.0912347      0.000455328     0.000422672        -0.135024       -0.986115     -0.000239986      0.00011903
                     0.000408944     0.000451555         0.143697       0.0360954     -0.000127957     0.000206558        -0.977887       -0.104729
                       -0.134893       -0.986131     -0.000197281     0.000272351        0.0307227        0.086298     -0.000463213    -0.000405534
                    -0.000226442     0.000169421        -0.977713       -0.104943     -0.000396537    -0.000368173        -0.147493      0.00585194
281734                0.00658725      -0.0912309      0.000455597     0.000422602        -0.135267       -0.986082     -0.000239923      0.00011905
                     0.000409124     0.000451522          0.14371       0.0360859     -0.000127906     0.000206613         -0.97792       -0.104398
                       -0.135137       -0.986098      -0.00019727     0.000272326        0.0307529       0.0862824     -0.000463358    -0.000405464
                    -0.000226339      0.00016936        -0.977746       -0.104612     -0.000396683    -0.000368139          -0.1475      0.00593951
281736                0.00657533      -0.0912271      0.000455866     0.000422532        -0.135512       -0.986048      -0.00023986      0.00011907
                     0.000409305      0.00045149         0.143724       0.0360764     -0.000127861     0.000206687        -0.977953       -0.104067
                       -0.135381       -0.986065      -0.00019726     0.000272302         0.030783       0.0862667     -0.000463503    -0.000405394
                    -0.000226235     0.000169299        -0.977779       -0.104281     -0.000397187    -0.000367403        -0.147508      0.00602708
281738                0.00656341      -0.0912233      0.000456135      0.00042246        -0.135756       -0.986015     -0.000239797      0.00011909
                     0.000409485     0.000451457         0.143737       0.0360669     -0.000127826     0.000206751        -0.977986       -0.103737
                       -0.135625       -0.986031      -0.00019725      0.00027228        0.0308132       0.0862511     -0.000463647    -0.000405323
                    -0.000226132     0.000169237        -0.977812        -0.10395     -0.000396896    -0.000368244        -0.147515      0.00611466
281740                 0.0065515      -0.0912195      0.000456403     0.000422387           -0.136       -0.985982     -0.000239733     0.000119107
                     0.000409666     0.000451425          0.14375       0.0360574     -0.000127789     0.000206812        -0.978019       -0.103406
                       -0.135869       -0.985998      -0.00019724     0.000272264        0.0308433       0.0862354     -0.000463792     -0.00040525
                    -0.000226029     0.000169176        -0.977845       -0.103619     -0.000397045    -0.000368203        -0.147522      0.00620225
281742                0.00653958      -0.0912157      0.000456671     0.000422313        -0.136244       -0.985949     -0.000239666     0.000119116
                     0.000409846     0.000451392         0.143764       0.0360479     -0.000127751     0.000206871        -0.978052       -0.103075
                       -0.136113       -0.985965     -0.000197229     0.000272256        0.0308735       0.0862197     -0.000463933    -0.000405171
                    -0.000225925     0.000169115        -0.977877       -0.103288     -0.000397183    -0.000368185        -0.147529      0.00628985
281744                0.00652767      -0.0912119      0.000456938     0.000422237        -0.136488       -0.985915     -0.000239644      0.00011925
                     0.000410027     0.000451359         0.143777       0.0360384     -0.000127712     0.000206931        -0.978085       -0.102744
                       -0.136357       -0.985932     -0.000197214     0.000272256        0.0309036        0.086204     -0.000464113    -0.000405191
                    -0.000225822     0.000169053         -0.97791       -0.102958     -0.000397319    -0.000368173        -0.147536      0.00637747
281746                0.00651575      -0.0912081      0.000457204      0.00042216        -0.136732       -0.985882     -0.000239555     0.000119196
                     0.000410208     0.000451327         0.143791       0.0360289     -0.000127673     0.000206991        -0.978117       -0.102413
                       -0.136601       -0.985898     -0.000197198     0.000272264        0.0309337       0.0861883     -0.000464235    -0.000405061
                    -0.000225719     0.000168992        -0.977943       -0.102627     -0.000397454    -0.000368162        -0.147543      0.00646509
281748                0.00650384      -0.0912043      0.000457469     0.000422082        -0.136976       -0.985848      -0.00023949     0.000119211
                     0.000410389     0.000451294         0.143804       0.0360194     -0.000127633     0.000207051        -0.978149       -0.102082
                       -0.136845       -0.985865     -0.000197182     0.000272277        0.0309638       0.0861726     -0.000464378    -0.000404986
                    -0.000225616      0.00016893        -0.977975       -0.102296     -0.000397588    -0.000368153         -0.14755      0.00655272
281750                0.00649192      -0.0912005      0.000457734     0.000422001         -0.13722       -0.985814     -0.000239427     0.000119229
                      0.00041057     0.000451261         0.143818       0.0360098     -0.000127593     0.000207111        -0.978182       -0.101751
                       -0.137089       -0.985831     -0.000197168     0.000272291        0.0309939       0.0861569     -0.000464522    -0.000404914
                    -0.000225513     0.000168869        -0.978007       -0.101965     -0.000397722    -0.000368144        -0.147557      0.00664037
281752                0.00648001      -0.0911967         0.000458      0.00042192        -0.137464       -0.985781     -0.000239364     0.000119249
                     0.000410751     0.000451228         0.143831       0.0360003     -0.000127554     0.000207171        -0.978214        -0.10142
                       -0.137333       -0.985798     -0.000197157       0.0002723         0.031024       0.0861412     -0.000464667    -0.000404843
                     -0.00022541     0.000168808         -0.97804       -0.101634     -0.000397856    -0.000368136        -0.147564      0.00672802
281754                 0.0064681      -0.0911929      0.000458265     0.000421838        -0.137707       -0.985747     -0.000239302     0.000119269
                     0.000410933     0.000451195         0.143845       0.0359907     -0.000127514     0.000207231        -0.978246       -0.101089
                       -0.137577       -0.985764     -0.000197147     0.000272302        0.0310541       0.0861254     -0.000464812    -0.000404773
                    -0.000225308     0.000168746        -0.978072       -0.101303      -0.00039799    -0.000368128         -0.14757      0.00681568
281756                0.00645619      -0.0911891      0.000458533     0.000421757        -0.137951       -0.985713     -0.000239239      0.00011929
                     0.000411114     0.000451162         0.143858       0.0359812     -0.000127474     0.000207291        -0.978278       -0.100758
                       -0.137821       -0.985731     -0.000197138     0.000272297        0.0310841       0.0861097     -0.000464958    -0.000404703
                    -0.000225205     0.000168685        -0.978104       -0.100972     -0.000398124    -0.000368121        -0.147577      0.00690335
281758                0.00644427      -0.0911853      0.000458801     0.000421676        -0.138195       -0.985679     -0.000239177     0.000119311
                     0.000411296     0.000451128         0.143871       0.0359717     -0.000127434     0.000207352         -0.97831       -0.100427
                       -0.138064       -0.985697     -0.000197127     0.000272287        0.0311142       0.0860939     -0.000465103    -0.000404632
                    -0.000225102     0.000168624        -0.978136       -0.100641     -0.000398258    -0.000368113        -0.147584      0.00699103
281760                0.00643236      -0.0911814      0.000459071     0.000421598        -0.138439       -0.985646     -0.000239115     0.000119332
                     0.000411478     0.000451095         0.143885       0.0359621     -0.000127394     0.000207412        -0.978342       -0.100096
                       -0.138308       -0.985663     -0.000197116     0.000272274        0.0311443       0.0860781     -0.000465248    -0.000404562
                    -0.000224999     0.000168562        -0.978167        -0.10031     -0.000398391    -0.000368106         -0.14759      0.00707873
281762                0.00642045      -0.0911776      0.000459341     0.000421523        -0.138683       -0.985612     -0.000239052     0.000119353
                     0.000411661      0.00045106         0.143898       0.0359525     -0.000127354     0.000207472        -0.978373      -0.0997654
                       -0.138552       -0.985629     -0.000197103     0.000272258        0.0311743       0.0860624     -0.000465393    -0.000404492
