! TOUCHSTONE file generated by CST MICROWAVE STUDIO
! Date and time: Wed Oct 15 17:32:35 2025
! Project name: Teste_Macro_Metasurface_Nanopilar.cst
! Parameters = {H=600; L_x=150; L_y=185; Lambda=1064; Max_L=200; Min_L=70; PathPara=1; Phi=0; Step_L=10; Theta=0; p=520; phaseX=180; phaseY=0}
! Header version: 2018
! Port assignment regex: !\s*Touchstone port\s*([0-9]+)\s*=\s*(CST MWS port|CST DS port)\s*([0-9]+|Zmin|Zmax)\s*\(\"(.*)\"\)(\s*mode\s*([0-9]+))?.*
! Touchstone port assignment:
! Touchstone port 1 = CST MWS port Zmax ("") mode 1
! Touchstone port 2 = CST MWS port Zmax ("") mode 2
! Touchstone port 3 = CST MWS port Zmin ("") mode 1
! Touchstone port 4 = CST MWS port Zmin ("") mode 2
! S-Parameters are not renormalized. Each port impedance will be approximated by the real part at minimum frequency. The values are described via the [Reference] keyword.
! Default impedance is overridden by [Reference]
[Version] 2.0
# GHz S RI R 376.73
[Number of Ports] 4
[Reference]
376.73 376.73 259.888 259.888 
[Number of Frequencies] 51
[Network Data]
281700                  0.199557        0.064864     -0.000293426     -0.00077971          0.38056       -0.896909      0.000743977     0.000330695
                    -0.000314574    -0.000740515         0.172226       0.0146062      0.000638278     0.000397436          0.69636       -0.691033
                         0.38039       -0.896977      0.000602331      0.00043639         0.183855        0.095548      -0.00104638     0.000155571
                      0.00071353      0.00022025         0.696175       -0.690889      -0.00111032     0.000243054         0.013101         0.16892
281702                   0.19957       0.0648725     -0.000293709     -0.00077956           0.3803       -0.897016      0.000744144     0.000330449
                    -0.000314793    -0.000740477         0.172226       0.0146183      0.000638259     0.000397095         0.696154       -0.691241
                        0.380129       -0.897084      0.000602778     0.000436229         0.183927       0.0954456      -0.00104635     0.000155915
                     0.000713591     0.000220081         0.695969       -0.691098       -0.0011099     0.000243508        0.0132141        0.168913
281704                  0.199584       0.0648811     -0.000293992     -0.00077941         0.380039       -0.897123       0.00074431     0.000330204
                    -0.000315012    -0.000740438         0.172225       0.0146304       0.00063824     0.000396755         0.695948       -0.691449
                        0.379868       -0.897191      0.000603224     0.000436069         0.183998       0.0953432      -0.00104631     0.000156259
                     0.000713652     0.000219911         0.695763       -0.691306      -0.00110948     0.000243962        0.0133272        0.168905
281706                  0.199598       0.0648896     -0.000294278    -0.000779257         0.379778        -0.89723      0.000744477     0.000329959
                    -0.000315231    -0.000740399         0.172224       0.0146425      0.000638222     0.000396416         0.695741       -0.691657
                        0.379607       -0.897297      0.000603668     0.000435908         0.184069       0.0952408      -0.00104628     0.000156602
                     0.000713712     0.000219742         0.695557       -0.691514      -0.00110906     0.000244416        0.0134403        0.168898
281708                  0.199611       0.0648982     -0.000294565    -0.000779104         0.379517       -0.897337      0.000744643     0.000329714
                     -0.00031545    -0.000740361         0.172224       0.0146545      0.000638204     0.000396076         0.695535       -0.691865
                        0.379346       -0.897404       0.00060411     0.000435747          0.18414       0.0951383      -0.00104625     0.000156946
                     0.000713773     0.000219572         0.695351       -0.691722      -0.00110864     0.000244869        0.0135534         0.16889
281710                  0.199625       0.0649067     -0.000294853    -0.000778948         0.379256       -0.897443      0.000744809      0.00032947
                    -0.000315669    -0.000740322         0.172223       0.0146666      0.000638186     0.000395738         0.695329       -0.692072
                        0.379085       -0.897511      0.000604551     0.000435585         0.184211       0.0950358      -0.00104622      0.00015729
                     0.000713833     0.000219403         0.695145        -0.69193      -0.00110822     0.000245321        0.0136664        0.168882
281712                  0.199639       0.0649152     -0.000295144    -0.000778792         0.378995        -0.89755      0.000744975     0.000329226
                    -0.000315888    -0.000740283         0.172222       0.0146787      0.000638169     0.000395399         0.695123        -0.69228
                        0.378824       -0.897617      0.000604991     0.000435423         0.184282       0.0949333      -0.00104619     0.000157634
                     0.000713893     0.000219233         0.694938       -0.692138       -0.0011078     0.000245772        0.0137794        0.168875
281714                  0.199652       0.0649238     -0.000295436    -0.000778634         0.378734       -0.897657      0.000745141     0.000328982
                    -0.000316106    -0.000740244         0.172222       0.0146907      0.000638152     0.000395061         0.694916       -0.692487
                        0.378563       -0.897724      0.000605429     0.000435261         0.184352       0.0948307      -0.00104616     0.000157977
                     0.000713953     0.000219064         0.694732       -0.692346      -0.00110738     0.000246223        0.0138925        0.168867
281716                  0.199666       0.0649323     -0.000295729    -0.000778475         0.378473       -0.897763      0.000745306     0.000328739
                    -0.000316325    -0.000740205         0.172221       0.0147028      0.000638135     0.000394724          0.69471       -0.692695
                        0.378302        -0.89783      0.000605866     0.000435099         0.184423        0.094728      -0.00104613     0.000158321
                     0.000714013     0.000218894         0.694526       -0.692554      -0.00110696     0.000246673        0.0140055        0.168859
281718                  0.199679       0.0649408     -0.000296024    -0.000778315         0.378212        -0.89787      0.000745472     0.000328496
                    -0.000316544    -0.000740166          0.17222       0.0147148      0.000638119     0.000394387         0.694503       -0.692902
                        0.378041       -0.897937      0.000606302     0.000434936         0.184494       0.0946253       -0.0010461     0.000158665
                     0.000714072     0.000218725         0.694319       -0.692762      -0.00110654     0.000247123        0.0141184        0.168851
281720                  0.199693       0.0649493     -0.000296321    -0.000778154         0.377951       -0.897976      0.000745637     0.000328253
                    -0.000316762    -0.000740127          0.17222       0.0147268      0.000638104      0.00039405         0.694297        -0.69311
                         0.37778       -0.898043      0.000606736     0.000434773         0.184565       0.0945226      -0.00104607     0.000159009
                     0.000714132     0.000218555         0.694113        -0.69297      -0.00110613     0.000247572        0.0142314        0.168843
281722                  0.199707       0.0649578      -0.00029662    -0.000777992          0.37769       -0.898082      0.000745802      0.00032801
                    -0.000316981    -0.000740087         0.172219       0.0147388      0.000638089     0.000393714          0.69409       -0.693317
                        0.377519       -0.898149      0.000607168      0.00043461         0.184635       0.0944198      -0.00104604     0.000159353
                     0.000714191     0.000218386         0.693906       -0.693177      -0.00110571      0.00024802        0.0143444        0.168835
281724                   0.19972       0.0649664      -0.00029692    -0.000777829         0.377428       -0.898189      0.000745967     0.000327768
                      -0.0003172    -0.000740048         0.172218       0.0147508      0.000638074     0.000393378         0.693884       -0.693524
                        0.377258       -0.898255      0.000607599     0.000434446         0.184706        0.094317      -0.00104601     0.000159697
                      0.00071425     0.000218217           0.6937       -0.693385      -0.00110529     0.000248468        0.0144573        0.168827
281726                  0.199734       0.0649749     -0.000297222    -0.000777665         0.377167       -0.898295      0.000746131     0.000327525
                    -0.000317418    -0.000740009         0.172218       0.0147628       0.00063806     0.000393042         0.693677       -0.693731
                        0.376996       -0.898361      0.000608029     0.000434281         0.184776       0.0942141      -0.00104598     0.000160041
                     0.000714309     0.000218047         0.693493       -0.693592      -0.00110488     0.000248915        0.0145702        0.168819
281728                  0.199747       0.0649834     -0.000297525      -0.0007775         0.376906       -0.898401      0.000746296     0.000327284
                    -0.000317637     -0.00073997         0.172217       0.0147748      0.000638046     0.000392707          0.69347       -0.693938
                        0.376735       -0.898467      0.000608457     0.000434116         0.184846       0.0941112      -0.00104595     0.000160386
                     0.000714368     0.000217878         0.693287         -0.6938      -0.00110446     0.000249361        0.0146831         0.16881
281730                  0.199761       0.0649919      -0.00029783    -0.000777335         0.376645       -0.898507       0.00074646     0.000327042
                    -0.000317855     -0.00073993         0.172216       0.0147868      0.000638032     0.000392372         0.693263       -0.694145
                        0.376474       -0.898573      0.000608884     0.000433951         0.184917       0.0940082      -0.00104592      0.00016073
                     0.000714427     0.000217709          0.69308       -0.694007      -0.00110405     0.000249807         0.014796        0.168802
281732                  0.199775       0.0650003     -0.000298137    -0.000777168         0.376384       -0.898613      0.000746624     0.000326801
                    -0.000318074    -0.000739891         0.172216       0.0147988      0.000638019     0.000392038         0.693056       -0.694352
                        0.376213       -0.898679      0.000609309     0.000433785         0.184987       0.0939052      -0.00104589     0.000161074
                     0.000714485     0.000217539         0.692873       -0.694214      -0.00110363     0.000250252        0.0149089        0.168793
281734                  0.199788       0.0650088     -0.000298445    -0.000777001         0.376122       -0.898719      0.000746788      0.00032656
                    -0.000318292    -0.000739851         0.172215       0.0148108      0.000638006     0.000391704         0.692849       -0.694559
                        0.375951       -0.898785      0.000609733     0.000433618         0.185057       0.0938021      -0.00104586     0.000161419
                     0.000714544      0.00021737         0.692666       -0.694422      -0.00110322     0.000250697        0.0150218        0.168785
281736                  0.199802       0.0650173     -0.000298754    -0.000776833         0.375861       -0.898824      0.000746952     0.000326319
                     -0.00031851    -0.000739812         0.172214       0.0148227      0.000637994     0.000391371         0.692642       -0.694766
                         0.37569       -0.898891      0.000610156     0.000433451         0.185127        0.093699      -0.00104583     0.000161764
                     0.000714602     0.000217201          0.69246       -0.694629       -0.0011028     0.000251141        0.0151346        0.168776
281738                  0.199816       0.0650258     -0.000299065    -0.000776665           0.3756        -0.89893      0.000747116     0.000326079
                    -0.000318729    -0.000739772         0.172214       0.0148347      0.000637982     0.000391038         0.692435       -0.694973
                        0.375429       -0.898996      0.000610577     0.000433284         0.185198       0.0935959      -0.00104581     0.000162109
                     0.000714661     0.000217032         0.692253       -0.694836      -0.00110239     0.000251584        0.0152474        0.168768
281740                  0.199829       0.0650343     -0.000299378    -0.000776496         0.375338       -0.899036      0.000747279     0.000325839
                    -0.000318947    -0.000739733         0.172213       0.0148466      0.000637971     0.000390705         0.692228       -0.695179
                        0.375167       -0.899102      0.000610997     0.000433116         0.185268       0.0934927      -0.00104578     0.000162454
                     0.000714719     0.000216863         0.692046       -0.695043      -0.00110198     0.000252027        0.0153602        0.168759
281742                  0.199843       0.0650427     -0.000299692    -0.000776326         0.375077       -0.899141      0.000747443     0.000325599
                    -0.000319165    -0.000739693         0.172213       0.0148586       0.00063796     0.000390373         0.692021       -0.695386
                        0.374906       -0.899207      0.000611415     0.000432947         0.185338       0.0933895      -0.00104575     0.000162799
                     0.000714777     0.000216694         0.691839        -0.69525      -0.00110157     0.000252469         0.015473         0.16875
281744                  0.199856       0.0650512     -0.000300007    -0.000776156         0.374815       -0.899247      0.000747606     0.000325359
                    -0.000319384    -0.000739653         0.172212       0.0148705      0.000637949     0.000390041         0.691814       -0.695592
                        0.374644       -0.899313      0.000611832     0.000432777         0.185408       0.0932862      -0.00104572     0.000163144
                     0.000714835     0.000216525         0.691632       -0.695457      -0.00110115     0.000252911        0.0155858        0.168741
281746                   0.19987       0.0650597     -0.000300324    -0.000775986         0.374554       -0.899352      0.000747769      0.00032512
                    -0.000319602    -0.000739613         0.172211       0.0148824      0.000637939     0.000389709         0.691607       -0.695799
                        0.374383       -0.899418      0.000612248     0.000432607         0.185477       0.0931829      -0.00104569      0.00016349
                     0.000714892     0.000216356         0.691425       -0.695663      -0.00110074     0.000253351        0.0156986        0.168732
281748                  0.199884       0.0650681     -0.000300642    -0.000775815         0.374292       -0.899457      0.000747932     0.000324881
                     -0.00031982    -0.000739574         0.172211       0.0148943      0.000637929     0.000389378         0.691399       -0.696005
                        0.374121       -0.899523      0.000612662     0.000432437         0.185547       0.0930795      -0.00104566     0.000163835
                      0.00071495     0.000216187         0.691217        -0.69587      -0.00110033     0.000253791        0.0158113        0.168723
281750                  0.199897       0.0650766     -0.000300962    -0.000775644         0.374031       -0.899563      0.000748095     0.000324642
                    -0.000320038    -0.000739534          0.17221       0.0149062      0.000637919     0.000389048         0.691192       -0.696211
                         0.37386       -0.899628      0.000613075     0.000432265         0.185617       0.0929761      -0.00104563     0.000164181
                     0.000715008     0.000216018          0.69101       -0.696077      -0.00109992     0.000254231        0.0159241        0.168714
281752                  0.199911        0.065085     -0.000301283    -0.000775472         0.373769       -0.899668      0.000748258     0.000324403
                    -0.000320256    -0.000739494         0.172209       0.0149181       0.00063791     0.000388717         0.690984       -0.696418
                        0.373598       -0.899733      0.000613487     0.000432093         0.185687       0.0928726       -0.0010456     0.000164527
                     0.000715065      0.00021585         0.690803       -0.696283      -0.00109951      0.00025467        0.0160368        0.168705
281754                  0.199925       0.0650935     -0.000301605      -0.0007753         0.373508       -0.899773       0.00074842     0.000324165
                    -0.000320475    -0.000739454         0.172209         0.01493      0.000637901     0.000388388         0.690777       -0.696624
                        0.373337       -0.899838      0.000613897     0.000431921         0.185756       0.0927691      -0.00104557     0.000164873
                     0.000715123     0.000215681         0.690596        -0.69649       -0.0010991     0.000255108        0.0161495        0.168696
281756                  0.199938       0.0651019     -0.000301928    -0.000775128         0.373246       -0.899878      0.000748582     0.000323927
                    -0.000320693    -0.000739414         0.172208       0.0149419      0.000637893     0.000388058         0.690569        -0.69683
                        0.373075       -0.899943      0.000614306     0.000431747         0.185826       0.0926656      -0.00104554     0.000165219
                      0.00071518     0.000215512         0.690388       -0.696696      -0.00109869     0.000255546        0.0162622        0.168686
281758                  0.199952       0.0651104     -0.000302253    -0.000774955         0.372984       -0.899983      0.000748745      0.00032369
                    -0.000320911    -0.000739374         0.172208       0.0149537      0.000637885     0.000387729         0.690362       -0.697036
                        0.372813       -0.900048      0.000614714     0.000431573         0.185895        0.092562      -0.00104551     0.000165565
                     0.000715237     0.000215344         0.690181       -0.696902      -0.00109828     0.000255983        0.0163748        0.168677
281760                  0.199966       0.0651188     -0.000302579    -0.000774783         0.372723       -0.900087      0.000748907     0.000323452
                    -0.000321129    -0.000739334         0.172207       0.0149656      0.000637877       0.0003874         0.690154       -0.697242
                        0.372552       -0.900153       0.00061512     0.000431398         0.185965       0.0924583      -0.00104548     0.000165912
                     0.000715295     0.000215175         0.689974       -0.697109      -0.00109788     0.000256419        0.0164875        0.168667
281762                  0.199979       0.0651272     -0.000302906     -0.00077461         0.372461       -0.900192      0.000749069     0.000323215
                    -0.000321347    -0.000739293         0.172206       0.0149774       0.00063787     0.000387072         0.689946       -0.697448
                         0.37229       -0.900257      0.000615525     0.000431223         0.186034       0.0923547      -0.00104546     0.000166259
