! TOUCHSTONE file generated by CST MICROWAVE STUDIO
! Date and time: Wed Oct 15 17:28:18 2025
! Project name: Teste_Macro_Metasurface_Nanopilar.cst
! Parameters = {H=600; L_x=75; L_y=200; Lambda=1064; Max_L=200; Min_L=70; PathPara=1; Phi=0; Step_L=10; Theta=0; p=520; phaseX=180; phaseY=0}
! Header version: 2018
! Port assignment regex: !\s*Touchstone port\s*([0-9]+)\s*=\s*(CST MWS port|CST DS port)\s*([0-9]+|Zmin|Zmax)\s*\(\"(.*)\"\)(\s*mode\s*([0-9]+))?.*
! Touchstone port assignment:
! Touchstone port 1 = CST MWS port Zmax ("") mode 1
! Touchstone port 2 = CST MWS port Zmax ("") mode 2
! Touchstone port 3 = CST MWS port Zmin ("") mode 1
! Touchstone port 4 = CST MWS port Zmin ("") mode 2
! S-Parameters are not renormalized. Each port impedance will be approximated by the real part at minimum frequency. The values are described via the [Reference] keyword.
! Default impedance is overridden by [Reference]
[Version] 2.0
# GHz S RI R 376.73
[Number of Ports] 4
[Reference]
376.73 376.73 259.888 259.888 
[Number of Frequencies] 51
[Network Data]
281700                  0.166342        0.402166     -0.000426728    -0.000383833         0.727624       -0.517091       0.00046047     0.000119272
                    -0.000390988    -0.000380936       -0.0259447      -0.0548573      0.000624859    -3.51017e-06        -0.363894        -0.92842
                        0.727602       -0.517459      0.000578263    -3.11283e-05          0.32753        0.282834     -0.000674969     0.000314602
                     0.000427554     0.000127007         -0.36384       -0.928463     -0.000710048     0.000343158         0.018232       0.0582638
281702                  0.166428        0.402225     -0.000426871    -0.000383712         0.727382       -0.517356      0.000460574     0.000119137
                    -0.000391202    -0.000380858       -0.0259556      -0.0548482      0.000624972    -3.80716e-06        -0.364131       -0.928328
                         0.72736       -0.517725      0.000578296    -3.13966e-05         0.327786        0.282671     -0.000674912     0.000314937
                     0.000427736     0.000126895        -0.364077        -0.92837     -0.000709925     0.000343545        0.0182475       0.0582553
281704                  0.166515        0.402284     -0.000427014     -0.00038359         0.727139       -0.517622      0.000460677     0.000119003
                    -0.000391416     -0.00038078       -0.0259665      -0.0548391      0.000625084     -4.1044e-06        -0.364368       -0.928235
                        0.727118       -0.517991      0.000578328     -3.1665e-05         0.328042        0.282508     -0.000674855     0.000315273
                     0.000427918     0.000126783        -0.364314       -0.928277     -0.000709801     0.000343932         0.018263       0.0582467
281706                  0.166601        0.402344     -0.000427157    -0.000383468         0.726897       -0.517887       0.00046078     0.000118868
                     -0.00039163    -0.000380701       -0.0259774        -0.05483      0.000625196    -4.40189e-06        -0.364604       -0.928142
                        0.726875       -0.518256       0.00057836    -3.19334e-05         0.328297        0.282345     -0.000674798     0.000315609
                     0.000428099      0.00012667        -0.364551       -0.928185     -0.000709676     0.000344319        0.0182785       0.0582382
281708                  0.166687        0.402403     -0.000427299    -0.000383347         0.726655       -0.518152      0.000460883     0.000118733
                    -0.000391845    -0.000380622       -0.0259883      -0.0548208      0.000625307    -4.69964e-06        -0.364841       -0.928049
                        0.726632       -0.518522      0.000578393    -3.22019e-05         0.328553        0.282181     -0.000674741     0.000315944
                     0.000428281     0.000126557        -0.364788       -0.928092     -0.000709551     0.000344706         0.018294       0.0582297
281710                  0.166774        0.402462     -0.000427442    -0.000383225         0.726412       -0.518417      0.000460986     0.000118598
                    -0.000392059    -0.000380543       -0.0259992      -0.0548117      0.000625419    -4.99763e-06        -0.365078       -0.927956
                         0.72639       -0.518787      0.000578425    -3.24704e-05         0.328808        0.282018     -0.000674684      0.00031628
                     0.000428463     0.000126444        -0.365025       -0.927998     -0.000709426     0.000345092        0.0183095       0.0582211
281712                   0.16686        0.402521     -0.000427585    -0.000383103          0.72617       -0.518682       0.00046109     0.000118463
                    -0.000392274    -0.000380464       -0.0260101      -0.0548026       0.00062553    -5.29588e-06        -0.365315       -0.927863
                        0.726147       -0.519053      0.000578456     -3.2739e-05         0.329063        0.281854     -0.000674626     0.000316615
                     0.000428645     0.000126331        -0.365262       -0.927905       -0.0007093     0.000345479         0.018325       0.0582126
281714                  0.166946        0.402581     -0.000427727    -0.000382981         0.725927       -0.518947      0.000461193     0.000118328
                    -0.000392488    -0.000380384        -0.026021      -0.0547934      0.000625641    -5.59438e-06        -0.365551        -0.92777
                        0.725904       -0.519318      0.000578488    -3.30076e-05         0.329319        0.281689     -0.000674568     0.000316951
                     0.000428827     0.000126217        -0.365499       -0.927812     -0.000709174     0.000345866        0.0183405        0.058204
281716                  0.167033         0.40264      -0.00042787    -0.000382859         0.725684       -0.519212      0.000461296     0.000118192
                    -0.000392703    -0.000380305       -0.0260319      -0.0547843      0.000625751    -5.89312e-06        -0.365788       -0.927677
                        0.725661       -0.519583       0.00057852    -3.32762e-05         0.329574        0.281525     -0.000674509     0.000317287
                     0.000429009     0.000126104        -0.365736       -0.927719     -0.000709047     0.000346253         0.018356       0.0581955
281718                  0.167119        0.402699     -0.000428012    -0.000382737         0.725441       -0.519477      0.000461399     0.000118057
                    -0.000392918    -0.000380225       -0.0260429      -0.0547752      0.000625862    -6.19211e-06        -0.366025       -0.927584
                        0.725417       -0.519848      0.000578551    -3.35449e-05         0.329829        0.281361     -0.000674451     0.000317622
                     0.000429191      0.00012599        -0.365972       -0.927626      -0.00070892      0.00034664        0.0183715       0.0581869
281720                  0.167206        0.402759     -0.000428154    -0.000382615         0.725198       -0.519741      0.000461502     0.000117921
                    -0.000393133    -0.000380145       -0.0260538       -0.054766      0.000625972    -6.49135e-06        -0.366261        -0.92749
                        0.725174       -0.520113      0.000578582    -3.38136e-05         0.330084        0.281196     -0.000674392     0.000317958
                     0.000429373     0.000125876        -0.366209       -0.927532     -0.000708793     0.000347027         0.018387       0.0581784
281722                  0.167292        0.402818     -0.000428297    -0.000382493         0.724955       -0.520006      0.000461605     0.000117785
                    -0.000393348    -0.000380065       -0.0260647      -0.0547569      0.000626082    -6.79082e-06        -0.366498       -0.927397
                         0.72493       -0.520378      0.000578613    -3.40824e-05          0.33034        0.281031     -0.000674333     0.000318294
                     0.000429555     0.000125761        -0.366446       -0.927439     -0.000708665     0.000347414        0.0184024       0.0581698
281724                  0.167379        0.402877     -0.000428439     -0.00038237         0.724711        -0.52027      0.000461708      0.00011765
                    -0.000393563    -0.000379984       -0.0260756      -0.0547477      0.000626191    -7.09054e-06        -0.366734       -0.927304
                        0.724687       -0.520642      0.000578644    -3.43512e-05         0.330595        0.280866     -0.000674273      0.00031863
                     0.000429737     0.000125647        -0.366683       -0.927345     -0.000708537     0.000347801        0.0184179       0.0581612
281726                  0.167466        0.402936     -0.000428581    -0.000382248         0.724468       -0.520535      0.000461811     0.000117514
                    -0.000393778    -0.000379904       -0.0260864      -0.0547386      0.000626301     -7.3905e-06        -0.366971        -0.92721
                        0.724443       -0.520907      0.000578675    -3.46201e-05          0.33085          0.2807     -0.000674213     0.000318966
                     0.000429919     0.000125532        -0.366919       -0.927252     -0.000708409     0.000348188        0.0184334       0.0581527
281728                  0.167552        0.402996     -0.000428723    -0.000382126         0.724224       -0.520799      0.000461914     0.000117378
                    -0.000393993    -0.000379823       -0.0260973      -0.0547294       0.00062641     -7.6907e-06        -0.367208       -0.927117
                        0.724199       -0.521172      0.000578705     -3.4889e-05         0.331105        0.280535     -0.000674153     0.000319301
                     0.000430101     0.000125417        -0.367156       -0.927158      -0.00070828     0.000348575        0.0184488       0.0581441
281730                  0.167639        0.403055     -0.000428865    -0.000382004          0.72398       -0.521063      0.000462018     0.000117241
                    -0.000394208    -0.000379742       -0.0261082      -0.0547203      0.000626519    -7.99113e-06        -0.367444       -0.927023
                        0.723955       -0.521436      0.000578735    -3.51579e-05          0.33136        0.280369     -0.000674093     0.000319637
                     0.000430283     0.000125302        -0.367393       -0.927065     -0.000708151     0.000348962        0.0184643       0.0581355
281732                  0.167726        0.403114     -0.000429007    -0.000381881         0.723736       -0.521327      0.000462121     0.000117105
                    -0.000394423     -0.00037966       -0.0261191      -0.0547112      0.000626628    -8.29179e-06        -0.367681       -0.926929
                        0.723711         -0.5217      0.000578766    -3.54269e-05         0.331614        0.280203     -0.000674032     0.000319973
                     0.000430465     0.000125186        -0.367629       -0.926971     -0.000708022     0.000349349        0.0184797        0.058127
281734                  0.167813        0.403173     -0.000429149    -0.000381759         0.723492       -0.521591      0.000462224     0.000116969
                    -0.000394639    -0.000379579         -0.02613       -0.054702      0.000626736    -8.59269e-06        -0.367917       -0.926836
                        0.723466       -0.521964      0.000578795    -3.56959e-05         0.331869        0.280037     -0.000673972     0.000320309
                     0.000430647     0.000125071        -0.367866       -0.926877     -0.000707892     0.000349736        0.0184952       0.0581184
281736                  0.167899        0.403233     -0.000429291    -0.000381636         0.723248       -0.521854      0.000462327     0.000116832
                    -0.000394854    -0.000379497       -0.0261409      -0.0546929      0.000626844    -8.89382e-06        -0.368153       -0.926742
                        0.723222       -0.522228      0.000578825    -3.59649e-05         0.332124         0.27987     -0.000673911     0.000320645
                     0.000430829     0.000124955        -0.368102       -0.926783     -0.000707761     0.000350123        0.0185106       0.0581098
281738                  0.167986        0.403292     -0.000429433    -0.000381514         0.723004       -0.522118      0.000462429     0.000116695
                     -0.00039507    -0.000379415       -0.0261518      -0.0546837      0.000626953    -9.19517e-06         -0.36839       -0.926648
                        0.722977       -0.522492      0.000578855     -3.6234e-05         0.332379        0.279704     -0.000673849     0.000320981
                     0.000431011     0.000124839        -0.368339       -0.926689     -0.000707631      0.00035051         0.018526       0.0581013
281740                  0.168073        0.403351     -0.000429574    -0.000381391          0.72276       -0.522381      0.000462532     0.000116558
                    -0.000395286    -0.000379333       -0.0261627      -0.0546745       0.00062706    -9.49676e-06        -0.368626       -0.926554
                        0.722733       -0.522756      0.000578884    -3.65032e-05         0.332633        0.279537     -0.000673787     0.000321317
                     0.000431193     0.000124723        -0.368575       -0.926595       -0.0007075     0.000350897        0.0185415       0.0580927
281742                   0.16816        0.403411     -0.000429716    -0.000381269         0.722515       -0.522645      0.000462635     0.000116421
                    -0.000395501    -0.000379251       -0.0261736      -0.0546654      0.000627168    -9.79857e-06        -0.368863        -0.92646
                        0.722488        -0.52302      0.000578914    -3.67723e-05         0.332888         0.27937     -0.000673725     0.000321653
                     0.000431375     0.000124606        -0.368812       -0.926501     -0.000707369     0.000351284        0.0185569       0.0580841
281744                  0.168247         0.40347     -0.000429858    -0.000381146         0.722271       -0.522908      0.000462738     0.000116284
                    -0.000395717    -0.000379168       -0.0261845      -0.0546562      0.000627275    -1.01006e-05        -0.369099       -0.926366
                        0.722243       -0.523284      0.000578943    -3.70416e-05         0.333143        0.279202     -0.000673663      0.00032199
                     0.000431557      0.00012449        -0.369048       -0.926407     -0.000707237     0.000351671        0.0185723       0.0580755
281746                  0.168334        0.403529         -0.00043    -0.000381023         0.722026       -0.523171      0.000462841     0.000116147
                    -0.000395933    -0.000379086       -0.0261954      -0.0546471      0.000627382    -1.04029e-05        -0.369335       -0.926272
                        0.721998       -0.523547      0.000578972    -3.73111e-05         0.333397        0.279035     -0.000673601     0.000322326
                     0.000431739     0.000124373        -0.369285       -0.926313     -0.000707105     0.000352058        0.0185878       0.0580669
281748                  0.168421        0.403588     -0.000430142      -0.0003809         0.721781       -0.523434      0.000462944      0.00011601
                    -0.000396149    -0.000379003       -0.0262063      -0.0546379      0.000627489    -1.07053e-05        -0.369572       -0.926178
                        0.721753       -0.523811         0.000579    -3.75813e-05         0.333652        0.278867     -0.000673538     0.000322662
                     0.000431922     0.000124256        -0.369521       -0.926219     -0.000706972     0.000352445        0.0186032       0.0580583
281750                  0.168508        0.403648     -0.000430268    -0.000380781         0.721536       -0.523697      0.000463047     0.000115872
                    -0.000396366     -0.00037892       -0.0262171      -0.0546288      0.000627596     -1.1008e-05        -0.369808       -0.926084
                        0.721508       -0.524074      0.000579035    -3.78285e-05         0.333906        0.278699     -0.000673475     0.000322998
                     0.000432105      0.00012414        -0.369758       -0.926125      -0.00070684     0.000352832        0.0186186       0.0580497
281752                  0.168595        0.403707     -0.000430422    -0.000380655         0.721291        -0.52396       0.00046315     0.000115735
                    -0.000396584     -0.00037884        -0.026228      -0.0546196      0.000627702     -1.1311e-05        -0.370044        -0.92599
                        0.721262       -0.524337      0.000579059    -3.81162e-05          0.33416        0.278531     -0.000673411     0.000323334
                      0.00043229     0.000124026        -0.369994        -0.92603     -0.000706706     0.000353219         0.018634       0.0580411
281754                  0.168682        0.403766     -0.000430563    -0.000380532         0.721046       -0.524223      0.000463252     0.000115597
                    -0.000396782    -0.000378738       -0.0262389      -0.0546104      0.000627809    -1.16141e-05         -0.37028       -0.925895
                        0.721017         -0.5246      0.000579087    -3.83862e-05         0.334415        0.278363     -0.000673348      0.00032367
                     0.000432437      0.00012386        -0.370231       -0.925936     -0.000706573     0.000353605        0.0186494       0.0580325
281756                   0.16877        0.403825     -0.000430705    -0.000380409           0.7208       -0.524486      0.000463355      0.00011546
                     -0.00039701    -0.000378665       -0.0262498      -0.0546013      0.000627915    -1.19175e-05        -0.370517       -0.925801
                        0.720771       -0.524863      0.000579115    -3.86558e-05         0.334669        0.278194     -0.000673284     0.000324007
                     0.000432643     0.000123777        -0.370467       -0.925842     -0.000706439     0.000353992        0.0186648       0.0580239
281758                  0.168857        0.403885     -0.000430846    -0.000380286         0.720555       -0.524748      0.000463458     0.000115322
                    -0.000397227    -0.000378582       -0.0262607      -0.0545921       0.00062802    -1.22211e-05        -0.370753       -0.925707
                        0.720525       -0.525126      0.000579143    -3.89252e-05         0.334923        0.278026      -0.00067322     0.000324343
                     0.000432827     0.000123661        -0.370703       -0.925747     -0.000706305     0.000354379        0.0186802       0.0580153
281760                  0.168944        0.403944     -0.000430987    -0.000380163         0.720309       -0.525011      0.000463561     0.000115184
                    -0.000397444    -0.000378498       -0.0262715      -0.0545829      0.000628126    -1.25249e-05        -0.370989       -0.925612
                        0.720279       -0.525389      0.000579171    -3.91946e-05         0.335177        0.277857     -0.000673155     0.000324679
                      0.00043301     0.000123543         -0.37094       -0.925653      -0.00070617     0.000354766        0.0186956       0.0580067
281762                  0.169031        0.404003     -0.000431128     -0.00038004         0.720063       -0.525273      0.000463663     0.000115045
                     -0.00039766    -0.000378413       -0.0262824      -0.0545738      0.000628231    -1.28289e-05        -0.371225       -0.925518
                        0.720033       -0.525651      0.000579199    -3.94639e-05         0.335431        0.277688      -0.00067309     0.000325016
