! TOUCHSTONE file generated by CST MICROWAVE STUDIO
! Date and time: Wed Oct 15 17:33:46 2025
! Project name: Teste_Macro_Metasurface_Nanopilar.cst
! Parameters = {H=600; L_x=175; L_y=70; Lambda=1064; Max_L=200; Min_L=70; PathPara=1; Phi=0; Step_L=10; Theta=0; p=520; phaseX=180; phaseY=0}
! Header version: 2018
! Port assignment regex: !\s*Touchstone port\s*([0-9]+)\s*=\s*(CST MWS port|CST DS port)\s*([0-9]+|Zmin|Zmax)\s*\(\"(.*)\"\)(\s*mode\s*([0-9]+))?.*
! Touchstone port assignment:
! Touchstone port 1 = CST MWS port Zmax ("") mode 1
! Touchstone port 2 = CST MWS port Zmax ("") mode 2
! Touchstone port 3 = CST MWS port Zmin ("") mode 1
! Touchstone port 4 = CST MWS port Zmin ("") mode 2
! S-Parameters are not renormalized. Each port impedance will be approximated by the real part at minimum frequency. The values are described via the [Reference] keyword.
! Default impedance is overridden by [Reference]
[Version] 2.0
# GHz S RI R 376.73
[Number of Ports] 4
[Reference]
376.73 376.73 259.888 259.888 
[Number of Frequencies] 51
[Network Data]
281700                0.00754208      -0.0984805      0.000171221     7.56717e-05        -0.107606       -0.988575     -4.27968e-05    -6.99906e-05
                     0.000167902     7.66078e-05       -0.0653177       0.0911019     -9.25527e-05    -1.46458e-05         0.801578        0.574091
                       -0.107668       -0.988767     -0.000169026     1.31724e-05        0.0284755       0.0946981      0.000193183     3.28325e-05
                     3.26562e-05    -1.71641e-05         0.801602         0.57391      1.17374e-05     8.30415e-05       -0.0653304       0.0935297
281702                0.00752978      -0.0984771      0.000171259     7.56069e-05        -0.107848       -0.988549     -4.27723e-05    -6.98865e-05
                     0.000167941     7.64856e-05       -0.0652995       0.0911422     -9.25198e-05    -1.46641e-05         0.801789        0.573793
                        -0.10791       -0.988741     -0.000169055     1.32393e-05         0.028509       0.0946835      0.000192828     3.26547e-05
                     3.26741e-05    -1.72426e-05         0.801813        0.573611       1.1681e-05     8.30586e-05        -0.065305       0.0935737
281704                0.00751748      -0.0984736      0.000171296     7.55421e-05        -0.108089       -0.988523     -4.27473e-05    -6.97826e-05
                      0.00016798     7.63634e-05       -0.0652814       0.0911824     -9.24867e-05    -1.46824e-05            0.802        0.573494
                       -0.108152       -0.988715     -0.000169084     1.33063e-05        0.0285425       0.0946689      0.000192473     3.24786e-05
                     3.26921e-05    -1.73211e-05         0.802024        0.573312      1.16253e-05     8.30764e-05       -0.0652797       0.0936177
281706                0.00750518      -0.0984702      0.000171334     7.54774e-05        -0.108331       -0.988497     -4.27216e-05    -6.96788e-05
                     0.000168019     7.62412e-05       -0.0652632       0.0912227     -9.24535e-05    -1.47008e-05         0.802211        0.573195
                       -0.108394       -0.988689     -0.000169112     1.33732e-05         0.028576       0.0946543      0.000192117     3.23041e-05
                     3.27099e-05    -1.73995e-05         0.802235        0.573013      1.15702e-05     8.30946e-05       -0.0652543       0.0936617
281708                0.00749288      -0.0984668      0.000171371     7.54125e-05        -0.108573       -0.988471     -4.26955e-05    -6.95751e-05
                     0.000168058     7.61189e-05        -0.065245       0.0912629     -9.24202e-05    -1.47193e-05         0.802422        0.572896
                       -0.108635       -0.988663     -0.000169141     1.34402e-05        0.0286095       0.0946397      0.000191762     3.21313e-05
                     3.27277e-05    -1.74778e-05         0.802445        0.572714      1.15156e-05     8.31128e-05       -0.0652289       0.0937057
281710                0.00748058      -0.0984634      0.000171409     7.53477e-05        -0.108815       -0.988445     -4.26688e-05    -6.94716e-05
                     0.000168097     7.59966e-05       -0.0652268       0.0913031     -9.23869e-05    -1.47381e-05         0.802632        0.572597
                       -0.108877       -0.988637      -0.00016917     1.35072e-05         0.028643       0.0946251      0.000191405       3.196e-05
                     3.27454e-05    -1.75561e-05         0.802656        0.572415      1.14613e-05      8.3131e-05       -0.0652035       0.0937497
281712                0.00746828        -0.09846      0.000171446     7.52829e-05        -0.109056       -0.988419     -4.26416e-05    -6.93682e-05
                     0.000168136     7.58742e-05       -0.0652086       0.0913434     -9.23536e-05     -1.4757e-05         0.802843        0.572298
                       -0.109119        -0.98861     -0.000169199     1.35742e-05        0.0286764       0.0946105      0.000191049     3.17904e-05
                     3.27631e-05    -1.76343e-05         0.802866        0.572116      1.14074e-05      8.3149e-05        -0.065178       0.0937937
281714                0.00745599      -0.0984566      0.000171483     7.52181e-05        -0.109298       -0.988393     -4.26138e-05    -6.92649e-05
                     0.000168175     7.57518e-05       -0.0651904       0.0913836     -9.23203e-05     -1.4776e-05         0.803053        0.571999
                       -0.109361       -0.988584     -0.000169228     1.36412e-05        0.0287099       0.0945958      0.000190692     3.16225e-05
                     3.27807e-05    -1.77125e-05         0.803076        0.571817      1.13535e-05     8.31668e-05       -0.0651525       0.0938377
281716                0.00744369      -0.0984531       0.00017152     7.51533e-05         -0.10954       -0.988367     -4.25856e-05    -6.91619e-05
                     0.000168213     7.56294e-05       -0.0651722       0.0914238     -9.22871e-05    -1.47953e-05         0.803264          0.5717
                       -0.109603       -0.988557     -0.000169256     1.37082e-05        0.0287434       0.0945812      0.000190335     3.14561e-05
                     3.27983e-05    -1.77905e-05         0.803286        0.571517      1.12998e-05     8.31845e-05        -0.065127       0.0938817
281718                0.00743139      -0.0984497      0.000171557     7.50885e-05        -0.109782        -0.98834     -4.25569e-05    -6.90589e-05
                     0.000168252     7.55069e-05       -0.0651539        0.091464      -9.2254e-05    -1.48146e-05         0.803474        0.571401
                       -0.109844       -0.988531     -0.000169285     1.37751e-05        0.0287768       0.0945665      0.000189978     3.12912e-05
                     3.28158e-05    -1.78685e-05         0.803496        0.571218      1.12462e-05     8.32021e-05       -0.0651014       0.0939257
281720                0.00741909      -0.0984463      0.000171594     7.50238e-05        -0.110023       -0.988314     -4.25278e-05    -6.89561e-05
                      0.00016829     7.53844e-05       -0.0651357       0.0915042     -9.22211e-05    -1.48341e-05         0.803684        0.571101
                       -0.110086       -0.988504     -0.000169313     1.38419e-05        0.0288102       0.0945518       0.00018962      3.1128e-05
                     3.28333e-05    -1.79465e-05         0.803706        0.570919      1.11927e-05     8.32194e-05       -0.0650758       0.0939698
281722                 0.0074068      -0.0984429      0.000171631     7.49591e-05        -0.110265       -0.988288     -4.24982e-05    -6.88535e-05
                     0.000168329     7.52618e-05       -0.0651175       0.0915444     -9.21884e-05    -1.48536e-05         0.803894        0.570802
                       -0.110328       -0.988478     -0.000169342     1.39086e-05        0.0288437       0.0945371      0.000189262     3.09663e-05
                     3.28508e-05    -1.80243e-05         0.803916        0.570619      1.11392e-05     8.32367e-05       -0.0650502       0.0940138
281724                 0.0073945      -0.0984394      0.000171668     7.48946e-05        -0.110507       -0.988261     -4.24681e-05     -6.8751e-05
                     0.000168367     7.51392e-05       -0.0650992       0.0915846     -9.21558e-05    -1.48731e-05         0.804104        0.570503
                       -0.110569       -0.988451      -0.00016937      1.3975e-05        0.0288771       0.0945224      0.000188904     3.08062e-05
                     3.28682e-05    -1.81021e-05         0.804126        0.570319      1.10857e-05     8.32538e-05       -0.0650245       0.0940578
281726                0.00738221       -0.098436      0.000171705     7.48303e-05        -0.110749       -0.988235     -4.24376e-05    -6.86486e-05
                     0.000168405     7.50165e-05        -0.065081       0.0916248     -9.21235e-05    -1.48925e-05         0.804314        0.570203
                       -0.110811       -0.988424     -0.000169398     1.40412e-05        0.0289105       0.0945077      0.000188545     3.06476e-05
                     3.28855e-05    -1.81798e-05         0.804335         0.57002      1.10322e-05     8.32708e-05       -0.0649988       0.0941019
281728                0.00736991      -0.0984326      0.000171742     7.47664e-05         -0.11099       -0.988208     -4.24067e-05    -6.85464e-05
                     0.000168443     7.48938e-05       -0.0650627        0.091665     -9.20913e-05    -1.49119e-05         0.804523        0.569903
                       -0.111053       -0.988397     -0.000169426     1.41069e-05        0.0289439        0.094493      0.000188186     3.04905e-05
                     3.29029e-05    -1.82575e-05         0.804545         0.56972      1.09787e-05     8.32876e-05       -0.0649731       0.0941459
281730                0.00735762      -0.0984291      0.000171778     7.47033e-05        -0.111232       -0.988181     -4.23753e-05    -6.84444e-05
                     0.000168481      7.4771e-05       -0.0650445       0.0917051     -9.20593e-05     -1.4931e-05         0.804733        0.569604
                       -0.111295       -0.988371     -0.000169454     1.41716e-05        0.0289773       0.0944783      0.000187827      3.0335e-05
                     3.29202e-05     -1.8335e-05         0.804754         0.56942      1.09252e-05     8.33044e-05       -0.0649474         0.09419
281732                0.00734532      -0.0984257      0.000171814     7.46417e-05        -0.111474       -0.988155     -4.23435e-05    -6.83425e-05
                     0.000168519     7.46482e-05       -0.0650262       0.0917453     -9.20274e-05      -1.495e-05         0.804942        0.569304
                       -0.111536       -0.988344     -0.000169483     1.42348e-05        0.0290107       0.0944635      0.000187468      3.0181e-05
                     3.29374e-05    -1.84125e-05         0.804963         0.56912      1.08717e-05      8.3321e-05       -0.0649216        0.094234
281734                0.00733303      -0.0984223      0.000171847     7.45841e-05        -0.111715       -0.988128     -4.23113e-05    -6.82408e-05
                     0.000168557     7.45253e-05       -0.0650079       0.0917855     -9.19956e-05    -1.49689e-05         0.805151        0.569004
                       -0.111778       -0.988317     -0.000169512     1.42946e-05        0.0290441       0.0944488      0.000187108     3.00286e-05
                     3.29547e-05    -1.84899e-05         0.805172         0.56882      1.08183e-05     8.33375e-05       -0.0648958       0.0942781
281736                0.00732074      -0.0984188      0.000171856     7.45293e-05        -0.111957       -0.988101     -4.22787e-05    -6.81392e-05
                     0.000168595     7.44024e-05       -0.0649896       0.0918256     -9.19639e-05    -1.49875e-05         0.805361        0.568704
                        -0.11202        -0.98829     -0.000169548     1.43471e-05        0.0290775        0.094434      0.000186748     2.98777e-05
                     3.29719e-05    -1.85672e-05         0.805381         0.56852      1.07648e-05     8.33538e-05       -0.0648699       0.0943221
281738                0.00730844      -0.0984154      0.000171891     7.44078e-05        -0.112199       -0.988074     -4.22456e-05    -6.80378e-05
                     0.000168633     7.42794e-05       -0.0649713       0.0918658     -9.19321e-05    -1.50059e-05          0.80557        0.568404
                       -0.112261       -0.988263     -0.000169617     1.43989e-05        0.0291108       0.0944192      0.000186388     2.97283e-05
                      3.2989e-05    -1.86445e-05          0.80559         0.56822      1.07113e-05     8.33701e-05        -0.064844       0.0943662
281740                0.00729615       -0.098412      0.000171952     7.43482e-05        -0.112441       -0.988047     -4.22121e-05    -6.79365e-05
                      0.00016867     7.41564e-05        -0.064953       0.0919059     -9.19004e-05    -1.50241e-05         0.805779        0.568104
                       -0.112503       -0.988235     -0.000169673     1.45319e-05        0.0291442       0.0944044      0.000186029     2.95807e-05
                     3.30062e-05    -1.87217e-05         0.805799         0.56792      1.06578e-05     8.33863e-05       -0.0648181       0.0944103
281742                0.00728386      -0.0984085      0.000171994     7.42884e-05        -0.112682        -0.98802      -4.2178e-05    -6.78355e-05
                     0.000168708     7.40333e-05       -0.0649347       0.0919461     -9.18687e-05    -1.50421e-05         0.805988        0.567804
                       -0.112745       -0.988208     -0.000169665     1.46183e-05        0.0291776       0.0943896      0.000185669     2.94348e-05
                     3.30233e-05    -1.87987e-05         0.806007         0.56762      1.06043e-05     8.34023e-05       -0.0647922       0.0944544
281744                0.00727157      -0.0984051      0.000172032      7.4226e-05        -0.112924       -0.987993     -4.21433e-05    -6.77346e-05
                     0.000168745     7.39102e-05       -0.0649164       0.0919862     -9.18369e-05    -1.50599e-05         0.806196        0.567504
                       -0.112986       -0.988181     -0.000169678      1.4683e-05        0.0292109       0.0943748      0.000185309     2.92908e-05
                     3.30404e-05    -1.88758e-05         0.806216        0.567319      1.05508e-05     8.34182e-05       -0.0647662       0.0944985
281746                0.00725927      -0.0984016       0.00017207     7.41623e-05        -0.113166       -0.987966     -4.21079e-05    -6.76339e-05
                     0.000168783      7.3787e-05       -0.0648981       0.0920264     -9.18051e-05    -1.50776e-05         0.806405        0.567203
                       -0.113228       -0.988154     -0.000169699     1.47474e-05        0.0292443         0.09436      0.000184951     2.91493e-05
                     3.30575e-05    -1.89527e-05         0.806424        0.567019      1.04973e-05      8.3434e-05       -0.0647402       0.0945426
281748                0.00724698      -0.0983982      0.000172107     7.40979e-05        -0.113407       -0.987939     -4.20713e-05    -6.75334e-05
                      0.00016882     7.36637e-05       -0.0648798       0.0920665     -9.17733e-05     -1.5095e-05         0.806613        0.566903
                        -0.11347       -0.988126     -0.000169724     1.48129e-05        0.0292776       0.0943451      0.000184594     2.90112e-05
                     3.30745e-05    -1.90295e-05         0.806632        0.566719      1.04437e-05     8.34497e-05       -0.0647142       0.0945867
281750                0.00723469      -0.0983948      0.000172143     7.40331e-05        -0.113649       -0.987911     -4.20328e-05    -6.74332e-05
                     0.000168857     7.35404e-05       -0.0648615       0.0921066     -9.17414e-05    -1.51123e-05         0.806822        0.566603
                       -0.113711       -0.988099     -0.000169749     1.48791e-05        0.0293109       0.0943303      0.000184241     2.88798e-05
                     3.30915e-05    -1.91063e-05          0.80684        0.566418      1.03902e-05     8.34653e-05       -0.0646881       0.0946308
281752                 0.0072224      -0.0983913       0.00017218     7.39681e-05        -0.113891       -0.987884     -4.19898e-05    -6.73334e-05
                     0.000168894     7.34171e-05       -0.0648431       0.0921467     -9.17095e-05    -1.51294e-05          0.80703        0.566302
                       -0.113953       -0.988071     -0.000169776     1.49459e-05        0.0293442       0.0943154      0.000183899     2.87704e-05
                     3.31085e-05     -1.9183e-05         0.807048        0.566117      1.03367e-05     8.34808e-05        -0.064662       0.0946749
281754                0.00721011      -0.0983879      0.000172216     7.39029e-05        -0.114132       -0.987857     -4.19286e-05    -6.72334e-05
                     0.000168931     7.32937e-05       -0.0648248       0.0921869     -9.16776e-05    -1.51464e-05         0.807249           0.566
                       -0.114195       -0.988044     -0.000169803     1.50131e-05        0.0293776       0.0943006      0.000183476     2.88467e-05
                     3.31255e-05    -1.92596e-05         0.807256        0.565817      1.02832e-05     8.34962e-05       -0.0646359        0.094719
281756                0.00719782      -0.0983844      0.000172252     7.38375e-05        -0.114374       -0.987829     -4.22071e-05    -6.67961e-05
                     0.000168968     7.31702e-05       -0.0648064        0.092227     -9.16456e-05    -1.51632e-05         0.807446        0.565701
                       -0.114436       -0.988016      -0.00016983     1.50805e-05        0.0294109       0.0942857      0.000182997      2.8408e-05
                     3.31424e-05    -1.93361e-05         0.807464        0.565516      1.02297e-05     8.35114e-05       -0.0646097       0.0947631
281758                0.00718553       -0.098381      0.000172289     7.37721e-05        -0.114615       -0.987802     -4.19503e-05    -6.70224e-05
                     0.000169005     7.30467e-05       -0.0647881       0.0922671     -9.16136e-05    -1.51799e-05         0.807654          0.5654
                       -0.114678       -0.987988     -0.000169857     1.51482e-05        0.0294442       0.0942708      0.000182699     2.82726e-05
                     3.31593e-05    -1.94126e-05         0.807672        0.565215      1.01761e-05     8.35266e-05       -0.0645836       0.0948072
281760                0.00717324      -0.0983775      0.000172325     7.37065e-05        -0.114857       -0.987774     -4.18944e-05    -6.69275e-05
                     0.000169042     7.29231e-05       -0.0647697       0.0923072     -9.15816e-05    -1.51964e-05         0.807862          0.5651
                        -0.11492        -0.98796     -0.000169884      1.5216e-05        0.0294775       0.0942559      0.000182354     2.81427e-05
                     3.31762e-05     -1.9489e-05         0.807879        0.564914      1.01226e-05     8.35416e-05       -0.0645573       0.0948513
281762                0.00716096      -0.0983741      0.000172361     7.36409e-05        -0.115099       -0.987747     -4.18512e-05    -6.68294e-05
                     0.000169078     7.27995e-05       -0.0647513       0.0923473     -9.15495e-05    -1.52127e-05          0.80807        0.564799
                       -0.115161       -0.987933     -0.000169912      1.5284e-05        0.0295107        0.094241      0.000181998      2.8012e-05
