! TOUCHSTONE file generated by CST MICROWAVE STUDIO
! Date and time: Wed Oct 15 17:32:54 2025
! Project name: Teste_Macro_Metasurface_Nanopilar.cst
! Parameters = {H=600; L_x=155; L_y=200; Lambda=1064; Max_L=200; Min_L=70; PathPara=1; Phi=0; Step_L=10; Theta=0; p=520; phaseX=180; phaseY=0}
! Header version: 2018
! Port assignment regex: !\s*Touchstone port\s*([0-9]+)\s*=\s*(CST MWS port|CST DS port)\s*([0-9]+|Zmin|Zmax)\s*\(\"(.*)\"\)(\s*mode\s*([0-9]+))?.*
! Touchstone port assignment:
! Touchstone port 1 = CST MWS port Zmax ("") mode 1
! Touchstone port 2 = CST MWS port Zmax ("") mode 2
! Touchstone port 3 = CST MWS port Zmin ("") mode 1
! Touchstone port 4 = CST MWS port Zmin ("") mode 2
! S-Parameters are not renormalized. Each port impedance will be approximated by the real part at minimum frequency. The values are described via the [Reference] keyword.
! Default impedance is overridden by [Reference]
[Version] 2.0
# GHz S RI R 376.73
[Number of Ports] 4
[Reference]
376.73 376.73 259.888 259.888 
[Number of Frequencies] 51
[Network Data]
281700                  0.272199        0.101376     -0.000235386     0.000322551        0.0900666       -0.948924     -0.000128106    -0.000191239
                    -0.000217249      0.00044417         0.218305        0.111654     -0.000289741     2.22691e-05         0.566932       -0.781496
                       0.0896621       -0.949151     -0.000290072     3.83979e-05         0.284109       -0.050078      2.48104e-05    -0.000673788
                    -0.000178417    -0.000116604         0.567465       -0.782163      0.000188347    -0.000617763         0.172831        0.172085
281702                   0.27222        0.101373     -0.000235227     0.000322758        0.0897909       -0.948944     -0.000128284    -0.000190945
                     -0.00021706     0.000444367         0.218311        0.111641     -0.000289779     2.23771e-05         0.566703       -0.781664
                       0.0893867       -0.949171      -0.00029013     3.88662e-05           0.2841      -0.0502352      2.42925e-05    -0.000673868
                    -0.000178459    -0.000116565         0.567236       -0.782331      0.000188356    -0.000617963         0.172921        0.171992
281704                   0.27224        0.101369     -0.000235069     0.000322967        0.0895153       -0.948965     -0.000128462    -0.000190652
                     -0.00021687     0.000444564         0.218316        0.111627     -0.000289817     2.24846e-05         0.566474       -0.781831
                       0.0891113        -0.94919     -0.000290187     3.93359e-05         0.284091      -0.0503925      2.37757e-05    -0.000673949
                    -0.000178502    -0.000116526         0.567007       -0.782499      0.000188364    -0.000618162         0.173012        0.171898
281706                  0.272261        0.101365      -0.00023491     0.000323176        0.0892396       -0.948985     -0.000128639    -0.000190359
                     -0.00021668     0.000444762         0.218321        0.111614     -0.000289855     2.25917e-05         0.566244       -0.781999
                       0.0888359        -0.94921     -0.000290246     3.98072e-05         0.284081      -0.0505497        2.326e-05     -0.00067403
                    -0.000178544    -0.000116487         0.566777       -0.782668      0.000188372    -0.000618362         0.173102        0.171805
281708                  0.272282        0.101362     -0.000234751     0.000323387         0.088964       -0.949006     -0.000128817    -0.000190067
                     -0.00021649      0.00044496         0.218327          0.1116     -0.000289893     2.26982e-05         0.566015       -0.782167
                       0.0885605       -0.949229     -0.000290304     4.02799e-05         0.284072      -0.0507069      2.27454e-05    -0.000674112
                    -0.000178586    -0.000116448         0.566548       -0.782836      0.000188379    -0.000618561         0.173193        0.171712
281710                  0.272302        0.101358     -0.000234592     0.000323599        0.0886884       -0.949026     -0.000128995    -0.000189776
                    -0.000216299     0.000445158         0.218332        0.111587     -0.000289932     2.28043e-05         0.565786       -0.782334
                       0.0882851       -0.949248     -0.000290364     4.07541e-05         0.284062      -0.0508642      2.22319e-05    -0.000674195
                    -0.000178628    -0.000116409         0.566318       -0.783004      0.000188387    -0.000618761         0.173283        0.171618
281712                  0.272323        0.101354     -0.000234433     0.000323812        0.0884127       -0.949046     -0.000129173    -0.000189485
                    -0.000216108     0.000445357         0.218338        0.111573      -0.00028997     2.29099e-05         0.565556       -0.782501
                       0.0880098       -0.949267     -0.000290424     4.12298e-05         0.284052      -0.0510214      2.17196e-05    -0.000674278
                    -0.000178669     -0.00011637         0.566089       -0.783172      0.000188395     -0.00061896         0.173374        0.171525
281714                  0.272343        0.101351     -0.000234274     0.000324026        0.0881371       -0.949066     -0.000129351    -0.000189196
                    -0.000215916     0.000445555         0.218343         0.11156     -0.000290008      2.3015e-05         0.565327       -0.782669
                       0.0877344       -0.949287     -0.000290484     4.17069e-05         0.284043      -0.0511786      2.12084e-05    -0.000674362
                    -0.000178711    -0.000116331         0.565859       -0.783339      0.000188402     -0.00061916         0.173464        0.171431
281716                  0.272364        0.101347     -0.000234115     0.000324241        0.0878614       -0.949086     -0.000129529    -0.000188907
                    -0.000215725     0.000445754         0.218348        0.111547     -0.000290046     2.31196e-05         0.565097       -0.782836
                        0.087459       -0.949306     -0.000290545     4.21856e-05         0.284033      -0.0513359      2.06983e-05    -0.000674447
                    -0.000178752    -0.000116291          0.56563       -0.783507       0.00018841    -0.000619359         0.173554        0.171337
281718                  0.272385        0.101343     -0.000233955     0.000324457        0.0875857       -0.949106     -0.000129707    -0.000188618
                    -0.000215533     0.000445954         0.218354        0.111533     -0.000290084     2.32238e-05         0.564868       -0.783003
                       0.0871836       -0.949324     -0.000290606     4.26657e-05         0.284023      -0.0514931      2.01893e-05    -0.000674533
                    -0.000178793    -0.000116251           0.5654       -0.783675      0.000188417    -0.000619559         0.173644        0.171244
281720                  0.272405         0.10134     -0.000233796     0.000324674        0.0873101       -0.949126     -0.000129885    -0.000188331
                     -0.00021534     0.000446154         0.218359         0.11152     -0.000290122     2.33274e-05         0.564638        -0.78317
                       0.0869082       -0.949343     -0.000290668     4.31473e-05         0.284013      -0.0516503      1.96816e-05     -0.00067462
                    -0.000178833    -0.000116211          0.56517       -0.783843      0.000188424    -0.000619758         0.173735         0.17115
281722                  0.272426        0.101336     -0.000233637     0.000324892        0.0870344       -0.949146     -0.000130063    -0.000188044
                    -0.000215148     0.000446355         0.218365        0.111507     -0.000290159     2.34306e-05         0.564408       -0.783337
                       0.0866328       -0.949362      -0.00029073     4.36304e-05         0.284003      -0.0518076      1.91749e-05    -0.000674707
                    -0.000178873    -0.000116171         0.564941        -0.78401      0.000188431    -0.000619958         0.173825        0.171056
281724                  0.272446        0.101332     -0.000233477     0.000325112        0.0867588       -0.949166     -0.000130241    -0.000187758
                    -0.000214955     0.000446556          0.21837        0.111493     -0.000290197     2.35333e-05         0.564179       -0.783504
                       0.0863574       -0.949381     -0.000290793      4.4115e-05         0.283993      -0.0519648      1.86695e-05    -0.000674795
                    -0.000178913    -0.000116131         0.564711       -0.784178      0.000188438    -0.000620157         0.173915        0.170963
281726                  0.272467        0.101329     -0.000233317     0.000325333        0.0864831       -0.949185     -0.000130419    -0.000187473
                    -0.000214762     0.000446758         0.218375         0.11148     -0.000290234     2.36355e-05         0.563949       -0.783671
                        0.086082       -0.949399     -0.000290857     4.46011e-05         0.283982      -0.0521221      1.81653e-05    -0.000674884
                    -0.000178953     -0.00011609         0.564481       -0.784345      0.000188445    -0.000620357         0.174005        0.170869
281728                  0.272488        0.101325     -0.000233157     0.000325555        0.0862074       -0.949205     -0.000130597    -0.000187189
                    -0.000214569     0.000446961         0.218381        0.111467     -0.000290271     2.37373e-05         0.563719       -0.783837
                       0.0858066       -0.949418     -0.000290921     4.50887e-05         0.283972      -0.0522793      1.76622e-05    -0.000674974
                    -0.000178992    -0.000116048         0.564251       -0.784512      0.000188452    -0.000620556         0.174095        0.170775
281730                  0.272508        0.101321     -0.000232998     0.000325778        0.0859317       -0.949224     -0.000130775    -0.000186905
                    -0.000214376     0.000447165         0.218386        0.111453     -0.000290308     2.38386e-05          0.56349       -0.784004
                       0.0855311       -0.949436     -0.000290985     4.55778e-05         0.283962      -0.0524365      1.71604e-05    -0.000675064
                     -0.00017903    -0.000116006         0.564021        -0.78468      0.000188458    -0.000620756         0.174185        0.170681
281732                  0.272529        0.101317     -0.000232838     0.000326003        0.0856561       -0.949244     -0.000130953    -0.000186622
                    -0.000214182      0.00044737         0.218392         0.11144     -0.000290345     2.39394e-05          0.56326       -0.784171
                       0.0852557       -0.949455      -0.00029105     4.60684e-05         0.283951      -0.0525938      1.66598e-05    -0.000675156
                    -0.000179069    -0.000115963         0.563791       -0.784847      0.000188465    -0.000620955         0.174275        0.170587
281734                  0.272549        0.101314     -0.000232678     0.000326229        0.0853804       -0.949263     -0.000131132     -0.00018634
                    -0.000213989     0.000447576         0.218397        0.111427     -0.000290381     2.40399e-05          0.56303       -0.784337
                       0.0849803       -0.949473     -0.000291116     4.65606e-05          0.28394       -0.052751      1.61604e-05    -0.000675248
                    -0.000179107     -0.00011592         0.563561       -0.785014      0.000188471    -0.000621154         0.174365        0.170493
281736                   0.27257         0.10131     -0.000232517     0.000326456        0.0851047       -0.949282      -0.00013131    -0.000186059
                    -0.000213797     0.000447783         0.218403        0.111413     -0.000290417     2.41398e-05           0.5628       -0.784504
                       0.0847049       -0.949491     -0.000291182     4.70543e-05          0.28393      -0.0529083      1.56624e-05    -0.000675341
                    -0.000179144    -0.000115875         0.563331       -0.785181      0.000188477    -0.000621354         0.174454        0.170399
281738                  0.272591        0.101306     -0.000232357     0.000326684         0.084829       -0.949301     -0.000131488    -0.000185778
                    -0.000213604     0.000447992         0.218408          0.1114     -0.000290453     2.42394e-05          0.56257        -0.78467
                       0.0844295       -0.949509     -0.000291249     4.75495e-05         0.283919      -0.0530655      1.51656e-05    -0.000675435
                    -0.000179181     -0.00011583         0.563101       -0.785348      0.000188483    -0.000621553         0.174544        0.170305
281740                  0.272611        0.101303     -0.000232197     0.000326914        0.0845533        -0.94932     -0.000131667    -0.000185499
                    -0.000213413     0.000448202         0.218414        0.111387     -0.000290489     2.43385e-05          0.56234       -0.784836
                       0.0841541       -0.949528     -0.000291316     4.80463e-05         0.283908      -0.0532227      1.46702e-05     -0.00067553
                    -0.000179218    -0.000115783         0.562871       -0.785515       0.00018849    -0.000621752         0.174634        0.170211
281742                  0.272632        0.101299     -0.000232036     0.000327145        0.0842776       -0.949339     -0.000131845     -0.00018522
                    -0.000213222     0.000448414         0.218419        0.111374     -0.000290524     2.44372e-05          0.56211       -0.785002
                       0.0838787       -0.949546     -0.000291384     4.85447e-05         0.283897        -0.05338      1.41764e-05    -0.000675625
                    -0.000179255    -0.000115734         0.562641       -0.785682      0.000188496    -0.000621951         0.174724        0.170117
281744                  0.272652        0.101295     -0.000231876     0.000327377        0.0840019       -0.949358     -0.000132024    -0.000184942
                    -0.000213033     0.000448627         0.218425        0.111361     -0.000290559     2.45355e-05          0.56188       -0.785168
                       0.0836032       -0.949563     -0.000291452     4.90447e-05         0.283886      -0.0535372      1.36844e-05    -0.000675722
                    -0.000179293    -0.000115684         0.562411       -0.785849      0.000188502    -0.000622149         0.174813        0.170023
281746                  0.272673        0.101291     -0.000231715     0.000327611        0.0837262       -0.949377     -0.000132202    -0.000184664
                    -0.000212845     0.000448843          0.21843        0.111347     -0.000290594     2.46333e-05          0.56165       -0.785334
                       0.0833278       -0.949581     -0.000291521     4.95463e-05         0.283875      -0.0536945      1.31943e-05    -0.000675818
                     -0.00017933    -0.000115631         0.562181       -0.786016      0.000188508    -0.000622348         0.174903        0.169928
281748                  0.272694        0.101288     -0.000231554     0.000327846        0.0834505       -0.949396     -0.000132381    -0.000184388
                     -0.00021266      0.00044906         0.218436        0.111334     -0.000290628     2.47306e-05          0.56142         -0.7855
                       0.0830524       -0.949599     -0.000291591     5.00495e-05         0.283863      -0.0538517      1.27045e-05    -0.000675913
                    -0.000179369    -0.000115576          0.56195       -0.786182      0.000188516    -0.000622545         0.174993        0.169834
281750                  0.272714        0.101284     -0.000231393     0.000328083        0.0831748       -0.949415      -0.00013256    -0.000184112
                    -0.000212477     0.000449279         0.218441        0.111321     -0.000290662     2.48273e-05          0.56119       -0.785666
                        0.082777       -0.949617     -0.000291661     5.05545e-05         0.283852      -0.0540089      1.22128e-05    -0.000676009
                     -0.00017941    -0.000115519          0.56172       -0.786349      0.000188525     -0.00062274         0.175082         0.16974
281752                  0.272735         0.10128     -0.000231232     0.000328321        0.0828991       -0.949433     -0.000132738    -0.000183837
                    -0.000212297       0.0004495         0.218446        0.111308     -0.000290696     2.49231e-05          0.56096       -0.785832
                       0.0825016       -0.949634     -0.000291732     5.10611e-05         0.283841      -0.0541662      1.17227e-05    -0.000676109
                    -0.000179453    -0.000115459          0.56149       -0.786515      0.000188538     -0.00062293         0.175172        0.169646
281754                  0.272755        0.101276     -0.000231071      0.00032856        0.0826234       -0.949452     -0.000132917    -0.000183562
                    -0.000212121     0.000449722         0.218452        0.111295     -0.000290729     2.50178e-05         0.560729       -0.785998
                       0.0822261       -0.949652     -0.000291804     5.15694e-05         0.283829      -0.0543234      1.12349e-05    -0.000676211
                    -0.000179499    -0.000115397         0.561259       -0.786682      0.000188559    -0.000623097         0.175261        0.169551
281756                  0.272776        0.101273      -0.00023091     0.000328801        0.0823477        -0.94947     -0.000133096    -0.000183289
                     -0.00021195     0.000449946         0.218457        0.111281     -0.000290761     2.51099e-05         0.560499       -0.786163
                       0.0819507       -0.949669     -0.000291876     5.20794e-05         0.283818      -0.0544807       1.0749e-05    -0.000676313
                    -0.000179549    -0.000115333         0.561029       -0.786848       0.00018845    -0.000623187          0.17535        0.169457
281758                  0.272797        0.101269     -0.000230748     0.000329044        0.0820721       -0.949488     -0.000133275    -0.000183016
                    -0.000211784     0.000450169         0.218463        0.111268     -0.000290787      2.5196e-05         0.560269       -0.786329
                       0.0816753       -0.949687     -0.000291949     5.25909e-05         0.283806      -0.0546379      1.02647e-05    -0.000676415
                    -0.000179604    -0.000115268         0.560798       -0.787015      0.000188433    -0.000623544          0.17544        0.169362
281760                  0.272817        0.101265     -0.000230587     0.000329288        0.0817962       -0.949507     -0.000133454    -0.000182744
                    -0.000211624     0.000450392         0.218468        0.111255     -0.000290783     2.52962e-05         0.560038       -0.786494
                       0.0813999       -0.949704     -0.000292023     5.31041e-05         0.283794      -0.0547951      9.78178e-06    -0.000676519
                    -0.000179665    -0.000115203         0.560568       -0.787181       0.00018847    -0.000623756         0.175529        0.169268
281762                  0.272838        0.101261     -0.000230425     0.000329533        0.0815205       -0.949525     -0.000133634    -0.000182473
                    -0.000211469     0.000450613         0.218474        0.111242     -0.000290831     2.54279e-05         0.559808        -0.78666
                       0.0811245       -0.949721     -0.000292098     5.36188e-05         0.283782      -0.0549524       9.3003e-06    -0.000676623
