! TOUCHSTONE file generated by CST MICROWAVE STUDIO
! Date and time: Wed Oct 15 17:30:17 2025
! Project name: Teste_Macro_Metasurface_Nanopilar.cst
! Parameters = {H=600; L_x=110; L_y=185; Lambda=1064; Max_L=200; Min_L=70; PathPara=1; Phi=0; Step_L=10; Theta=0; p=520; phaseX=180; phaseY=0}
! Header version: 2018
! Port assignment regex: !\s*Touchstone port\s*([0-9]+)\s*=\s*(CST MWS port|CST DS port)\s*([0-9]+|Zmin|Zmax)\s*\(\"(.*)\"\)(\s*mode\s*([0-9]+))?.*
! Touchstone port assignment:
! Touchstone port 1 = CST MWS port Zmax ("") mode 1
! Touchstone port 2 = CST MWS port Zmax ("") mode 2
! Touchstone port 3 = CST MWS port Zmin ("") mode 1
! Touchstone port 4 = CST MWS port Zmin ("") mode 2
! S-Parameters are not renormalized. Each port impedance will be approximated by the real part at minimum frequency. The values are described via the [Reference] keyword.
! Default impedance is overridden by [Reference]
[Version] 2.0
# GHz S RI R 376.73
[Number of Ports] 4
[Reference]
376.73 376.73 259.888 259.888 
[Number of Frequencies] 51
[Network Data]
281700                  0.258514       -0.278205     -0.000490627     0.000923572         0.855722       -0.324074       0.00113349     0.000790355
                    -0.000485213     0.000935882        0.0857983      0.00543102      -0.00100964    -8.33611e-05         0.614759        0.774133
                        0.855815       -0.324291       -0.0009725    -0.000103559        -0.368749      -0.0520285      -0.00011676     0.000740217
                         0.00116     0.000770456         0.614677        0.773896     -0.000155055     0.000682345        0.0142705      -0.0819717
281702                  0.258405       -0.278121     -0.000490371     0.000923652          0.85564        -0.32446       0.00113369      0.00078989
                    -0.000485072     0.000936018        0.0857879      0.00544401      -0.00100952    -8.29676e-05          0.61505        0.773904
                        0.855733       -0.324676     -0.000972519    -0.000102884        -0.368658      -0.0517139     -0.000116211     0.000740373
                      0.00116018      0.00076992         0.614968        0.773667     -0.000154476     0.000682607        0.0141938      -0.0819752
281704                  0.258297       -0.278036     -0.000490115     0.000923732         0.855558       -0.324845       0.00113389     0.000789425
                    -0.000484932     0.000936153        0.0857776      0.00545701       -0.0010094    -8.25747e-05         0.615341        0.773674
                         0.85565       -0.325061     -0.000972538    -0.000102211        -0.368566      -0.0513995     -0.000115665     0.000740529
                      0.00116037     0.000769383         0.615259        0.773438     -0.000153897     0.000682869        0.0141171      -0.0819786
281706                  0.258189       -0.277952     -0.000489859     0.000923813         0.855475        -0.32523       0.00113408     0.000788961
                    -0.000484791     0.000936288        0.0857672      0.00547001      -0.00100928    -8.21824e-05         0.615632        0.773444
                        0.855567       -0.325447     -0.000972557    -0.000101539        -0.368474      -0.0510854     -0.000115119     0.000740683
                      0.00116055     0.000768847         0.615549        0.773208     -0.000153319      0.00068313        0.0140404       -0.081982
281708                  0.258081       -0.277868     -0.000489603     0.000923894         0.855392       -0.325615       0.00113428     0.000788496
                     -0.00048465     0.000936424        0.0857569      0.00548301      -0.00100916    -8.17909e-05         0.615923        0.773214
                        0.855483       -0.325832     -0.000972576    -0.000100868        -0.368382      -0.0507714     -0.000114576     0.000740836
                      0.00116073     0.000768311          0.61584        0.772978      -0.00015274      0.00068339        0.0139637      -0.0819853
281710                  0.257973       -0.277784     -0.000489348     0.000923976         0.855309          -0.326       0.00113448     0.000788033
                    -0.000484509     0.000936559        0.0857465      0.00549601      -0.00100904    -8.13999e-05         0.616214        0.772984
                          0.8554       -0.326217     -0.000972595    -0.000100198         -0.36829      -0.0504576     -0.000114034     0.000740988
                      0.00116091     0.000767775         0.616131        0.772749     -0.000152162      0.00068365         0.013887      -0.0819886
281712                  0.257865         -0.2777     -0.000489092     0.000924058         0.855226       -0.326385       0.00113467     0.000787569
                    -0.000484369     0.000936694        0.0857362      0.00550902      -0.00100892    -8.10097e-05         0.616505        0.772754
                        0.855316       -0.326602     -0.000972614    -9.95292e-05        -0.368198      -0.0501441     -0.000113493     0.000741138
                      0.00116109     0.000767239         0.616421        0.772519     -0.000151585     0.000683909        0.0138103      -0.0819918
281714                  0.257757       -0.277616     -0.000488837      0.00092414         0.855143        -0.32677       0.00113487     0.000787106
                    -0.000484228     0.000936829        0.0857259      0.00552203      -0.00100879      -8.062e-05         0.616795        0.772523
                        0.855232       -0.326986     -0.000972633    -9.88615e-05        -0.368105      -0.0498307     -0.000112955     0.000741287
                      0.00116127     0.000766703         0.616712        0.772289     -0.000151007     0.000684166        0.0137335      -0.0819949
281716                  0.257649       -0.277532     -0.000488582     0.000924223         0.855059       -0.327154       0.00113507     0.000786643
                    -0.000484087     0.000936964        0.0857156      0.00553504      -0.00100867     -8.0231e-05         0.617086        0.772293
                        0.855148       -0.327371     -0.000972652    -9.81948e-05        -0.368012      -0.0495176     -0.000112417     0.000741436
                      0.00116144     0.000766166         0.617002        0.772059      -0.00015043     0.000684424        0.0136568      -0.0819979
281718                  0.257541       -0.277448     -0.000488327     0.000924306         0.854976       -0.327539       0.00113527      0.00078618
                    -0.000483945     0.000937099        0.0857053      0.00554805      -0.00100855    -7.98426e-05         0.617376        0.772062
                        0.855064       -0.327756     -0.000972671    -9.75293e-05        -0.367919      -0.0492046     -0.000111882     0.000741582
                      0.00116162      0.00076563         0.617292        0.771829     -0.000149853      0.00068468        0.0135802      -0.0820009
281720                  0.257434       -0.277364     -0.000488072     0.000924389         0.854892       -0.327923       0.00113547     0.000785718
                    -0.000483804     0.000937234         0.085695      0.00556107      -0.00100843    -7.94548e-05         0.617666        0.771832
                         0.85498        -0.32814      -0.00097269    -9.68647e-05        -0.367826      -0.0488919     -0.000111348     0.000741728
                       0.0011618     0.000765094         0.617582        0.771599     -0.000149277     0.000684935        0.0135035      -0.0820039
281722                  0.257326        -0.27728     -0.000487818     0.000924473         0.854808       -0.328308       0.00113566     0.000785256
                    -0.000483663     0.000937369        0.0856847      0.00557409      -0.00100831    -7.90676e-05         0.617957        0.771601
                        0.854895       -0.328525     -0.000972709    -9.62013e-05        -0.367732      -0.0485794     -0.000110815     0.000741873
                      0.00116198     0.000764558         0.617872        0.771368       -0.0001487      0.00068519        0.0134268      -0.0820067
281724                  0.257219       -0.277196     -0.000487564     0.000924558         0.854723       -0.328692       0.00113586     0.000784794
                    -0.000483522     0.000937504        0.0856744      0.00558711      -0.00100819     -7.8681e-05         0.618247         0.77137
                         0.85481       -0.328909     -0.000972728    -9.55388e-05        -0.367639       -0.048267     -0.000110285     0.000742016
                      0.00116215     0.000764021         0.618162        0.771138     -0.000148124     0.000685444        0.0133501      -0.0820096
281726                  0.257112       -0.277112     -0.000487309     0.000924642         0.854639       -0.329076       0.00113606     0.000784332
                     -0.00048338     0.000937639        0.0856641      0.00560013      -0.00100807     -7.8295e-05         0.618537        0.771139
                        0.854725       -0.329293     -0.000972747    -9.48775e-05        -0.367545      -0.0479549     -0.000109755     0.000742159
                      0.00116233     0.000763484         0.618452        0.770907     -0.000147548     0.000685698        0.0132734      -0.0820123
281728                  0.257004       -0.277028     -0.000487056     0.000924727         0.854554        -0.32946       0.00113626      0.00078387
                    -0.000483239     0.000937774        0.0856538      0.00561316      -0.00100795    -7.79097e-05         0.618827        0.770908
                         0.85464       -0.329677     -0.000972766    -9.42171e-05        -0.367451       -0.047643     -0.000109228       0.0007423
                      0.00116251     0.000762948         0.618742        0.770676     -0.000146973      0.00068595        0.0131967       -0.082015
281730                  0.256897       -0.276944     -0.000486802     0.000924813         0.854469       -0.329844       0.00113646     0.000783409
                    -0.000483097     0.000937909        0.0856435      0.00562618      -0.00100783    -7.75248e-05         0.619117        0.770677
                        0.854554       -0.330061     -0.000972785    -9.35578e-05        -0.367357      -0.0473313     -0.000108701      0.00074244
                      0.00116268     0.000762411         0.619032        0.770446     -0.000146397     0.000686202          0.01312      -0.0820176
281732                   0.25679        -0.27686     -0.000486548     0.000924899         0.854384       -0.330228       0.00113666     0.000782948
                    -0.000482955     0.000938044        0.0856332      0.00563922      -0.00100771    -7.71406e-05         0.619406        0.770445
                        0.854469       -0.330445     -0.000972804    -9.28995e-05        -0.367262      -0.0470198     -0.000108176     0.000742578
                      0.00116286     0.000761874         0.619321        0.770215     -0.000145822     0.000686453        0.0130434      -0.0820202
281734                  0.256683       -0.276776     -0.000486295     0.000924985         0.854299       -0.330611       0.00113686     0.000782486
                    -0.000482814     0.000938179         0.085623      0.00565225      -0.00100759     -7.6757e-05         0.619696        0.770214
                        0.854383       -0.330829     -0.000972823    -9.22423e-05        -0.367167      -0.0467085     -0.000107652     0.000742716
                      0.00116304     0.000761337         0.619611        0.769984     -0.000145247     0.000686703        0.0129667      -0.0820226
281736                  0.256576       -0.276692     -0.000486042     0.000925071         0.854213       -0.330995       0.00113706     0.000782025
                    -0.000482672     0.000938315        0.0856127      0.00566528      -0.00100747    -7.63739e-05         0.619986        0.769983
                        0.854297       -0.331213     -0.000972842     -9.1586e-05        -0.367073      -0.0463975     -0.000107126     0.000742853
                      0.00116321       0.0007608           0.6199        0.769753     -0.000144673     0.000686953          0.01289      -0.0820251
281738                  0.256469       -0.276608     -0.000485789     0.000925158         0.854128       -0.331379       0.00113726     0.000781565
                     -0.00048253     0.000938451        0.0856024      0.00567832      -0.00100735    -7.59914e-05         0.620275        0.769751
                        0.854211       -0.331596     -0.000972861    -9.09308e-05        -0.366978      -0.0460866     -0.000106595     0.000742994
                      0.00116339     0.000760264         0.620189        0.769522     -0.000144098     0.000687202        0.0128134      -0.0820274
281740                  0.256363       -0.276524     -0.000485536     0.000925245         0.854042       -0.331762       0.00113746     0.000781104
                    -0.000482388     0.000938587        0.0855922      0.00569136      -0.00100723    -7.56094e-05         0.620565        0.769519
                        0.854124        -0.33198      -0.00097288    -9.02766e-05        -0.366882      -0.0457759     -0.000106074      0.00074316
                      0.00116356     0.000759728         0.620479         0.76929     -0.000143524      0.00068745        0.0127367      -0.0820297
281742                  0.256256        -0.27644     -0.000485284     0.000925333         0.853956       -0.332146       0.00113766     0.000780644
                    -0.000482246     0.000938723        0.0855819      0.00570441      -0.00100711     -7.5228e-05         0.620854        0.769287
                        0.854038       -0.332363     -0.000972899    -8.96233e-05        -0.366787      -0.0454655     -0.000105593     0.000743299
                      0.00116374     0.000759192         0.620768        0.769059      -0.00014295     0.000687697        0.0126601       -0.082032
281744                   0.25615       -0.276356     -0.000485032     0.000925421         0.853869       -0.332529       0.00113786     0.000780184
                    -0.000482105      0.00093886        0.0855717      0.00571745      -0.00100699    -7.48472e-05         0.621143        0.769055
                        0.853951       -0.332746     -0.000972918    -8.89711e-05        -0.366691      -0.0451552     -0.000105088      0.00074342
                      0.00116391     0.000758657         0.621057        0.768827     -0.000142376     0.000687944        0.0125834      -0.0820342
281746                  0.256043       -0.276273     -0.000484779     0.000925509         0.853783       -0.332912       0.00113806     0.000779724
                    -0.000481963     0.000938997        0.0855614       0.0057305      -0.00100687    -7.44669e-05         0.621432        0.768823
                        0.853864        -0.33313     -0.000972937    -8.83198e-05        -0.366595      -0.0448452     -0.000104578     0.000743547
                      0.00116409     0.000758123         0.621346        0.768596     -0.000141803      0.00068819        0.0125068      -0.0820363
281748                  0.255937       -0.276189     -0.000484528     0.000925598         0.853696       -0.333295       0.00113827     0.000779265
                    -0.000481822     0.000939134        0.0855512      0.00574355      -0.00100675    -7.40872e-05         0.621721        0.768591
                        0.853777       -0.333513     -0.000972956    -8.76695e-05        -0.366499      -0.0445353     -0.000104069     0.000743675
                      0.00116426     0.000757589         0.621634        0.768364      -0.00014123     0.000688435        0.0124301      -0.0820383
281750                   0.25583       -0.276105     -0.000484276     0.000925687         0.853609       -0.333678       0.00113847     0.000778806
                     -0.00048168     0.000939271         0.085541      0.00575661      -0.00100663     -7.3708e-05          0.62201        0.768359
                        0.853689       -0.333896     -0.000972975    -8.70202e-05        -0.366403      -0.0442257     -0.000103562     0.000743804
                      0.00116444     0.000757055         0.621923        0.768132     -0.000140657     0.000688679        0.0123535      -0.0820403
281752                  0.255724       -0.276021     -0.000484025     0.000925776         0.853522       -0.334061       0.00113867     0.000778347
                    -0.000481539     0.000939409        0.0855308      0.00576966      -0.00100651    -7.33294e-05         0.622299        0.768127
                        0.853602       -0.334279     -0.000972994    -8.63719e-05        -0.366307      -0.0439163     -0.000103057     0.000743933
                      0.00116461     0.000756521         0.622212          0.7679     -0.000140084     0.000688923        0.0122768      -0.0820422
281754                  0.255618       -0.275937     -0.000483773     0.000925866         0.853435       -0.334444       0.00113887     0.000777888
                    -0.000481398     0.000939547        0.0855205      0.00578272      -0.00100639    -7.29513e-05         0.622588        0.767894
                        0.853514       -0.334661     -0.000973013    -8.57246e-05         -0.36621       -0.043607     -0.000102553     0.000744061
                      0.00116478     0.000755987           0.6225        0.767668     -0.000139512     0.000689166        0.0122002      -0.0820441
281756                  0.255512       -0.275853     -0.000483522     0.000925955         0.853348       -0.334826       0.00113908      0.00077743
                    -0.000481257     0.000939685        0.0855103      0.00579578      -0.00100627    -7.25738e-05         0.622876        0.767662
                        0.853426       -0.335044     -0.000973032    -8.50782e-05        -0.366113       -0.043298     -0.000102052     0.000744189
                      0.00116495     0.000755454         0.622789        0.767436     -0.000138939     0.000689408        0.0121236      -0.0820459
281758                  0.255406       -0.275769     -0.000483271     0.000926046          0.85326       -0.335209       0.00113928     0.000776971
                    -0.000481116     0.000939823        0.0855001      0.00580885      -0.00100615    -7.21969e-05         0.623165        0.767429
                        0.853338       -0.335427      -0.00097305    -8.44328e-05        -0.366016      -0.0429892     -0.000101553     0.000744316
                      0.00116513      0.00075492         0.623077        0.767204     -0.000138367      0.00068965         0.012047      -0.0820476
281760                    0.2553       -0.275685     -0.000483021     0.000926136         0.853172       -0.335591       0.00113948     0.000776513
                    -0.000480975     0.000939961        0.0854899      0.00582191      -0.00100603    -7.18205e-05         0.623453        0.767196
                        0.853249       -0.335809     -0.000973069    -8.37883e-05        -0.365919      -0.0426806     -0.000101056     0.000744442
                       0.0011653     0.000754386         0.623365        0.766972     -0.000137796     0.000689891        0.0119704      -0.0820493
281762                  0.255195       -0.275601     -0.000482771     0.000926227         0.853084       -0.335974       0.00113969     0.000776054
                    -0.000480834     0.000940099        0.0854797      0.00583498      -0.00100591    -7.14448e-05         0.623742        0.766963
                        0.853161       -0.336192     -0.000973088    -8.31449e-05        -0.365822      -0.0423722     -0.000100561     0.000744568
