! TOUCHSTONE file generated by CST MICROWAVE STUDIO
! Date and time: Wed Oct 15 17:29:12 2025
! Project name: Teste_Macro_Metasurface_Nanopilar.cst
! Parameters = {H=600; L_x=95; L_y=85; Lambda=1064; Max_L=200; Min_L=70; PathPara=1; Phi=0; Step_L=10; Theta=0; p=520; phaseX=180; phaseY=0}
! Header version: 2018
! Port assignment regex: !\s*Touchstone port\s*([0-9]+)\s*=\s*(CST MWS port|CST DS port)\s*([0-9]+|Zmin|Zmax)\s*\(\"(.*)\"\)(\s*mode\s*([0-9]+))?.*
! Touchstone port assignment:
! Touchstone port 1 = CST MWS port Zmax ("") mode 1
! Touchstone port 2 = CST MWS port Zmax ("") mode 2
! Touchstone port 3 = CST MWS port Zmin ("") mode 1
! Touchstone port 4 = CST MWS port Zmin ("") mode 2
! S-Parameters are not renormalized. Each port impedance will be approximated by the real part at minimum frequency. The values are described via the [Reference] keyword.
! Default impedance is overridden by [Reference]
[Version] 2.0
# GHz S RI R 376.73
[Number of Ports] 4
[Reference]
376.73 376.73 259.888 259.888 
[Number of Frequencies] 51
[Network Data]
281700                 0.0179637       -0.101092     -0.000146023    -0.000140673       -0.0613639       -0.992368      -0.00024576     4.66431e-05
                     -0.00019975     2.25898e-05       0.00508618      -0.0760876     -0.000199886     3.05965e-05        -0.203521       -0.975655
                      -0.0614357       -0.992057     -0.000221601     3.17245e-05        0.0301678       0.0982219     -9.66561e-05     0.000166569
                    -7.93986e-05    -3.90788e-05        -0.203143       -0.975385     -0.000119802     0.000181466        0.0348357         0.06793
281702                 0.0179516       -0.101089     -0.000146058    -0.000140649       -0.0616071       -0.992353     -0.000245749     4.66995e-05
                    -0.000199846     2.30075e-05       0.00507525      -0.0760822     -0.000199882     3.06463e-05        -0.203766       -0.975604
                      -0.0616789       -0.992042     -0.000221594     3.17762e-05        0.0302036       0.0982061     -9.66201e-05     0.000166559
                    -7.92434e-05     -3.9143e-05        -0.203388       -0.975334     -0.000119747     0.000181491        0.0348577       0.0679118
281704                 0.0179395       -0.101087     -0.000146094    -0.000140626       -0.0618502       -0.992339     -0.000245737     4.67559e-05
                    -0.000199941     2.34255e-05       0.00506431      -0.0760767     -0.000199878     3.06962e-05        -0.204012       -0.975553
                      -0.0619222       -0.992027     -0.000221587     3.18278e-05        0.0302394       0.0981902     -9.65841e-05      0.00016655
                    -7.90883e-05    -3.92072e-05        -0.203634       -0.975283     -0.000119691     0.000181517        0.0348796       0.0678936
281706                 0.0179274       -0.101084     -0.000146129    -0.000140603       -0.0620934       -0.992324     -0.000245725     4.68123e-05
                    -0.000200036     2.38438e-05       0.00505338      -0.0760712     -0.000199875     3.07461e-05        -0.204257       -0.975502
                      -0.0621654       -0.992012      -0.00022158     3.18795e-05        0.0302751       0.0981744      -9.6548e-05      0.00016654
                    -7.89334e-05    -3.92717e-05        -0.203879       -0.975233     -0.000119635     0.000181543        0.0349015       0.0678754
281708                 0.0179153       -0.101082     -0.000146165     -0.00014058       -0.0623365       -0.992309     -0.000245713     4.68687e-05
                     -0.00020013     2.42623e-05       0.00504245      -0.0760657     -0.000199871      3.0796e-05        -0.204503       -0.975451
                      -0.0624086       -0.991998     -0.000221572     3.19311e-05        0.0303109       0.0981585     -9.65119e-05     0.000166531
                    -7.87786e-05    -3.93363e-05        -0.204125       -0.975182     -0.000119579     0.000181569        0.0349234       0.0678572
281710                 0.0179033       -0.101079     -0.000146201    -0.000140556       -0.0625796       -0.992294     -0.000245701      4.6925e-05
                    -0.000200224      2.4681e-05       0.00503152      -0.0760602     -0.000199867     3.08459e-05        -0.204748         -0.9754
                      -0.0626518       -0.991983     -0.000221565     3.19828e-05        0.0303467       0.0981427     -9.64757e-05     0.000166521
                    -7.86239e-05    -3.94011e-05         -0.20437       -0.975131     -0.000119523     0.000181595        0.0349453        0.067839
281712                 0.0178912       -0.101077     -0.000146236    -0.000140533       -0.0628228       -0.992279     -0.000245689     4.69814e-05
                    -0.000200317        2.51e-05       0.00502059      -0.0760547     -0.000199863     3.08958e-05        -0.204993       -0.975349
                       -0.062895       -0.991968     -0.000221558     3.20345e-05        0.0303824       0.0981268     -9.64395e-05     0.000166511
                    -7.84694e-05    -3.94661e-05        -0.204616        -0.97508     -0.000119467      0.00018162        0.0349672       0.0678207
281714                 0.0178791       -0.101074     -0.000146272     -0.00014051       -0.0630659       -0.992264     -0.000245678     4.70377e-05
                     -0.00020041     2.55193e-05       0.00500966      -0.0760492     -0.000199859     3.09457e-05        -0.205239       -0.975298
                      -0.0631382       -0.991953      -0.00022155     3.20861e-05        0.0304182       0.0981109     -9.64033e-05     0.000166502
                     -7.8315e-05    -3.95313e-05        -0.204861       -0.975029     -0.000119411     0.000181646        0.0349891       0.0678025
281716                  0.017867       -0.101072     -0.000146308    -0.000140486        -0.063309       -0.992249     -0.000245666      4.7094e-05
                    -0.000200502     2.59388e-05       0.00499873      -0.0760437     -0.000199855     3.09956e-05        -0.205484       -0.975246
                      -0.0633814       -0.991937     -0.000221543     3.21378e-05        0.0304539        0.098095      -9.6367e-05     0.000166492
                    -7.81607e-05    -3.95966e-05        -0.205106       -0.974978     -0.000119355     0.000181672         0.035011       0.0677843
281718                 0.0178549       -0.101069     -0.000146343    -0.000140463       -0.0635521       -0.992234     -0.000245654     4.71503e-05
                    -0.000200594     2.63586e-05        0.0049878      -0.0760382     -0.000199851     3.10455e-05         -0.20573       -0.975195
                      -0.0636246       -0.991922     -0.000221536     3.21894e-05        0.0304896        0.098079     -9.63307e-05     0.000166483
                    -7.80065e-05    -3.96621e-05        -0.205352       -0.974926       -0.0001193     0.000181697        0.0350329        0.067766
281720                 0.0178428       -0.101067     -0.000146379     -0.00014044       -0.0637953       -0.992219     -0.000245642     4.72066e-05
                    -0.000200685     2.67786e-05       0.00497687      -0.0760327     -0.000199847     3.10954e-05        -0.205975       -0.975144
                      -0.0638678       -0.991907     -0.000221528     3.22411e-05        0.0305254       0.0980631     -9.62944e-05     0.000166473
                    -7.78524e-05    -3.97278e-05        -0.205597       -0.974875     -0.000119244     0.000181723        0.0350547       0.0677478
281722                 0.0178307       -0.101064     -0.000146415    -0.000140416       -0.0640384       -0.992204      -0.00024563      4.7263e-05
                    -0.000200776     2.71989e-05       0.00496594      -0.0760272     -0.000199843     3.11453e-05         -0.20622       -0.975092
                       -0.064111       -0.991892     -0.000221521     3.22927e-05        0.0305611       0.0980471      -9.6258e-05     0.000166464
                    -7.76985e-05    -3.97937e-05        -0.205843       -0.974824     -0.000119188     0.000181748        0.0350766       0.0677295
281724                 0.0178186       -0.101062     -0.000146451    -0.000140393       -0.0642815       -0.992189     -0.000245618     4.73193e-05
                    -0.000200866     2.76194e-05       0.00495501      -0.0760217     -0.000199839     3.11952e-05        -0.206466       -0.975041
                      -0.0643542       -0.991876     -0.000221514     3.23443e-05        0.0305968       0.0980312     -9.62217e-05     0.000166454
                    -7.75447e-05    -3.98597e-05        -0.206088       -0.974772     -0.000119132     0.000181774        0.0350984       0.0677113
281726                 0.0178065       -0.101059     -0.000146487     -0.00014037       -0.0645246       -0.992173     -0.000245606     4.73756e-05
                    -0.000200956     2.80402e-05       0.00494409      -0.0760162     -0.000199835     3.12452e-05        -0.206711       -0.974989
                      -0.0645974       -0.991861     -0.000221506      3.2396e-05        0.0306325       0.0980152     -9.61852e-05     0.000166445
                    -7.73909e-05    -3.99259e-05        -0.206333       -0.974721     -0.000119077       0.0001818        0.0351202        0.067693
281728                 0.0177944       -0.101057     -0.000146522    -0.000140346       -0.0647677       -0.992158     -0.000245594     4.74319e-05
                    -0.000201045     2.84613e-05       0.00493316      -0.0760107     -0.000199831     3.12951e-05        -0.206956       -0.974938
                      -0.0648406       -0.991845     -0.000221499     3.24476e-05        0.0306682       0.0979992     -9.61488e-05     0.000166435
                    -7.72373e-05    -3.99923e-05        -0.206579       -0.974669     -0.000119021     0.000181825        0.0351421       0.0676747
281730                 0.0177824       -0.101054     -0.000146558    -0.000140323       -0.0650108       -0.992142     -0.000245582     4.74882e-05
                    -0.000201134     2.88826e-05       0.00492224      -0.0760052     -0.000199827      3.1345e-05        -0.207201       -0.974886
                      -0.0650838        -0.99183     -0.000221492     3.24992e-05        0.0307039       0.0979832     -9.61123e-05     0.000166426
                    -7.70838e-05    -4.00589e-05        -0.206824       -0.974618     -0.000118966     0.000181851        0.0351639       0.0676564
281732                 0.0177703       -0.101052     -0.000146594      -0.0001403       -0.0652539       -0.992127      -0.00024557     4.75445e-05
                    -0.000201223     2.93042e-05       0.00491131      -0.0759997     -0.000199823      3.1395e-05        -0.207447       -0.974834
                       -0.065327       -0.991814     -0.000221485     3.25509e-05        0.0307395       0.0979672     -9.60758e-05     0.000166416
                    -7.69304e-05    -4.01257e-05        -0.207069       -0.974566      -0.00011891     0.000181877        0.0351857       0.0676381
281734                 0.0177582       -0.101049      -0.00014663    -0.000140277        -0.065497       -0.992111     -0.000245558     4.76007e-05
                    -0.000201311      2.9726e-05       0.00490039      -0.0759942     -0.000199819      3.1445e-05        -0.207692       -0.974782
                      -0.0655701       -0.991799     -0.000221477     3.26025e-05        0.0307752       0.0979512     -9.60393e-05     0.000166407
                    -7.67771e-05    -4.01926e-05        -0.207315       -0.974515     -0.000118855     0.000181902        0.0352075       0.0676199
281736                 0.0177461       -0.101046     -0.000146666    -0.000140253       -0.0657401       -0.992096     -0.000245546      4.7657e-05
                    -0.000201398     3.01481e-05       0.00488947      -0.0759887     -0.000199814      3.1495e-05        -0.207937       -0.974731
                      -0.0658133       -0.991783      -0.00022147     3.26541e-05        0.0308109       0.0979351     -9.60028e-05     0.000166398
                     -7.6624e-05    -4.02598e-05         -0.20756       -0.974463     -0.000118799     0.000181928        0.0352292       0.0676016
281738                  0.017734       -0.101044     -0.000146701     -0.00014023       -0.0659832        -0.99208     -0.000245534     4.77133e-05
                    -0.000201486     3.05705e-05       0.00487854      -0.0759831      -0.00019981      3.1545e-05        -0.208182       -0.974679
                      -0.0660565       -0.991767     -0.000221463     3.27057e-05        0.0308465       0.0979191     -9.59662e-05     0.000166388
                    -7.64709e-05    -4.03271e-05        -0.207805       -0.974411     -0.000118744     0.000181955         0.035251       0.0675833
281740                 0.0177219       -0.101041     -0.000146737    -0.000140207       -0.0662263       -0.992064     -0.000245522     4.77696e-05
                    -0.000201572     3.09931e-05       0.00486762      -0.0759776     -0.000199806     3.15951e-05        -0.208428       -0.974627
                      -0.0662997       -0.991751     -0.000221455     3.27573e-05        0.0308822        0.097903     -9.59296e-05     0.000166379
                    -7.63179e-05    -4.03946e-05        -0.208051       -0.974359     -0.000118688     0.000181981        0.0352728       0.0675649
281742                 0.0177098       -0.101039     -0.000146773    -0.000140183       -0.0664694       -0.992049      -0.00024551     4.78259e-05
                    -0.000201659      3.1416e-05        0.0048567      -0.0759721     -0.000199802     3.16453e-05        -0.208673       -0.974575
                      -0.0665428       -0.991735     -0.000221448     3.28089e-05        0.0309178       0.0978869      -9.5893e-05     0.000166369
                     -7.6165e-05    -4.04623e-05        -0.208296       -0.974307     -0.000118632     0.000182007        0.0352945       0.0675466
281744                 0.0176978       -0.101036     -0.000146809     -0.00014016       -0.0667125       -0.992033     -0.000245498     4.78822e-05
                    -0.000201744     3.18392e-05       0.00484578      -0.0759666     -0.000199798     3.16955e-05        -0.208918       -0.974522
                       -0.066786       -0.991719     -0.000221441     3.28605e-05        0.0309534       0.0978709     -9.58564e-05      0.00016636
                    -7.60122e-05    -4.05302e-05        -0.208541       -0.974255     -0.000118576     0.000182033        0.0353163       0.0675283
281746                 0.0176857       -0.101034     -0.000146844    -0.000140137       -0.0669556       -0.992017     -0.000245486     4.79385e-05
                     -0.00020183     3.22627e-05       0.00483486      -0.0759611     -0.000199794     3.17458e-05        -0.209163        -0.97447
                      -0.0670292       -0.991703     -0.000221433     3.29121e-05         0.030989       0.0978548     -9.58197e-05     0.000166351
                    -7.58595e-05    -4.05982e-05        -0.208786       -0.974203     -0.000118519      0.00018206         0.035338         0.06751
281748                 0.0176736       -0.101031      -0.00014688    -0.000140113       -0.0671986       -0.992001     -0.000245474     4.79948e-05
                    -0.000201915     3.26864e-05       0.00482394      -0.0759556      -0.00019979     3.17962e-05        -0.209408       -0.974418
                      -0.0672723       -0.991687     -0.000221426     3.29637e-05        0.0310247       0.0978386      -9.5783e-05     0.000166342
                    -7.57069e-05    -4.06665e-05        -0.209032       -0.974151     -0.000118463     0.000182086        0.0353597       0.0674916
281750                 0.0176615       -0.101029     -0.000146916     -0.00014009       -0.0674417       -0.991985     -0.000245462     4.80511e-05
                       -0.000202     3.31104e-05       0.00481302        -0.07595     -0.000199786     3.18465e-05        -0.209654       -0.974366
                      -0.0675155       -0.991671     -0.000221419     3.30153e-05        0.0310603       0.0978225     -9.57463e-05     0.000166332
                    -7.55543e-05    -4.07349e-05        -0.209277       -0.974099     -0.000118406     0.000182112        0.0353815       0.0674733
281752                 0.0176494       -0.101026     -0.000146952    -0.000140067       -0.0676848       -0.991969     -0.000245449     4.81075e-05
                    -0.000202084     3.35346e-05        0.0048021      -0.0759445     -0.000199782     3.18966e-05        -0.209899       -0.974313
                      -0.0677586       -0.991655     -0.000221411     3.30668e-05        0.0310958       0.0978064     -9.57096e-05     0.000166323
                    -7.54019e-05    -4.08036e-05        -0.209522       -0.974047     -0.000118349     0.000182137        0.0354032       0.0674549
281754                 0.0176373       -0.101024     -0.000146988    -0.000140043       -0.0679278       -0.991952     -0.000245437     4.81638e-05
                    -0.000202168     3.39592e-05       0.00479119       -0.075939     -0.000199779     3.19464e-05        -0.210144       -0.974261
                      -0.0680018       -0.991639     -0.000221404     3.31184e-05        0.0311314       0.0977902     -9.56729e-05     0.000166314
                    -7.52495e-05    -4.08724e-05        -0.209767       -0.973994     -0.000118292     0.000182163        0.0354249       0.0674366
281756                 0.0176252       -0.101021     -0.000147023     -0.00014002       -0.0681709       -0.991936     -0.000245425     4.82201e-05
                    -0.000202251      3.4384e-05       0.00478027      -0.0759335     -0.000199775     3.19961e-05        -0.210389       -0.974208
                      -0.0682449       -0.991622     -0.000221397     3.31699e-05         0.031167        0.097774     -9.56361e-05     0.000166305
                    -7.50973e-05    -4.09414e-05        -0.210013       -0.973942     -0.000118236     0.000182189        0.0354466       0.0674182
281758                 0.0176132       -0.101018     -0.000147059    -0.000139997        -0.068414        -0.99192     -0.000245413     4.82764e-05
                    -0.000202334     3.48091e-05       0.00476935      -0.0759279     -0.000199771     3.20458e-05        -0.210634       -0.974156
                      -0.0684881       -0.991606     -0.000221389     3.32215e-05        0.0312026       0.0977579     -9.55994e-05     0.000166295
                    -7.49451e-05    -4.10106e-05        -0.210258       -0.973889     -0.000118179     0.000182214        0.0354682       0.0673998
281760                 0.0176011       -0.101016     -0.000147095    -0.000139973        -0.068657       -0.991904     -0.000245401     4.83327e-05
                    -0.000202417     3.52345e-05       0.00475844      -0.0759224     -0.000199767     3.20954e-05        -0.210879       -0.974103
                      -0.0687312        -0.99159     -0.000221382      3.3273e-05        0.0312381       0.0977417     -9.55626e-05     0.000166286
                     -7.4793e-05    -4.10801e-05        -0.210503       -0.973837     -0.000118122     0.000182239        0.0354899       0.0673815
281762                  0.017589       -0.101013     -0.000147131     -0.00013995       -0.0689001       -0.991887     -0.000245389     4.83891e-05
                    -0.000202499     3.56602e-05       0.00474752      -0.0759169     -0.000199763     3.21451e-05        -0.211124       -0.974051
                      -0.0689743       -0.991573     -0.000221375     3.33246e-05        0.0312737       0.0977255     -9.55257e-05     0.000166277
