! TOUCHSTONE file generated by CST MICROWAVE STUDIO
! Date and time: Wed Oct 15 17:33:30 2025
! Project name: Teste_Macro_Metasurface_Nanopilar.cst
! Parameters = {H=600; L_x=170; L_y=80; Lambda=1064; Max_L=200; Min_L=70; PathPara=1; Phi=0; Step_L=10; Theta=0; p=520; phaseX=180; phaseY=0}
! Header version: 2018
! Port assignment regex: !\s*Touchstone port\s*([0-9]+)\s*=\s*(CST MWS port|CST DS port)\s*([0-9]+|Zmin|Zmax)\s*\(\"(.*)\"\)(\s*mode\s*([0-9]+))?.*
! Touchstone port assignment:
! Touchstone port 1 = CST MWS port Zmax ("") mode 1
! Touchstone port 2 = CST MWS port Zmax ("") mode 2
! Touchstone port 3 = CST MWS port Zmin ("") mode 1
! Touchstone port 4 = CST MWS port Zmin ("") mode 2
! S-Parameters are not renormalized. Each port impedance will be approximated by the real part at minimum frequency. The values are described via the [Reference] keyword.
! Default impedance is overridden by [Reference]
[Version] 2.0
# GHz S RI R 376.73
[Number of Ports] 4
[Reference]
376.73 376.73 259.888 259.888 
[Number of Frequencies] 51
[Network Data]
281700                -0.0265595      -0.0447967      -0.00025993     0.000118761         -0.40133       -0.913237     -0.000117688    -4.87976e-05
                    -0.000270709     0.000176039        0.0178353        0.164826      3.38065e-05     4.33438e-06         0.969056        0.144026
                       -0.400982       -0.913357     -2.91045e-06     2.00632e-05         0.014928       0.0503339      0.000152787    -0.000326977
                     -0.00010026    -9.00171e-05         0.969217        0.144247      0.000143263     -0.00027777       -0.0637454        0.153301
281702                -0.0265694      -0.0447867      -0.00026003     0.000118846        -0.401566       -0.913133     -0.000117748    -4.88481e-05
                    -0.000270832     0.000176029        0.0178595        0.164849       3.3772e-05     4.35105e-06         0.969102        0.143687
                       -0.401219       -0.913253     -2.95672e-06     1.99728e-05        0.0149399       0.0503267      0.000152642    -0.000327103
                    -0.000100386    -9.00926e-05         0.969263        0.143908      0.000143155    -0.000277946       -0.0636683         0.15336
281704                -0.0265793      -0.0447766      -0.00026013     0.000118932        -0.401803       -0.913029     -0.000117807    -4.88987e-05
                    -0.000270956     0.000176019        0.0178837        0.164873      3.37374e-05     4.36741e-06         0.969149        0.143349
                       -0.401455       -0.913149      -3.0032e-06     1.98826e-05        0.0149517       0.0503196      0.000152497    -0.000327228
                    -0.000100512    -9.01684e-05          0.96931        0.143569      0.000143046    -0.000278123       -0.0635911         0.15342
281706                -0.0265892      -0.0447666     -0.000260229     0.000119017        -0.402039       -0.912925     -0.000117867    -4.89494e-05
                     -0.00027108     0.000176009         0.017908        0.164896      3.37028e-05     4.38351e-06         0.969195         0.14301
                       -0.401691       -0.913046     -3.04988e-06     1.97926e-05        0.0149636       0.0503124      0.000152352    -0.000327354
                    -0.000100638    -9.02443e-05         0.969356        0.143231      0.000142938    -0.000278299       -0.0635139        0.153479
281708                -0.0265992      -0.0447565     -0.000260329     0.000119104        -0.402276       -0.912821     -0.000117926    -4.90001e-05
                    -0.000271205     0.000175999        0.0179322        0.164919      3.36681e-05     4.39935e-06         0.969241        0.142672
                       -0.401928       -0.912942     -3.09677e-06     1.97028e-05        0.0149755       0.0503052      0.000152207    -0.000327479
                    -0.000100765    -9.03202e-05         0.969402        0.142892      0.000142829    -0.000278475       -0.0634366        0.153538
281710                -0.0266091      -0.0447464     -0.000260429      0.00011919        -0.402512       -0.912716     -0.000117986     -4.9051e-05
                     -0.00027133     0.000175988        0.0179565        0.164942      3.36334e-05     4.41495e-06         0.969286        0.142333
                       -0.402164       -0.912838     -3.14385e-06     1.96133e-05        0.0149873        0.050298      0.000152062    -0.000327604
                    -0.000100893    -9.03962e-05         0.969448        0.142554       0.00014272    -0.000278651       -0.0633593        0.153598
281712                 -0.026619      -0.0447364     -0.000260529     0.000119277        -0.402749       -0.912612     -0.000118045     -4.9102e-05
                    -0.000271455     0.000175978        0.0179807        0.164966      3.35987e-05     4.43032e-06         0.969332        0.141994
                         -0.4024       -0.912734     -3.19114e-06     1.95239e-05        0.0149992       0.0502908      0.000151917    -0.000327729
                    -0.000101021     -9.0472e-05         0.969494        0.142215      0.000142611    -0.000278827       -0.0632819        0.153657
281714                -0.0266289      -0.0447263     -0.000260629     0.000119363        -0.402985       -0.912508     -0.000118105    -4.91531e-05
                    -0.000271581     0.000175968         0.018005        0.164989       3.3564e-05     4.44548e-06         0.969378        0.141656
                       -0.402636        -0.91263     -3.23861e-06     1.94347e-05         0.015011       0.0502836      0.000151772    -0.000327854
                    -0.000101149    -9.05478e-05          0.96954        0.141876      0.000142502    -0.000279003       -0.0632045        0.153716
281716                -0.0266388      -0.0447163      -0.00026073     0.000119451        -0.403222       -0.912404     -0.000118165    -4.92043e-05
                    -0.000271707     0.000175958        0.0180292        0.165012      3.35293e-05     4.46044e-06         0.969423        0.141317
                       -0.402873       -0.912526     -3.28628e-06     1.93456e-05        0.0150229       0.0502764      0.000151627    -0.000327978
                    -0.000101277    -9.06235e-05         0.969586        0.141538      0.000142392    -0.000279179        -0.063127        0.153776
281718                -0.0266487      -0.0447062      -0.00026083     0.000119538        -0.403458       -0.912299     -0.000118224    -4.92555e-05
                    -0.000271833     0.000175949        0.0180535        0.165035      3.34946e-05      4.4752e-06         0.969469        0.140979
                       -0.403109       -0.912421     -3.33413e-06     1.92567e-05        0.0150347       0.0502692      0.000151482    -0.000328103
                    -0.000101406    -9.06991e-05         0.969631        0.141199      0.000142282    -0.000279355       -0.0630495        0.153835
281720                -0.0266586      -0.0446962      -0.00026093     0.000119626        -0.403695       -0.912195     -0.000118284    -4.93069e-05
                    -0.000271959     0.000175939        0.0180777        0.165059      3.34599e-05     4.48979e-06         0.969514         0.14064
                       -0.403345       -0.912317     -3.38216e-06     1.91679e-05        0.0150466        0.050262      0.000151337    -0.000328227
                    -0.000101535    -9.07745e-05         0.969677         0.14086      0.000142172     -0.00027953       -0.0629719        0.153894
281722                -0.0266685      -0.0446861      -0.00026103     0.000119714        -0.403931        -0.91209     -0.000118344    -4.93584e-05
                    -0.000272085      0.00017593         0.018102        0.165082      3.34252e-05      4.5042e-06         0.969559        0.140301
                       -0.403581       -0.912213     -3.43038e-06     1.90793e-05        0.0150584       0.0502549      0.000151193    -0.000328351
                    -0.000101663    -9.08499e-05         0.969722        0.140521      0.000142062    -0.000279706       -0.0628943        0.153953
281724                -0.0266784       -0.044676      -0.00026113     0.000119802        -0.404167       -0.911985     -0.000118404      -4.941e-05
                    -0.000272211     0.000175921        0.0181262        0.165105      3.33905e-05     4.51844e-06         0.969604        0.139963
                       -0.403817       -0.912108     -3.47876e-06     1.89908e-05        0.0150702       0.0502477      0.000151048    -0.000328475
                    -0.000101792     -9.0925e-05         0.969767        0.140183      0.000141951    -0.000279882       -0.0628166        0.154012
281726                -0.0266883       -0.044666      -0.00026123     0.000119891        -0.404404       -0.911881     -0.000118464    -4.94617e-05
                    -0.000272338     0.000175911        0.0181505        0.165128      3.33558e-05     4.53253e-06         0.969649        0.139624
                       -0.404053       -0.912004     -3.52733e-06     1.89024e-05        0.0150821       0.0502405      0.000150903    -0.000328599
                    -0.000101921    -9.10001e-05         0.969812        0.139844      0.000141841    -0.000280057       -0.0627389        0.154071
281728                -0.0266982      -0.0446559     -0.000261331      0.00011998         -0.40464       -0.911776     -0.000118524    -4.95135e-05
                    -0.000272464     0.000175903        0.0181748        0.165152      3.33212e-05     4.54647e-06         0.969694        0.139285
                       -0.404289       -0.911899     -3.57606e-06     1.88141e-05        0.0150939       0.0502333      0.000150758    -0.000328723
                     -0.00010205    -9.10751e-05         0.969857        0.139505       0.00014173    -0.000280233       -0.0626611         0.15413
281730                -0.0267081      -0.0446458     -0.000261431     0.000120069        -0.404876       -0.911671     -0.000118584    -4.95654e-05
                     -0.00027259     0.000175894         0.018199        0.165175      3.32866e-05     4.56026e-06         0.969738        0.138947
                       -0.404525       -0.911795     -3.62495e-06     1.87258e-05        0.0151057       0.0502261      0.000150614    -0.000328846
                    -0.000102178      -9.115e-05         0.969902        0.139166      0.000141619    -0.000280408       -0.0625833        0.154189
281732                 -0.026718      -0.0446358     -0.000261531     0.000120159        -0.405112       -0.911566     -0.000118644    -4.96175e-05
                    -0.000272717     0.000175885        0.0182233        0.165198      3.32519e-05     4.57391e-06         0.969783        0.138608
                       -0.404761        -0.91169     -3.67401e-06     1.86377e-05        0.0151175       0.0502189      0.000150469     -0.00032897
                    -0.000102307    -9.12247e-05         0.969947        0.138828      0.000141508    -0.000280583       -0.0625054        0.154248
281734                -0.0267279      -0.0446257     -0.000261631     0.000120249        -0.405349       -0.911461     -0.000118704    -4.96697e-05
                    -0.000272844     0.000175876        0.0182476        0.165221      3.32174e-05     4.58743e-06         0.969827        0.138269
                       -0.404997       -0.911585     -3.72322e-06     1.85496e-05        0.0151294       0.0502117      0.000150325    -0.000329093
                    -0.000102435    -9.12994e-05         0.969991        0.138489      0.000141396    -0.000280759       -0.0624275        0.154307
281736                -0.0267377      -0.0446156     -0.000261731     0.000120339        -0.405585       -0.911356     -0.000118764    -4.97222e-05
                     -0.00027297     0.000175868        0.0182718        0.165245      3.31828e-05     4.60082e-06         0.969871        0.137931
                       -0.405233       -0.911481     -3.77259e-06     1.84616e-05        0.0151412       0.0502045       0.00015018    -0.000329217
                    -0.000102563     -9.1374e-05         0.970036         0.13815      0.000141285    -0.000280934       -0.0623495        0.154366
281738                -0.0267476      -0.0446056     -0.000261831     0.000120429        -0.405821       -0.911251     -0.000118824    -4.97749e-05
                    -0.000273097      0.00017586        0.0182961        0.165268      3.31483e-05     4.61408e-06         0.969916        0.137592
                       -0.405469       -0.911376      -3.8221e-06     1.83736e-05         0.015153       0.0501973      0.000150036     -0.00032934
                    -0.000102691    -9.14485e-05          0.97008        0.137811      0.000141173    -0.000281109       -0.0622715        0.154425
281740                -0.0267575      -0.0445955      -0.00026193      0.00012052        -0.406057       -0.911146     -0.000118885     -4.9828e-05
                    -0.000273224     0.000175851        0.0183204        0.165291      3.31138e-05     4.62722e-06          0.96996        0.137253
                       -0.405705       -0.911271     -3.87177e-06     1.82856e-05        0.0151648       0.0501901      0.000149891    -0.000329463
                    -0.000102819     -9.1523e-05         0.970124        0.137472      0.000141061    -0.000281284       -0.0621934        0.154483
281742                -0.0267674      -0.0445854      -0.00026203     0.000120611        -0.406293       -0.911041     -0.000118945    -4.98813e-05
                     -0.00027335     0.000175843        0.0183446        0.165314      3.30793e-05     4.64024e-06         0.970004        0.136914
                       -0.405941       -0.911166     -3.92157e-06     1.81976e-05        0.0151766       0.0501829      0.000149747    -0.000329586
                    -0.000102947    -9.15974e-05         0.970168        0.137134      0.000140949     -0.00028146       -0.0621153        0.154542
281744                -0.0267773      -0.0445753      -0.00026213     0.000120702        -0.406529       -0.910936     -0.000119006    -4.99348e-05
                    -0.000273477     0.000175835        0.0183689        0.165337      3.30449e-05     4.65315e-06         0.970047        0.136576
                       -0.406177       -0.911061     -3.97151e-06     1.81097e-05        0.0151884       0.0501757      0.000149603    -0.000329709
                    -0.000103075    -9.16717e-05         0.970212        0.136795      0.000140837    -0.000281635       -0.0620371        0.154601
281746                -0.0267872      -0.0445653      -0.00026223     0.000120793        -0.406765        -0.91083     -0.000119068    -4.99882e-05
                    -0.000273604     0.000175828        0.0183932        0.165361      3.30105e-05     4.66594e-06         0.970091        0.136237
                       -0.406412       -0.910956     -4.02158e-06     1.80218e-05        0.0152002       0.0501685      0.000149458    -0.000329831
                    -0.000103203     -9.1746e-05         0.970256        0.136456      0.000140725     -0.00028181       -0.0619589         0.15466
281748                -0.0267971      -0.0445552     -0.000262329     0.000120885        -0.407001       -0.910725     -0.000119129    -5.00415e-05
                    -0.000273731      0.00017582        0.0184175        0.165384      3.29761e-05     4.67862e-06         0.970135        0.135898
                       -0.406648       -0.910851     -4.07178e-06     1.79339e-05         0.015212       0.0501613      0.000149314    -0.000329954
                     -0.00010333    -9.18201e-05           0.9703        0.136117      0.000140612    -0.000281985       -0.0618806        0.154718
281750                 -0.026807      -0.0445451     -0.000262429     0.000120977        -0.407237       -0.910619     -0.000119191    -5.00947e-05
                    -0.000273858     0.000175812        0.0184418        0.165407      3.29418e-05      4.6912e-06         0.970178        0.135559
                       -0.406884       -0.910746      -4.1221e-06     1.78459e-05        0.0152238       0.0501541       0.00014917    -0.000330076
                    -0.000103457    -9.18943e-05         0.970343        0.135778        0.0001405    -0.000282161       -0.0618023        0.154777
281752                -0.0268168       -0.044535     -0.000262528     0.000121069        -0.407473       -0.910514     -0.000119252    -5.01479e-05
                    -0.000273985     0.000175805         0.018466         0.16543      3.29075e-05     4.70367e-06         0.970221         0.13522
                        -0.40712        -0.91064     -4.17254e-06      1.7758e-05        0.0152356       0.0501469      0.000149027    -0.000330199
                    -0.000103585    -9.19683e-05         0.970387        0.135439      0.000140387    -0.000282336       -0.0617239        0.154835
281754                -0.0268267      -0.0445249     -0.000262628     0.000121161        -0.407709       -0.910408     -0.000119314    -5.02012e-05
                    -0.000274112     0.000175797        0.0184903        0.165453      3.28733e-05     4.71604e-06         0.970265        0.134882
                       -0.407355       -0.910535     -4.22309e-06       1.767e-05        0.0152474       0.0501397      0.000148883    -0.000330322
                    -0.000103712    -9.20423e-05          0.97043          0.1351      0.000140274    -0.000282511       -0.0616455        0.154894
281756                -0.0268366      -0.0445148     -0.000262727     0.000121253        -0.407945       -0.910303     -0.000119375    -5.02546e-05
                    -0.000274239      0.00017579        0.0185146        0.165477      3.28391e-05      4.7283e-06         0.970308        0.134543
                       -0.407591        -0.91043     -4.27374e-06     1.75821e-05        0.0152591       0.0501325      0.000148739    -0.000330445
                    -0.000103839    -9.21162e-05         0.970473        0.134762      0.000140162    -0.000282686        -0.061567        0.154952
281758                -0.0268465      -0.0445048     -0.000262827     0.000121345        -0.408181       -0.910197     -0.000119437    -5.03081e-05
                    -0.000274366     0.000175783        0.0185389          0.1655      3.28049e-05     4.74045e-06         0.970351        0.134204
                       -0.407827       -0.910324     -4.32446e-06     1.74941e-05        0.0152709       0.0501253      0.000148595    -0.000330567
                    -0.000103966      -9.219e-05         0.970517        0.134423      0.000140049    -0.000282862       -0.0614885        0.155011
281760                -0.0268564      -0.0444947     -0.000262926     0.000121437        -0.408417       -0.910091     -0.000119499    -5.03618e-05
                    -0.000274493     0.000175776        0.0185632        0.165523      3.27708e-05     4.75249e-06         0.970394        0.133865
                       -0.408062       -0.910219     -4.37522e-06     1.74063e-05        0.0152827       0.0501181      0.000148451    -0.000330689
                    -0.000104093    -9.22638e-05          0.97056        0.134084      0.000139936    -0.000283037         -0.06141        0.155069
281762                -0.0268662      -0.0444846     -0.000263025     0.000121529        -0.408653       -0.909986     -0.000119561    -5.04156e-05
                    -0.000274621     0.000175769        0.0185875        0.165546      3.27367e-05     4.76441e-06         0.970436        0.133526
                       -0.408298       -0.910113     -4.42588e-06     1.73186e-05        0.0152945       0.0501109      0.000148307    -0.000330812
