! TOUCHSTONE file generated by CST MICROWAVE STUDIO
! Date and time: Wed Oct 15 17:33:50 2025
! Project name: Teste_Macro_Metasurface_Nanopilar.cst
! Parameters = {H=600; L_x=175; L_y=100; Lambda=1064; Max_L=200; Min_L=70; PathPara=1; Phi=0; Step_L=10; Theta=0; p=520; phaseX=180; phaseY=0}
! Header version: 2018
! Port assignment regex: !\s*Touchstone port\s*([0-9]+)\s*=\s*(CST MWS port|CST DS port)\s*([0-9]+|Zmin|Zmax)\s*\(\"(.*)\"\)(\s*mode\s*([0-9]+))?.*
! Touchstone port assignment:
! Touchstone port 1 = CST MWS port Zmax ("") mode 1
! Touchstone port 2 = CST MWS port Zmax ("") mode 2
! Touchstone port 3 = CST MWS port Zmin ("") mode 1
! Touchstone port 4 = CST MWS port Zmin ("") mode 2
! S-Parameters are not renormalized. Each port impedance will be approximated by the real part at minimum frequency. The values are described via the [Reference] keyword.
! Default impedance is overridden by [Reference]
[Version] 2.0
# GHz S RI R 376.73
[Number of Ports] 4
[Reference]
376.73 376.73 259.888 259.888 
[Number of Frequencies] 51
[Network Data]
281700                   0.17508        0.102324      3.98677e-05    -7.22066e-05         -0.78111        0.577747      1.43483e-05      1.7504e-05
                    -1.23695e-05     2.18384e-05         0.320416        0.434533      -7.9565e-06    -1.53116e-05         0.452415       -0.696776
                       -0.780832        0.577725     -7.31548e-05     4.29241e-05          0.04688        0.196349      0.000119721    -4.38848e-05
                    -3.01965e-05    -3.77058e-06         0.452081       -0.696501     -4.08388e-05     1.62604e-05         0.525556       0.0983859
281702                  0.175099        0.102302      3.93452e-05    -7.22356e-05         -0.78089        0.578041      1.47856e-05     1.69705e-05
                    -1.28245e-05     2.13864e-05           0.3206        0.434612     -7.97424e-06    -1.54787e-05         0.452008         -0.6969
                       -0.780614         0.57802     -7.24349e-05     4.25563e-05        0.0470024        0.196326      0.000119137    -4.39858e-05
                    -2.91254e-05    -3.30526e-06         0.451676       -0.696624     -4.06493e-05      1.6496e-05         0.525803       0.0979885
281704                  0.175118        0.102281      3.88238e-05    -7.22625e-05         -0.78067        0.578336      1.52284e-05     1.64454e-05
                    -1.32785e-05     2.09352e-05         0.320783         0.43469     -7.99165e-06    -1.56459e-05         0.451602       -0.697024
                       -0.780396        0.578316     -7.17206e-05     4.21896e-05        0.0471247        0.196302       0.00011855    -4.40964e-05
                    -2.80572e-05    -2.84119e-06          0.45127       -0.696747     -4.04607e-05     1.67317e-05         0.526049       0.0975907
281706                  0.175137         0.10226      3.83035e-05    -7.22873e-05         -0.78045         0.57863      1.56766e-05     1.59288e-05
                    -1.37316e-05     2.04852e-05         0.320967        0.434769     -8.00874e-06     -1.5813e-05         0.451196       -0.697147
                       -0.780178        0.578611     -7.10117e-05     4.18237e-05        0.0472471        0.196278      0.000117961    -4.42165e-05
                    -2.69918e-05    -2.37873e-06         0.450864        -0.69687     -4.02729e-05     1.69673e-05         0.526296       0.0971925
281708                  0.175156        0.102238      3.77843e-05      -7.231e-05        -0.780229        0.578925      1.61299e-05     1.54206e-05
                    -1.41838e-05     2.00365e-05         0.321151        0.434847     -8.02551e-06    -1.59801e-05         0.450789        -0.69727
                        -0.77996        0.578906     -7.03083e-05     4.14586e-05        0.0473694        0.196254       0.00011737    -4.43457e-05
                    -2.59294e-05    -1.91826e-06         0.450458       -0.696993      -4.0086e-05     1.72029e-05         0.526542       0.0967939
281710                  0.175175        0.102217      3.72662e-05    -7.23306e-05        -0.780008        0.579219       1.6588e-05     1.49207e-05
                    -1.46352e-05     1.95892e-05         0.321335        0.434926     -8.04195e-06    -1.61471e-05         0.450382       -0.697392
                       -0.779741        0.579202     -6.96104e-05     4.10941e-05        0.0474918        0.196231      0.000116778     -4.4484e-05
                    -2.48699e-05    -1.46011e-06         0.450052       -0.697115     -3.98998e-05     1.74384e-05         0.526788        0.096395
281712                  0.175194        0.102196      3.67492e-05    -7.23491e-05        -0.779788        0.579513      1.70506e-05     1.44293e-05
                    -1.50859e-05     1.91437e-05         0.321519        0.435004     -8.05807e-06    -1.63141e-05         0.449975       -0.697515
                       -0.779523        0.579497     -6.89179e-05     4.07301e-05        0.0476141        0.196207      0.000116184    -4.46311e-05
                    -2.38134e-05    -1.00464e-06         0.449646       -0.697237     -3.97146e-05     1.76739e-05         0.527034       0.0959956
281714                  0.175213        0.102174      3.62331e-05    -7.23655e-05        -0.779567        0.579808      1.75176e-05     1.39462e-05
                    -1.55358e-05     1.87001e-05         0.321704        0.435083     -8.07385e-06     -1.6481e-05         0.449568       -0.697637
                       -0.779304        0.579792     -6.82308e-05     4.03666e-05        0.0477364        0.196183      0.000115589    -4.47866e-05
                    -2.27599e-05    -5.52173e-07          0.44924       -0.697359     -3.95301e-05     1.79093e-05          0.52728       0.0955958
281716                  0.175232        0.102153      3.57181e-05    -7.23799e-05        -0.779346        0.580102      1.79886e-05     1.34714e-05
                    -1.59851e-05     1.82586e-05         0.321888        0.435161     -8.08929e-06    -1.66477e-05         0.449161       -0.697759
                       -0.779085        0.580087     -6.75492e-05     4.00035e-05        0.0478587        0.196158      0.000114993    -4.49505e-05
                    -2.17095e-05    -1.03054e-07         0.448833       -0.697481     -3.93466e-05     1.81446e-05         0.527525       0.0951957
281718                  0.175251        0.102131      3.52041e-05    -7.23922e-05        -0.779124        0.580396      1.84635e-05     1.30049e-05
                    -1.64338e-05     1.78194e-05         0.322073         0.43524     -8.10441e-06    -1.68144e-05         0.448754        -0.69788
                       -0.778866        0.580382     -6.68729e-05     3.96407e-05         0.047981        0.196134      0.000114397    -4.51225e-05
                    -2.06623e-05     3.42398e-07         0.448427       -0.697602     -3.91639e-05     1.83798e-05         0.527771       0.0947951
281720                   0.17527         0.10211      3.46911e-05    -7.24024e-05        -0.778903         0.58069      1.89419e-05     1.25466e-05
                    -1.68819e-05     1.73827e-05         0.322258        0.435318     -8.11918e-06    -1.69809e-05         0.448346       -0.698002
                       -0.778647        0.580677     -6.62019e-05     3.92781e-05        0.0481033         0.19611      0.000113801    -4.53024e-05
                    -1.96183e-05     7.83868e-07          0.44802       -0.697723     -3.89821e-05     1.86148e-05         0.528016       0.0943942
281722                  0.175289        0.102089      3.41791e-05    -7.24105e-05        -0.778682        0.580984      1.94237e-05     1.20965e-05
                    -1.73295e-05     1.69487e-05         0.322443        0.435396     -8.13362e-06    -1.71472e-05         0.447939       -0.698123
                       -0.778427        0.580972     -6.55364e-05     3.89158e-05        0.0482256        0.196086      0.000113205    -4.54899e-05
                    -1.85775e-05     1.22105e-06         0.447613       -0.697844     -3.88011e-05     1.88498e-05         0.528261       0.0939928
281724                  0.175308        0.102067      3.36681e-05    -7.24164e-05         -0.77846        0.581277      1.99086e-05     1.16546e-05
                    -1.77766e-05     1.65176e-05         0.322628        0.435475     -8.14771e-06    -1.73134e-05         0.447531       -0.698244
                       -0.778208        0.581266     -6.48761e-05     3.85536e-05        0.0483478        0.196061       0.00011261    -4.56849e-05
                    -1.75401e-05     1.65363e-06         0.447206       -0.697965      -3.8621e-05     1.90846e-05         0.528505       0.0935911
281726                  0.175327        0.102046      3.31579e-05    -7.24203e-05        -0.778239        0.581571      2.03965e-05     1.12207e-05
                    -1.82232e-05     1.60895e-05         0.322813        0.435553     -8.16147e-06    -1.74793e-05         0.447123       -0.698364
                       -0.777988        0.581561     -6.42212e-05     3.81916e-05        0.0484701        0.196037      0.000112015    -4.58871e-05
                    -1.65061e-05     2.08133e-06         0.446798       -0.698085     -3.84419e-05     1.93192e-05          0.52875        0.093189
281728                  0.175346        0.102024      3.26488e-05     -7.2422e-05        -0.778017        0.581865      2.08871e-05     1.07948e-05
                    -1.86694e-05     1.56648e-05         0.322998        0.435631     -8.17488e-06    -1.76451e-05         0.446715       -0.698484
                       -0.777768        0.581856     -6.35715e-05     3.78297e-05        0.0485923        0.196012      0.000111422    -4.60964e-05
                    -1.54756e-05     2.50387e-06         0.446391       -0.698205     -3.82636e-05     1.95537e-05         0.528994       0.0927864
281730                  0.175365        0.102003      3.21406e-05    -7.24216e-05        -0.777795        0.582158      2.13802e-05     1.03768e-05
                    -1.91151e-05     1.52435e-05         0.323184         0.43571     -8.18795e-06    -1.78106e-05         0.446307       -0.698604
                       -0.777548         0.58215     -6.29271e-05     3.74679e-05        0.0487145        0.195987      0.000110829    -4.63125e-05
                    -1.44488e-05     2.92095e-06         0.445983       -0.698325     -3.80862e-05      1.9788e-05         0.529238       0.0923835
281732                  0.175383        0.101982      3.16333e-05     -7.2419e-05        -0.777573        0.582452      2.18756e-05     9.96666e-06
                    -1.95604e-05     1.48258e-05          0.32337        0.435788     -8.20067e-06    -1.79758e-05         0.445898       -0.698724
                       -0.777328        0.582445      -6.2288e-05     3.71062e-05        0.0488367        0.195962      0.000110238    -4.65352e-05
                    -1.34256e-05     3.33231e-06         0.445575       -0.698444     -3.79097e-05      2.0022e-05         0.529482       0.0919802
281734                  0.175402         0.10196       3.1127e-05    -7.24143e-05        -0.777351        0.582745      2.23731e-05     9.56428e-06
                    -2.00053e-05      1.4412e-05         0.323556        0.435866     -8.21305e-06    -1.81408e-05          0.44549       -0.698843
                       -0.777108        0.582739      -6.1654e-05     3.67446e-05        0.0489589        0.195938      0.000109649    -4.67643e-05
                    -1.24062e-05      3.7377e-06         0.445167       -0.698564     -3.77342e-05     2.02559e-05         0.529726       0.0915765
281736                  0.175421        0.101939      3.06216e-05    -7.24073e-05        -0.777129        0.583038      2.28725e-05     9.16959e-06
                    -2.04498e-05     1.40022e-05         0.323742        0.435945     -8.22507e-06    -1.83055e-05         0.445081       -0.698962
                       -0.776887        0.583033     -6.10253e-05      3.6383e-05        0.0490811        0.195913      0.000109062    -4.69997e-05
                    -1.13908e-05     4.13686e-06         0.444759       -0.698683     -3.75595e-05     2.04895e-05         0.529969       0.0911723
281738                   0.17544        0.101917      3.01171e-05    -7.23982e-05        -0.776907        0.583332      2.33737e-05      8.7825e-06
                    -2.08939e-05     1.35966e-05         0.323928        0.436023     -8.23675e-06    -1.84698e-05         0.444672       -0.699081
                       -0.776667        0.583327     -6.04016e-05     3.60215e-05        0.0492033        0.195888      0.000108476    -4.72412e-05
                    -1.03794e-05     4.52954e-06         0.444351       -0.698801     -3.73858e-05     2.07228e-05         0.530213       0.0907678
281740                  0.175459        0.101896      2.96137e-05    -7.23868e-05        -0.776685        0.583625      2.38764e-05     8.40292e-06
                    -2.13375e-05     1.31955e-05         0.324115        0.436101     -8.24808e-06    -1.86339e-05         0.444263         -0.6992
                       -0.776446        0.583622     -5.97831e-05     3.56601e-05        0.0493255        0.195862      0.000107893    -4.74885e-05
                    -9.37212e-06     4.91551e-06         0.443943        -0.69892      -3.7213e-05     2.09559e-05         0.530456       0.0903629
281742                  0.175478        0.101874      2.91111e-05    -7.23732e-05        -0.776462        0.583918      2.43806e-05     8.03076e-06
                    -2.17806e-05     1.27988e-05         0.324301        0.436179     -8.25906e-06    -1.87976e-05         0.443854       -0.699318
                       -0.776225        0.583916     -5.91696e-05     3.52987e-05        0.0494476        0.195837      0.000107313    -4.77415e-05
                    -8.36914e-06     5.29454e-06         0.443534       -0.699038     -3.70411e-05     2.11887e-05         0.530699       0.0899576
281744                  0.175497        0.101853      2.86096e-05    -7.23574e-05         -0.77624        0.584211       2.4886e-05     7.66593e-06
                    -2.22233e-05     1.24069e-05         0.324488        0.436257     -8.26968e-06    -1.89609e-05         0.443445       -0.699436
                       -0.776004         0.58421     -5.85612e-05     3.49375e-05        0.0495698        0.195812      0.000106735        -4.8e-05
                    -7.37056e-06     5.66642e-06         0.443125       -0.699156     -3.68702e-05     2.14212e-05         0.530942       0.0895519
281746                  0.175516        0.101831       2.8109e-05    -7.23393e-05        -0.776017        0.584504      2.53924e-05     7.30832e-06
                    -2.26655e-05     1.20199e-05         0.324675        0.436335     -8.27996e-06    -1.91239e-05         0.443035       -0.699554
                       -0.775783        0.584503     -5.79578e-05     3.45763e-05        0.0496919        0.195787       0.00010616    -4.82639e-05
                    -6.37653e-06     6.03093e-06         0.442716       -0.699273     -3.67002e-05     2.16535e-05         0.531184       0.0891457
281748                  0.175535         0.10181      2.76094e-05    -7.23189e-05        -0.775794        0.584797      2.58998e-05     6.95785e-06
                    -2.31072e-05     1.16379e-05         0.324862        0.436413     -8.28988e-06    -1.92866e-05         0.442625       -0.699671
                       -0.775562        0.584797     -5.73593e-05     3.42152e-05         0.049814        0.195761      0.000105587    -4.85329e-05
                    -5.38717e-06     6.38787e-06         0.442307        -0.69939     -3.65311e-05     2.18853e-05         0.531426       0.0887392
281750                  0.175553        0.101788      2.71109e-05    -7.22963e-05        -0.775571        0.585089       2.6408e-05     6.61441e-06
                    -2.35483e-05     1.12612e-05         0.325049        0.436491     -8.29945e-06    -1.94488e-05         0.442216       -0.699788
                       -0.775341        0.585091     -5.67657e-05     3.38541e-05        0.0499361        0.195736      0.000105018    -4.88069e-05
                    -4.40265e-06     6.73705e-06         0.441898       -0.699508     -3.63629e-05     2.21169e-05         0.531668       0.0883323
281752                  0.175572        0.101767      2.66134e-05    -7.22713e-05        -0.775348        0.585382      2.69168e-05     6.27791e-06
                    -2.39888e-05     1.08898e-05         0.325236        0.436569     -8.30867e-06    -1.96106e-05         0.441806       -0.699905
                       -0.775119        0.585385     -5.61769e-05     3.34932e-05        0.0500582         0.19571      0.000104453    -4.90858e-05
                    -3.42309e-06      7.0783e-06         0.441488       -0.699624     -3.61957e-05     2.23481e-05          0.53191        0.087925
281754                  0.175591        0.101745      2.61169e-05     -7.2244e-05        -0.775125        0.585675      2.74261e-05     5.94824e-06
                    -2.44286e-05     1.05239e-05         0.325424        0.436647     -8.31753e-06     -1.9772e-05         0.441395       -0.700022
                       -0.774897        0.585678      -5.5593e-05     3.31324e-05        0.0501803        0.195684       0.00010389    -4.93693e-05
                    -2.44867e-06     7.41143e-06         0.441079       -0.699741     -3.60295e-05     2.25789e-05         0.532152       0.0875173
281756                   0.17561        0.101724      2.56215e-05    -7.22144e-05        -0.774901        0.585967      2.79357e-05     5.62531e-06
                    -2.48677e-05     1.01637e-05         0.325612        0.436725     -8.32604e-06     -1.9933e-05         0.440985       -0.700138
                       -0.774675        0.585972     -5.50139e-05     3.27718e-05        0.0503023        0.195659      0.000103331    -4.96574e-05
                    -1.47953e-06     7.73628e-06         0.440669       -0.699857     -3.58642e-05     2.28094e-05         0.532394       0.0871092
281758                  0.175629        0.101702      2.51272e-05    -7.21824e-05        -0.774678         0.58626      2.84456e-05     5.30901e-06
                    -2.53061e-05     9.80925e-06           0.3258        0.436803      -8.3342e-06    -2.00936e-05         0.440575       -0.700254
                       -0.774453        0.586265     -5.44394e-05     3.24112e-05        0.0504244        0.195633      0.000102776    -4.99499e-05
                    -5.15828e-07     8.05271e-06         0.440259       -0.699973     -3.56998e-05     2.30394e-05         0.532635       0.0867007
281760                  0.175648        0.101681       2.4634e-05    -7.21481e-05        -0.774455        0.586552      2.89555e-05     4.99924e-06
                    -2.57436e-05     9.46073e-06         0.325988        0.436881       -8.342e-06    -2.02538e-05         0.440164        -0.70037
                       -0.774231        0.586559     -5.38697e-05     3.20508e-05        0.0505464        0.195607      0.000102225    -5.02466e-05
                     4.42265e-07     8.36056e-06         0.439849       -0.700089     -3.55364e-05      2.3269e-05         0.532876       0.0862918
281762                  0.175666        0.101659       2.4142e-05    -7.21115e-05        -0.774231        0.586844      2.94655e-05     4.69591e-06
                    -2.61802e-05     9.11825e-06         0.326176        0.436959     -8.34945e-06    -2.04135e-05         0.439753       -0.700486
                       -0.774009        0.586852     -5.33045e-05     3.16906e-05        0.0506685        0.195581      0.000101678    -5.05474e-05
