! TOUCHSTONE file generated by CST MICROWAVE STUDIO
! Date and time: Wed Oct 15 17:28:56 2025
! Project name: Teste_Macro_Metasurface_Nanopilar.cst
! Parameters = {H=600; L_x=90; L_y=95; Lambda=1064; Max_L=200; Min_L=70; PathPara=1; Phi=0; Step_L=10; Theta=0; p=520; phaseX=180; phaseY=0}
! Header version: 2018
! Port assignment regex: !\s*Touchstone port\s*([0-9]+)\s*=\s*(CST MWS port|CST DS port)\s*([0-9]+|Zmin|Zmax)\s*\(\"(.*)\"\)(\s*mode\s*([0-9]+))?.*
! Touchstone port assignment:
! Touchstone port 1 = CST MWS port Zmax ("") mode 1
! Touchstone port 2 = CST MWS port Zmax ("") mode 2
! Touchstone port 3 = CST MWS port Zmin ("") mode 1
! Touchstone port 4 = CST MWS port Zmin ("") mode 2
! S-Parameters are not renormalized. Each port impedance will be approximated by the real part at minimum frequency. The values are described via the [Reference] keyword.
! Default impedance is overridden by [Reference]
[Version] 2.0
# GHz S RI R 376.73
[Number of Ports] 4
[Reference]
376.73 376.73 259.888 259.888 
[Number of Frequencies] 51
[Network Data]
281700                -0.0010384      -0.0665915      0.000361809     8.56463e-05        -0.257692       -0.962966     -0.000143122     1.02355e-05
                     0.000269777     0.000237876       0.00501879      -0.0823592     -7.95487e-05     2.19409e-05        -0.175999       -0.979916
                       -0.257637       -0.962831     -0.000220207      8.3483e-05        0.0321395       0.0584609       0.00018689    -0.000243628
                    -2.56646e-05     2.04946e-05        -0.175986       -0.980296      0.000112579     -0.00029117        0.0331667       0.0756884
281702               -0.00104884      -0.0665844      0.000361821     8.56136e-05        -0.257937       -0.962901     -0.000143043     1.02737e-05
                     0.000269831     0.000237859        0.0050073       -0.082354     -7.95642e-05     2.19233e-05        -0.176245       -0.979872
                       -0.257882       -0.962765     -0.000219972     8.35937e-05        0.0321566       0.0584436      0.000186823    -0.000243635
                    -2.58528e-05     2.04582e-05        -0.176231       -0.980252      0.000112565    -0.000291174         0.033192       0.0756709
281704               -0.00105927      -0.0665773      0.000361833     8.55808e-05        -0.258183       -0.962836     -0.000142963     1.03118e-05
                     0.000269886     0.000237841       0.00499581      -0.0823489     -7.95796e-05     2.19055e-05         -0.17649       -0.979828
                       -0.258128         -0.9627     -0.000219737      8.3704e-05        0.0321737       0.0584263      0.000186756    -0.000243641
                    -2.60412e-05      2.0422e-05        -0.176477       -0.980209      0.000112551    -0.000291178        0.0332172       0.0756535
281706                -0.0010697      -0.0665702      0.000361845      8.5548e-05        -0.258428       -0.962771     -0.000142883     1.03499e-05
                      0.00026994     0.000237823       0.00498432      -0.0823437     -7.95949e-05     2.18877e-05        -0.176735       -0.979784
                       -0.258373       -0.962635     -0.000219501      8.3814e-05        0.0321908       0.0584089       0.00018669    -0.000243647
                    -2.62298e-05     2.03861e-05        -0.176722       -0.980165      0.000112537    -0.000291181        0.0332424        0.075636
281708               -0.00108013      -0.0665631      0.000361857     8.55152e-05        -0.258673       -0.962705     -0.000142803     1.03878e-05
                     0.000269995     0.000237805       0.00497283      -0.0823385     -7.96103e-05     2.18697e-05         -0.17698        -0.97974
                       -0.258618        -0.96257     -0.000219265     8.39234e-05        0.0322079       0.0583916      0.000186623    -0.000243653
                    -2.64186e-05     2.03504e-05        -0.176968       -0.980121      0.000112523    -0.000291185        0.0332677       0.0756186
281710               -0.00109056       -0.066556       0.00036187     8.54823e-05        -0.258919        -0.96264     -0.000142724     1.04257e-05
                     0.000270049     0.000237787       0.00496134      -0.0823333     -7.96256e-05     2.18517e-05        -0.177226       -0.979696
                       -0.258863       -0.962504     -0.000219029     8.40322e-05         0.032225       0.0583743      0.000186557    -0.000243658
                    -2.66076e-05      2.0315e-05        -0.177213       -0.980077      0.000112509    -0.000291189        0.0332929       0.0756011
281712               -0.00110099      -0.0665489      0.000361882     8.54494e-05        -0.259164       -0.962575     -0.000142644     1.04635e-05
                     0.000270103     0.000237769       0.00494984      -0.0823282     -7.96409e-05     2.18335e-05        -0.177471       -0.979652
                       -0.259108       -0.962439     -0.000218792     8.41403e-05         0.032242        0.058357       0.00018649    -0.000243664
                    -2.67968e-05     2.02798e-05        -0.177459       -0.980033      0.000112495    -0.000291192        0.0333181       0.0755836
281714               -0.00111142      -0.0665417      0.000361894     8.54166e-05        -0.259409       -0.962509     -0.000142565     1.05012e-05
                     0.000270157     0.000237751       0.00493841       -0.082323     -7.96561e-05     2.18153e-05        -0.177716       -0.979608
                       -0.259353       -0.962373     -0.000218556     8.42478e-05        0.0322591       0.0583397      0.000186424     -0.00024367
                    -2.69862e-05     2.02449e-05        -0.177704       -0.979989      0.000112481    -0.000291196        0.0333433       0.0755661
281716               -0.00112185      -0.0665346      0.000361907     8.53838e-05        -0.259654       -0.962444     -0.000142485     1.05388e-05
                     0.000270211     0.000237733        0.0049269      -0.0823178     -7.96714e-05      2.1797e-05        -0.177961       -0.979564
                       -0.259598       -0.962308     -0.000218321     8.43548e-05        0.0322761       0.0583223      0.000186357    -0.000243675
                    -2.71758e-05     2.02103e-05         -0.17795       -0.979945      0.000112468    -0.000291199        0.0333684       0.0755486
281718               -0.00113227      -0.0665275      0.000361919     8.53511e-05        -0.259899       -0.962378     -0.000142406     1.05763e-05
                     0.000270265     0.000237715       0.00491541      -0.0823126     -7.96865e-05     2.17785e-05        -0.178206        -0.97952
                       -0.259843       -0.962242     -0.000218086     8.44617e-05        0.0322932        0.058305      0.000186291    -0.000243681
                    -2.73657e-05     2.01759e-05        -0.178195       -0.979901      0.000112454    -0.000291202        0.0333936       0.0755311
281720                -0.0011427      -0.0665204      0.000361931     8.53184e-05        -0.260144       -0.962312     -0.000142327     1.06138e-05
                     0.000270319     0.000237697       0.00490393      -0.0823074     -7.97017e-05       2.176e-05        -0.178452       -0.979475
                       -0.260088       -0.962176     -0.000217851     8.45688e-05        0.0323102       0.0582876      0.000186224    -0.000243686
                    -2.75557e-05     2.01418e-05        -0.178441       -0.979857       0.00011244    -0.000291205        0.0334188       0.0755136
281722               -0.00115312      -0.0665132      0.000361942     8.52858e-05         -0.26039       -0.962247     -0.000142247     1.06511e-05
                     0.000270373     0.000237679       0.00489245      -0.0823022     -7.97168e-05     2.17414e-05        -0.178697       -0.979431
                       -0.260333        -0.96211     -0.000217617     8.46761e-05        0.0323272       0.0582703      0.000186158    -0.000243692
                     -2.7746e-05      2.0108e-05        -0.178686       -0.979812      0.000112427    -0.000291208        0.0334439        0.075496
281724               -0.00116354      -0.0665061      0.000361954     8.52532e-05        -0.260635       -0.962181     -0.000142168     1.06884e-05
                     0.000270426     0.000237661       0.00488097       -0.082297     -7.97319e-05     2.17228e-05        -0.178942       -0.979387
                       -0.260577       -0.962045     -0.000217383     8.47837e-05        0.0323442       0.0582529      0.000186091    -0.000243697
                    -2.79365e-05     2.00744e-05        -0.178932       -0.979768      0.000112413    -0.000291211        0.0334691       0.0754785
281726               -0.00117397       -0.066499      0.000361965     8.52208e-05         -0.26088       -0.962115     -0.000142089     1.07255e-05
                      0.00027048     0.000237643       0.00486949      -0.0822918     -7.97469e-05      2.1704e-05        -0.179187       -0.979342
                       -0.260822       -0.961979     -0.000217149     8.48916e-05        0.0323612       0.0582356      0.000186025    -0.000243702
                    -2.81273e-05     2.00411e-05        -0.179177       -0.979724      0.000112399    -0.000291214        0.0334942        0.075461
281728               -0.00118439      -0.0664919      0.000361975     8.51884e-05        -0.261125       -0.962049      -0.00014201     1.07626e-05
                     0.000270533     0.000237625       0.00485801      -0.0822866     -7.97619e-05     2.16851e-05        -0.179432       -0.979297
                       -0.261067       -0.961913     -0.000216914     8.49997e-05        0.0323782       0.0582182      0.000185958    -0.000243707
                    -2.83183e-05     2.00081e-05        -0.179423       -0.979679      0.000112386    -0.000291216        0.0335194       0.0754434
281730               -0.00119481      -0.0664847      0.000361986     8.51562e-05         -0.26137       -0.961983     -0.000141931     1.07997e-05
                     0.000270587     0.000237607       0.00484653      -0.0822814     -7.97769e-05     2.16662e-05        -0.179677       -0.979253
                       -0.261312       -0.961847      -0.00021668     8.51079e-05        0.0323952       0.0582009      0.000185892    -0.000243712
                    -2.85096e-05     1.99754e-05        -0.179668       -0.979635      0.000112372    -0.000291219        0.0335445       0.0754259
281732               -0.00120523      -0.0664776      0.000361996      8.5124e-05        -0.261615       -0.961917     -0.000141852     1.08366e-05
                      0.00027064     0.000237588       0.00483505      -0.0822762     -7.97918e-05     2.16472e-05        -0.179922       -0.979208
                       -0.261557       -0.961781     -0.000216445     8.52161e-05        0.0324121       0.0581835      0.000185826    -0.000243717
                    -2.87011e-05     1.99429e-05        -0.179913        -0.97959      0.000112359    -0.000291221        0.0335696       0.0754083
281734               -0.00121564      -0.0664705      0.000362005      8.5092e-05         -0.26186       -0.961851     -0.000141773     1.08734e-05
                     0.000270693      0.00023757       0.00482357       -0.082271     -7.98067e-05      2.1628e-05        -0.180168       -0.979163
                       -0.261802       -0.961714      -0.00021621     8.53243e-05        0.0324291       0.0581661      0.000185759    -0.000243722
                     -2.8893e-05     1.99107e-05        -0.180159       -0.979545      0.000112345    -0.000291223        0.0335947       0.0753907
281736               -0.00122606      -0.0664633      0.000362015       8.506e-05        -0.262105       -0.961785     -0.000141695     1.09102e-05
                     0.000270746     0.000237552       0.00481209      -0.0822658     -7.98216e-05     2.16089e-05        -0.180413       -0.979119
                       -0.262047       -0.961648     -0.000215975     8.54325e-05        0.0324461       0.0581488      0.000185693    -0.000243727
                    -2.90851e-05     1.98789e-05        -0.180404       -0.979501      0.000112332    -0.000291225        0.0336198       0.0753731
281738               -0.00123648      -0.0664562      0.000362023     8.50282e-05         -0.26235       -0.961718     -0.000141616     1.09469e-05
                     0.000270799     0.000237533       0.00480062      -0.0822606     -7.98364e-05     2.15896e-05        -0.180658       -0.979074
                       -0.262291       -0.961582      -0.00021574     8.55406e-05         0.032463       0.0581314      0.000185626    -0.000243731
                    -2.92776e-05     1.98473e-05         -0.18065       -0.979456      0.000112318    -0.000291227        0.0336449       0.0753556
281740               -0.00124689      -0.0664491      0.000362032     8.49965e-05        -0.262595       -0.961652     -0.000141537     1.09835e-05
                     0.000270852     0.000237515       0.00478914      -0.0822554     -7.98512e-05     2.15702e-05        -0.180903       -0.979029
                       -0.262536       -0.961516     -0.000215504     8.56486e-05        0.0324799        0.058114       0.00018556    -0.000243736
                    -2.94703e-05      1.9816e-05        -0.180895       -0.979411      0.000112305    -0.000291229          0.03367        0.075338
281742                -0.0012573      -0.0664419       0.00036204     8.49648e-05         -0.26284       -0.961586     -0.000141459       1.102e-05
                     0.000270904     0.000237496       0.00477767      -0.0822502     -7.98659e-05     2.15508e-05        -0.181148       -0.978984
                       -0.262781       -0.961449     -0.000215269     8.57566e-05        0.0324969       0.0580966      0.000185494    -0.000243741
                    -2.96635e-05     1.97851e-05         -0.18114       -0.979366      0.000112292    -0.000291231         0.033695       0.0753204
281744               -0.00126772      -0.0664348      0.000362048     8.49332e-05        -0.263085       -0.961519      -0.00014138     1.10564e-05
                     0.000270957     0.000237477       0.00476619       -0.082245     -7.98806e-05     2.15313e-05        -0.181393       -0.978939
                       -0.263026       -0.961383     -0.000215033     8.58646e-05        0.0325138       0.0580792      0.000185427    -0.000243745
                    -2.98571e-05     1.97545e-05        -0.181386       -0.979321      0.000112278    -0.000291233        0.0337201       0.0753027
281746               -0.00127813      -0.0664277      0.000362055     8.49018e-05         -0.26333       -0.961453     -0.000141302     1.10928e-05
                     0.000271009     0.000237458       0.00475472      -0.0822398     -7.98952e-05     2.15117e-05        -0.181638       -0.978894
                       -0.263271       -0.961316     -0.000214798     8.59724e-05        0.0325307       0.0580618      0.000185361     -0.00024375
                    -3.00513e-05     1.97242e-05        -0.181631       -0.979276      0.000112265    -0.000291234        0.0337451       0.0752851
281748               -0.00128854      -0.0664205      0.000362062     8.48704e-05        -0.263575       -0.961386     -0.000141223     1.11291e-05
                     0.000271062     0.000237439       0.00474325      -0.0822346     -7.99098e-05      2.1492e-05        -0.181883       -0.978849
                       -0.263515        -0.96125     -0.000214562     8.60802e-05        0.0325476       0.0580444      0.000185294    -0.000243754
                     -3.0246e-05     1.96944e-05        -0.181876       -0.979231      0.000112252    -0.000291236        0.0337702       0.0752675
281750               -0.00129895      -0.0664134      0.000362068     8.48391e-05         -0.26382        -0.96132     -0.000141145     1.11653e-05
                     0.000271114     0.000237419       0.00473178      -0.0822294     -7.99244e-05     2.14722e-05        -0.182128       -0.978803
                        -0.26376       -0.961183     -0.000214327     8.61879e-05        0.0325645        0.058027      0.000185228    -0.000243758
                    -3.04417e-05      1.9665e-05        -0.182122       -0.979186      0.000112239    -0.000291237        0.0337952       0.0752499
281752               -0.00130936      -0.0664062      0.000362075     8.48079e-05        -0.264065       -0.961253     -0.000141067     1.12014e-05
                     0.000271165     0.000237399       0.00472031      -0.0822242     -7.99389e-05     2.14524e-05        -0.182373       -0.978758
                       -0.264005       -0.961116     -0.000214091     8.62956e-05        0.0325814       0.0580096      0.000185162    -0.000243763
                    -3.06387e-05     1.96363e-05        -0.182367       -0.979141      0.000112226    -0.000291238        0.0338202       0.0752322
281754               -0.00131977      -0.0663991      0.000362081     8.47768e-05         -0.26431       -0.961186     -0.000140989     1.12375e-05
                     0.000271217     0.000237377       0.00470884       -0.082219     -7.99534e-05     2.14325e-05        -0.182618       -0.978713
                       -0.264249       -0.961049     -0.000213856     8.64032e-05        0.0325982       0.0579922      0.000185095    -0.000243767
                     -3.0838e-05     1.96085e-05        -0.182612       -0.979095      0.000112212    -0.000291239        0.0338453       0.0752146
281756               -0.00133018      -0.0663919      0.000362086     8.47457e-05        -0.264555       -0.961119     -0.000140911     1.12735e-05
                     0.000271267     0.000237352       0.00469737      -0.0822138     -7.99678e-05     2.14125e-05        -0.182863       -0.978667
                       -0.264494       -0.960983     -0.000213621     8.65107e-05        0.0326151       0.0579748      0.000185029    -0.000243771
                    -3.10423e-05     1.95824e-05        -0.182857        -0.97905      0.000112199     -0.00029124        0.0338703       0.0751969
281758               -0.00134059      -0.0663848      0.000362092     8.47147e-05          -0.2648       -0.961052     -0.000140833     1.13094e-05
                     0.000271314     0.000237319        0.0046859      -0.0822086     -7.99821e-05     2.13924e-05        -0.183108       -0.978622
                       -0.264739       -0.960916     -0.000213385     8.66182e-05         0.032632       0.0579574      0.000184963    -0.000243775
                    -3.12638e-05     1.95617e-05        -0.183103       -0.979005      0.000112186    -0.000291241        0.0338953       0.0751792
281760               -0.00135108      -0.0663776      0.000362097     8.46838e-05        -0.265044       -0.960985     -0.000140755     1.13452e-05
                     0.000271283     0.000237238       0.00467443      -0.0822033     -7.99965e-05     2.13723e-05        -0.183353       -0.978576
                       -0.264983       -0.960849      -0.00021315     8.67257e-05        0.0326488       0.0579399      0.000184896    -0.000243779
                    -3.17436e-05     1.96019e-05        -0.183348       -0.978959      0.000112173    -0.000291242        0.0339203       0.0751616
281762               -0.00136136      -0.0663705      0.000362102      8.4653e-05        -0.265289       -0.960918     -0.000140677      1.1381e-05
                     0.000271416     0.000237377       0.00466296      -0.0821981     -8.00107e-05     2.13521e-05        -0.183598       -0.978531
                       -0.265228       -0.960782     -0.000212915     8.68331e-05        0.0326656       0.0579225       0.00018483    -0.000243783
