! TOUCHSTONE file generated by CST MICROWAVE STUDIO
! Date and time: Wed Oct 15 17:32:24 2025
! Project name: Teste_Macro_Metasurface_Nanopilar.cst
! Parameters = {H=600; L_x=150; L_y=95; Lambda=1064; Max_L=200; Min_L=70; PathPara=1; Phi=0; Step_L=10; Theta=0; p=520; phaseX=180; phaseY=0}
! Header version: 2018
! Port assignment regex: !\s*Touchstone port\s*([0-9]+)\s*=\s*(CST MWS port|CST DS port)\s*([0-9]+|Zmin|Zmax)\s*\(\"(.*)\"\)(\s*mode\s*([0-9]+))?.*
! Touchstone port assignment:
! Touchstone port 1 = CST MWS port Zmax ("") mode 1
! Touchstone port 2 = CST MWS port Zmax ("") mode 2
! Touchstone port 3 = CST MWS port Zmin ("") mode 1
! Touchstone port 4 = CST MWS port Zmin ("") mode 2
! S-Parameters are not renormalized. Each port impedance will be approximated by the real part at minimum frequency. The values are described via the [Reference] keyword.
! Default impedance is overridden by [Reference]
[Version] 2.0
# GHz S RI R 376.73
[Number of Ports] 4
[Reference]
376.73 376.73 259.888 259.888 
[Number of Frequencies] 51
[Network Data]
281700                0.00639491       0.0867918     -0.000219766    -8.48534e-05        -0.890215       -0.439775     -0.000359286     0.000438658
                    -0.000198903    -9.47659e-05        0.0207733        0.120998     -7.16526e-05    -0.000576893          0.94504        0.282027
                       -0.890027       -0.440723     -6.05302e-05    -0.000536142       -0.0721195       0.0486547     -0.000252603    -6.20759e-05
                    -0.000310347     0.000272487         0.944735        0.281691     -0.000259686    -4.65373e-05       -0.0828463       0.0912353
281702                 0.0064042       0.0868096     -0.000219614    -8.49455e-05        -0.890349         -0.4395     -0.000359048     0.000438788
                    -0.000198779    -9.48016e-05        0.0207935        0.121019     -7.18172e-05    -0.000576916         0.945136        0.281697
                       -0.890161       -0.440447      -6.0673e-05    -0.000536133       -0.0721093       0.0487029      -0.00025265    -6.16904e-05
                    -0.000310311      0.00027262         0.944831        0.281361      -0.00025965     -4.6238e-05       -0.0828109       0.0912988
281704                 0.0064135       0.0868275     -0.000219463    -8.50376e-05        -0.890483       -0.439224      -0.00035881     0.000438918
                    -0.000198656    -9.48373e-05        0.0208137        0.121039     -7.19818e-05    -0.000576939         0.945232        0.281367
                       -0.890295       -0.440171     -6.08158e-05    -0.000536125       -0.0720991       0.0487511     -0.000252697     -6.1305e-05
                    -0.000310274     0.000272753         0.944927        0.281031     -0.000259614    -4.59386e-05       -0.0827756       0.0913624
281706                 0.0064228       0.0868454     -0.000219311    -8.51298e-05        -0.890618       -0.438948     -0.000358572     0.000439048
                    -0.000198532     -9.4873e-05        0.0208339         0.12106     -7.21465e-05    -0.000576961         0.945327        0.281037
                        -0.89043       -0.439896     -6.09586e-05    -0.000536117       -0.0720888       0.0487994     -0.000252744    -6.09198e-05
                    -0.000310238     0.000272886         0.945022        0.280701     -0.000259578    -4.56391e-05       -0.0827401        0.091426
281708                0.00643211       0.0868633     -0.000219159    -8.52222e-05        -0.890752       -0.438672     -0.000358334     0.000439177
                    -0.000198409    -9.49086e-05        0.0208541         0.12108     -7.23112e-05    -0.000576984         0.945423        0.280707
                       -0.890564        -0.43962     -6.11016e-05    -0.000536109       -0.0720785       0.0488476     -0.000252791    -6.05348e-05
                    -0.000310201     0.000273019         0.945118        0.280371     -0.000259542    -4.53395e-05       -0.0827047       0.0914895
281710                0.00644142       0.0868812     -0.000219008    -8.53146e-05        -0.890885       -0.438396     -0.000358096     0.000439307
                    -0.000198285    -9.49441e-05        0.0208743        0.121101     -7.24759e-05    -0.000577006         0.945518        0.280377
                       -0.890698       -0.439344     -6.12445e-05    -0.000536101       -0.0720682       0.0488959     -0.000252837    -6.01498e-05
                    -0.000310164     0.000273152         0.945213        0.280041     -0.000259505    -4.50397e-05       -0.0826692       0.0915531
281712                0.00645073        0.086899     -0.000218856    -8.54071e-05        -0.891019        -0.43812     -0.000357857     0.000439436
                    -0.000198162    -9.49796e-05        0.0208945        0.121121     -7.26406e-05    -0.000577028         0.945613        0.280047
                       -0.890832       -0.439068     -6.13876e-05    -0.000536094       -0.0720578       0.0489441     -0.000252883    -5.97651e-05
                    -0.000310127     0.000273286         0.945308        0.279711     -0.000259467    -4.47399e-05       -0.0826336       0.0916166
281714                0.00646005       0.0869169     -0.000218705    -8.54997e-05        -0.891153       -0.437844     -0.000357619     0.000439565
                    -0.000198039    -9.50149e-05        0.0209147        0.121142     -7.28053e-05     -0.00057705         0.945708        0.279717
                       -0.890966       -0.438792     -6.15307e-05    -0.000536086       -0.0720475       0.0489924     -0.000252929    -5.93805e-05
                     -0.00031009     0.000273419         0.945404        0.279381      -0.00025943      -4.444e-05        -0.082598       0.0916801
281716                0.00646938       0.0869348     -0.000218553    -8.55924e-05        -0.891287       -0.437568      -0.00035738     0.000439694
                    -0.000197915    -9.50502e-05        0.0209349        0.121162     -7.29701e-05    -0.000577072         0.945803        0.279387
                         -0.8911       -0.438515      -6.1674e-05    -0.000536079        -0.072037       0.0490406     -0.000252974     -5.8996e-05
                    -0.000310053     0.000273552         0.945499        0.279051     -0.000259392      -4.414e-05       -0.0825624       0.0917437
281718                0.00647871       0.0869527     -0.000218402    -8.56852e-05         -0.89142       -0.437292     -0.000357141     0.000439822
                    -0.000197792    -9.50852e-05        0.0209551        0.121183     -7.31349e-05    -0.000577094         0.945898        0.279057
                       -0.891234       -0.438239     -6.18173e-05    -0.000536072       -0.0720266       0.0490889     -0.000253019    -5.86117e-05
                    -0.000310015     0.000273685         0.945593        0.278721     -0.000259354    -4.38398e-05       -0.0825267       0.0918072
281720                0.00648804       0.0869706     -0.000218251     -8.5778e-05        -0.891554       -0.437016     -0.000356902     0.000439951
                    -0.000197669    -9.51201e-05        0.0209753        0.121203     -7.32997e-05    -0.000577116         0.945992        0.278727
                       -0.891367       -0.437963     -6.19607e-05    -0.000536065       -0.0720161       0.0491372     -0.000253064    -5.82275e-05
                    -0.000309978     0.000273818         0.945688         0.27839     -0.000259315    -4.35396e-05       -0.0824909       0.0918707
281722                0.00649739       0.0869884       -0.0002181    -8.58709e-05        -0.891687        -0.43674     -0.000356663     0.000440079
                    -0.000197545    -9.51546e-05        0.0209956        0.121224     -7.34645e-05    -0.000577138         0.946087        0.278397
                       -0.891501       -0.437687     -6.21042e-05    -0.000536059       -0.0720056       0.0491854     -0.000253109    -5.78434e-05
                    -0.000309941     0.000273952         0.945783         0.27806     -0.000259276    -4.32393e-05       -0.0824551       0.0919341
281724                0.00650673       0.0870063     -0.000217949    -8.59638e-05         -0.89182       -0.436463     -0.000356424     0.000440208
                    -0.000197422    -9.51885e-05        0.0210158        0.121244     -7.36294e-05    -0.000577159         0.946181        0.278067
                       -0.891635       -0.437411     -6.22478e-05    -0.000536053       -0.0719951       0.0492337     -0.000253153    -5.74594e-05
                    -0.000309903     0.000274085         0.945877         0.27773     -0.000259237    -4.29389e-05       -0.0824193       0.0919976
281726                0.00651609       0.0870242     -0.000217798    -8.60567e-05        -0.891954       -0.436187     -0.000356184     0.000440336
                    -0.000197299    -9.52211e-05         0.021036        0.121265     -7.37942e-05    -0.000577181         0.946275        0.277737
                       -0.891768       -0.437134     -6.23915e-05    -0.000536049       -0.0719845        0.049282     -0.000253197    -5.70755e-05
                    -0.000309865     0.000274218         0.945972          0.2774     -0.000259197    -4.26383e-05       -0.0823834       0.0920611
281728                0.00652548        0.087042     -0.000217648    -8.61495e-05        -0.892087       -0.435911     -0.000355945     0.000440464
                    -0.000197179    -9.52511e-05        0.0210562        0.121285     -7.39591e-05    -0.000577202          0.94637        0.277406
                         -0.8919       -0.436858     -6.25352e-05    -0.000536048       -0.0719739       0.0493302      -0.00025324    -5.66917e-05
                    -0.000309828     0.000274351         0.946066         0.27707     -0.000259157    -4.23377e-05       -0.0823475       0.0921245
281730                0.00653476         0.08706       -0.0002175    -8.62419e-05         -0.89222       -0.435634     -0.000355705     0.000440593
                     -0.00019707    -9.52805e-05        0.0210765        0.121306      -7.4124e-05    -0.000577224         0.946464        0.277076
                       -0.892035       -0.436581     -6.26783e-05    -0.000536053       -0.0719633       0.0493785     -0.000253284    -5.63079e-05
                     -0.00030979     0.000274485          0.94616        0.276739     -0.000259117     -4.2037e-05       -0.0823115        0.092188
281732                0.00654414       0.0870778     -0.000217355    -8.63324e-05        -0.892353       -0.435358     -0.000355465     0.000440721
                    -0.000196958    -9.53383e-05        0.0210967        0.121326      -7.4289e-05    -0.000577245         0.946558        0.276746
                       -0.892168       -0.436305     -6.28119e-05    -0.000536089       -0.0719527       0.0494268     -0.000253327    -5.59241e-05
                    -0.000309752     0.000274618         0.946254        0.276409     -0.000259076    -4.17362e-05       -0.0822754       0.0922514
281734                0.00655351       0.0870957     -0.000217251    -8.63933e-05        -0.892486       -0.435081     -0.000355226     0.000440849
                    -0.000196823    -9.53817e-05        0.0211168        0.121347      -7.4454e-05    -0.000577266         0.946651        0.276416
                       -0.892301       -0.436028      -6.2739e-05    -0.000535881        -0.071942       0.0494751     -0.000253369    -5.55401e-05
                    -0.000309713     0.000274752         0.946349        0.276079     -0.000259035    -4.14352e-05       -0.0822394       0.0923148
281736                0.00656288       0.0871135     -0.000217008    -8.65345e-05        -0.892618       -0.434805     -0.000354987     0.000440978
                    -0.000196694    -9.54165e-05        0.0211372        0.121367      -7.4619e-05    -0.000577287         0.946745        0.276085
                       -0.892434       -0.435752     -6.30872e-05    -0.000535934       -0.0719313       0.0495234     -0.000253412    -5.51559e-05
                    -0.000309675     0.000274885         0.946442        0.275748     -0.000258993    -4.11342e-05       -0.0822032       0.0923782
281738                0.00657226       0.0871314     -0.000216874    -8.66243e-05        -0.892751       -0.434528     -0.000354748     0.000441108
                    -0.000196569    -9.54508e-05        0.0211574        0.121387      -7.4784e-05    -0.000577307         0.946839        0.275755
                       -0.892567       -0.435475     -6.32433e-05     -0.00053595       -0.0719205       0.0495716     -0.000253454    -5.47712e-05
                    -0.000309637     0.000275019         0.946535        0.275418     -0.000258952    -4.08331e-05       -0.0821671       0.0924416
281740                0.00658164       0.0871493     -0.000216727    -8.67169e-05        -0.892884       -0.434251     -0.000354511     0.000441239
                    -0.000196445    -9.54855e-05        0.0211776        0.121408      -7.4949e-05    -0.000577328         0.946932        0.275425
                         -0.8927       -0.435198     -6.33908e-05    -0.000535952       -0.0719097       0.0496199     -0.000253495    -5.43851e-05
                    -0.000309598     0.000275152         0.946629        0.275088     -0.000258909    -4.05319e-05       -0.0821309        0.092505
281742                0.00659103       0.0871672     -0.000216578    -8.68103e-05        -0.893016       -0.433975     -0.000354277     0.000441374
                    -0.000196321    -9.55205e-05        0.0211979        0.121428     -7.51141e-05    -0.000577349         0.947026        0.275094
                       -0.892833       -0.434922     -6.35364e-05    -0.000535949       -0.0718989       0.0496682     -0.000253536    -5.39958e-05
                    -0.000309559     0.000275286         0.946723        0.274757     -0.000258867    -4.02306e-05       -0.0820946       0.0925684
281744                0.00660042        0.087185     -0.000216428    -8.69041e-05        -0.893149       -0.433698     -0.000354057     0.000441527
                    -0.000196198    -9.55556e-05        0.0212181        0.121449     -7.52791e-05    -0.000577369         0.947119        0.274764
                       -0.892965       -0.434645     -6.36814e-05    -0.000535944       -0.0718881       0.0497165     -0.000253576    -5.35931e-05
                    -0.000309519      0.00027542         0.946816        0.274427     -0.000258824    -3.99292e-05       -0.0820583       0.0926317
281746                0.00660982       0.0872029     -0.000216278    -8.69981e-05        -0.893281       -0.433421     -0.000355229      0.00044167
                    -0.000196074    -9.55909e-05        0.0212384        0.121469     -7.54442e-05     -0.00057739         0.947211         0.27443
                       -0.893098       -0.434368     -6.38262e-05    -0.000535938       -0.0718772       0.0497648     -0.000253323     -5.2496e-05
                    -0.000309478     0.000275554         0.946909        0.274096     -0.000258781    -3.96277e-05       -0.0820223       0.0926957
281748                0.00661922       0.0872208     -0.000216127    -8.70923e-05        -0.893413       -0.433144      -0.00035349     0.000441664
                    -0.000195951    -9.56263e-05        0.0212586         0.12149     -7.56093e-05     -0.00057741         0.947305        0.274103
                       -0.893231       -0.434091     -6.39709e-05    -0.000535931       -0.0718663       0.0498131     -0.000253661    -5.29179e-05
                    -0.000309433     0.000275685         0.947002        0.273766     -0.000258737    -3.93261e-05       -0.0819855       0.0927584
281750                0.00662863       0.0872386     -0.000215977    -8.71867e-05        -0.893546       -0.432867     -0.000353268     0.000441821
                    -0.000195829    -9.56618e-05        0.0212789         0.12151     -7.57744e-05     -0.00057743         0.947398        0.273773
                       -0.893363       -0.433815     -6.41156e-05    -0.000535924       -0.0718554       0.0498614     -0.000253701    -5.25122e-05
                    -0.000309398     0.000275805         0.947095        0.273435     -0.000258694    -3.90244e-05       -0.0819491       0.0928217
281752                0.00663804       0.0872565     -0.000215826    -8.72812e-05        -0.893678        -0.43259     -0.000353033     0.000441957
                    -0.000195706    -9.56973e-05        0.0212991         0.12153     -7.59394e-05     -0.00057745         0.947491        0.273442
                       -0.893495       -0.433538     -6.42602e-05    -0.000535917       -0.0718444       0.0499097     -0.000253741    -5.21229e-05
                    -0.000309367     0.000275942         0.947188        0.273105     -0.000258649    -3.87225e-05       -0.0819126       0.0928851
281754                0.00664745       0.0872744     -0.000215675    -8.73758e-05         -0.89381       -0.432313     -0.000352795     0.000442088
                    -0.000195583     -9.5733e-05        0.0213194        0.121551     -7.61044e-05     -0.00057747         0.947583        0.273111
                       -0.893628       -0.433261     -6.44049e-05     -0.00053591       -0.0718334        0.049958     -0.000253781    -5.17377e-05
                    -0.000309329     0.000276079         0.947281        0.272774     -0.000258604    -3.84206e-05        -0.081876       0.0929484
281756                0.00665687       0.0872922     -0.000215525    -8.74706e-05        -0.893942       -0.432036     -0.000352554     0.000442216
                     -0.00019546    -9.57687e-05        0.0213397        0.121571     -7.62692e-05     -0.00057749         0.947676        0.272781
                        -0.89376       -0.432984     -6.45497e-05    -0.000535902       -0.0718224       0.0500063      -0.00025382    -5.13541e-05
                     -0.00030929     0.000276214         0.947373        0.272444     -0.000258559    -3.81185e-05       -0.0818394       0.0930117
281758                 0.0066663       0.0873101     -0.000215374    -8.75654e-05        -0.894074       -0.431759     -0.000352313     0.000442343
                    -0.000195338    -9.58044e-05        0.0213599        0.121592     -7.64338e-05     -0.00057751         0.947768         0.27245
                       -0.893892       -0.432707     -6.46944e-05    -0.000535894       -0.0718114       0.0500546     -0.000253859    -5.09714e-05
                     -0.00030925     0.000276348         0.947466        0.272113     -0.000258513    -3.78163e-05       -0.0818028       0.0930749
281760                0.00667573       0.0873279     -0.000215223    -8.76604e-05        -0.894205       -0.431482     -0.000352072      0.00044247
                    -0.000195215    -9.58403e-05        0.0213802        0.121612     -7.65975e-05    -0.000577529          0.94786         0.27212
                       -0.894024       -0.432429     -6.48393e-05    -0.000535886       -0.0718003       0.0501029     -0.000253898    -5.05892e-05
                     -0.00030921     0.000276482         0.947558        0.271782     -0.000258467    -3.75138e-05       -0.0817661       0.0931382
281762                0.00668516       0.0873458     -0.000215072    -8.77555e-05        -0.894337       -0.431205      -0.00035183     0.000442596
                    -0.000195093    -9.58762e-05        0.0214004        0.121633     -7.67589e-05     -0.00057755         0.947953        0.271789
                       -0.894156       -0.432152     -6.49842e-05    -0.000535878       -0.0717892       0.0501513     -0.000253937    -5.02075e-05
