! TOUCHSTONE file generated by CST MICROWAVE STUDIO
! Date and time: Wed Oct 15 17:31:45 2025
! Project name: Teste_Macro_Metasurface_Nanopilar.cst
! Parameters = {H=600; L_x=135; L_y=200; Lambda=1064; Max_L=200; Min_L=70; PathPara=1; Phi=0; Step_L=10; Theta=0; p=520; phaseX=180; phaseY=0}
! Header version: 2018
! Port assignment regex: !\s*Touchstone port\s*([0-9]+)\s*=\s*(CST MWS port|CST DS port)\s*([0-9]+|Zmin|Zmax)\s*\(\"(.*)\"\)(\s*mode\s*([0-9]+))?.*
! Touchstone port assignment:
! Touchstone port 1 = CST MWS port Zmax ("") mode 1
! Touchstone port 2 = CST MWS port Zmax ("") mode 2
! Touchstone port 3 = CST MWS port Zmin ("") mode 1
! Touchstone port 4 = CST MWS port Zmin ("") mode 2
! S-Parameters are not renormalized. Each port impedance will be approximated by the real part at minimum frequency. The values are described via the [Reference] keyword.
! Default impedance is overridden by [Reference]
[Version] 2.0
# GHz S RI R 376.73
[Number of Ports] 4
[Reference]
376.73 376.73 259.888 259.888 
[Number of Frequencies] 51
[Network Data]
281700                  0.208723       0.0648065     -9.26683e-05     0.000575883         0.315015       -0.919448     -0.000433815    -0.000676597
                     -7.7863e-05     0.000582279         0.260701        -0.13486     -0.000566222    -0.000538694          0.90157       -0.272918
                        0.314948       -0.919528     -0.000609411    -0.000581479         0.202653       0.0732697      0.000843049     6.43014e-05
                    -0.000466434      -0.0006619         0.901748       -0.272668      0.000846128    -5.13706e-06        -0.277367      0.00991972
281702                  0.208743       0.0648191     -9.22712e-05     0.000575381         0.314741       -0.919536      -0.00043387     -0.00067589
                    -7.74581e-05     0.000581745         0.260545       -0.134725     -0.000566255    -0.000537868           0.9015       -0.273417
                        0.314675       -0.919616     -0.000609342    -0.000580666          0.20272       0.0731522      0.000842329     6.36422e-05
                    -0.000466459    -0.000661166         0.901679       -0.273166      0.000845432    -5.91003e-06        -0.277165        0.010277
281704                  0.208763       0.0648317     -9.18748e-05     0.000574879         0.314468       -0.919625     -0.000433925    -0.000675184
                    -7.70539e-05     0.000581211          0.26039       -0.134589     -0.000566287    -0.000537042          0.90143       -0.273914
                        0.314401       -0.919704     -0.000609273    -0.000579855         0.202787       0.0730346      0.000841609     6.29846e-05
                    -0.000466483    -0.000660433         0.901609       -0.273664      0.000844737    -6.68118e-06        -0.276963       0.0106337
281706                  0.208783       0.0648443     -9.14792e-05     0.000574377         0.314194       -0.919713     -0.000433979    -0.000674479
                    -7.66506e-05     0.000580678         0.260235       -0.134454     -0.000566319    -0.000536219          0.90136       -0.274412
                        0.314128       -0.919793     -0.000609204    -0.000579045         0.202854        0.072917      0.000840889     6.23287e-05
                    -0.000466507    -0.000659701         0.901539       -0.274162      0.000844042    -7.45051e-06        -0.276761       0.0109897
281708                  0.208802       0.0648569     -9.10842e-05     0.000573876         0.313921       -0.919802     -0.000434033    -0.000673775
                    -7.62482e-05     0.000580146          0.26008       -0.134318      -0.00056635    -0.000535396          0.90129       -0.274909
                        0.313854       -0.919881     -0.000609134    -0.000578236         0.202921       0.0727994       0.00084017     6.16744e-05
                    -0.000466531     -0.00065897         0.901468       -0.274659      0.000843348    -8.21803e-06        -0.276559       0.0113451
281710                  0.208822       0.0648694       -9.069e-05     0.000573376         0.313647        -0.91989     -0.000434087    -0.000673071
                    -7.58466e-05     0.000579613         0.259926       -0.134183     -0.000566381    -0.000534574         0.901219       -0.275405
                        0.313581       -0.919969     -0.000609064    -0.000577428         0.202988       0.0726817      0.000839452     6.10218e-05
                    -0.000466553    -0.000658241         0.901398       -0.275156      0.000842653    -8.98373e-06        -0.276356       0.0116998
281712                  0.208842        0.064882     -9.02965e-05     0.000572875         0.313373       -0.919979      -0.00043414    -0.000672369
                    -7.54458e-05     0.000579081         0.259772       -0.134048      -0.00056641    -0.000533754         0.901148       -0.275901
                        0.313308       -0.920057     -0.000608994    -0.000576622         0.203054       0.0725639      0.000838733     6.03708e-05
                    -0.000466576    -0.000657512         0.901326       -0.275652      0.000841959    -9.74762e-06        -0.276154       0.0120539
281714                  0.208862       0.0648946     -8.99037e-05     0.000572376           0.3131       -0.920067     -0.000434192    -0.000671668
                    -7.50459e-05      0.00057855         0.259618       -0.133913     -0.000566439    -0.000532935         0.901076       -0.276397
                        0.313034       -0.920145     -0.000608923    -0.000575817         0.203121       0.0724461      0.000838015     5.97214e-05
                    -0.000466597    -0.000656784         0.901255       -0.276148      0.000841264    -1.05097e-05        -0.275951       0.0124074
281716                  0.208881       0.0649071     -8.95116e-05     0.000571877         0.312826       -0.920155     -0.000434244    -0.000670968
                    -7.46468e-05     0.000578019         0.259465       -0.133778     -0.000566468    -0.000532117         0.901004       -0.276892
                        0.312761       -0.920232     -0.000608852    -0.000575013         0.203188       0.0723283      0.000837298     5.90737e-05
                    -0.000466619    -0.000656058         0.901183       -0.276644       0.00084057      -1.127e-05        -0.275748       0.0127602
281718                  0.208901       0.0649197     -8.91202e-05     0.000571378         0.312553       -0.920243     -0.000434296    -0.000670268
                    -7.42486e-05     0.000577488         0.259312       -0.133643     -0.000566496      -0.0005313         0.900932       -0.277387
                        0.312487        -0.92032     -0.000608781    -0.000574211         0.203254       0.0722104      0.000836581     5.84276e-05
                    -0.000466639    -0.000655332         0.901111       -0.277139      0.000839876    -1.20284e-05        -0.275546       0.0131124
281720                  0.208921       0.0649322     -8.87296e-05      0.00057088         0.312279       -0.920331     -0.000434347     -0.00066957
                    -7.38511e-05     0.000576958         0.259159       -0.133509     -0.000566523    -0.000530485         0.900859       -0.277882
                        0.312213       -0.920408     -0.000608709     -0.00057341          0.20332       0.0720925      0.000835864     5.77831e-05
                    -0.000466659    -0.000654608         0.901038       -0.277634      0.000839183    -1.27851e-05        -0.275343       0.0134639
281722                  0.208941       0.0649447     -8.83396e-05     0.000570382         0.312005       -0.920419     -0.000434398    -0.000668872
                    -7.34545e-05     0.000576428         0.259007       -0.133374     -0.000566549     -0.00052967         0.900786       -0.278376
                         0.31194       -0.920495     -0.000608637     -0.00057261         0.203387       0.0719745      0.000835148     5.71402e-05
                    -0.000466679    -0.000653884         0.900966       -0.278129      0.000838489    -1.35399e-05         -0.27514       0.0138149
281724                  0.208961       0.0649573     -8.79503e-05     0.000569884         0.311731       -0.920507     -0.000434448    -0.000668176
                    -7.30588e-05     0.000575899         0.258855        -0.13324     -0.000566575    -0.000528857         0.900713        -0.27887
                        0.311666       -0.920583     -0.000608565    -0.000571811         0.203453       0.0718565      0.000834432      5.6499e-05
                    -0.000466698    -0.000653162         0.900892       -0.278623      0.000837796    -1.42929e-05        -0.274937       0.0141652
281726                   0.20898       0.0649698     -8.75618e-05     0.000569387         0.311458       -0.920594     -0.000434497     -0.00066748
                    -7.26638e-05      0.00057537         0.258703       -0.133105       -0.0005666    -0.000528045         0.900639       -0.279363
                        0.311393        -0.92067     -0.000608492    -0.000571014         0.203519       0.0717384      0.000833717     5.58593e-05
                    -0.000466716     -0.00065244         0.900819       -0.279116      0.000837103    -1.50442e-05        -0.274733       0.0145148
281728                     0.209       0.0649823     -8.71739e-05     0.000568891         0.311184       -0.920682     -0.000434546    -0.000666786
                    -7.22697e-05     0.000574841         0.258552       -0.132971     -0.000566625    -0.000527234         0.900565       -0.279856
                        0.311119       -0.920757     -0.000608419    -0.000570218         0.203585       0.0716203      0.000833002     5.52213e-05
                    -0.000466734     -0.00065172         0.900745        -0.27961       0.00083641    -1.57936e-05         -0.27453       0.0148639
281730                   0.20902       0.0649948     -8.67867e-05     0.000568395          0.31091       -0.920769     -0.000434595    -0.000666092
                    -7.18764e-05     0.000574313         0.258401       -0.132837     -0.000566648    -0.000526425         0.900491       -0.280349
                        0.310845       -0.920845     -0.000608346    -0.000569423         0.203651       0.0715021      0.000832287     5.45849e-05
                    -0.000466752    -0.000651001          0.90067       -0.280103      0.000835717    -1.65412e-05        -0.274327       0.0152123
281732                   0.20904       0.0650073     -8.64002e-05       0.0005679         0.310636       -0.920857     -0.000434643      -0.0006654
                    -7.14839e-05     0.000573785          0.25825       -0.132704     -0.000566672    -0.000525616         0.900416       -0.280841
                        0.310572       -0.920932     -0.000608272     -0.00056863         0.203717       0.0713839      0.000831573     5.39501e-05
                    -0.000466769    -0.000650282         0.900596       -0.280595      0.000835024     -1.7287e-05        -0.274123       0.0155601
281734                   0.20906       0.0650198     -8.60144e-05     0.000567405         0.310362       -0.920944     -0.000434691    -0.000664708
                    -7.10922e-05     0.000573258           0.2581        -0.13257     -0.000566694    -0.000524809         0.900341       -0.281333
                        0.310298       -0.921019     -0.000608198    -0.000567837         0.203783       0.0712657      0.000830859     5.33168e-05
                    -0.000466785    -0.000649565         0.900521       -0.281087      0.000834332     -1.8031e-05         -0.27392       0.0159073
281736                  0.209079       0.0650323     -8.56293e-05      0.00056691         0.310089       -0.921032     -0.000434738    -0.000664017
                    -7.07014e-05     0.000572731         0.257949       -0.132436     -0.000566716    -0.000524003         0.900266       -0.281825
                        0.310024       -0.921106     -0.000608124    -0.000567046         0.203849       0.0711474      0.000830145     5.26852e-05
                    -0.000466801    -0.000648849         0.900446       -0.281579      0.000833639    -1.87732e-05        -0.273716       0.0162538
281738                  0.209099       0.0650448     -8.52449e-05     0.000566416         0.309815       -0.921119     -0.000434785    -0.000663327
                    -7.03113e-05     0.000572204           0.2578       -0.132303     -0.000566737    -0.000523198          0.90019       -0.282316
                        0.309751       -0.921193     -0.000608049    -0.000566257         0.203915       0.0710291      0.000829432     5.20552e-05
                    -0.000466816    -0.000648134          0.90037        -0.28207      0.000832947    -1.95136e-05        -0.273512       0.0165998
281740                  0.209119       0.0650573     -8.48611e-05     0.000565922         0.309541       -0.921206     -0.000434831    -0.000662639
                    -6.99221e-05     0.000571678          0.25765       -0.132169     -0.000566757    -0.000522394         0.900114       -0.282806
                        0.309477        -0.92128     -0.000607974    -0.000565468         0.203981       0.0709107       0.00082872     5.14267e-05
                    -0.000466831    -0.000647419         0.900294       -0.282561      0.000832255    -2.02522e-05        -0.273308       0.0169451
281742                  0.209139       0.0650698      -8.4478e-05     0.000565429         0.309267       -0.921293     -0.000434877    -0.000661951
                    -6.95337e-05     0.000571152         0.257501       -0.132036     -0.000566777    -0.000521591         0.900038       -0.283297
                        0.309203       -0.921366     -0.000607899    -0.000564681         0.204046       0.0707922      0.000828007     5.07998e-05
                    -0.000466845    -0.000646706         0.900218       -0.283052      0.000831564     -2.0989e-05        -0.273104       0.0172897
281744                  0.209159       0.0650823     -8.40956e-05     0.000564936         0.308993        -0.92138     -0.000434922    -0.000661264
                     -6.9146e-05     0.000570627         0.257352       -0.131903     -0.000566796     -0.00052079         0.899961       -0.283787
                        0.308929       -0.921453     -0.000607823    -0.000563895         0.204112       0.0706738      0.000827296     5.01746e-05
                    -0.000466859    -0.000645994         0.900141       -0.283542      0.000830872     -2.1724e-05          -0.2729       0.0176338
281746                  0.209178       0.0650947     -8.37137e-05     0.000564443         0.308719       -0.921467     -0.000434967    -0.000660578
                    -6.87592e-05     0.000570102         0.257204        -0.13177     -0.000566815     -0.00051999         0.899884       -0.284276
                        0.308655       -0.921539     -0.000607747     -0.00056311         0.204177       0.0705553      0.000826584     4.95509e-05
                    -0.000466872    -0.000645283         0.900064       -0.284032       0.00083018     -2.2457e-05        -0.272696       0.0179773
281748                  0.209198       0.0651072     -8.33321e-05     0.000563951         0.308445       -0.921554     -0.000435011    -0.000659892
                    -6.83732e-05     0.000569578         0.257055       -0.131637     -0.000566832    -0.000519191         0.899806       -0.284765
                        0.308382       -0.921626     -0.000607671    -0.000562325         0.204243       0.0704367      0.000825873     4.89287e-05
                    -0.000466885    -0.000644573         0.899987       -0.284521      0.000829489    -2.31881e-05        -0.272492       0.0183201
281750                  0.209218       0.0651196     -8.29491e-05     0.000563456         0.308171        -0.92164     -0.000435055    -0.000659208
                     -6.7988e-05     0.000569055         0.256907       -0.131505     -0.000566848    -0.000518393         0.899729       -0.285254
                        0.308108       -0.921712     -0.000607598    -0.000561537         0.204308       0.0703181      0.000825163     4.83082e-05
                    -0.000466898    -0.000643864         0.899909        -0.28501      0.000828796    -2.39161e-05        -0.272287       0.0186623
281752                  0.209238       0.0651321     -8.25788e-05     0.000562977         0.307897       -0.921727     -0.000435099    -0.000658525
                    -6.76035e-05     0.000568528          0.25676       -0.131372     -0.000566873    -0.000517592         0.899651       -0.285743
                        0.307834       -0.921799      -0.00060751    -0.000560777         0.204373       0.0701994      0.000824452     4.76894e-05
                    -0.000466909    -0.000643156         0.899831       -0.285499      0.000828112    -2.46569e-05        -0.272083        0.019004
281754                  0.209258       0.0651445     -8.21964e-05     0.000562482         0.307623       -0.921814     -0.000435141    -0.000657842
                    -6.72199e-05     0.000568006         0.256612       -0.131239     -0.000566884    -0.000516799         0.899572       -0.286231
                         0.30756       -0.921885     -0.000607437     -0.00055999         0.204438       0.0700807      0.000823743     4.70723e-05
                     -0.00046692    -0.000642449         0.899753       -0.285987      0.000827418     -2.5375e-05        -0.271879        0.019345
281756                  0.209278        0.065157     -8.18175e-05     0.000561992         0.307349         -0.9219     -0.000435183    -0.000657159
                     -6.6837e-05     0.000567483         0.256465       -0.131107     -0.000566898    -0.000516005         0.899494       -0.286718
                        0.307286       -0.921971      -0.00060736     -0.00055921         0.204504        0.069962      0.000823033     4.64578e-05
                    -0.000466931    -0.000641743         0.899674       -0.286475      0.000826727    -2.60985e-05        -0.271674       0.0196853
281758                  0.209297       0.0651694     -8.14396e-05     0.000561502         0.307075       -0.921986     -0.000435287    -0.000656525
                     -6.6455e-05      0.00056696         0.256319       -0.130975     -0.000566913    -0.000515211         0.899414       -0.287206
                        0.307012       -0.922057     -0.000607282    -0.000558432         0.204569       0.0698432      0.000822329     4.58148e-05
                    -0.000466941    -0.000641038         0.899595       -0.286963      0.000826036    -2.68208e-05        -0.271469       0.0200251
281760                  0.209317       0.0651818     -8.10626e-05     0.000561013         0.306801       -0.922073     -0.000435271    -0.000655805
                    -6.60737e-05     0.000566438         0.256172       -0.130843     -0.000566927    -0.000514419         0.899335       -0.287692
                        0.306738       -0.922143     -0.000607204    -0.000557656         0.204634       0.0697244      0.000821616     4.52256e-05
                    -0.000466951    -0.000640334         0.899516        -0.28745      0.000825345    -2.75414e-05        -0.271264       0.0203643
281762                  0.209337       0.0651943     -8.06862e-05     0.000560524         0.306526       -0.922159     -0.000435311    -0.000655125
                    -6.56932e-05     0.000565917         0.256026       -0.130711      -0.00056694    -0.000513628         0.899255       -0.288179
                        0.306464       -0.922229     -0.000607125    -0.000556882         0.204699       0.0696055      0.000820907     4.46153e-05
