! TOUCHSTONE file generated by CST MICROWAVE STUDIO
! Date and time: Wed Oct 15 17:29:40 2025
! Project name: Teste_Macro_Metasurface_Nanopilar.cst
! Parameters = {H=600; L_x=100; L_y=165; Lambda=1064; Max_L=200; Min_L=70; PathPara=1; Phi=0; Step_L=10; Theta=0; p=520; phaseX=180; phaseY=0}
! Header version: 2018
! Port assignment regex: !\s*Touchstone port\s*([0-9]+)\s*=\s*(CST MWS port|CST DS port)\s*([0-9]+|Zmin|Zmax)\s*\(\"(.*)\"\)(\s*mode\s*([0-9]+))?.*
! Touchstone port assignment:
! Touchstone port 1 = CST MWS port Zmax ("") mode 1
! Touchstone port 2 = CST MWS port Zmax ("") mode 2
! Touchstone port 3 = CST MWS port Zmin ("") mode 1
! Touchstone port 4 = CST MWS port Zmin ("") mode 2
! S-Parameters are not renormalized. Each port impedance will be approximated by the real part at minimum frequency. The values are described via the [Reference] keyword.
! Default impedance is overridden by [Reference]
[Version] 2.0
# GHz S RI R 376.73
[Number of Ports] 4
[Reference]
376.73 376.73 259.888 259.888 
[Number of Frequencies] 51
[Network Data]
281700                   0.12409        0.249178     -0.000664347    -0.000218848         0.843716       -0.447818     -2.76652e-05    -0.000707128
                    -0.000646971    -0.000221575         0.144619         0.11288      0.000822938     0.000252267        -0.900182        0.377123
                        0.842741       -0.447713      0.000841788     0.000264989         0.138341        0.239508      0.000112338     0.000714536
                     1.82445e-06    -0.000680394         -0.90049        0.376815      0.000120755     0.000660095       -0.0200858        0.181656
281702                  0.124125        0.249216     -0.000664226    -0.000218809         0.843548       -0.448102     -2.79277e-05    -0.000707241
                     -0.00064693    -0.000221594         0.144642        0.112868      0.000823057     0.000252061        -0.900041        0.377453
                        0.842575       -0.447997      0.000841896     0.000264758         0.138519        0.239461      0.000112912     0.000714344
                     1.54169e-06    -0.000680491        -0.900349        0.377145      0.000121372     0.000659907       -0.0199772        0.181679
281704                  0.124159        0.249253     -0.000664105     -0.00021877          0.84338       -0.448387     -2.81905e-05    -0.000707353
                    -0.000646889    -0.000221612         0.144666        0.112856      0.000823178     0.000251854          -0.8999        0.377783
                        0.842408       -0.448282      0.000842005     0.000264526         0.138698        0.239413      0.000113485     0.000714151
                     1.25879e-06    -0.000680588        -0.900208        0.377475      0.000121988     0.000659718       -0.0198685        0.181702
281706                  0.124193        0.249291     -0.000663984    -0.000218731         0.843212       -0.448672     -2.84533e-05    -0.000707466
                    -0.000646848    -0.000221631         0.144689        0.112843      0.000823301     0.000251647        -0.899758        0.378113
                        0.842241       -0.448566      0.000842114     0.000264295         0.138876        0.239365      0.000114058     0.000713958
                     9.75758e-07    -0.000680685        -0.900067        0.377805      0.000122605     0.000659528       -0.0197598        0.181725
281708                  0.124227        0.249328     -0.000663863    -0.000218693         0.843044       -0.448956     -2.87164e-05    -0.000707579
                    -0.000646807    -0.000221649         0.144712        0.112831      0.000823424      0.00025144        -0.899617        0.378443
                        0.842074       -0.448851      0.000842222     0.000264063         0.139054        0.239317      0.000114632     0.000713764
                     6.92593e-07    -0.000680782        -0.899925        0.378136      0.000123223     0.000659338       -0.0196511        0.181747
281710                  0.124261        0.249366     -0.000663741    -0.000218654         0.842876       -0.449241     -2.89797e-05    -0.000707692
                    -0.000646766    -0.000221667         0.144735        0.112819      0.000823548     0.000251233        -0.899475        0.378773
                        0.841907       -0.449135       0.00084233     0.000263832         0.139233        0.239269      0.000115205      0.00071357
                     4.09294e-07    -0.000680879        -0.899784        0.378466       0.00012384     0.000659147       -0.0195424         0.18177
281712                  0.124295        0.249403      -0.00066362    -0.000218616         0.842708       -0.449525     -2.92431e-05    -0.000707804
                    -0.000646725    -0.000221685         0.144758        0.112807      0.000823673     0.000251026        -0.899334        0.379103
                        0.841739       -0.449419      0.000842439       0.0002636         0.139411        0.239221      0.000115779     0.000713375
                      1.2586e-07    -0.000680976        -0.899643        0.378796      0.000124457     0.000658955       -0.0194336        0.181792
281714                  0.124329         0.24944     -0.000663499    -0.000218577         0.842539        -0.44981     -2.95067e-05    -0.000707917
                    -0.000646684    -0.000221703         0.144781        0.112795      0.000823799     0.000250819        -0.899192        0.379433
                        0.841572       -0.449704      0.000842547     0.000263368         0.139589        0.239173      0.000116352      0.00071318
                    -1.57707e-07    -0.000681073        -0.899501        0.379126      0.000125074     0.000658763       -0.0193249        0.181815
281716                  0.124364        0.249478     -0.000663377    -0.000218539         0.842371       -0.450094     -2.97705e-05    -0.000708029
                    -0.000646643    -0.000221721         0.144804        0.112783      0.000823924     0.000250612         -0.89905        0.379762
                        0.841404       -0.449988      0.000842655     0.000263137         0.139768        0.239124      0.000116926     0.000712984
                    -4.41409e-07     -0.00068117        -0.899359        0.379456      0.000125692      0.00065857       -0.0192161        0.181837
281718                  0.124398        0.249515     -0.000663256    -0.000218501         0.842202       -0.450378     -3.00345e-05    -0.000708142
                    -0.000646602    -0.000221739         0.144828        0.112771       0.00082405     0.000250406        -0.898908        0.380092
                        0.841237       -0.450272      0.000842763     0.000262905         0.139946        0.239076      0.000117499     0.000712788
                    -7.25244e-07    -0.000681267        -0.899218        0.379786      0.000126309     0.000658376       -0.0191072        0.181859
281720                  0.124432        0.249553     -0.000663135    -0.000218463         0.842034       -0.450663     -3.02986e-05    -0.000708254
                    -0.000646561    -0.000221757         0.144851        0.112759      0.000824177     0.000250199        -0.898766        0.380422
                        0.841069       -0.450556      0.000842871     0.000262674         0.140125        0.239027      0.000118073     0.000712591
                    -1.00921e-06    -0.000681364        -0.899076        0.380116      0.000126927     0.000658182       -0.0189984        0.181882
281722                  0.124466         0.24959     -0.000663013    -0.000218425         0.841865       -0.450947     -3.05629e-05    -0.000708367
                    -0.000646521    -0.000221774         0.144874        0.112747      0.000824303     0.000249993        -0.898623        0.380752
                        0.840901        -0.45084      0.000842979     0.000262442         0.140303        0.238978      0.000118647     0.000712394
                    -1.29331e-06    -0.000681461        -0.898934        0.380445      0.000127545     0.000657987       -0.0188896        0.181904
281724                  0.124501        0.249628     -0.000662892    -0.000218387         0.841696       -0.451231     -3.08274e-05    -0.000708479
                     -0.00064648    -0.000221792         0.144897        0.112735       0.00082443     0.000249787        -0.898481        0.381081
                        0.840733       -0.451125      0.000843087      0.00026221         0.140481        0.238929      0.000119221     0.000712196
                    -1.57755e-06    -0.000681558        -0.898791        0.380775      0.000128162     0.000657791       -0.0187807        0.181926
281726                  0.124535        0.249666     -0.000662771    -0.000218349         0.841527       -0.451515     -3.10921e-05    -0.000708592
                    -0.000646439     -0.00022181          0.14492        0.112723      0.000824556     0.000249581        -0.898338        0.381411
                        0.840565       -0.451409      0.000843194     0.000261978          0.14066         0.23888      0.000119795     0.000711998
                    -1.86192e-06    -0.000681655        -0.898649        0.381105       0.00012878     0.000657595       -0.0186718        0.181948
281728                  0.124569        0.249703     -0.000662649    -0.000218312         0.841358       -0.451799     -3.13569e-05    -0.000708704
                    -0.000646398    -0.000221827         0.144943        0.112711      0.000824683     0.000249375        -0.898196         0.38174
                        0.840397       -0.451692      0.000843302     0.000261747         0.140838        0.238831      0.000120369     0.000711799
                    -2.14642e-06    -0.000681753        -0.898507        0.381435      0.000129398     0.000657399       -0.0185628         0.18197
281730                  0.124603        0.249741     -0.000662528    -0.000218274         0.841188       -0.452083     -3.16219e-05    -0.000708816
                    -0.000646358    -0.000221844         0.144966        0.112698      0.000824809     0.000249169        -0.898053         0.38207
                        0.840229       -0.451976      0.000843409     0.000261515         0.141017        0.238782      0.000120943       0.0007116
                    -2.43105e-06     -0.00068185        -0.898364        0.381764      0.000130015     0.000657202       -0.0184539        0.181992
281732                  0.124638        0.249778     -0.000662406    -0.000218237         0.841019       -0.452367     -3.18871e-05    -0.000708928
                    -0.000646317    -0.000221861         0.144989        0.112686      0.000824936     0.000248963         -0.89791        0.382399
                         0.84006        -0.45226      0.000843517     0.000261283         0.141195        0.238732      0.000121517       0.0007114
                    -2.71582e-06    -0.000681947        -0.898221        0.382094      0.000130633     0.000657004       -0.0183449        0.182013
281734                  0.124672        0.249816     -0.000662285      -0.0002182          0.84085       -0.452651     -3.21524e-05     -0.00070904
                    -0.000646277    -0.000221878         0.145013        0.112674      0.000825063     0.000248757        -0.897767        0.382728
                        0.839892       -0.452544      0.000843624     0.000261052         0.141374        0.238683      0.000122091       0.0007112
                    -3.00072e-06    -0.000682044        -0.898079        0.382424      0.000131251     0.000656806       -0.0182359        0.182035
281736                  0.124706        0.249853     -0.000662164    -0.000218162          0.84068       -0.452935      -3.2418e-05    -0.000709152
                    -0.000646236    -0.000221895         0.145036        0.112662      0.000825189     0.000248551        -0.897624        0.383058
                        0.839723       -0.452828      0.000843731      0.00026082         0.141552        0.238633      0.000122665     0.000710999
                    -3.28575e-06    -0.000682141        -0.897936        0.382753      0.000131868     0.000656608       -0.0181269        0.182057
281738                  0.124741        0.249891     -0.000662042    -0.000218125          0.84051       -0.453219     -3.26837e-05    -0.000709264
                    -0.000646195    -0.000221912         0.145059         0.11265      0.000825316     0.000248345        -0.897481        0.383387
                        0.839555       -0.453111      0.000843838     0.000260588          0.14173        0.238583      0.000123239     0.000710797
                    -3.57091e-06    -0.000682239        -0.897793        0.383083      0.000132486     0.000656409       -0.0180179        0.182079
281740                  0.124775        0.249929     -0.000661921    -0.000218088         0.840341       -0.453502     -3.29495e-05    -0.000709376
                    -0.000646155    -0.000221929         0.145082        0.112638      0.000825442     0.000248139        -0.897337        0.383716
                        0.839386       -0.453395      0.000843945     0.000260356         0.141909        0.238534      0.000123813     0.000710595
                    -3.85621e-06    -0.000682336        -0.897649        0.383412      0.000133103     0.000656209       -0.0179088          0.1821
281742                   0.12481        0.249966     -0.000661799    -0.000218052         0.840171       -0.453786     -3.32155e-05    -0.000709488
                    -0.000646114    -0.000221946         0.145105        0.112626      0.000825569     0.000247933        -0.897194        0.384045
                        0.839217       -0.453678      0.000844052     0.000260125         0.142087        0.238484      0.000124387     0.000710393
                    -4.14163e-06    -0.000682433        -0.897506        0.383741      0.000133721     0.000656009       -0.0177998        0.182122
281744                  0.124844        0.250004     -0.000661678    -0.000218015         0.840001        -0.45407     -3.34817e-05    -0.000709599
                    -0.000646074    -0.000221963         0.145128        0.112613      0.000825695     0.000247727         -0.89705        0.384375
                        0.839048       -0.453962      0.000844159     0.000259893         0.142266        0.238433      0.000124961      0.00071019
                    -4.42719e-06    -0.000682531        -0.897363        0.384071      0.000134338     0.000655809       -0.0176907        0.182143
281746                  0.124878        0.250041     -0.000661556    -0.000217978         0.839831       -0.454353     -3.37481e-05    -0.000709711
                    -0.000646034    -0.000221979         0.145151        0.112601      0.000825821     0.000247521        -0.896906        0.384704
                        0.838879       -0.454245      0.000844266     0.000259661         0.142444        0.238383      0.000125536     0.000709986
                    -4.71288e-06    -0.000682628        -0.897219          0.3844      0.000134955     0.000655608       -0.0175816        0.182164
281748                  0.124913        0.250079     -0.000661435    -0.000217942          0.83966       -0.454637     -3.40146e-05    -0.000709822
                    -0.000645993    -0.000221996         0.145174        0.112589      0.000825947     0.000247315        -0.896762        0.385033
                        0.838709       -0.454529      0.000844373     0.000259429         0.142623        0.238333       0.00012611     0.000709782
                    -4.99871e-06    -0.000682725        -0.897076        0.384729      0.000135572     0.000655407       -0.0174724        0.182186
281750                  0.124947        0.250117     -0.000661313    -0.000217905          0.83949        -0.45492     -3.42813e-05    -0.000709934
                    -0.000645953    -0.000222012         0.145197        0.112577      0.000826074     0.000247109        -0.896618        0.385362
                         0.83854       -0.454812      0.000844479     0.000259198         0.142801        0.238282      0.000126684     0.000709577
                    -5.28466e-06    -0.000682823        -0.896932        0.385058      0.000136189     0.000655206       -0.0173633        0.182207
281752                  0.124982        0.250154     -0.000661192    -0.000217869         0.839319       -0.455203     -3.45482e-05    -0.000710045
                    -0.000645912    -0.000222028         0.145221        0.112565        0.0008262     0.000246902        -0.896474        0.385691
                        0.838371       -0.455095      0.000844586     0.000258966          0.14298        0.238232      0.000127259     0.000709372
                    -5.57075e-06     -0.00068292        -0.896788        0.385388      0.000136806     0.000655004       -0.0172541        0.182228
281754                  0.125016        0.250192      -0.00066107    -0.000217833         0.839149       -0.455487     -3.48153e-05    -0.000710156
                    -0.000645872    -0.000222044         0.145244        0.112552      0.000826326     0.000246696         -0.89633         0.38602
                        0.838201       -0.455379      0.000844692     0.000258734         0.143158        0.238181      0.000127833     0.000709166
                    -5.85697e-06    -0.000683018        -0.896644        0.385717      0.000137423     0.000654802       -0.0171449        0.182249
281756                  0.125051         0.25023     -0.000660948    -0.000217797         0.838978        -0.45577     -3.50825e-05    -0.000710268
                    -0.000645832     -0.00022206         0.145267         0.11254      0.000826452      0.00024649        -0.896185        0.386348
                        0.838031       -0.455662      0.000844798     0.000258502         0.143337         0.23813      0.000128408      0.00070896
                    -6.14332e-06    -0.000683115          -0.8965        0.386046      0.000138039     0.000654599       -0.0170357         0.18227
281758                  0.125085        0.250267     -0.000660827    -0.000217761         0.838807       -0.456053     -3.53498e-05    -0.000710379
                    -0.000645792    -0.000222076          0.14529        0.112528      0.000826578     0.000246284        -0.896041        0.386677
                        0.837862       -0.455945      0.000844905     0.000258271         0.143515        0.238079      0.000128982     0.000708753
                     -6.4298e-06    -0.000683213        -0.896355        0.386375      0.000138655     0.000654396       -0.0169264        0.182291
281760                   0.12512        0.250305     -0.000660705    -0.000217725         0.838637       -0.456336     -3.56174e-05     -0.00071049
                    -0.000645751    -0.000222092         0.145313        0.112516      0.000826704     0.000246077        -0.895896        0.387006
                        0.837692       -0.456228      0.000845011     0.000258039         0.143694        0.238028      0.000129556     0.000708545
                    -6.71642e-06     -0.00068331        -0.896211        0.386704      0.000139271     0.000654193       -0.0168172        0.182312
281762                  0.125154        0.250343     -0.000660584     -0.00021769         0.838466        -0.45662     -3.58851e-05    -0.000710601
                    -0.000645711    -0.000222108         0.145336        0.112503      0.000826829     0.000245871        -0.895752        0.387335
                        0.837522       -0.456511      0.000845117     0.000257807         0.143873        0.237977      0.000130131     0.000708337
