! TOUCHSTONE file generated by CST MICROWAVE STUDIO
! Date and time: Wed Oct 15 17:28:22 2025
! Project name: Teste_Macro_Metasurface_Nanopilar.cst
! Parameters = {H=600; L_x=80; L_y=95; Lambda=1064; Max_L=200; Min_L=70; PathPara=1; Phi=0; Step_L=10; Theta=0; p=520; phaseX=180; phaseY=0}
! Header version: 2018
! Port assignment regex: !\s*Touchstone port\s*([0-9]+)\s*=\s*(CST MWS port|CST DS port)\s*([0-9]+|Zmin|Zmax)\s*\(\"(.*)\"\)(\s*mode\s*([0-9]+))?.*
! Touchstone port assignment:
! Touchstone port 1 = CST MWS port Zmax ("") mode 1
! Touchstone port 2 = CST MWS port Zmax ("") mode 2
! Touchstone port 3 = CST MWS port Zmin ("") mode 1
! Touchstone port 4 = CST MWS port Zmin ("") mode 2
! S-Parameters are not renormalized. Each port impedance will be approximated by the real part at minimum frequency. The values are described via the [Reference] keyword.
! Default impedance is overridden by [Reference]
[Version] 2.0
# GHz S RI R 376.73
[Number of Ports] 4
[Reference]
376.73 376.73 259.888 259.888 
[Number of Frequencies] 51
[Network Data]
281700                 0.0118779      -0.0839966      0.000189405     6.34901e-05        -0.151677       -0.983712     -8.17422e-05     -9.9182e-06
                     7.68781e-05     0.000146088        0.0319048       -0.113873     -8.98812e-05     6.04055e-06        0.0332975       -0.991646
                        -0.15159       -0.983888     -0.000121632    -0.000111614        0.0364034       0.0766971      0.000115141    -5.49174e-06
                    -0.000157665     3.58223e-05        0.0334789       -0.992416      0.000102728    -0.000133533        0.0241157        0.115818
281702                 0.0118668      -0.0839928      0.000189375      6.3439e-05        -0.151922       -0.983675     -8.17377e-05    -9.90896e-06
                     7.69675e-05     0.000146087        0.0318927       -0.113873     -8.98897e-05      6.0649e-06        0.0330583       -0.991654
                       -0.151835       -0.983851     -0.000121571    -0.000111464        0.0364298       0.0766787      0.000115166    -5.44219e-06
                    -0.000157661     3.59373e-05        0.0332394       -0.992424      0.000102642    -0.000133474        0.0241595        0.115806
281704                 0.0118557       -0.083989      0.000189345     6.33878e-05        -0.152166       -0.983638     -8.17333e-05    -9.89968e-06
                      7.7057e-05     0.000146087        0.0318806       -0.113873     -8.98982e-05     6.08923e-06        0.0328191       -0.991662
                        -0.15208       -0.983814      -0.00012151    -0.000111315        0.0364562       0.0766602       0.00011519    -5.39266e-06
                    -0.000157656     3.60523e-05        0.0329999       -0.992432      0.000102557    -0.000133415        0.0242033        0.115793
281706                 0.0118445      -0.0839852      0.000189315     6.33366e-05        -0.152411         -0.9836      -8.1729e-05    -9.89037e-06
                     7.71464e-05     0.000146086        0.0318685       -0.113873     -8.99068e-05     6.11355e-06        0.0325799        -0.99167
                       -0.152325       -0.983776     -0.000121449    -0.000111165        0.0364827       0.0766418      0.000115214    -5.34316e-06
                    -0.000157652     3.61674e-05        0.0327604        -0.99244      0.000102471    -0.000133357        0.0242471        0.115781
281708                 0.0118334      -0.0839814      0.000189285     6.32853e-05        -0.152656       -0.983563     -8.17246e-05    -9.88102e-06
                      7.7236e-05     0.000146085        0.0318564       -0.113873     -8.99154e-05     6.13786e-06        0.0323406       -0.991678
                        -0.15257       -0.983739     -0.000121387    -0.000111015        0.0365091       0.0766234      0.000115238    -5.29368e-06
                    -0.000157647     3.62824e-05        0.0325209       -0.992448      0.000102385    -0.000133298        0.0242909        0.115768
281710                 0.0118223      -0.0839776      0.000189255      6.3234e-05        -0.152901       -0.983525     -8.17203e-05    -9.87163e-06
                     7.73255e-05     0.000146084        0.0318443       -0.113873      -8.9924e-05     6.16215e-06        0.0321014       -0.991686
                       -0.152815       -0.983702     -0.000121326    -0.000110865        0.0365354        0.076605      0.000115262    -5.24423e-06
                    -0.000157642     3.63974e-05        0.0322814       -0.992456      0.000102299    -0.000133239        0.0243346        0.115756
281712                 0.0118111      -0.0839738      0.000189224     6.31826e-05        -0.153146       -0.983488     -8.17161e-05    -9.86221e-06
                     7.74151e-05     0.000146082        0.0318321       -0.113873     -8.99326e-05     6.18643e-06        0.0318622       -0.991694
                        -0.15306       -0.983664     -0.000121265    -0.000110715        0.0365618       0.0765865      0.000115285    -5.19479e-06
                    -0.000157637     3.65124e-05        0.0320419       -0.992464      0.000102212     -0.00013318        0.0243784        0.115743
281714                    0.0118        -0.08397      0.000189194     6.31312e-05        -0.153391        -0.98345     -8.17118e-05    -9.85276e-06
                     7.75047e-05      0.00014608          0.03182       -0.113873     -8.99412e-05     6.21069e-06         0.031623       -0.991702
                       -0.153305       -0.983626     -0.000121204    -0.000110565        0.0365882       0.0765681      0.000115309    -5.14538e-06
                    -0.000157631     3.66274e-05        0.0318024       -0.992472      0.000102125    -0.000133122        0.0244221         0.11573
281716                 0.0117889      -0.0839662      0.000189163     6.30798e-05        -0.153635       -0.983413     -8.17076e-05    -9.84326e-06
                     7.75944e-05     0.000146078        0.0318079       -0.113873     -8.99499e-05     6.23495e-06        0.0313838        -0.99171
                        -0.15355       -0.983589     -0.000121143    -0.000110416        0.0366146       0.0765496      0.000115332    -5.09599e-06
                    -0.000157626     3.67424e-05        0.0315629        -0.99248      0.000102038    -0.000133063        0.0244659        0.115718
281718                 0.0117777      -0.0839624      0.000189132     6.30283e-05         -0.15388       -0.983375     -8.17035e-05    -9.83374e-06
                      7.7684e-05     0.000146076        0.0317958       -0.113873     -8.99586e-05     6.25919e-06        0.0311446       -0.991718
                       -0.153795       -0.983551     -0.000121082    -0.000110266        0.0366409       0.0765312      0.000115355    -5.04662e-06
                     -0.00015762     3.68573e-05        0.0313234       -0.992488      0.000101951    -0.000133005        0.0245096        0.115705
281720                 0.0117666      -0.0839586      0.000189101     6.29767e-05        -0.154125       -0.983337     -8.16994e-05    -9.82418e-06
                     7.77737e-05     0.000146073        0.0317837       -0.113873     -8.99673e-05     6.28342e-06        0.0309053       -0.991726
                        -0.15404       -0.983513     -0.000121021    -0.000110116        0.0366673       0.0765127      0.000115378    -4.99727e-06
                    -0.000157614     3.69723e-05        0.0310839       -0.992495      0.000101864    -0.000132946        0.0245534        0.115693
281722                 0.0117555      -0.0839548      0.000189071     6.29252e-05         -0.15437       -0.983299     -8.16953e-05    -9.81458e-06
                     7.78635e-05      0.00014607        0.0317716       -0.113873     -8.99761e-05     6.30764e-06        0.0306661       -0.991733
                       -0.154284       -0.983475      -0.00012096    -0.000109966        0.0366936       0.0764942      0.000115401    -4.94793e-06
                    -0.000157607     3.70873e-05        0.0308444       -0.992503      0.000101776    -0.000132888        0.0245971         0.11568
281724                 0.0117443      -0.0839509       0.00018904     6.28735e-05        -0.154615       -0.983261     -8.16912e-05    -9.80495e-06
                     7.79532e-05     0.000146067        0.0317595       -0.113873     -8.99848e-05     6.33185e-06        0.0304269       -0.991741
                       -0.154529       -0.983437     -0.000120899    -0.000109816        0.0367199       0.0764757      0.000115424    -4.89861e-06
                    -0.000157601     3.72023e-05        0.0306048        -0.99251      0.000101688     -0.00013283        0.0246408        0.115667
281726                 0.0117332      -0.0839471      0.000189008     6.28219e-05        -0.154859       -0.983223     -8.16872e-05    -9.79529e-06
                      7.8043e-05     0.000146063        0.0317473       -0.113873     -8.99936e-05     6.35605e-06        0.0301877       -0.991748
                       -0.154774       -0.983399     -0.000120837    -0.000109666        0.0367462       0.0764572      0.000115447     -4.8493e-06
                    -0.000157594     3.73172e-05        0.0303653       -0.992518        0.0001016    -0.000132771        0.0246845        0.115655
281728                 0.0117221      -0.0839433      0.000188977     6.27702e-05        -0.155104       -0.983185     -8.16832e-05    -9.78559e-06
                     7.81328e-05      0.00014606        0.0317352       -0.113873     -9.00024e-05     6.38023e-06        0.0299484       -0.991756
                       -0.155019       -0.983361     -0.000120776    -0.000109515        0.0367725       0.0764387      0.000115469    -4.80002e-06
                    -0.000157587     3.74322e-05        0.0301258       -0.992525      0.000101511    -0.000132713        0.0247283        0.115642
281730                 0.0117109      -0.0839395      0.000188946     6.27184e-05        -0.155349       -0.983147     -8.16792e-05    -9.77585e-06
                     7.82227e-05     0.000146056        0.0317231       -0.113873     -9.00113e-05     6.40441e-06        0.0297092       -0.991763
                       -0.155264       -0.983323     -0.000120715    -0.000109365        0.0367988       0.0764202      0.000115492    -4.75074e-06
                     -0.00015758     3.75471e-05        0.0298863       -0.992533      0.000101423    -0.000132655         0.024772        0.115629
281732                 0.0116998      -0.0839357      0.000188915     6.26666e-05        -0.155594       -0.983109     -8.16753e-05    -9.76609e-06
                     7.83125e-05     0.000146051         0.031711       -0.113873     -9.00201e-05     6.42858e-06          0.02947       -0.991771
                       -0.155509       -0.983285     -0.000120654    -0.000109215        0.0368251       0.0764016      0.000115514    -4.70148e-06
                    -0.000157573     3.76621e-05        0.0296468        -0.99254      0.000101334    -0.000132597        0.0248157        0.115617
281734                 0.0116887      -0.0839319      0.000188883     6.26148e-05        -0.155838       -0.983071     -8.16714e-05    -9.75628e-06
                     7.84024e-05     0.000146047        0.0316989       -0.113873      -9.0029e-05     6.45274e-06        0.0292307       -0.991778
                       -0.155754       -0.983247     -0.000120593    -0.000109065        0.0368514       0.0763831      0.000115536    -4.65224e-06
                    -0.000157566      3.7777e-05        0.0294072       -0.992547      0.000101244    -0.000132539        0.0248593        0.115604
281736                 0.0116776      -0.0839281      0.000188851     6.25629e-05        -0.156083       -0.983032     -8.16675e-05    -9.74645e-06
                     7.84923e-05     0.000146042        0.0316868       -0.113873      -9.0038e-05     6.47689e-06        0.0289915       -0.991785
                       -0.155998       -0.983209     -0.000120531    -0.000108914        0.0368777       0.0763646      0.000115558    -4.60301e-06
                    -0.000157558     3.78919e-05        0.0291677       -0.992555      0.000101155    -0.000132481         0.024903        0.115591
281738                 0.0116664      -0.0839242       0.00018882      6.2511e-05        -0.156328       -0.982994     -8.16637e-05    -9.73657e-06
                     7.85822e-05     0.000146037        0.0316746       -0.113873     -9.00469e-05     6.50103e-06        0.0287522       -0.991793
                       -0.156243        -0.98317      -0.00012047    -0.000108764        0.0369039        0.076346       0.00011558     -4.5538e-06
                     -0.00015755     3.80068e-05        0.0289282       -0.992562      0.000101065    -0.000132423        0.0249467        0.115578
281740                 0.0116553      -0.0839204      0.000188788     6.24591e-05        -0.156572       -0.982956     -8.16599e-05    -9.72666e-06
                     7.86722e-05     0.000146032        0.0316625       -0.113873     -9.00559e-05     6.52517e-06         0.028513         -0.9918
                       -0.156488       -0.983132     -0.000120409    -0.000108614        0.0369302       0.0763274      0.000115601    -4.50463e-06
                    -0.000157542     3.81217e-05        0.0286887       -0.992569      0.000100975    -0.000132365        0.0249904        0.115566
281742                 0.0116442      -0.0839166      0.000188756     6.24071e-05        -0.156817       -0.982917     -8.16561e-05    -9.71671e-06
                     7.87621e-05     0.000146026        0.0316504       -0.113873     -9.00649e-05     6.54929e-06        0.0282737       -0.991807
                       -0.156733       -0.983093     -0.000120348    -0.000108463        0.0369564       0.0763089      0.000115623    -4.45549e-06
                    -0.000157534     3.82365e-05        0.0284491       -0.992576      0.000100885    -0.000132308         0.025034        0.115553
281744                  0.011633      -0.0839128      0.000188724      6.2355e-05        -0.157062       -0.982879     -8.16524e-05     -9.7067e-06
                     7.88521e-05      0.00014602        0.0316383       -0.113873     -9.00739e-05     6.57341e-06        0.0280345       -0.991814
                       -0.156978       -0.983055     -0.000120287    -0.000108313        0.0369827       0.0762903      0.000115644    -4.40643e-06
                    -0.000157525     3.83514e-05        0.0282096       -0.992583      0.000100794     -0.00013225        0.0250777         0.11554
281746                 0.0116219      -0.0839089      0.000188692      6.2303e-05        -0.157307        -0.98284     -8.16488e-05    -9.69662e-06
                     7.89421e-05     0.000146014        0.0316262       -0.113872     -9.00829e-05     6.59751e-06        0.0277952       -0.991821
                       -0.157222       -0.983016     -0.000120225    -0.000108162        0.0370089       0.0762717      0.000115665    -4.35754e-06
                    -0.000157517     3.84663e-05        0.0279701        -0.99259      0.000100704    -0.000132192        0.0251214        0.115527
281748                 0.0116108      -0.0839051       0.00018866     6.22509e-05        -0.157551       -0.982801     -8.16454e-05    -9.68638e-06
                     7.90322e-05     0.000146008        0.0316141       -0.113872      -9.0092e-05     6.62161e-06         0.027556       -0.991828
                       -0.157467       -0.982978     -0.000120164    -0.000108012        0.0370351       0.0762531      0.000115686    -4.30915e-06
                    -0.000157508     3.85811e-05        0.0277305       -0.992596      0.000100613    -0.000132135         0.025165        0.115514
281750                 0.0115997      -0.0839013      0.000188628     6.21987e-05        -0.157796       -0.982763     -8.16435e-05    -9.67514e-06
                     7.91222e-05     0.000146001        0.0316019       -0.113872     -9.01011e-05     6.64569e-06        0.0273167       -0.991835
                       -0.157712       -0.982939     -0.000120103    -0.000107861        0.0370613       0.0762345      0.000115705    -4.26458e-06
                    -0.000157499     3.86959e-05         0.027491       -0.992603      0.000100522    -0.000132077        0.0252086        0.115501
281752                 0.0115885      -0.0838975      0.000188595     6.21465e-05        -0.158041       -0.982724     -8.16346e-05    -9.66836e-06
                     7.92122e-05     0.000145994        0.0315898       -0.113872     -9.01102e-05     6.66975e-06        0.0270775       -0.991841
                       -0.157957         -0.9829     -0.000120042    -0.000107711        0.0370875       0.0762159      0.000115728    -4.20291e-06
                     -0.00015749     3.88107e-05        0.0272515        -0.99261       0.00010043     -0.00013202        0.0252523        0.115488
281754                 0.0115774      -0.0838936      0.000188563     6.20943e-05        -0.158285       -0.982685     -8.16327e-05    -9.65725e-06
                     7.93023e-05     0.000145987        0.0315777       -0.113872     -9.01193e-05     6.69378e-06        0.0268382       -0.991848
                       -0.158202       -0.982861      -0.00011998     -0.00010756        0.0371137       0.0761973      0.000115748    -4.15721e-06
                     -0.00015748     3.89255e-05        0.0270119       -0.992617      0.000100339    -0.000131963        0.0252959        0.115476
281756                 0.0115663      -0.0838898       0.00018853      6.2042e-05         -0.15853       -0.982646     -8.16294e-05     -9.6469e-06
                     7.93924e-05     0.000145979        0.0315656       -0.113872     -9.01284e-05     6.71772e-06        0.0265989       -0.991855
                       -0.158446       -0.982823     -0.000119919    -0.000107409        0.0371399       0.0761786      0.000115769    -4.10872e-06
                    -0.000157471     3.90402e-05        0.0267724       -0.992623      0.000100247    -0.000131906        0.0253395        0.115463
281758                 0.0115552       -0.083886      0.000188497     6.19897e-05        -0.158775       -0.982607     -8.16259e-05    -9.63664e-06
                     7.94823e-05     0.000145972        0.0315535       -0.113872     -9.01373e-05     6.74127e-06        0.0263597       -0.991862
                       -0.158691       -0.982784     -0.000119858    -0.000107259        0.0371661         0.07616      0.000115789    -4.05978e-06
                     -0.00015746     3.91549e-05        0.0265328        -0.99263      0.000100157     -0.00013185        0.0253831         0.11545
281760                  0.011544      -0.0838821      0.000188465     6.19373e-05        -0.159019       -0.982568     -8.16224e-05     -9.6264e-06
                     7.95726e-05     0.000145964        0.0315414       -0.113872     -9.01483e-05     6.76991e-06        0.0261204       -0.991868
                       -0.158936       -0.982745     -0.000119797    -0.000107109        0.0371922       0.0761413      0.000115809    -4.01067e-06
                    -0.000157451     3.92699e-05        0.0262933       -0.992636      0.000100048    -0.000131792        0.0254267        0.115437
281762                 0.0115329      -0.0838783      0.000188432     6.18848e-05        -0.159264       -0.982529     -8.16189e-05    -9.61614e-06
                     7.96627e-05     0.000145955        0.0315292       -0.113872     -9.01567e-05     6.79106e-06        0.0258811       -0.991875
                        -0.15918       -0.982706     -0.000119737     -0.00010696        0.0372184       0.0761227      0.000115829     -3.9615e-06
