! TOUCHSTONE file generated by CST MICROWAVE STUDIO
! Date and time: Wed Oct 15 17:30:37 2025
! Project name: Teste_Macro_Metasurface_Nanopilar.cst
! Parameters = {H=600; L_x=120; L_y=70; Lambda=1064; Max_L=200; Min_L=70; PathPara=1; Phi=0; Step_L=10; Theta=0; p=520; phaseX=180; phaseY=0}
! Header version: 2018
! Port assignment regex: !\s*Touchstone port\s*([0-9]+)\s*=\s*(CST MWS port|CST DS port)\s*([0-9]+|Zmin|Zmax)\s*\(\"(.*)\"\)(\s*mode\s*([0-9]+))?.*
! Touchstone port assignment:
! Touchstone port 1 = CST MWS port Zmax ("") mode 1
! Touchstone port 2 = CST MWS port Zmax ("") mode 2
! Touchstone port 3 = CST MWS port Zmin ("") mode 1
! Touchstone port 4 = CST MWS port Zmin ("") mode 2
! S-Parameters are not renormalized. Each port impedance will be approximated by the real part at minimum frequency. The values are described via the [Reference] keyword.
! Default impedance is overridden by [Reference]
[Version] 2.0
# GHz S RI R 376.73
[Number of Ports] 4
[Reference]
376.73 376.73 259.888 259.888 
[Number of Frequencies] 51
[Network Data]
281700                 0.0399538       -0.121669      9.54583e-06    -3.16023e-06        0.0908701       -0.987166      -0.00016778     3.40366e-05
                     1.73745e-05     5.23764e-05         0.039001       0.0197806     -7.82211e-05     0.000102617        -0.682033       -0.727293
                       0.0909757       -0.987228     -2.83301e-05     4.31596e-05        0.0170175        0.126971      9.95131e-05    -4.86918e-05
                     -7.1711e-05    -4.45215e-05        -0.681739        -0.72726       5.3271e-05    -4.23338e-05       -0.0175847      -0.0393952
281702                 0.0399416       -0.121669      9.56597e-06    -3.25255e-06        0.0906344       -0.987188     -0.000167841     3.40907e-05
                     1.73342e-05     5.23852e-05        0.0390033       0.0197899     -7.81865e-05      0.00010261        -0.682238       -0.727099
                       0.0907398        -0.98725     -2.84098e-05     4.31848e-05         0.017066        0.126961      9.95487e-05    -4.87416e-05
                    -7.17627e-05    -4.44991e-05        -0.681944       -0.727067      5.31956e-05    -4.23031e-05       -0.0176163      -0.0393881
281704                 0.0399294        -0.12167      9.58617e-06     -3.3445e-06        0.0903986        -0.98721     -0.000167902     3.41448e-05
                     1.72938e-05     5.23941e-05        0.0390056       0.0197993     -7.81516e-05     0.000102603        -0.682444       -0.726906
                       0.0905039       -0.987272     -2.84895e-05     4.32097e-05        0.0171146        0.126951      9.95844e-05    -4.87917e-05
                    -7.18143e-05    -4.44766e-05         -0.68215       -0.726873      5.31202e-05    -4.22722e-05       -0.0176479       -0.039381
281706                 0.0399172       -0.121671      9.60642e-06    -3.43608e-06        0.0901628       -0.987232     -0.000167963      3.4199e-05
                     1.72535e-05      5.2403e-05        0.0390078       0.0198086     -7.81165e-05     0.000102597         -0.68265       -0.726712
                        0.090268       -0.987294     -2.85691e-05     4.32343e-05        0.0171631        0.126942        9.962e-05    -4.88422e-05
                    -7.18659e-05    -4.44541e-05        -0.682356       -0.726679      5.30446e-05    -4.22411e-05       -0.0176795      -0.0393738
281708                 0.0399051       -0.121672      9.62673e-06     -3.5273e-06        0.0899271       -0.987254     -0.000168024     3.42533e-05
                     1.72131e-05     5.24118e-05        0.0390101        0.019818     -7.80813e-05      0.00010259        -0.682855       -0.726518
                       0.0900321       -0.987316     -2.86488e-05     4.32587e-05        0.0172116        0.126932      9.96557e-05    -4.88929e-05
                    -7.19175e-05    -4.44316e-05        -0.682561       -0.726485      5.29689e-05    -4.22099e-05       -0.0177111      -0.0393667
281710                 0.0398929       -0.121672      9.64708e-06    -3.61814e-06        0.0896913       -0.987276     -0.000168085     3.43077e-05
                     1.71727e-05     5.24207e-05        0.0390124       0.0198274      -7.8046e-05     0.000102583        -0.683061       -0.726325
                       0.0897962       -0.987338     -2.87283e-05     4.32829e-05        0.0172602        0.126923      9.96914e-05    -4.89439e-05
                     -7.1969e-05    -4.44091e-05        -0.682766       -0.726291      5.28932e-05    -4.21786e-05       -0.0177427      -0.0393595
281712                 0.0398807       -0.121673      9.66749e-06    -3.70862e-06        0.0894555       -0.987297     -0.000168146      3.4362e-05
                     1.71322e-05     5.24297e-05        0.0390147       0.0198367     -7.80105e-05     0.000102575        -0.683266       -0.726131
                       0.0895603       -0.987359     -2.88079e-05     4.33068e-05        0.0173087        0.126913      9.97271e-05    -4.89951e-05
                    -7.20205e-05    -4.43865e-05        -0.682972       -0.726097      5.28174e-05    -4.21471e-05       -0.0177743      -0.0393522
281714                 0.0398686       -0.121674      9.68795e-06    -3.79872e-06        0.0892197       -0.987319     -0.000168207     3.44165e-05
                     1.70918e-05     5.24386e-05         0.039017       0.0198461      -7.7975e-05     0.000102568        -0.683471       -0.725937
                       0.0893244       -0.987381     -2.88874e-05     4.33304e-05        0.0173572        0.126903       9.9763e-05    -4.90467e-05
                     -7.2072e-05     -4.4364e-05        -0.683177       -0.725903      5.27415e-05    -4.21156e-05       -0.0178059       -0.039345
281716                 0.0398564       -0.121675      9.70846e-06    -3.88844e-06        0.0889839       -0.987341     -0.000168268     3.44709e-05
                     1.70513e-05     5.24475e-05        0.0390192       0.0198555     -7.79394e-05     0.000102561        -0.683677       -0.725743
                       0.0890885       -0.987403     -2.89669e-05     4.33538e-05        0.0174057        0.126893      9.97989e-05    -4.90985e-05
                    -7.21235e-05    -4.43414e-05        -0.683382       -0.725709      5.26656e-05    -4.20838e-05       -0.0178375      -0.0393378
281718                 0.0398442       -0.121676      9.72902e-06    -3.97779e-06        0.0887481       -0.987362      -0.00016833     3.45254e-05
                     1.70108e-05     5.24565e-05        0.0390215       0.0198648     -7.79037e-05     0.000102553        -0.683882       -0.725549
                       0.0888525       -0.987424     -2.90464e-05      4.3377e-05        0.0174542        0.126884       9.9835e-05    -4.91505e-05
                    -7.21749e-05    -4.43188e-05        -0.683587       -0.725515      5.25896e-05     -4.2052e-05        -0.017869      -0.0393305
281720                  0.039832       -0.121676      9.74963e-06    -4.06676e-06        0.0885123       -0.987384     -0.000168391     3.45799e-05
                     1.69702e-05     5.24655e-05        0.0390238       0.0198742      -7.7868e-05     0.000102545        -0.684087       -0.725355
                       0.0886166       -0.987446     -2.91258e-05     4.33998e-05        0.0175027        0.126874      9.98714e-05    -4.92024e-05
                    -7.22263e-05    -4.42962e-05        -0.683792        -0.72532      5.25136e-05      -4.202e-05       -0.0179006      -0.0393232
281722                 0.0398199       -0.121677       9.7703e-06    -4.15536e-06        0.0882765       -0.987405     -0.000168452     3.46344e-05
                     1.69297e-05     5.24745e-05        0.0390261       0.0198835     -7.78322e-05     0.000102537        -0.684292       -0.725161
                       0.0883807       -0.987467     -2.92052e-05     4.34225e-05        0.0175512        0.126864      9.99081e-05    -4.92537e-05
                    -7.22777e-05    -4.42735e-05        -0.683997       -0.725126      5.24375e-05     -4.1988e-05       -0.0179322      -0.0393159
281724                 0.0398077       -0.121678      9.79101e-06    -4.24357e-06        0.0880406       -0.987427     -0.000168513      3.4689e-05
                     1.68891e-05     5.24835e-05        0.0390284       0.0198929     -7.77965e-05     0.000102529        -0.684497       -0.724966
                       0.0881447       -0.987488     -2.92845e-05     4.34448e-05        0.0175997        0.126854       9.9944e-05    -4.93035e-05
                    -7.23291e-05    -4.42508e-05        -0.684202       -0.724932      5.23614e-05    -4.19558e-05       -0.0179638      -0.0393085
281726                 0.0397955       -0.121679      9.81177e-06     -4.3314e-06        0.0878048       -0.987448     -0.000168574     3.47439e-05
                     1.68485e-05     5.24925e-05        0.0390307       0.0199023     -7.77608e-05     0.000102521        -0.684702       -0.724772
                       0.0879088        -0.98751     -2.93639e-05     4.34669e-05        0.0176482        0.126845      9.99761e-05    -4.93533e-05
                    -7.23804e-05    -4.42281e-05        -0.684407       -0.724737      5.22852e-05    -4.19235e-05       -0.0179954      -0.0393012
281728                 0.0397834       -0.121679      9.83258e-06    -4.41885e-06         0.087569       -0.987469     -0.000168635     3.47992e-05
                     1.68079e-05     5.25015e-05         0.039033       0.0199116      -7.7725e-05     0.000102513        -0.684907       -0.724578
                       0.0876728       -0.987531     -2.94432e-05     4.34888e-05        0.0176967        0.126835      0.000100007    -4.94075e-05
                    -7.24318e-05    -4.42054e-05        -0.684612       -0.724543       5.2209e-05    -4.18911e-05       -0.0180269      -0.0392938
281730                 0.0397712        -0.12168      9.85343e-06    -4.50592e-06        0.0873331       -0.987491     -0.000168696     3.48549e-05
                     1.67673e-05     5.25106e-05        0.0390353        0.019921     -7.76893e-05     0.000102505        -0.685112       -0.724383
                       0.0874368       -0.987552     -2.95225e-05     4.35104e-05        0.0177451        0.126825       0.00010004    -4.94635e-05
                    -7.24831e-05    -4.41827e-05        -0.684817       -0.724348      5.21328e-05    -4.18586e-05       -0.0180585      -0.0392864
281732                  0.039759       -0.121681      9.87434e-06     -4.5926e-06        0.0870973       -0.987512     -0.000168757      3.4911e-05
                     1.67266e-05     5.25197e-05        0.0390376       0.0199304     -7.76537e-05     0.000102496        -0.685317       -0.724189
                       0.0872009       -0.987573     -2.96018e-05     4.35317e-05        0.0177936        0.126815      0.000100075    -4.95194e-05
                    -7.25344e-05    -4.41599e-05        -0.685022       -0.724154      5.20565e-05    -4.18261e-05       -0.0180901       -0.039279
281734                 0.0397468       -0.121682      9.89529e-06     -4.6789e-06        0.0868614       -0.987533     -0.000168819     3.49671e-05
                      1.6686e-05     5.25288e-05        0.0390399       0.0199397      -7.7618e-05     0.000102488        -0.685522       -0.723994
                       0.0869649       -0.987594     -2.96812e-05     4.35529e-05        0.0178421        0.126805       0.00010011     -4.9575e-05
                    -7.25857e-05     -4.4137e-05        -0.685227       -0.723959      5.19802e-05    -4.17934e-05       -0.0181216      -0.0392715
281736                 0.0397347       -0.121682      9.91629e-06    -4.76481e-06        0.0866256       -0.987554     -0.000168881     3.50232e-05
                     1.66453e-05     5.25379e-05        0.0390422       0.0199491     -7.75824e-05     0.000102479        -0.685727         -0.7238
                       0.0867289       -0.987615     -2.97606e-05     4.35737e-05        0.0178905        0.126795      0.000100145    -4.96307e-05
                     -7.2637e-05    -4.41142e-05        -0.685431       -0.723764      5.19039e-05    -4.17606e-05       -0.0181532      -0.0392641
281738                 0.0397225       -0.121683      9.93733e-06    -4.85033e-06        0.0863897       -0.987575     -0.000168943     3.50793e-05
                     1.66046e-05      5.2547e-05        0.0390445       0.0199584     -7.75468e-05     0.000102471        -0.685932       -0.723605
                       0.0864929       -0.987636     -2.98402e-05     4.35944e-05         0.017939        0.126785       0.00010018    -4.96864e-05
                    -7.26882e-05    -4.40913e-05        -0.685636       -0.723569      5.18276e-05    -4.17278e-05       -0.0181847      -0.0392566
281740                 0.0397103       -0.121684      9.95842e-06    -4.93547e-06        0.0861538       -0.987596     -0.000169005     3.51353e-05
                     1.65639e-05     5.25562e-05        0.0390468       0.0199678     -7.75113e-05     0.000102462        -0.686136        -0.72341
                        0.086257       -0.987657     -2.99202e-05      4.3615e-05        0.0179874        0.126775      0.000100214    -4.97423e-05
                    -7.27395e-05    -4.40684e-05        -0.685841       -0.723375      5.17512e-05    -4.16948e-05       -0.0182163      -0.0392491
281742                 0.0396982       -0.121685      9.97955e-06    -5.02022e-06         0.085918       -0.987617     -0.000169067     3.51914e-05
                     1.65232e-05     5.25654e-05        0.0390492       0.0199772     -7.74758e-05     0.000102453        -0.686341       -0.723216
                        0.086021       -0.987678     -3.00015e-05     4.36356e-05        0.0180359        0.126765      0.000100249    -4.97985e-05
                    -7.27907e-05    -4.40454e-05        -0.686045        -0.72318      5.16749e-05    -4.16618e-05       -0.0182479      -0.0392416
281744                  0.039686       -0.121685      1.00007e-05    -5.10458e-06        0.0856821       -0.987638     -0.000169129     3.52476e-05
                     1.64824e-05     5.25746e-05        0.0390515       0.0199865     -7.74403e-05     0.000102444        -0.686546       -0.723021
                        0.085785       -0.987699     -3.00898e-05     4.36576e-05        0.0180843        0.126756      0.000100284     -4.9855e-05
                     -7.2842e-05    -4.40224e-05         -0.68625       -0.722985      5.15985e-05    -4.16286e-05       -0.0182794       -0.039234
281746                 0.0396738       -0.121686      1.00219e-05    -5.18855e-06        0.0854462       -0.987658     -0.000169192     3.53038e-05
                     1.64417e-05     5.25838e-05        0.0390538       0.0199959     -7.74049e-05     0.000102435         -0.68675       -0.722826
                        0.085549        -0.98772     -3.01138e-05     4.36621e-05        0.0181328        0.126746      0.000100318    -4.99117e-05
                    -7.28932e-05    -4.39994e-05        -0.686454        -0.72279      5.15221e-05    -4.15954e-05        -0.018311      -0.0392265
281748                 0.0396616       -0.121687      1.00431e-05     -5.2721e-06        0.0852103       -0.987679     -0.000169254     3.53601e-05
                     1.64009e-05     5.25931e-05        0.0390561       0.0200052     -7.73695e-05     0.000102426        -0.686955       -0.722631
                        0.085313       -0.987741     -3.02222e-05     4.36899e-05        0.0181812        0.126736      0.000100352    -4.99688e-05
                    -7.29445e-05    -4.39763e-05        -0.686658       -0.722594      5.14457e-05    -4.15621e-05       -0.0183425      -0.0392189
281750                 0.0396495       -0.121688      1.00644e-05     -5.3552e-06        0.0849744         -0.9877     -0.000169316     3.54165e-05
                     1.63601e-05     5.26024e-05        0.0390584       0.0200146     -7.73341e-05     0.000102417        -0.687159       -0.722436
                       0.0850769       -0.987761     -3.03047e-05     4.37099e-05        0.0182296        0.126725      0.000100387    -5.00261e-05
                    -7.29957e-05    -4.39532e-05        -0.686863       -0.722399      5.13692e-05    -4.15287e-05        -0.018374      -0.0392113
281752                 0.0396373       -0.121688      1.00858e-05    -5.43793e-06        0.0847385        -0.98772     -0.000169379      3.5473e-05
                     1.63193e-05     5.26117e-05        0.0390608        0.020024     -7.72988e-05     0.000102407        -0.687363       -0.722241
                       0.0848409       -0.987782     -3.03847e-05     4.37289e-05         0.018278        0.126715      0.000100421    -5.00838e-05
                    -7.30469e-05    -4.39301e-05        -0.687067       -0.722204      5.12927e-05    -4.14951e-05       -0.0184056      -0.0392036
281754                 0.0396251       -0.121689      1.01073e-05    -5.52032e-06        0.0845026       -0.987741     -0.000169441     3.55296e-05
                     1.62785e-05      5.2621e-05        0.0390631       0.0200333     -7.72633e-05     0.000102398        -0.687568       -0.722046
                       0.0846049       -0.987802      -3.0464e-05     4.37476e-05        0.0183264        0.126705      0.000100455    -5.01418e-05
                    -7.30981e-05    -4.39069e-05        -0.687271       -0.722009       5.1216e-05    -4.14614e-05       -0.0184371       -0.039196
281756                 0.0396129        -0.12169      1.01287e-05    -5.60232e-06        0.0842667       -0.987761     -0.000169504     3.55864e-05
                     1.62378e-05     5.26303e-05        0.0390654       0.0200427     -7.72276e-05     0.000102388        -0.687772       -0.721851
                       0.0843689       -0.987823      -3.0543e-05     4.37658e-05        0.0183749        0.126695      0.000100488    -5.02001e-05
                    -7.31493e-05    -4.38837e-05        -0.687475       -0.721813       5.1139e-05    -4.14273e-05       -0.0184687      -0.0391883
281758                 0.0396008       -0.121691      1.01502e-05    -5.68392e-06        0.0840307       -0.987782     -0.000169566     3.56432e-05
                     1.61969e-05     5.26397e-05        0.0390678        0.020052     -7.71901e-05     0.000102377        -0.687976       -0.721655
                       0.0841328       -0.987843     -3.06217e-05     4.37838e-05        0.0184233        0.126685      0.000100522    -5.02587e-05
                    -7.32005e-05    -4.38604e-05         -0.68768       -0.721618      5.10611e-05    -4.13923e-05       -0.0185002      -0.0391806
281760                 0.0395886       -0.121691      1.01717e-05    -5.76512e-06        0.0837948       -0.987802     -0.000169629     3.57002e-05
                     1.61561e-05     5.26491e-05        0.0390701       0.0200614     -7.71479e-05     0.000102374         -0.68818        -0.72146
                       0.0838968       -0.987863     -3.07003e-05     4.38015e-05        0.0184717        0.126675      0.000100556    -5.03177e-05
                    -7.32517e-05    -4.38371e-05        -0.687884       -0.721423       5.0979e-05    -4.13526e-05       -0.0185317      -0.0391729
281762                 0.0395764       -0.121692      1.01933e-05    -5.84592e-06        0.0835579       -0.987823     -0.000169692     3.57573e-05
                     1.61153e-05     5.26585e-05        0.0390724       0.0200708     -7.71205e-05     0.000102368        -0.688384       -0.721265
                       0.0836607       -0.987884     -3.07787e-05     4.38188e-05        0.0185201        0.126665      0.000100589     -5.0377e-05
