! TOUCHSTONE file generated by CST MICROWAVE STUDIO
! Date and time: Wed Oct 15 17:30:09 2025
! Project name: Teste_Macro_Metasurface_Nanopilar.cst
! Parameters = {H=600; L_x=110; L_y=120; Lambda=1064; Max_L=200; Min_L=70; PathPara=1; Phi=0; Step_L=10; Theta=0; p=520; phaseX=180; phaseY=0}
! Header version: 2018
! Port assignment regex: !\s*Touchstone port\s*([0-9]+)\s*=\s*(CST MWS port|CST DS port)\s*([0-9]+|Zmin|Zmax)\s*\(\"(.*)\"\)(\s*mode\s*([0-9]+))?.*
! Touchstone port assignment:
! Touchstone port 1 = CST MWS port Zmax ("") mode 1
! Touchstone port 2 = CST MWS port Zmax ("") mode 2
! Touchstone port 3 = CST MWS port Zmin ("") mode 1
! Touchstone port 4 = CST MWS port Zmin ("") mode 2
! S-Parameters are not renormalized. Each port impedance will be approximated by the real part at minimum frequency. The values are described via the [Reference] keyword.
! Default impedance is overridden by [Reference]
[Version] 2.0
# GHz S RI R 376.73
[Number of Ports] 4
[Reference]
376.73 376.73 259.888 259.888 
[Number of Frequencies] 51
[Network Data]
281700                  0.132661      -0.0657049       0.00111134    -0.000661447        -0.466914        0.861343       0.00025945    -6.30681e-05
                      0.00110369    -0.000708665         0.151368       0.0612315      0.000219698     8.57351e-05        -0.932161        0.300323
                       -0.466884        0.861112      0.000184292     1.19438e-05        0.0157107        0.146403     -0.000851295       0.0009448
                     0.000257909    -0.000108661        -0.932235        0.300016     -0.000966413     0.000948412       -0.0862695        0.137882
281702                  0.132635       -0.065719       0.00111103    -0.000661937        -0.466565        0.861535      0.000259377    -6.32118e-05
                      0.00110331    -0.000709136         0.151384       0.0612146      0.000219628     8.55281e-05        -0.932047        0.300668
                       -0.466535        0.861304      0.000184207     1.18905e-05        0.0158037        0.146376     -0.000850954     0.000945045
                     0.000257844    -0.000108825        -0.932122        0.300362     -0.000966038     0.000948775       -0.0861897        0.137941
281704                  0.132609       -0.065733       0.00111071    -0.000662426        -0.466215        0.861727      0.000259303    -6.33554e-05
                      0.00110294    -0.000709606         0.151399       0.0611978      0.000219557     8.53215e-05        -0.931934        0.301014
                       -0.466185        0.861496       0.00018412     1.18375e-05        0.0158966        0.146349     -0.000850613      0.00094529
                     0.000257778     -0.00010899        -0.932008        0.300707     -0.000965663     0.000949137         -0.08611           0.138
281706                  0.132584       -0.065747       0.00111039    -0.000662915        -0.465865        0.861919      0.000259229    -6.34988e-05
                      0.00110257    -0.000710076         0.151415       0.0611809      0.000219486     8.51151e-05         -0.93182        0.301359
                       -0.465835        0.861688      0.000184033     1.17847e-05        0.0159895        0.146322     -0.000850271     0.000945536
                     0.000257713    -0.000109154        -0.931895        0.301053     -0.000965288       0.0009495       -0.0860302        0.138059
281708                  0.132558       -0.065761       0.00111008    -0.000663404        -0.465515         0.86211      0.000259156     -6.3642e-05
                      0.00110219    -0.000710546         0.151431       0.0611641      0.000219414     8.49089e-05        -0.931706        0.301705
                       -0.465485         0.86188      0.000183945     1.17321e-05        0.0160824        0.146295      -0.00084993     0.000945781
                     0.000257647    -0.000109318        -0.931781        0.301398     -0.000964913     0.000949861       -0.0859503        0.138119
281710                  0.132532       -0.065775       0.00110976    -0.000663892        -0.465165        0.862301      0.000259081    -6.37851e-05
                      0.00110182    -0.000711016         0.151446       0.0611472      0.000219343     8.47031e-05        -0.931593         0.30205
                       -0.465135        0.862072      0.000183856     1.16798e-05        0.0161753        0.146268     -0.000849588     0.000946026
                     0.000257581    -0.000109482        -0.931668        0.301743     -0.000964538     0.000950223       -0.0858704        0.138178
281712                  0.132506       -0.065789       0.00110944     -0.00066438        -0.464814        0.862493      0.000259007    -6.39281e-05
                      0.00110144    -0.000711485         0.151462       0.0611304      0.000219271     8.44975e-05        -0.931479        0.302396
                       -0.464785        0.862263      0.000183768     1.16277e-05        0.0162681        0.146241     -0.000849246     0.000946272
                     0.000257515    -0.000109647        -0.931554        0.302089     -0.000964162     0.000950584       -0.0857905        0.138237
281714                  0.132481       -0.065803       0.00110912    -0.000664868        -0.464464        0.862684      0.000258933    -6.40709e-05
                      0.00110107    -0.000711954         0.151477       0.0611135      0.000219199     8.42922e-05        -0.931365        0.302741
                       -0.464435        0.862454      0.000183678     1.15758e-05        0.0163609        0.146213     -0.000848904     0.000946517
                     0.000257449     -0.00010981         -0.93144        0.302434     -0.000963786     0.000950945       -0.0857105        0.138296
281716                  0.132455       -0.065817        0.0011088    -0.000665355        -0.464114        0.862875      0.000258858    -6.42136e-05
                      0.00110069    -0.000712423         0.151493       0.0610966      0.000219127     8.40871e-05         -0.93125        0.303087
                       -0.464085        0.862645      0.000183588     1.15242e-05        0.0164537        0.146186     -0.000848562     0.000946762
                     0.000257383    -0.000109974        -0.931326        0.302779      -0.00096341     0.000951305       -0.0856305        0.138355
281718                  0.132429      -0.0658309       0.00110849    -0.000665842        -0.463763        0.863065      0.000258783    -6.43561e-05
                      0.00110031    -0.000712892         0.151508       0.0610797      0.000219054     8.38823e-05        -0.931136        0.303432
                       -0.463734        0.862837      0.000183498     1.14728e-05        0.0165464        0.146159     -0.000848219     0.000947007
                     0.000257317    -0.000110138        -0.931211        0.303124     -0.000963034     0.000951665       -0.0855504        0.138414
281720                  0.132403      -0.0658449       0.00110817    -0.000666329        -0.463413        0.863256      0.000258708    -6.44984e-05
                      0.00109994     -0.00071336         0.151524       0.0610628      0.000218982     8.36777e-05        -0.931022        0.303777
                       -0.463384        0.863027      0.000183408     1.14216e-05        0.0166392        0.146131     -0.000847876     0.000947252
                      0.00025725    -0.000110302        -0.931097         0.30347     -0.000962657     0.000952025       -0.0854703        0.138473
281722                  0.132377      -0.0658588       0.00110785    -0.000666815        -0.463062        0.863446      0.000258633    -6.46407e-05
                      0.00109956    -0.000713828         0.151539       0.0610459      0.000218909     8.34735e-05        -0.930907        0.304123
                       -0.463033        0.863218      0.000183317     1.13706e-05        0.0167319        0.146103     -0.000847533     0.000947497
                     0.000257184    -0.000110465        -0.930983        0.303815     -0.000962281     0.000952384       -0.0853902        0.138532
281724                  0.132352      -0.0658728       0.00110753    -0.000667301        -0.462711        0.863637      0.000258557    -6.47827e-05
                      0.00109919    -0.000714295         0.151555        0.061029      0.000218836     8.32695e-05        -0.930792        0.304468
                       -0.462683        0.863409      0.000183227     1.13198e-05        0.0168245        0.146076      -0.00084719     0.000947742
                     0.000257117    -0.000110629        -0.930868         0.30416     -0.000961904     0.000952744         -0.08531        0.138591
281726                  0.132326      -0.0658867       0.00110721    -0.000667787        -0.462361        0.863827      0.000258481    -6.49247e-05
                      0.00109881    -0.000714763          0.15157       0.0610121      0.000218763     8.30657e-05        -0.930677        0.304813
                       -0.462332        0.863599      0.000183136     1.12692e-05        0.0169172        0.146048     -0.000846846     0.000947986
                      0.00025705    -0.000110792        -0.930753        0.304505     -0.000961526     0.000953103       -0.0852297        0.138649
281728                    0.1323      -0.0659006       0.00110689    -0.000668272         -0.46201        0.864017      0.000258405    -6.50665e-05
                      0.00109843     -0.00071523         0.151586       0.0609952      0.000218689     8.28623e-05        -0.930562        0.305158
                       -0.461981         0.86379      0.000183044     1.12188e-05        0.0170098         0.14602     -0.000846503     0.000948231
                     0.000256983    -0.000110956        -0.930638         0.30485     -0.000961149     0.000953461       -0.0851494        0.138708
281730                  0.132274      -0.0659145       0.00110657    -0.000668757        -0.461659        0.864207      0.000258329    -6.52082e-05
                      0.00109806    -0.000715696         0.151601       0.0609782      0.000218616     8.26591e-05        -0.930447        0.305503
                       -0.461631         0.86398      0.000182953     1.11686e-05        0.0171023        0.145993     -0.000846159     0.000948475
                     0.000256916    -0.000111119        -0.930523        0.305195     -0.000960772     0.000953819       -0.0850691        0.138767
281732                  0.132248      -0.0659284       0.00110625    -0.000669242        -0.461308        0.864397      0.000258253    -6.53498e-05
                      0.00109768    -0.000716163         0.151617       0.0609613      0.000218542     8.24561e-05        -0.930332        0.305848
                        -0.46128         0.86417      0.000182862     1.11186e-05        0.0171949        0.145965     -0.000845815      0.00094872
                     0.000256849    -0.000111282        -0.930408         0.30554     -0.000960394     0.000954177       -0.0849888        0.138825
281734                  0.132223      -0.0659423       0.00110593    -0.000669727        -0.460957        0.864587      0.000258176    -6.54913e-05
                       0.0010973    -0.000716629         0.151632       0.0609444      0.000218468     8.22534e-05        -0.930216        0.306194
                       -0.460929         0.86436       0.00018277     1.10687e-05        0.0172874        0.145937     -0.000845471     0.000948964
                     0.000256781    -0.000111445        -0.930293        0.305885     -0.000960016     0.000954535       -0.0849083        0.138884
281736                  0.132197      -0.0659562       0.00110561    -0.000670211        -0.460606        0.864776      0.000258098    -6.56328e-05
                      0.00109693    -0.000717095         0.151648       0.0609274      0.000218393      8.2051e-05        -0.930101        0.306539
                       -0.460578         0.86455      0.000182679      1.1019e-05        0.0173799        0.145909     -0.000845127     0.000949208
                     0.000256714    -0.000111608        -0.930178         0.30623     -0.000959638     0.000954892       -0.0848279        0.138943
281738                  0.132171        -0.06597       0.00110529    -0.000670695        -0.460254        0.864965       0.00025802    -6.57743e-05
                      0.00109655     -0.00071756         0.151663       0.0609105      0.000218319     8.18489e-05        -0.929985        0.306884
                       -0.460226        0.864739      0.000182587     1.09695e-05        0.0174723        0.145881     -0.000844782     0.000949452
                     0.000256646    -0.000111771        -0.930062        0.306575     -0.000959259     0.000955249       -0.0847474        0.139001
281740                  0.132145      -0.0659839       0.00110497    -0.000671179        -0.459903        0.865155      0.000257942    -6.59161e-05
                      0.00109617    -0.000718025         0.151679       0.0608935      0.000218244      8.1647e-05         -0.92987        0.307229
                       -0.459875        0.864929      0.000182495     1.09201e-05        0.0175648        0.145852     -0.000844437     0.000949696
                     0.000256578    -0.000111933        -0.929946         0.30692     -0.000958881     0.000955605       -0.0846669        0.139059
281742                  0.132119      -0.0659978       0.00110465    -0.000671663        -0.459552        0.865344      0.000257863    -6.60581e-05
                      0.00109579     -0.00071849         0.151694       0.0608765      0.000218169     8.14454e-05        -0.929754        0.307574
                       -0.459524        0.865118      0.000182403     1.08709e-05        0.0176572        0.145824     -0.000844093      0.00094994
                     0.000256511    -0.000112096        -0.929831        0.307264     -0.000958502     0.000955962       -0.0845863        0.139118
281744                  0.132093      -0.0660116       0.00110432    -0.000672147          -0.4592        0.865533      0.000257784    -6.62009e-05
                      0.00109541    -0.000718955          0.15171       0.0608595      0.000218094     8.12441e-05        -0.929638        0.307919
                       -0.459172        0.865307      0.000182312     1.08218e-05        0.0177496        0.145796     -0.000843748     0.000950183
                     0.000256443    -0.000112258        -0.929715        0.307609     -0.000958123     0.000956318       -0.0845056        0.139176
281746                  0.132068      -0.0660254         0.001104     -0.00067263        -0.458848        0.865722      0.000257705    -6.63448e-05
                      0.00109504    -0.000719419         0.151725       0.0608426      0.000218019      8.1043e-05        -0.929521        0.308263
                       -0.458821        0.865496       0.00018222     1.07729e-05        0.0178419        0.145768     -0.000843402     0.000950427
                     0.000256374    -0.000112421        -0.929599        0.307954     -0.000957744     0.000956673        -0.084425        0.139234
281748                  0.132042      -0.0660393       0.00110368    -0.000673113        -0.458497         0.86591      0.000257625    -6.64906e-05
                      0.00109466    -0.000719883         0.151741       0.0608256      0.000217944     8.08422e-05        -0.929405        0.308608
                       -0.458469        0.865685      0.000182128     1.07242e-05        0.0179342        0.145739     -0.000843057     0.000950671
                     0.000256306    -0.000112583        -0.929483        0.308299     -0.000957364     0.000957028       -0.0843443        0.139293
281750                  0.132016      -0.0660531       0.00110336    -0.000673596        -0.458145        0.866099      0.000257549    -6.66383e-05
                      0.00109428    -0.000720347         0.151756       0.0608086      0.000217868     8.06416e-05        -0.929289        0.308953
                       -0.458118        0.865874      0.000182036     1.06755e-05        0.0180265        0.145711     -0.000842711     0.000950915
                     0.000256238    -0.000112745        -0.929366        0.308643     -0.000956985     0.000957383       -0.0842635        0.139351
281752                   0.13199      -0.0660669       0.00110303    -0.000674079        -0.457793        0.866287      0.000257477    -6.67858e-05
                       0.0010939    -0.000720811         0.151771       0.0607916      0.000217792     8.04414e-05        -0.929172        0.309298
                       -0.457766        0.866063      0.000181944     1.06271e-05        0.0181188        0.145682     -0.000842364      0.00095116
                     0.000256169    -0.000112907         -0.92925        0.308988     -0.000956605     0.000957738       -0.0841827        0.139409
281754                  0.131964      -0.0660807       0.00110271    -0.000674561        -0.457441        0.866476      0.000257409    -6.69272e-05
                      0.00109352    -0.000721274         0.151787       0.0607746      0.000217716     8.02414e-05        -0.929056        0.309643
                       -0.457414        0.866251      0.000181852     1.05787e-05         0.018211        0.145654     -0.000842015     0.000951409
                     0.000256101    -0.000113068        -0.929133        0.309333     -0.000956225     0.000958092       -0.0841019        0.139467
281756                  0.131938      -0.0660945       0.00110239    -0.000675044        -0.457089        0.866664      0.000257338    -6.70618e-05
                      0.00109315    -0.000721739         0.151802       0.0607576       0.00021764     8.00416e-05        -0.928938        0.309987
                       -0.457062         0.86644      0.000181761     1.05305e-05        0.0183032        0.145625     -0.000841648     0.000951411
                     0.000256034    -0.000113227        -0.929017        0.309677     -0.000955845     0.000958446       -0.0840211        0.139525
281758                  0.131912      -0.0661083       0.00110206    -0.000675526        -0.456737        0.866852       0.00025726    -6.71958e-05
                      0.00109276    -0.000722191         0.151818       0.0607405      0.000217563     7.98423e-05        -0.928822        0.310332
                        -0.45671        0.866628      0.000181669     1.04824e-05        0.0183953        0.145596     -0.000841335     0.000951867
                     0.000255955    -0.000113407          -0.9289        0.310022     -0.000955464       0.0009588       -0.0839401        0.139583
281760                  0.131886       -0.066122       0.00110174    -0.000676008        -0.456385        0.867039      0.000257179    -6.73324e-05
                      0.00109238    -0.000722659         0.151833       0.0607235      0.000217486     7.96435e-05        -0.928704        0.310677
                       -0.456358        0.866816      0.000181577     1.04344e-05        0.0184875        0.145567     -0.000840986     0.000952115
                     0.000255891    -0.000113559        -0.928783        0.310366     -0.000955084     0.000959154       -0.0838591        0.139641
281762                   0.13186      -0.0661358       0.00110142     -0.00067649        -0.456033        0.867227      0.000257098    -6.74715e-05
                        0.001092    -0.000723122         0.151849       0.0607065      0.000217411     7.94427e-05        -0.928587        0.311021
                       -0.456006        0.867004      0.000181485     1.03865e-05        0.0185796        0.145539     -0.000840639     0.000952359
