! TOUCHSTONE file generated by CST MICROWAVE STUDIO
! Date and time: Wed Oct 15 17:28:37 2025
! Project name: Teste_Macro_Metasurface_Nanopilar.cst
! Parameters = {H=600; L_x=85; L_y=75; Lambda=1064; Max_L=200; Min_L=70; PathPara=1; Phi=0; Step_L=10; Theta=0; p=520; phaseX=180; phaseY=0}
! Header version: 2018
! Port assignment regex: !\s*Touchstone port\s*([0-9]+)\s*=\s*(CST MWS port|CST DS port)\s*([0-9]+|Zmin|Zmax)\s*\(\"(.*)\"\)(\s*mode\s*([0-9]+))?.*
! Touchstone port assignment:
! Touchstone port 1 = CST MWS port Zmax ("") mode 1
! Touchstone port 2 = CST MWS port Zmax ("") mode 2
! Touchstone port 3 = CST MWS port Zmin ("") mode 1
! Touchstone port 4 = CST MWS port Zmin ("") mode 2
! S-Parameters are not renormalized. Each port impedance will be approximated by the real part at minimum frequency. The values are described via the [Reference] keyword.
! Default impedance is overridden by [Reference]
[Version] 2.0
# GHz S RI R 376.73
[Number of Ports] 4
[Reference]
376.73 376.73 259.888 259.888 
[Number of Frequencies] 51
[Network Data]
281700                 0.0508632       -0.127535     -0.000103917    -0.000196717         0.154719        -0.97807       0.00030314    -7.07304e-05
                    -8.78311e-05    -0.000167353        0.0373967        -0.11764      0.000285693     0.000205374        0.0714015       -0.989506
                        0.154222       -0.978445       0.00027791     9.57527e-05        0.0090037        0.137043     -0.000226457     0.000165627
                     0.000310319    -6.70303e-05        0.0716291         -0.9895     -0.000306397     0.000176065        0.0200338        0.121849
281702                  0.050851       -0.127537     -0.000103839    -0.000196712         0.154487       -0.978107      0.000303103    -7.08072e-05
                     -8.7664e-05    -0.000167318        0.0373845        -0.11764       0.00028575     0.000205327        0.0711639       -0.989524
                         0.15399       -0.978481      0.000277815     9.57506e-05       0.00905654        0.137037     -0.000226389     0.000165687
                      0.00031026    -6.69927e-05        0.0713916       -0.989518     -0.000306367      0.00017604        0.0200803        0.121838
281704                 0.0508388       -0.127539     -0.000103761    -0.000196707         0.154255       -0.978144      0.000303066     -7.0884e-05
                    -8.74964e-05    -0.000167284        0.0373724       -0.117641      0.000285808     0.000205279        0.0709264       -0.989541
                        0.153757       -0.978518      0.000277719     9.57482e-05       0.00910936        0.137031     -0.000226322     0.000165748
                       0.0003102    -6.69552e-05        0.0711541       -0.989535     -0.000306337     0.000176014        0.0201267        0.121827
281706                 0.0508267       -0.127541     -0.000103683    -0.000196702         0.154023       -0.978181      0.000303029    -7.09608e-05
                    -8.73283e-05     -0.00016725        0.0373602       -0.117641      0.000285865     0.000205231        0.0706889       -0.989559
                        0.153524       -0.978555      0.000277621     9.57457e-05       0.00916219        0.137024     -0.000226254     0.000165808
                     0.000310141    -6.69177e-05        0.0709165       -0.989553     -0.000306307     0.000175988        0.0201731        0.121816
281708                 0.0508145       -0.127543     -0.000103603    -0.000196696         0.153791       -0.978218      0.000302992    -7.10375e-05
                    -8.71597e-05    -0.000167215        0.0373481       -0.117641      0.000285922     0.000205184        0.0704514       -0.989576
                        0.153292       -0.978592      0.000277523     9.57432e-05       0.00921501        0.137018     -0.000226186     0.000165869
                     0.000310081    -6.68801e-05         0.070679        -0.98957     -0.000306277     0.000175962        0.0202194        0.121805
281710                 0.0508023       -0.127545     -0.000103523     -0.00019669         0.153559       -0.978255      0.000302954    -7.11142e-05
                    -8.69906e-05    -0.000167181        0.0373359       -0.117641      0.000285979     0.000205136        0.0702138       -0.989593
                        0.153059       -0.978629      0.000277424     9.57409e-05       0.00926783        0.137012     -0.000226119     0.000165929
                     0.000310022    -6.68426e-05        0.0704414       -0.989588     -0.000306247     0.000175936        0.0202658        0.121793
281712                 0.0507902       -0.127547     -0.000103443    -0.000196684         0.153327       -0.978291      0.000302917    -7.11909e-05
                    -8.68211e-05    -0.000167146        0.0373238       -0.117642      0.000286036     0.000205088        0.0699763       -0.989611
                        0.152826       -0.978665      0.000277324     9.57387e-05       0.00932064        0.137006     -0.000226051      0.00016599
                     0.000309962    -6.68051e-05        0.0702039       -0.989605     -0.000306217     0.000175909        0.0203122        0.121782
281714                  0.050778       -0.127549     -0.000103362    -0.000196677         0.153095       -0.978328       0.00030288    -7.12675e-05
                    -8.66512e-05    -0.000167112        0.0373116       -0.117642      0.000286093     0.000205041        0.0697387       -0.989628
                        0.152594       -0.978702      0.000277224     9.57368e-05       0.00937345        0.136999     -0.000225983      0.00016605
                     0.000309903    -6.67676e-05        0.0699663       -0.989622     -0.000306187     0.000175883        0.0203586        0.121771
281716                 0.0507659       -0.127551      -0.00010328    -0.000196671         0.152863       -0.978365      0.000302843    -7.13442e-05
                    -8.64809e-05    -0.000167077        0.0372995       -0.117642       0.00028615     0.000204993        0.0695012       -0.989645
                        0.152361       -0.978739      0.000277122     9.57351e-05       0.00942626        0.136993     -0.000225915      0.00016611
                     0.000309844    -6.67301e-05        0.0697287        -0.98964     -0.000306158     0.000175856        0.0204049         0.12176
281718                 0.0507537       -0.127553     -0.000103199    -0.000196664         0.152631       -0.978401      0.000302805    -7.14208e-05
                    -8.63102e-05    -0.000167042        0.0372873       -0.117642      0.000286207     0.000204945        0.0692636       -0.989662
                        0.152128       -0.978775      0.000277021     9.57338e-05       0.00947906        0.136987     -0.000225847     0.000166171
                     0.000309784    -6.66925e-05        0.0694912       -0.989657     -0.000306128     0.000175829        0.0204513        0.121749
281720                 0.0507415       -0.127555     -0.000103117    -0.000196657         0.152399       -0.978438      0.000302768    -7.14973e-05
                    -8.61392e-05    -0.000167008        0.0372752       -0.117643      0.000286263     0.000204897         0.069026       -0.989679
                        0.151895       -0.978812      0.000276919     9.57327e-05       0.00953186        0.136981     -0.000225779     0.000166231
                     0.000309725     -6.6655e-05        0.0692536       -0.989674     -0.000306098     0.000175801        0.0204977        0.121737
281722                 0.0507294       -0.127557     -0.000103034     -0.00019665         0.152167       -0.978474      0.000302731    -7.15739e-05
                    -8.59679e-05    -0.000166973         0.037263       -0.117643       0.00028632      0.00020485        0.0687885       -0.989696
                        0.151663       -0.978848      0.000276816      9.5732e-05       0.00958466        0.136974     -0.000225711     0.000166291
                     0.000309666    -6.66174e-05         0.069016       -0.989691     -0.000306069     0.000175774         0.020544        0.121726
281724                 0.0507172       -0.127559     -0.000102952    -0.000196643         0.151935       -0.978511      0.000302693    -7.16504e-05
                    -8.57962e-05    -0.000166938        0.0372509       -0.117643      0.000286377     0.000204802        0.0685509       -0.989713
                         0.15143       -0.978884      0.000276713     9.57316e-05       0.00963745        0.136968     -0.000225643     0.000166351
                     0.000309606    -6.65797e-05        0.0687784       -0.989708      -0.00030604     0.000175746        0.0205904        0.121715
281726                  0.050705       -0.127561     -0.000102869    -0.000196636         0.151703       -0.978547      0.000302656    -7.17269e-05
                    -8.56243e-05    -0.000166903        0.0372388       -0.117643      0.000286433     0.000204754        0.0683133        -0.98973
                        0.151197       -0.978921       0.00027661     9.57315e-05       0.00969024        0.136961     -0.000225575     0.000166412
                     0.000309547     -6.6542e-05        0.0685408       -0.989725      -0.00030601     0.000175718        0.0206367        0.121703
281728                 0.0506929       -0.127563     -0.000102785    -0.000196629         0.151471       -0.978583      0.000302619    -7.18034e-05
                    -8.54522e-05    -0.000166868        0.0372266       -0.117644      0.000286489     0.000204706        0.0680757       -0.989747
                        0.150964       -0.978957      0.000276507     9.57316e-05       0.00974302        0.136955     -0.000225507     0.000166472
                     0.000309488    -6.65042e-05        0.0683032       -0.989742     -0.000305981      0.00017569         0.020683        0.121692
281730                 0.0506807       -0.127565     -0.000102702    -0.000196622         0.151239        -0.97862      0.000302581    -7.18798e-05
                    -8.52798e-05    -0.000166833        0.0372145       -0.117644      0.000286546     0.000204658        0.0678382       -0.989763
                        0.150731       -0.978993      0.000276403     9.57321e-05        0.0097958        0.136949     -0.000225439     0.000166532
                     0.000309428    -6.64663e-05        0.0680656       -0.989759     -0.000305952     0.000175662        0.0207294        0.121681
281732                 0.0506685       -0.127567     -0.000102619    -0.000196614         0.151006       -0.978656      0.000302544    -7.19562e-05
                    -8.51071e-05    -0.000166798        0.0372023       -0.117644      0.000286602      0.00020461        0.0676006        -0.98978
                        0.150499       -0.979029        0.0002763     9.57328e-05       0.00984858        0.136942      -0.00022537     0.000166592
                     0.000309369    -6.64283e-05         0.067828       -0.989775     -0.000305923     0.000175633        0.0207757        0.121669
281734                 0.0506564       -0.127569     -0.000102535    -0.000196607         0.150774       -0.978692      0.000302507    -7.20326e-05
                    -8.49343e-05    -0.000166763        0.0371902       -0.117644      0.000286658     0.000204562         0.067363       -0.989797
                        0.150266       -0.979065      0.000276196     9.57338e-05       0.00990136        0.136936     -0.000225302     0.000166652
                     0.000309309    -6.63902e-05        0.0675904       -0.989792     -0.000305894     0.000175605         0.020822        0.121658
281736                 0.0506442       -0.127571     -0.000102451    -0.000196599         0.150542       -0.978728      0.000302469    -7.21089e-05
                    -8.47613e-05    -0.000166728         0.037178       -0.117645      0.000286714     0.000204514        0.0671254       -0.989813
                        0.150033       -0.979101      0.000276092      9.5735e-05       0.00995413        0.136929     -0.000225234     0.000166712
                     0.000309249    -6.63519e-05        0.0673528       -0.989809     -0.000305865     0.000175576        0.0208683        0.121646
281738                  0.050632       -0.127573     -0.000102367    -0.000196592          0.15031       -0.978764      0.000302432    -7.21853e-05
                    -8.45881e-05    -0.000166693        0.0371659       -0.117645       0.00028677     0.000204466        0.0668878        -0.98983
                          0.1498       -0.979137      0.000275988     9.57364e-05        0.0100069        0.136923     -0.000225165     0.000166772
                     0.000309188    -6.63138e-05        0.0671152       -0.989825     -0.000305837     0.000175547        0.0209146        0.121635
281740                 0.0506199       -0.127575     -0.000102283    -0.000196584         0.150078         -0.9788      0.000302394    -7.22616e-05
                    -8.44147e-05    -0.000166657        0.0371537       -0.117645      0.000286826     0.000204418        0.0666502       -0.989846
                        0.149567       -0.979173      0.000275885      9.5738e-05        0.0100597        0.136916     -0.000225097     0.000166832
                     0.000309127    -6.62759e-05        0.0668776       -0.989842     -0.000305808     0.000175517        0.0209609        0.121624
281742                 0.0506077       -0.127577     -0.000102198    -0.000196577         0.149846       -0.978836      0.000302357    -7.23378e-05
                    -8.42412e-05    -0.000166622        0.0371416       -0.117645      0.000286881      0.00020437        0.0664125       -0.989863
                        0.149335       -0.979209      0.000275781     9.57397e-05        0.0101124         0.13691     -0.000225028     0.000166892
                     0.000309066    -6.62385e-05          0.06664       -0.989859     -0.000305779     0.000175488        0.0210072        0.121612
281744                 0.0505955       -0.127579     -0.000102114    -0.000196569         0.149614       -0.978872      0.000302319    -7.24141e-05
                    -8.40676e-05    -0.000166587        0.0371294       -0.117645      0.000286937     0.000204322        0.0661749       -0.989879
                        0.149102       -0.979245      0.000275677     9.57417e-05        0.0101652        0.136903      -0.00022496     0.000166952
                     0.000309004     -6.6202e-05        0.0664023       -0.989875     -0.000305751     0.000175458        0.0210535        0.121601
281746                 0.0505834       -0.127581      -0.00010203    -0.000196561         0.149381       -0.978908      0.000302282    -7.24903e-05
                    -8.38939e-05    -0.000166552        0.0371173       -0.117646      0.000286993     0.000204273        0.0659373       -0.989895
                        0.148869        -0.97928      0.000275573     9.57438e-05        0.0102179        0.136897     -0.000224891     0.000167012
                     0.000308942    -6.61663e-05        0.0661647       -0.989891     -0.000305722     0.000175428        0.0210998        0.121589
281748                 0.0505712       -0.127583     -0.000101945    -0.000196554         0.149149       -0.978943      0.000302244    -7.25664e-05
                      -8.372e-05    -0.000166516        0.0371051       -0.117646      0.000287048     0.000204225        0.0656997       -0.989912
                        0.148636       -0.979316      0.000275469      9.5746e-05        0.0102707         0.13689     -0.000224822     0.000167073
                     0.000308882    -6.61311e-05        0.0659271       -0.989908     -0.000305694     0.000175398         0.021146        0.121578
281750                  0.050559       -0.127585     -0.000101861    -0.000196546         0.148917       -0.978979      0.000302207    -7.26424e-05
                    -8.35461e-05    -0.000166481         0.037093       -0.117646      0.000287103     0.000204177         0.065462       -0.989928
                        0.148403       -0.979352      0.000275365     9.57484e-05        0.0103234        0.136883     -0.000224754     0.000167133
                     0.000308821     -6.6096e-05        0.0656894       -0.989924     -0.000305666     0.000175368        0.0211923        0.121566
281752                 0.0505469       -0.127587     -0.000101776    -0.000196538         0.148685       -0.979015      0.000302169    -7.27182e-05
                    -8.33722e-05    -0.000166446        0.0370808       -0.117646      0.000287159     0.000204129        0.0652244       -0.989944
                         0.14817       -0.979387      0.000275261     9.57509e-05        0.0103762        0.136877     -0.000224685     0.000167194
                     0.000308762    -6.60607e-05        0.0654518        -0.98994     -0.000305638     0.000175337        0.0212386        0.121555
281754                 0.0505347       -0.127589     -0.000101691     -0.00019653         0.148453        -0.97905       0.00030213    -7.27922e-05
                    -8.31981e-05     -0.00016641        0.0370687       -0.117647      0.000287214     0.000204081        0.0649868        -0.98996
                        0.147937       -0.979423      0.000275158     9.57534e-05        0.0104289         0.13687     -0.000224615     0.000167259
                     0.000308702     -6.6025e-05        0.0652141       -0.989956      -0.00030561     0.000175307        0.0212848        0.121543
281756                 0.0505226       -0.127591     -0.000101606    -0.000196522          0.14822       -0.979086      0.000302102    -7.28681e-05
                    -8.30241e-05    -0.000166375        0.0370565       -0.117647      0.000287269     0.000204032        0.0647491       -0.989976
                        0.147704       -0.979458      0.000275054     9.57561e-05        0.0104816        0.136863     -0.000224536     0.000167312
                     0.000308643    -6.59888e-05        0.0649764       -0.989972     -0.000305582     0.000175276        0.0213311        0.121531
281758                 0.0505104       -0.127593     -0.000101522    -0.000196514         0.147988       -0.979121      0.000302061    -7.29479e-05
                      -8.285e-05    -0.000166339        0.0370444       -0.117647      0.000287324     0.000203984        0.0645115       -0.989992
                        0.147471       -0.979494      0.000274951     9.57588e-05        0.0105344        0.136857     -0.000224472     0.000167369
                     0.000308584    -6.59521e-05        0.0647388       -0.989989     -0.000305555     0.000175245        0.0213773         0.12152
281760                 0.0504982       -0.127595     -0.000101437    -0.000196506         0.147756       -0.979157      0.000302022     -7.3024e-05
                     -8.2676e-05    -0.000166304        0.0370322       -0.117647      0.000287379     0.000203936        0.0642738       -0.990008
                        0.147239       -0.979529      0.000274847     9.57616e-05        0.0105871         0.13685     -0.000224404     0.000167428
                     0.000308525    -6.59148e-05        0.0645011       -0.990005     -0.000305528     0.000175214        0.0214235        0.121508
281762                  0.050486       -0.127597     -0.000101352    -0.000196498         0.147524       -0.979192      0.000301984    -7.31001e-05
                    -8.25019e-05    -0.000166268        0.0370201       -0.117647      0.000287434     0.000203888        0.0640362       -0.990024
                        0.147006       -0.979564      0.000274744     9.57644e-05        0.0106398        0.136843     -0.000224335     0.000167488
