! TOUCHSTONE file generated by CST MICROWAVE STUDIO
! Date and time: Wed Oct 15 17:31:53 2025
! Project name: Teste_Macro_Metasurface_Nanopilar.cst
! Parameters = {H=600; L_x=140; L_y=125; Lambda=1064; Max_L=200; Min_L=70; PathPara=1; Phi=0; Step_L=10; Theta=0; p=520; phaseX=180; phaseY=0}
! Header version: 2018
! Port assignment regex: !\s*Touchstone port\s*([0-9]+)\s*=\s*(CST MWS port|CST DS port)\s*([0-9]+|Zmin|Zmax)\s*\(\"(.*)\"\)(\s*mode\s*([0-9]+))?.*
! Touchstone port assignment:
! Touchstone port 1 = CST MWS port Zmax ("") mode 1
! Touchstone port 2 = CST MWS port Zmax ("") mode 2
! Touchstone port 3 = CST MWS port Zmin ("") mode 1
! Touchstone port 4 = CST MWS port Zmin ("") mode 2
! S-Parameters are not renormalized. Each port impedance will be approximated by the real part at minimum frequency. The values are described via the [Reference] keyword.
! Default impedance is overridden by [Reference]
[Version] 2.0
# GHz S RI R 376.73
[Number of Ports] 4
[Reference]
376.73 376.73 259.888 259.888 
[Number of Frequencies] 51
[Network Data]
281700                 0.0470244       0.0728636      0.000201822    -6.27187e-05          0.90792        0.394039     -6.29841e-06    -0.000868359
                      0.00018035    -0.000133527        0.0888254        0.141658      0.000132965    -0.000715552         0.973346       -0.120528
                        0.907892         0.39393      3.54033e-05    -0.000701041       -0.0843031       0.0171193     -0.000325501    -0.000280603
                     2.59657e-05    -0.000701685         0.973421       -0.120576       2.6679e-05    -1.60713e-05       -0.0504201         0.15879
281702                 0.0470351        0.072881      0.000201391    -6.27973e-05         0.908056         0.39372     -6.44013e-06    -0.000868306
                     0.000180343    -0.000133734        0.0888416         0.14167      0.000132808    -0.000715694         0.973304       -0.120843
                        0.908029        0.393611      3.45862e-05    -0.000700859       -0.0843114       0.0171823     -0.000325162    -0.000280434
                     2.58452e-05    -0.000701829          0.97338       -0.120892       2.6948e-05    -1.63431e-05       -0.0503297        0.158839
281704                 0.0470459       0.0728985      0.000200957     -6.2874e-05         0.908193        0.393401     -6.57991e-06    -0.000868252
                     0.000180336    -0.000133941        0.0888578        0.141683      0.000132651    -0.000715836         0.973262       -0.121158
                        0.908165        0.393293      3.37661e-05    -0.000700675       -0.0843197       0.0172453     -0.000324823    -0.000280264
                     2.57245e-05    -0.000701974         0.973339       -0.121207      2.72178e-05    -1.66147e-05       -0.0502393        0.158887
281706                 0.0470567       0.0729159      0.000200522    -6.29489e-05          0.90833        0.393082     -6.71731e-06    -0.000868198
                     0.000180329    -0.000134149         0.088874        0.141695      0.000132494    -0.000715977         0.973219       -0.121474
                        0.908302        0.392974      3.29429e-05    -0.000700487       -0.0843279       0.0173084     -0.000324484    -0.000280093
                     2.56038e-05     -0.00070212         0.973298       -0.121523      2.74884e-05    -1.68861e-05       -0.0501488        0.158936
281708                 0.0470674       0.0729334      0.000200086    -6.30219e-05         0.908466        0.392763      -6.8519e-06    -0.000868144
                     0.000180322    -0.000134357        0.0888902        0.141708      0.000132337    -0.000716117         0.973177       -0.121789
                        0.908438        0.392655      3.21166e-05    -0.000700296       -0.0843361       0.0173714     -0.000324146    -0.000279921
                     2.54829e-05    -0.000702266         0.973257       -0.121838      2.77598e-05    -1.71574e-05       -0.0500583        0.158985
281710                 0.0470782       0.0729508      0.000199647     -6.3093e-05         0.908603        0.392444     -6.98335e-06     -0.00086809
                     0.000180315    -0.000134564        0.0889064         0.14172       0.00013218    -0.000716257         0.973135       -0.122104
                        0.908574        0.392336      3.12872e-05    -0.000700101       -0.0843442       0.0174345     -0.000323808    -0.000279747
                     2.53619e-05    -0.000702412         0.973215       -0.122154       2.8032e-05    -1.74285e-05       -0.0499677        0.159033
281712                  0.047089       0.0729683      0.000199207    -6.31622e-05         0.908739        0.392125     -7.11158e-06    -0.000868038
                     0.000180309    -0.000134772        0.0889226        0.141732      0.000132023    -0.000716396         0.973092       -0.122419
                         0.90871        0.392017      3.04547e-05    -0.000699903       -0.0843523       0.0174976     -0.000323469    -0.000279571
                     2.52409e-05    -0.000702559         0.973174        -0.12247       2.8305e-05    -1.76995e-05       -0.0498771        0.159081
281714                 0.0470997       0.0729857      0.000198765    -6.32293e-05         0.908875        0.391806     -7.23685e-06    -0.000867989
                     0.000180302    -0.000134981        0.0889388        0.141745      0.000131866    -0.000716535         0.973049       -0.122734
                        0.908846        0.391698      2.96191e-05    -0.000699702       -0.0843603       0.0175607     -0.000323129    -0.000279393
                     2.51197e-05    -0.000702706         0.973132       -0.122785      2.85787e-05    -1.79703e-05       -0.0497864         0.15913
281716                 0.0471105       0.0730032      0.000198322    -6.32945e-05         0.909011        0.391486     -7.35992e-06    -0.000867944
                     0.000180296    -0.000135189        0.0889549        0.141757      0.000131708    -0.000716673         0.973007       -0.123049
                        0.908982        0.391379      2.87804e-05    -0.000699497       -0.0843683       0.0176238     -0.000322785    -0.000279211
                     2.49984e-05    -0.000702854         0.973091       -0.123101      2.88531e-05    -1.82411e-05       -0.0496958        0.159178
281718                 0.0471213       0.0730206      0.000197877    -6.33577e-05         0.909147        0.391167     -7.48202e-06    -0.000867904
                      0.00018029    -0.000135397        0.0889711         0.14177      0.000131551    -0.000716811         0.972964       -0.123365
                        0.909118         0.39106      2.79385e-05    -0.000699288       -0.0843762       0.0176869     -0.000322434    -0.000279026
                      2.4877e-05    -0.000703002         0.973049       -0.123416      2.91282e-05    -1.85117e-05        -0.049605        0.159226
281720                 0.0471321        0.073038       0.00019743    -6.34188e-05         0.909283        0.390848     -7.60464e-06    -0.000867868
                     0.000180284    -0.000135606        0.0889873        0.141782      0.000131394    -0.000716948         0.972921        -0.12368
                        0.909254        0.390741      2.70935e-05    -0.000699076       -0.0843841         0.01775     -0.000322071     -0.00027884
                     2.47555e-05    -0.000703151         0.973007       -0.123732       2.9404e-05    -1.87823e-05       -0.0495143        0.159274
281722                 0.0471428       0.0730555      0.000196981    -6.34777e-05         0.909418        0.390528     -7.72927e-06    -0.000867837
                     0.000180279    -0.000135815        0.0890035        0.141795      0.000131236    -0.000717084         0.972878       -0.123995
                        0.909389        0.390422      2.62453e-05     -0.00069886        -0.084392       0.0178132     -0.000321689    -0.000278662
                      2.4634e-05      -0.0007033         0.972965       -0.124047      2.96805e-05    -1.90527e-05       -0.0494235        0.159323
281724                 0.0471536       0.0730729       0.00019653    -6.35346e-05         0.909554        0.390209     -7.85706e-06    -0.000867809
                     0.000180273    -0.000136024        0.0890197        0.141807      0.000131078     -0.00071722         0.972834        -0.12431
                        0.909525        0.390102       2.5394e-05    -0.000698641       -0.0843998       0.0178764      -0.00032129    -0.000278513
                     2.45123e-05    -0.000703449         0.972923       -0.124363      2.99577e-05    -1.93232e-05       -0.0493326        0.159371
281726                 0.0471644       0.0730903      0.000196078    -6.35893e-05         0.909689         0.38989     -7.98864e-06    -0.000867783
                     0.000180268    -0.000136233        0.0890359         0.14182      0.000130921    -0.000717356         0.972791       -0.124625
                         0.90966        0.389783      2.45394e-05    -0.000698417       -0.0844075       0.0179395     -0.000320906    -0.000278408
                     2.43906e-05    -0.000703599         0.972881       -0.124678      3.02354e-05    -1.95935e-05       -0.0492417        0.159419
281728                 0.0471752       0.0731077      0.000195624    -6.36419e-05         0.909825         0.38957     -8.12408e-06    -0.000867758
                     0.000180263    -0.000136442        0.0890521        0.141832      0.000130763    -0.000717491         0.972748        -0.12494
                        0.909795        0.389464      2.36817e-05     -0.00069819       -0.0844152       0.0180027     -0.000320569    -0.000278319
                     2.42689e-05     -0.00070375         0.972839       -0.124993      3.05137e-05    -1.98639e-05       -0.0491508        0.159467
281730                  0.047186       0.0731252      0.000195169    -6.36922e-05          0.90996        0.389251     -8.26306e-06    -0.000867733
                     0.000180258    -0.000136652        0.0890683        0.141844      0.000130605    -0.000717626         0.972704       -0.125255
                         0.90993        0.389145      2.28207e-05    -0.000697959       -0.0844229       0.0180659     -0.000320267    -0.000278207
                      2.4147e-05    -0.000703901         0.972796       -0.125309      3.07926e-05    -2.01342e-05       -0.0490598        0.159515
281732                 0.0471968       0.0731426      0.000194711    -6.37402e-05         0.910095        0.388931       -8.405e-06    -0.000867707
                     0.000180253    -0.000136861        0.0890845        0.141857      0.000130447     -0.00071776         0.972661        -0.12557
                        0.910065        0.388825      2.19565e-05    -0.000697725       -0.0844305       0.0181292     -0.000319971    -0.000278069
                     2.40251e-05    -0.000704052         0.972754       -0.125624       3.1072e-05    -2.04045e-05       -0.0489688        0.159563
281734                 0.0472076         0.07316      0.000194252     -6.3786e-05          0.91023        0.388612     -8.54926e-06     -0.00086768
                     0.000180248    -0.000137071        0.0891007        0.141869      0.000130289    -0.000717894         0.972617       -0.125885
                          0.9102        0.388506      2.10891e-05    -0.000697486        -0.084438       0.0181924      -0.00031967    -0.000277916
                     2.39032e-05    -0.000704204         0.972711        -0.12594       3.1352e-05    -2.06748e-05       -0.0488778         0.15961
281736                 0.0472184       0.0731774      0.000193791    -6.38295e-05         0.910365        0.388292     -8.69523e-06    -0.000867651
                     0.000180244    -0.000137281        0.0891169        0.141882       0.00013013    -0.000718028         0.972573         -0.1262
                        0.910335        0.388186      2.02185e-05    -0.000697243       -0.0844456       0.0182556     -0.000319363    -0.000277755
                     2.37812e-05    -0.000704356         0.972669       -0.126255      3.16324e-05    -2.09452e-05       -0.0487867        0.159658
281738                 0.0472292       0.0731948      0.000193328    -6.38706e-05           0.9105        0.387972     -8.84239e-06     -0.00086762
                     0.000180239    -0.000137491        0.0891331        0.141894      0.000129972    -0.000718161         0.972529       -0.126515
                        0.910469        0.387867      1.93446e-05    -0.000696996        -0.084453       0.0183189     -0.000319051    -0.000277591
                     2.36592e-05    -0.000704509         0.972626       -0.126571      3.19133e-05    -2.12156e-05       -0.0486955        0.159706
281740                   0.04724       0.0732122      0.000192864    -6.39094e-05         0.910634        0.387653     -8.99031e-06    -0.000867588
                     0.000180235    -0.000137701        0.0891493        0.141907      0.000129813    -0.000718294         0.972485        -0.12683
                        0.910604        0.387547      1.84674e-05    -0.000696745       -0.0844605       0.0183822     -0.000318735    -0.000277427
                     2.35371e-05    -0.000704662         0.972583       -0.126886      3.21945e-05    -2.14861e-05       -0.0486044        0.159754
281742                 0.0472509       0.0732296      0.000192398    -6.39457e-05         0.910769        0.387333     -9.13868e-06    -0.000867555
                     0.000180232    -0.000137911        0.0891655        0.141919      0.000129655    -0.000718426         0.972441       -0.127145
                        0.910738        0.387228       1.7587e-05     -0.00069649       -0.0844678       0.0184455     -0.000318418    -0.000277261
                      2.3415e-05    -0.000704816          0.97254       -0.127201      3.24762e-05    -2.17566e-05       -0.0485131        0.159801
281744                 0.0472617        0.073247       0.00019193    -6.39796e-05         0.910903        0.387013     -9.28726e-06     -0.00086752
                     0.000180228    -0.000138121        0.0891817        0.141932      0.000129496    -0.000718559         0.972397        -0.12746
                        0.910872        0.386908      1.67033e-05    -0.000696231       -0.0844752       0.0185088     -0.000318099    -0.000277096
                     2.32929e-05     -0.00070497         0.972497       -0.127517      3.27582e-05    -2.20272e-05       -0.0484219        0.159849
281746                 0.0472725       0.0732644       0.00019146     -6.4011e-05         0.911038        0.386693     -9.43587e-06    -0.000867484
                     0.000180225    -0.000138332        0.0891979        0.141944      0.000129337     -0.00071869         0.972353       -0.127774
                        0.911007        0.386589      1.58163e-05    -0.000695967       -0.0844825       0.0185721     -0.000317779    -0.000276931
                     2.31707e-05    -0.000705124         0.972454       -0.127832      3.30405e-05    -2.22979e-05       -0.0483306        0.159896
281748                 0.0472833       0.0732818      0.000190989    -6.40399e-05         0.911172        0.386373     -9.58439e-06    -0.000867448
                     0.000180221    -0.000138543        0.0892142        0.141957      0.000129178    -0.000718822         0.972309       -0.128089
                        0.911141        0.386269       1.4926e-05    -0.000695699       -0.0844897       0.0186354     -0.000317458    -0.000276767
                     2.30486e-05    -0.000705279         0.972411       -0.128147      3.33231e-05    -2.25687e-05       -0.0482393        0.159944
281750                 0.0472942       0.0732992      0.000190516    -6.40662e-05         0.911306        0.386054     -9.73275e-06     -0.00086741
                     0.000180218    -0.000138753        0.0892304        0.141969      0.000129019    -0.000718953         0.972264       -0.128404
                        0.911275        0.385949      1.40324e-05    -0.000695426       -0.0844969       0.0186988     -0.000317137    -0.000276603
                     2.29264e-05    -0.000705434         0.972368       -0.128463      3.36058e-05    -2.28396e-05       -0.0481479        0.159991
281752                  0.047305       0.0733166      0.000190041    -6.40899e-05          0.91144        0.385734     -9.88087e-06    -0.000867372
                     0.000180215    -0.000138964        0.0892466        0.141981      0.000128859    -0.000719085         0.972219       -0.128719
                        0.911408        0.385629      1.31355e-05    -0.000695149        -0.084504       0.0187621     -0.000316816    -0.000276439
                     2.28042e-05     -0.00070559         0.972324       -0.128778      3.38887e-05    -2.31107e-05       -0.0480565        0.160039
281754                 0.0473158        0.073334      0.000189564     -6.4111e-05         0.911574        0.385414     -1.00287e-05    -0.000867333
                     0.000180213    -0.000139175        0.0892628        0.141994        0.0001287    -0.000719216         0.972175       -0.129034
                        0.911542         0.38531      1.22353e-05    -0.000694868       -0.0845111       0.0188255     -0.000316495    -0.000276276
                      2.2682e-05    -0.000705746         0.972281       -0.129093      3.41718e-05     -2.3382e-05        -0.047965        0.160086
281756                 0.0473267       0.0733514      0.000189086    -6.41294e-05         0.911707        0.385094     -1.01763e-05    -0.000867293
                      0.00018021    -0.000139387         0.089279        0.142006       0.00012854    -0.000719346          0.97213       -0.129348
                        0.911676         0.38499      1.13318e-05    -0.000694582       -0.0845182       0.0188889     -0.000316175    -0.000276113
                     2.25599e-05    -0.000705903         0.972237       -0.129409      3.44548e-05    -2.36534e-05       -0.0478736        0.160133
281758                 0.0473375       0.0733687      0.000188606    -6.41452e-05         0.911841        0.384774     -1.03235e-05    -0.000867254
                     0.000180208    -0.000139598        0.0892952        0.142019      0.000128381    -0.000719477         0.972085       -0.129663
                        0.911809         0.38467      1.04249e-05    -0.000694291       -0.0845252       0.0189523     -0.000315854     -0.00027595
                     2.24377e-05     -0.00070606         0.972193       -0.129724      3.47379e-05     -2.3925e-05        -0.047782        0.160181
281760                 0.0473484       0.0733861      0.000188124    -6.41581e-05         0.911975        0.384454     -1.04704e-05    -0.000867213
                     0.000180206    -0.000139809        0.0893114        0.142031      0.000128221    -0.000719607          0.97204       -0.129978
                        0.911942         0.38435      9.51468e-06    -0.000693995       -0.0845321       0.0190157     -0.000315534    -0.000275788
                     2.23156e-05    -0.000706217          0.97215       -0.130039      3.50208e-05    -2.41968e-05       -0.0476905        0.160228
281762                 0.0473592       0.0734035      0.000187641    -6.41683e-05         0.912108        0.384133     -1.06168e-05    -0.000867173
                     0.000180205    -0.000140021        0.0893276        0.142044      0.000128061    -0.000719738         0.971995       -0.130293
                        0.912076         0.38403      8.60112e-06    -0.000693695        -0.084539       0.0190791     -0.000315214    -0.000275626
