! TOUCHSTONE file generated by CST MICROWAVE STUDIO
! Date and time: Wed Oct 15 17:29:09 2025
! Project name: Teste_Macro_Metasurface_Nanopilar.cst
! Parameters = {H=600; L_x=90; L_y=195; Lambda=1064; Max_L=200; Min_L=70; PathPara=1; Phi=0; Step_L=10; Theta=0; p=520; phaseX=180; phaseY=0}
! Header version: 2018
! Port assignment regex: !\s*Touchstone port\s*([0-9]+)\s*=\s*(CST MWS port|CST DS port)\s*([0-9]+|Zmin|Zmax)\s*\(\"(.*)\"\)(\s*mode\s*([0-9]+))?.*
! Touchstone port assignment:
! Touchstone port 1 = CST MWS port Zmax ("") mode 1
! Touchstone port 2 = CST MWS port Zmax ("") mode 2
! Touchstone port 3 = CST MWS port Zmin ("") mode 1
! Touchstone port 4 = CST MWS port Zmin ("") mode 2
! S-Parameters are not renormalized. Each port impedance will be approximated by the real part at minimum frequency. The values are described via the [Reference] keyword.
! Default impedance is overridden by [Reference]
[Version] 2.0
# GHz S RI R 376.73
[Number of Ports] 4
[Reference]
376.73 376.73 259.888 259.888 
[Number of Frequencies] 51
[Network Data]
281700                  0.928407        0.247838      0.000274028     0.000374493       -0.0484849       -0.195041      0.000373434    -0.000242448
                     0.000413702     0.000606609        0.0078965        0.131369     -0.000533604     0.000201411        -0.953644       -0.254488
                      -0.0492472       -0.195299     -0.000323585      0.00020566         0.562561       -0.769528     -0.000370429     4.01515e-05
                     0.000595594    -8.81305e-05        -0.954544       -0.254384     -0.000641923     0.000189197       -0.0709612        0.110731
281702                  0.928617         0.24741      0.000273785     0.000374275       -0.0484726        -0.19456      0.000372958    -0.000242841
                     0.000413847     0.000606437       0.00791278        0.131389     -0.000533346     0.000201751        -0.953722       -0.254184
                      -0.0492336       -0.194817     -0.000322931     0.000205662         0.561812       -0.770188     -0.000369709     4.00215e-05
                     0.000595488    -8.87428e-05        -0.954623        -0.25408     -0.000641414     0.000189749       -0.0709146        0.110784
281704                  0.928828        0.246982       0.00027354     0.000374058       -0.0484596       -0.194079      0.000372481    -0.000243234
                     0.000413992     0.000606265       0.00792905        0.131408     -0.000533087     0.000202091          -0.9538       -0.253881
                      -0.0492198       -0.194334     -0.000322277     0.000205662         0.561063       -0.770848     -0.000368989     3.98894e-05
                     0.000595381    -8.93552e-05        -0.954702       -0.253776     -0.000640904     0.000190301        -0.070868        0.110838
281706                  0.929038        0.246553      0.000273294     0.000373841       -0.0484458       -0.193598      0.000372003    -0.000243626
                     0.000414137     0.000606093       0.00794534        0.131427     -0.000532828      0.00020243        -0.953877       -0.253577
                      -0.0492056       -0.193852     -0.000321622      0.00020566         0.560312       -0.771507     -0.000368268     3.97553e-05
                     0.000595272    -8.99678e-05         -0.95478       -0.253472     -0.000640394     0.000190852       -0.0708213        0.110891
281708                  0.929247        0.246125      0.000273047     0.000373624       -0.0484313       -0.193117      0.000371523    -0.000244017
                     0.000414281      0.00060592       0.00796163        0.131446     -0.000532569     0.000202769        -0.953955       -0.253274
                       -0.049191       -0.193371     -0.000320966     0.000205657          0.55956       -0.772165     -0.000367548     3.96192e-05
                     0.000595163    -9.05806e-05        -0.954859       -0.253168     -0.000639882     0.000191403       -0.0707746        0.110945
281710                  0.929457        0.245695      0.000272799     0.000373408       -0.0484161       -0.192637      0.000371043    -0.000244407
                     0.000414425     0.000605747       0.00797792        0.131465      -0.00053231     0.000203107        -0.954032        -0.25297
                      -0.0491759       -0.192889      -0.00032031     0.000205652         0.558808       -0.772822     -0.000366827      3.9481e-05
                     0.000595053    -9.11936e-05        -0.954937       -0.252864      -0.00063937     0.000191953       -0.0707278        0.110999
281712                  0.929666        0.245266       0.00027255     0.000373193       -0.0484001       -0.192156      0.000370562    -0.000244797
                     0.000414568     0.000605574       0.00799422        0.131484      -0.00053205     0.000203445        -0.954109       -0.252667
                      -0.0491605       -0.192407     -0.000319653     0.000205644         0.558054       -0.773478     -0.000366106     3.93408e-05
                     0.000594942    -9.18068e-05        -0.955015        -0.25256     -0.000638857     0.000192503        -0.070681        0.111052
281714                  0.929874        0.244836        0.0002723     0.000372979       -0.0483834       -0.191675       0.00037008    -0.000245185
                     0.000414711       0.0006054       0.00801052        0.131503     -0.000531789     0.000203783        -0.954186       -0.252363
                      -0.0491445       -0.191926     -0.000318996     0.000205635         0.557299       -0.774134     -0.000365386     3.91985e-05
                     0.000594829    -9.24203e-05        -0.955094       -0.252256     -0.000638344     0.000193052       -0.0706342        0.111106
281716                  0.930082        0.244406      0.000272049     0.000372765       -0.0483659       -0.191194      0.000369596    -0.000245573
                     0.000414853     0.000605225       0.00802683        0.131523     -0.000531529      0.00020412        -0.954263       -0.252059
                      -0.0491279       -0.191445     -0.000318338     0.000205625         0.556544       -0.774788     -0.000364665     3.90541e-05
                     0.000594716    -9.30341e-05        -0.955172       -0.251952     -0.000637829       0.0001936       -0.0705873        0.111159
281718                   0.93029        0.243976      0.000271797     0.000372552       -0.0483478       -0.190713      0.000369112    -0.000245959
                     0.000414995      0.00060505       0.00804314        0.131542     -0.000531268     0.000204457         -0.95434       -0.251756
                      -0.0491109       -0.190963      -0.00031768     0.000205612         0.555787       -0.775442     -0.000363944     3.89077e-05
                     0.000594602    -9.36483e-05         -0.95525       -0.251648     -0.000637314     0.000194148       -0.0705404        0.111213
281720                  0.930497        0.243546      0.000271544     0.000372339       -0.0483288       -0.190232      0.000368626    -0.000246345
                     0.000415136     0.000604875       0.00805946        0.131561     -0.000531007     0.000204793        -0.954417       -0.251452
                      -0.0490932       -0.190482      -0.00031702     0.000205598          0.55503       -0.776095     -0.000363223     3.87592e-05
                     0.000594487    -9.42628e-05        -0.955328       -0.251343     -0.000636798     0.000194695       -0.0704935        0.111266
281722                  0.930704        0.243115       0.00027129     0.000372127       -0.0483092       -0.189751       0.00036814     -0.00024673
                     0.000415276     0.000604699       0.00807579         0.13158     -0.000530745     0.000205129        -0.954494       -0.251148
                      -0.0490748       -0.190001     -0.000316361     0.000205581         0.554272       -0.776747     -0.000362502     3.86086e-05
                      0.00059437    -9.48776e-05        -0.955405       -0.251039     -0.000636281     0.000195242       -0.0704465         0.11132
281724                  0.930911        0.242684      0.000271035     0.000371916       -0.0482888        -0.18927      0.000367652    -0.000247114
                     0.000415416     0.000604522       0.00809212        0.131599     -0.000530483     0.000205464        -0.954571       -0.250845
                      -0.0490558        -0.18952       -0.0003157     0.000205563         0.553512       -0.777398      -0.00036178     3.84559e-05
                     0.000594253    -9.54929e-05        -0.955483       -0.250735     -0.000635764     0.000195788       -0.0703995        0.111373
281726                  0.931117        0.242252      0.000270779     0.000371705       -0.0482677       -0.188789      0.000367163    -0.000247497
                     0.000415555     0.000604345       0.00810845        0.131618      -0.00053022     0.000205799        -0.954647       -0.250541
                       -0.049036       -0.189039     -0.000315039     0.000205543         0.552752       -0.778049     -0.000361059      3.8301e-05
                     0.000594135    -9.61087e-05        -0.955561        -0.25043     -0.000635246     0.000196333       -0.0703525        0.111427
281728                  0.931323        0.241821      0.000270521     0.000371495       -0.0482458       -0.188308      0.000366674    -0.000247879
                     0.000415694     0.000604168       0.00812479        0.131637     -0.000529958     0.000206134        -0.954724       -0.250237
                      -0.0490155       -0.188558     -0.000314378     0.000205521          0.55199       -0.778698     -0.000360338     3.81441e-05
                     0.000594016     -9.6725e-05        -0.955638       -0.250126     -0.000634727     0.000196878       -0.0703054         0.11148
281730                  0.931529        0.241389      0.000270263     0.000371286       -0.0482232       -0.187827      0.000366183    -0.000248261
                     0.000415831     0.000603989       0.00814114        0.131656     -0.000529695     0.000206468          -0.9548       -0.249933
                      -0.0489942       -0.188076     -0.000313716     0.000205497         0.551228       -0.779347     -0.000359617      3.7985e-05
                     0.000593897    -9.73418e-05        -0.955716       -0.249822     -0.000634207     0.000197422       -0.0702582        0.111534
281732                  0.931734        0.240956      0.000270004     0.000371077       -0.0481998       -0.187346      0.000365691    -0.000248641
                     0.000415968      0.00060381       0.00815749        0.131675     -0.000529431     0.000206802        -0.954876       -0.249629
                       -0.048972       -0.187595     -0.000313053     0.000205472         0.550465       -0.779995     -0.000358896     3.78238e-05
                     0.000593776    -9.79592e-05        -0.955793       -0.249517     -0.000633687     0.000197966       -0.0702111        0.111587
281734                  0.931939        0.240524      0.000269743     0.000370869       -0.0481757       -0.186865      0.000365198     -0.00024902
                     0.000416105     0.000603631       0.00817384        0.131695     -0.000529167     0.000207135        -0.954953       -0.249325
                       -0.048949       -0.187114      -0.00031239     0.000205444         0.549701       -0.780642     -0.000358174     3.76605e-05
                     0.000593654    -9.85773e-05         -0.95587       -0.249213     -0.000633166     0.000198509       -0.0701639        0.111641
281736                  0.932143        0.240091      0.000269482     0.000370662       -0.0481509       -0.186383      0.000364705    -0.000249398
                      0.00041624      0.00060345        0.0081902        0.131714     -0.000528903     0.000207468        -0.955029       -0.249021
                       -0.048925       -0.186632     -0.000311726     0.000205414         0.548936       -0.781288     -0.000357453      3.7495e-05
                     0.000593532    -9.91961e-05        -0.955947       -0.248908     -0.000632644     0.000199051       -0.0701166        0.111694
281738                  0.932347        0.239658      0.000269219     0.000370456       -0.0481253       -0.185902       0.00036421    -0.000249776
                     0.000416374     0.000603269       0.00820657        0.131733     -0.000528638       0.0002078        -0.955105       -0.248717
                      -0.0489001        -0.18615     -0.000311061     0.000205383          0.54817       -0.781934     -0.000356732     3.73273e-05
                     0.000593409    -9.98156e-05        -0.956024       -0.248604     -0.000632121     0.000199593       -0.0700694        0.111747
281740                  0.932551        0.239224      0.000268956      0.00037025        -0.048099       -0.185421      0.000363714    -0.000250152
                     0.000416508     0.000603087       0.00822294        0.131752     -0.000528374     0.000208133        -0.955181       -0.248414
                      -0.0488741       -0.185669     -0.000310396      0.00020535         0.547403       -0.782578     -0.000356011     3.71575e-05
                     0.000593285    -0.000100436        -0.956101       -0.248299     -0.000631598     0.000200134       -0.0700221        0.111801
281742                  0.932754         0.23879      0.000268692     0.000370045        -0.048072        -0.18494      0.000363217    -0.000250527
                      0.00041664     0.000602904       0.00823932        0.131771     -0.000528108     0.000208464        -0.955256       -0.248109
                      -0.0488472       -0.185187     -0.000309731     0.000205315         0.546635       -0.783222      -0.00035529     3.69855e-05
                      0.00059316    -0.000101057        -0.956178       -0.247994     -0.000631074     0.000200674       -0.0699747        0.111854
281744                  0.932957        0.238356      0.000268426      0.00036984       -0.0480442       -0.184459      0.000362719    -0.000250902
                     0.000416772     0.000602721        0.0082557         0.13179     -0.000527843     0.000208795        -0.955332       -0.247805
                      -0.0488191       -0.184705     -0.000309065     0.000205278         0.545866       -0.783864     -0.000354569     3.68113e-05
                     0.000593035    -0.000101679        -0.956255        -0.24769     -0.000630549     0.000201214       -0.0699273        0.111907
281746                  0.933159        0.237922      0.000268159     0.000369636       -0.0480157       -0.183978       0.00036222    -0.000251275
                     0.000416902     0.000602536       0.00827208        0.131809     -0.000527577     0.000209126        -0.955408       -0.247501
                        -0.04879       -0.184223     -0.000308398     0.000205239         0.545096       -0.784506     -0.000353849     3.66349e-05
                     0.000592909    -0.000102302        -0.956332       -0.247385     -0.000630023     0.000201754       -0.0698799         0.11196
281748                  0.933362        0.237487      0.000267892     0.000369433       -0.0479864       -0.183497       0.00036172    -0.000251647
                     0.000417032      0.00060235       0.00828848        0.131828      -0.00052731     0.000209456        -0.955483       -0.247197
                      -0.0487598        -0.18374     -0.000307731     0.000205198         0.544325       -0.785147     -0.000353128     3.64564e-05
                     0.000592782    -0.000102927        -0.956408        -0.24708     -0.000629497     0.000202293       -0.0698324        0.112014
281750                  0.933563        0.237053      0.000267623     0.000369231       -0.0479564       -0.183016      0.000361219    -0.000252018
                      0.00041716     0.000602164       0.00830487        0.131847     -0.000527044     0.000209786        -0.955559       -0.246893
                      -0.0487284       -0.183258     -0.000307063     0.000205155         0.543553       -0.785787     -0.000352407     3.62756e-05
                     0.000592654    -0.000103552        -0.956485       -0.246776      -0.00062897     0.000202831       -0.0697849        0.112067
281752                  0.933765        0.236617      0.000267353     0.000369029       -0.0479257       -0.182535      0.000360717    -0.000252389
                     0.000417287     0.000601976       0.00832127        0.131866     -0.000526777     0.000210116        -0.955634       -0.246589
                       -0.048696       -0.182776     -0.000306395      0.00020511          0.54278       -0.786427     -0.000351687     3.60926e-05
                     0.000592526    -0.000104178        -0.956561       -0.246471     -0.000628442     0.000203368       -0.0697374         0.11212
281754                  0.933966        0.236182      0.000267083     0.000368828       -0.0478942       -0.182054      0.000360214    -0.000252758
                     0.000417413     0.000601787       0.00833768        0.131886      -0.00052651     0.000210445        -0.955709       -0.246285
                      -0.0486624       -0.182293     -0.000305726     0.000205064         0.542007       -0.787065     -0.000350967     3.59074e-05
                     0.000592397    -0.000104806        -0.956637       -0.246166     -0.000627913     0.000203905       -0.0696898        0.112173
281756                  0.934166        0.235746      0.000266811     0.000368628        -0.047862       -0.181574      0.000359709    -0.000253126
                     0.000417538     0.000601597       0.00835409        0.131905     -0.000526242     0.000210774        -0.955784       -0.245981
                      -0.0486278        -0.18181     -0.000305056     0.000205015         0.541232       -0.787703     -0.000350247       3.572e-05
                     0.000592267    -0.000105434        -0.956713       -0.245861     -0.000627384     0.000204441       -0.0696422        0.112226
281758                  0.934366         0.23531      0.000266538     0.000368429        -0.047829       -0.181093      0.000359204    -0.000253493
                     0.000417661     0.000601407       0.00837051        0.131924     -0.000525974     0.000211102        -0.955859       -0.245676
                      -0.0485922       -0.181328     -0.000304386     0.000204964         0.540457       -0.788339     -0.000349527     3.55303e-05
                     0.000592136    -0.000106064         -0.95679       -0.245556     -0.000626854     0.000204977       -0.0695946         0.11228
281760                  0.934566        0.234874      0.000266264      0.00036823       -0.0477953       -0.180612      0.000358698    -0.000253859
                     0.000417784     0.000601215       0.00838693        0.131943     -0.000525705      0.00021143        -0.955934       -0.245372
                      -0.0485557       -0.180845     -0.000303716     0.000204912          0.53968       -0.788975     -0.000348807     3.53384e-05
                     0.000592005    -0.000106695        -0.956866       -0.245251     -0.000626323     0.000205512       -0.0695469        0.112333
281762                  0.934766        0.234437      0.000265989     0.000368032       -0.0477608       -0.180131      0.000358191    -0.000254224
                     0.000417905     0.000601023       0.00840336        0.131962     -0.000525437     0.000211757        -0.956009       -0.245068
                      -0.0485185       -0.180363     -0.000303045     0.000204857         0.538903        -0.78961     -0.000348088     3.51443e-05
