! TOUCHSTONE file generated by CST MICROWAVE STUDIO
! Date and time: Wed Oct 15 17:28:29 2025
! Project name: Teste_Macro_Metasurface_Nanopilar.cst
! Parameters = {H=600; L_x=80; L_y=150; Lambda=1064; Max_L=200; Min_L=70; PathPara=1; Phi=0; Step_L=10; Theta=0; p=520; phaseX=180; phaseY=0}
! Header version: 2018
! Port assignment regex: !\s*Touchstone port\s*([0-9]+)\s*=\s*(CST MWS port|CST DS port)\s*([0-9]+|Zmin|Zmax)\s*\(\"(.*)\"\)(\s*mode\s*([0-9]+))?.*
! Touchstone port assignment:
! Touchstone port 1 = CST MWS port Zmax ("") mode 1
! Touchstone port 2 = CST MWS port Zmax ("") mode 2
! Touchstone port 3 = CST MWS port Zmin ("") mode 1
! Touchstone port 4 = CST MWS port Zmin ("") mode 2
! S-Parameters are not renormalized. Each port impedance will be approximated by the real part at minimum frequency. The values are described via the [Reference] keyword.
! Default impedance is overridden by [Reference]
[Version] 2.0
# GHz S RI R 376.73
[Number of Ports] 4
[Reference]
376.73 376.73 259.888 259.888 
[Number of Frequencies] 51
[Network Data]
281700                -0.0609515      -0.0424996      0.000605499     0.000305381         0.382462        0.911126     -0.000486776     0.000142519
                     0.000657675     0.000255918       -0.0152017      -0.0688501      0.000272532    -1.49569e-05        -0.277168       -0.956683
                         0.38234        0.911054      0.000234132    -9.32347e-05       -0.0147258         0.07535     -0.000309982     0.000715571
                    -0.000277493     6.35043e-05        -0.277455       -0.957017     -0.000398071     0.000607674        0.0238332       0.0666258
281702                -0.0609629      -0.0424529      0.000605625     0.000305288         0.382822        0.910977      -0.00048659     0.000142875
                     0.000657764     0.000255618       -0.0152135      -0.0688417      0.000272563    -1.50433e-05        -0.277411       -0.956613
                          0.3827        0.910905      0.000234067    -9.35142e-05       -0.0147079       0.0753367     -0.000309615     0.000715589
                    -0.000277481      6.3692e-05        -0.277698       -0.956947     -0.000397921     0.000607779        0.0238526       0.0666129
281704                -0.0609743      -0.0424063       0.00060575     0.000305195         0.383183        0.910827     -0.000486402     0.000143229
                     0.000657853     0.000255318       -0.0152252      -0.0688333      0.000272594    -1.51301e-05        -0.277654       -0.956543
                         0.38306        0.910755      0.000234002    -9.37932e-05         -0.01469       0.0753234     -0.000309248     0.000715608
                    -0.000277469     6.38798e-05        -0.277941       -0.956877     -0.000397771     0.000607884        0.0238719          0.0666
281706                -0.0609856      -0.0423596      0.000605875     0.000305102         0.383543        0.910677     -0.000486214     0.000143583
                     0.000657941     0.000255018        -0.015237      -0.0688249      0.000272625     -1.5217e-05        -0.277897       -0.956473
                         0.38342        0.910605      0.000233936    -9.40719e-05       -0.0146721       0.0753101     -0.000308881     0.000715626
                    -0.000277457     6.40677e-05        -0.278183       -0.956807      -0.00039762      0.00060799        0.0238912       0.0665871
281708                 -0.060997       -0.042313      0.000605999     0.000305009         0.383903        0.910527     -0.000486025     0.000143936
                      0.00065803     0.000254717       -0.0152488      -0.0688165      0.000272656    -1.53043e-05        -0.278139       -0.956403
                         0.38378        0.910455      0.000233869    -9.43501e-05       -0.0146542       0.0752968     -0.000308515     0.000715644
                    -0.000277445     6.42556e-05        -0.278426       -0.956737      -0.00039747     0.000608095        0.0239105       0.0665743
281710                -0.0610084      -0.0422663      0.000606122     0.000304915         0.384263        0.910377     -0.000485835     0.000144289
                     0.000658117     0.000254416       -0.0152605      -0.0688081      0.000272687    -1.53918e-05        -0.278382       -0.956333
                        0.384139        0.910305      0.000233801    -9.46278e-05       -0.0146364       0.0752836     -0.000308149     0.000715661
                    -0.000277433     6.44435e-05        -0.278669       -0.956667      -0.00039732     0.000608201        0.0239298       0.0665614
281712                -0.0610197      -0.0422197      0.000606245     0.000304822         0.384623        0.910226     -0.000485644     0.000144641
                     0.000658205     0.000254116       -0.0152723      -0.0687997      0.000272718    -1.54795e-05        -0.278625       -0.956262
                        0.384499        0.910154      0.000233732    -9.49052e-05       -0.0146186       0.0752703     -0.000307783     0.000715678
                    -0.000277421     6.46315e-05        -0.278911       -0.956596      -0.00039717     0.000608306        0.0239491       0.0665485
281714                 -0.061031       -0.042173      0.000606368     0.000304728         0.384983        0.910076     -0.000485452     0.000144993
                     0.000658292     0.000253815        -0.015284      -0.0687913       0.00027275    -1.55675e-05        -0.278868       -0.956192
                        0.384859        0.910004      0.000233662     -9.5182e-05       -0.0146008       0.0752571     -0.000307417     0.000715695
                    -0.000277408     6.48196e-05        -0.279154       -0.956526     -0.000397019     0.000608412        0.0239684       0.0665356
281716                -0.0610423      -0.0421264      0.000606489     0.000304635         0.385343        0.909925      -0.00048526     0.000145344
                     0.000658379     0.000253513       -0.0152958      -0.0687829      0.000272781    -1.56558e-05        -0.279111       -0.956121
                        0.385219        0.909853      0.000233592    -9.54584e-05        -0.014583       0.0752438     -0.000307051     0.000715712
                    -0.000277396     6.50077e-05        -0.279397       -0.956456     -0.000396869     0.000608517        0.0239877       0.0665227
281718                -0.0610536      -0.0420797      0.000606611     0.000304541         0.385703        0.909774     -0.000485067     0.000145694
                     0.000658466     0.000253212       -0.0153076      -0.0687744      0.000272812    -1.57443e-05        -0.279354       -0.956051
                        0.385578        0.909703      0.000233521    -9.57344e-05       -0.0145653       0.0752306     -0.000306685     0.000715728
                    -0.000277384     6.51959e-05        -0.279639       -0.956385     -0.000396719     0.000608623         0.024007       0.0665098
281720                -0.0610649       -0.042033      0.000606731     0.000304448         0.386063        0.909623     -0.000484873     0.000146044
                     0.000658553      0.00025291       -0.0153193       -0.068766      0.000272843    -1.58331e-05        -0.279597        -0.95598
                        0.385938        0.909552      0.000233449    -9.60098e-05       -0.0145475       0.0752173      -0.00030632     0.000715744
                    -0.000277371     6.53841e-05        -0.279882       -0.956315     -0.000396569     0.000608728        0.0240263       0.0664968
281722                -0.0610762      -0.0419864      0.000606851     0.000304354         0.386422        0.909472     -0.000484678     0.000146393
                     0.000658639     0.000252609       -0.0153311      -0.0687576      0.000272875    -1.59221e-05        -0.279839       -0.955909
                        0.386297        0.909401      0.000233376    -9.62847e-05       -0.0145298       0.0752041     -0.000305955      0.00071576
                    -0.000277358     6.55724e-05        -0.280125       -0.956244     -0.000396418     0.000608833        0.0240456       0.0664839
281724                -0.0610874      -0.0419397      0.000606971      0.00030426         0.386782        0.909321     -0.000484482     0.000146742
                     0.000658725     0.000252306       -0.0153428      -0.0687492      0.000272906    -1.60114e-05        -0.280082       -0.955839
                        0.386657         0.90925      0.000233302    -9.65591e-05       -0.0145121       0.0751909      -0.00030559     0.000715775
                    -0.000277345     6.57609e-05        -0.280367       -0.956174     -0.000396268     0.000608939        0.0240648        0.066471
281726                -0.0610987       -0.041893       0.00060709     0.000304166         0.387142         0.90917     -0.000484286      0.00014709
                     0.000658811     0.000252004       -0.0153546      -0.0687408      0.000272938    -1.61009e-05        -0.280325       -0.955768
                        0.387016        0.909098      0.000233228    -9.68329e-05       -0.0144945       0.0751777     -0.000305226     0.000715791
                    -0.000277333     6.59493e-05         -0.28061       -0.956103     -0.000396118     0.000609044        0.0240841       0.0664581
281728                -0.0611099      -0.0418464      0.000607208     0.000304072         0.387501        0.909018     -0.000484089     0.000147437
                     0.000658896     0.000251702       -0.0153663      -0.0687324      0.000272969    -1.61907e-05        -0.280568       -0.955697
                        0.387375        0.908947      0.000233152    -9.71062e-05       -0.0144768       0.0751645     -0.000304862     0.000715805
                     -0.00027732     6.61379e-05        -0.280852       -0.956032     -0.000395967      0.00060915        0.0241033       0.0664451
281730                -0.0611211      -0.0417997      0.000607326     0.000303977         0.387861        0.908867     -0.000483892     0.000147783
                     0.000658981     0.000251399       -0.0153781      -0.0687239      0.000273001    -1.62808e-05         -0.28081       -0.955626
                        0.387735        0.908795      0.000233076    -9.73789e-05       -0.0144592       0.0751513     -0.000304497      0.00071582
                    -0.000277307     6.63266e-05        -0.281095       -0.955961     -0.000395817     0.000609256        0.0241226       0.0664322
281732                -0.0611323       -0.041753      0.000607443     0.000303883          0.38822        0.908715     -0.000483693     0.000148129
                     0.000659066     0.000251096       -0.0153898      -0.0687155      0.000273032    -1.63711e-05        -0.281053       -0.955555
                        0.388094        0.908643      0.000232999    -9.76509e-05       -0.0144416       0.0751381     -0.000304134     0.000715834
                    -0.000277294     6.65154e-05        -0.281337       -0.955891     -0.000395667     0.000609361        0.0241418       0.0664193
281734                -0.0611435      -0.0417063       0.00060756     0.000303789         0.388579        0.908563     -0.000483494     0.000148474
                     0.000659151     0.000250793       -0.0154016      -0.0687071      0.000273064    -1.64616e-05        -0.281296       -0.955484
                        0.388453        0.908492      0.000232922    -9.79222e-05        -0.014424       0.0751249      -0.00030377     0.000715848
                    -0.000277281     6.67042e-05         -0.28158        -0.95582     -0.000395516     0.000609467        0.0241611       0.0664063
281736                -0.0611546      -0.0416597      0.000607676     0.000303694         0.388938        0.908411     -0.000483294     0.000148819
                     0.000659236      0.00025049       -0.0154133      -0.0686987      0.000273096    -1.65524e-05        -0.281538       -0.955413
                        0.388812         0.90834      0.000232844    -9.81928e-05       -0.0144064       0.0751117     -0.000303407     0.000715862
                    -0.000277268     6.68932e-05        -0.281822       -0.955749     -0.000395366     0.000609572        0.0241803       0.0663934
281738                -0.0611658       -0.041613      0.000607792     0.000303599         0.389298        0.908259     -0.000483094     0.000149163
                      0.00065932     0.000250186        -0.015425      -0.0686902      0.000273127    -1.66435e-05        -0.281781       -0.955342
                        0.389171        0.908187      0.000232767    -9.84634e-05       -0.0143889       0.0750985     -0.000303044     0.000715875
                    -0.000277255     6.70823e-05        -0.282065       -0.955678     -0.000395215     0.000609678        0.0241995       0.0663804
281740                -0.0611769      -0.0415663      0.000607907     0.000303504         0.389657        0.908106     -0.000482893     0.000149506
                     0.000659405     0.000249882       -0.0154368      -0.0686818      0.000273159    -1.67348e-05        -0.282023       -0.955271
                         0.38953        0.908035       0.00023269     -9.8737e-05       -0.0143714       0.0750854     -0.000302681     0.000715888
                    -0.000277241     6.72715e-05        -0.282307       -0.955606     -0.000395065     0.000609783        0.0242187       0.0663675
281742                 -0.061188      -0.0415196      0.000608021     0.000303409         0.390016        0.907954     -0.000482691     0.000149849
                     0.000659489     0.000249578       -0.0154485      -0.0686734      0.000273191    -1.68264e-05        -0.282266         -0.9552
                        0.389889        0.907883      0.000232606    -9.90108e-05       -0.0143539       0.0750722     -0.000302319     0.000715901
                    -0.000277228     6.74609e-05         -0.28255       -0.955535     -0.000394914     0.000609889        0.0242379       0.0663545
281744                -0.0611991      -0.0414729      0.000608135     0.000303314         0.390375        0.907801     -0.000482489      0.00015019
                     0.000659573     0.000249274       -0.0154603      -0.0686649      0.000273223    -1.69182e-05        -0.282509       -0.955128
                        0.390247         0.90773      0.000232521    -9.92795e-05       -0.0143364       0.0750591     -0.000301956     0.000715914
                    -0.000277215     6.76503e-05        -0.282792       -0.955464     -0.000394764     0.000609995        0.0242571       0.0663415
281746                -0.0612102      -0.0414262      0.000608249     0.000303219         0.390734        0.907648     -0.000482286     0.000150532
                     0.000659657     0.000248969        -0.015472      -0.0686565      0.000273254    -1.70103e-05        -0.282751       -0.955057
                        0.390606        0.907577      0.000232437    -9.95468e-05        -0.014319       0.0750459     -0.000301595     0.000715926
                    -0.000277202       6.784e-05        -0.283034       -0.955393     -0.000394614       0.0006101        0.0242763       0.0663286
281748                -0.0612213      -0.0413795      0.000608362     0.000303123         0.391093        0.907495     -0.000482082     0.000150872
                     0.000659741     0.000248664       -0.0154837      -0.0686481      0.000273286    -1.71026e-05        -0.282994       -0.954985
                        0.390965        0.907424      0.000232353    -9.98137e-05       -0.0143015       0.0750328     -0.000301233     0.000715938
                    -0.000277189     6.80297e-05        -0.283277       -0.955321     -0.000394463     0.000610206        0.0242955       0.0663156
281750                -0.0612324      -0.0413328      0.000608474     0.000303028         0.391452        0.907342     -0.000481877     0.000151212
                     0.000659825     0.000248359       -0.0154955      -0.0686396      0.000273318    -1.71952e-05        -0.283236       -0.954914
                        0.391323        0.907271      0.000232268     -0.00010008       -0.0142841       0.0750197     -0.000300872      0.00071595
                    -0.000277175     6.82197e-05        -0.283519        -0.95525     -0.000394313     0.000610312        0.0243147       0.0663026
281752                -0.0612434      -0.0412862      0.000608586     0.000302932          0.39181        0.907189     -0.000481672     0.000151551
                     0.000659908     0.000248054       -0.0155072      -0.0686312       0.00027335     -1.7288e-05        -0.283479       -0.954842
                        0.391682        0.907118      0.000232183    -0.000100346       -0.0142667       0.0750065     -0.000300511     0.000715961
                    -0.000277162     6.84098e-05        -0.283761       -0.955178     -0.000394162     0.000610417        0.0243339       0.0662896
281754                -0.0612545      -0.0412395      0.000608698     0.000302836         0.392169        0.907036     -0.000481467     0.000151889
                     0.000659992     0.000247748       -0.0155189      -0.0686227      0.000273382     -1.7381e-05        -0.283721       -0.954771
                         0.39204        0.906965      0.000232097    -0.000100611       -0.0142494       0.0749934      -0.00030015     0.000715972
                    -0.000277149     6.86001e-05        -0.284004       -0.955107     -0.000394012     0.000610523         0.024353       0.0662766
281756                -0.0612655      -0.0411928      0.000608808      0.00030274         0.392528        0.906882     -0.000481261     0.000152227
                     0.000660076     0.000247443       -0.0155307      -0.0686143      0.000273414    -1.74743e-05        -0.283964       -0.954699
                        0.392399        0.906812       0.00023201    -0.000100876        -0.014232       0.0749803      -0.00029979     0.000715983
                    -0.000277136     6.87905e-05        -0.284246       -0.955035     -0.000393861     0.000610629        0.0243722       0.0662636
281758                -0.0612765      -0.0411461      0.000608919     0.000302644         0.392886        0.906729     -0.000481054     0.000152564
                     0.000660159     0.000247137       -0.0155424      -0.0686058      0.000273446    -1.75677e-05        -0.284206       -0.954627
                        0.392757        0.906658      0.000231922     -0.00010114       -0.0142147       0.0749672      -0.00029943     0.000715993
                    -0.000277123     6.89812e-05        -0.284488       -0.954964     -0.000393711     0.000610735        0.0243914       0.0662506
281760                -0.0612875      -0.0410994      0.000609028     0.000302548         0.393245        0.906575     -0.000480847       0.0001529
                     0.000660243     0.000246831       -0.0155541      -0.0685974      0.000273479    -1.76612e-05        -0.284448       -0.954555
                        0.393115        0.906504      0.000231834    -0.000101403       -0.0141974       0.0749541     -0.000299071     0.000716004
                    -0.000277109     6.91721e-05        -0.284731       -0.954892     -0.000393561     0.000610841        0.0244105       0.0662376
281762                -0.0612984      -0.0410527      0.000609138     0.000302451         0.393603        0.906421     -0.000480639     0.000153236
                     0.000660327     0.000246524       -0.0155658      -0.0685889      0.000273512    -1.77544e-05        -0.284691       -0.954484
                        0.393473         0.90635      0.000231745    -0.000101666       -0.0141801        0.074941     -0.000298712     0.000716014
