! TOUCHSTONE file generated by CST MICROWAVE STUDIO
! Date and time: Wed Oct 15 17:28:25 2025
! Project name: Teste_Macro_Metasurface_Nanopilar.cst
! Parameters = {H=600; L_x=80; L_y=120; Lambda=1064; Max_L=200; Min_L=70; PathPara=1; Phi=0; Step_L=10; Theta=0; p=520; phaseX=180; phaseY=0}
! Header version: 2018
! Port assignment regex: !\s*Touchstone port\s*([0-9]+)\s*=\s*(CST MWS port|CST DS port)\s*([0-9]+|Zmin|Zmax)\s*\(\"(.*)\"\)(\s*mode\s*([0-9]+))?.*
! Touchstone port assignment:
! Touchstone port 1 = CST MWS port Zmax ("") mode 1
! Touchstone port 2 = CST MWS port Zmax ("") mode 2
! Touchstone port 3 = CST MWS port Zmin ("") mode 1
! Touchstone port 4 = CST MWS port Zmin ("") mode 2
! S-Parameters are not renormalized. Each port impedance will be approximated by the real part at minimum frequency. The values are described via the [Reference] keyword.
! Default impedance is overridden by [Reference]
[Version] 2.0
# GHz S RI R 376.73
[Number of Ports] 4
[Reference]
376.73 376.73 259.888 259.888 
[Number of Frequencies] 51
[Network Data]
281700                   0.08563       0.0513294       6.1537e-05     0.000246217        -0.893616       -0.428169     -0.000163383     0.000162985
                     4.40719e-05     0.000152795        0.0107736      -0.0951278     -0.000290771     8.84703e-05        -0.106071        -0.98892
                       -0.893738       -0.428177     -0.000214131     8.41946e-05       -0.0935632      -0.0333845     -8.60207e-05    -9.95406e-05
                     -0.00011632      0.00027013        -0.106103       -0.989406     -8.04664e-05    -0.000192085           0.0306       0.0908609
281702                 0.0856417       0.0513336      6.15943e-05     0.000246282        -0.893749       -0.427889     -0.000163339     0.000163095
                     4.41003e-05     0.000152805        0.0107614      -0.0951245     -0.000290781     8.85892e-05        -0.106315       -0.988894
                        -0.89387       -0.427897     -0.000214098      8.4269e-05       -0.0935947      -0.0333324     -8.61358e-05    -9.95708e-05
                    -0.000116256     0.000270179        -0.106347        -0.98938     -8.05559e-05    -0.000192086        0.0306321       0.0908452
281704                 0.0856534       0.0513379      6.16516e-05     0.000246347        -0.893881       -0.427609     -0.000163294     0.000163204
                     4.41288e-05     0.000152816        0.0107493      -0.0951211     -0.000290791     8.87081e-05        -0.106558       -0.988869
                       -0.894002       -0.427617     -0.000214065     8.43434e-05       -0.0936263      -0.0332803     -8.62509e-05    -9.96011e-05
                    -0.000116191     0.000270228        -0.106591       -0.989354     -8.06455e-05    -0.000192087        0.0306643       0.0908295
281706                 0.0856651       0.0513421       6.1709e-05     0.000246412        -0.894013       -0.427329      -0.00016325     0.000163314
                     4.41573e-05     0.000152827        0.0107371      -0.0951178     -0.000290801     8.88271e-05        -0.106802       -0.988843
                       -0.894134       -0.427337     -0.000214032     8.44177e-05       -0.0936578      -0.0332282      -8.6366e-05    -9.96313e-05
                    -0.000116127     0.000270279        -0.106835       -0.989328     -8.07352e-05    -0.000192087        0.0306965       0.0908138
281708                 0.0856768       0.0513463      6.17664e-05     0.000246477        -0.894145       -0.427049     -0.000163206     0.000163423
                     4.41859e-05     0.000152838         0.010725      -0.0951145     -0.000290811     8.89461e-05        -0.107045       -0.988817
                       -0.894266       -0.427057     -0.000213998      8.4492e-05       -0.0936893       -0.033176     -8.64811e-05    -9.96616e-05
                    -0.000116063     0.000270331        -0.107079       -0.989302      -8.0825e-05    -0.000192088        0.0307286        0.090798
281710                 0.0856885       0.0513505      6.18239e-05     0.000246542        -0.894276       -0.426768     -0.000163161     0.000163532
                     4.42144e-05     0.000152849        0.0107128      -0.0951112     -0.000290821     8.90652e-05        -0.107289        -0.98879
                       -0.894398       -0.426777     -0.000213965     8.45662e-05       -0.0937207      -0.0331238     -8.65962e-05     -9.9692e-05
                       -0.000116     0.000270383        -0.107322       -0.989276     -8.09149e-05    -0.000192089        0.0307607       0.0907823
281712                 0.0857003       0.0513547      6.18814e-05     0.000246607        -0.894408       -0.426488     -0.000163116     0.000163641
                      4.4243e-05     0.000152861        0.0107007      -0.0951079     -0.000290831     8.91844e-05        -0.107532       -0.988764
                        -0.89453       -0.426497     -0.000213932     8.46404e-05       -0.0937522      -0.0330716     -8.67114e-05    -9.97223e-05
                    -0.000115938     0.000270435        -0.107566        -0.98925     -8.10049e-05    -0.000192089        0.0307929       0.0907665
281714                  0.085712       0.0513589       6.1939e-05     0.000246673         -0.89454       -0.426208     -0.000163072     0.000163749
                     4.42717e-05     0.000152872        0.0106885      -0.0951045     -0.000290841     8.93036e-05        -0.107776       -0.988738
                       -0.894661       -0.426216     -0.000213899     8.47145e-05       -0.0937836      -0.0330194     -8.68266e-05    -9.97527e-05
                    -0.000115877     0.000270487         -0.10781       -0.989224      -8.1095e-05     -0.00019209         0.030825       0.0907507
281716                 0.0857237       0.0513632      6.19966e-05     0.000246738        -0.894672       -0.425927     -0.000163027     0.000163858
                     4.43003e-05     0.000152884        0.0106764      -0.0951012     -0.000290851     8.94229e-05        -0.108019       -0.988712
                       -0.894793       -0.425936     -0.000213866     8.47885e-05       -0.0938149      -0.0329671     -8.69418e-05    -9.97831e-05
                    -0.000115817     0.000270537        -0.108054       -0.989198     -8.11852e-05     -0.00019209        0.0308571       0.0907349
281718                 0.0857354       0.0513674      6.20543e-05     0.000246803        -0.894803       -0.425647     -0.000162982     0.000163966
                      4.4329e-05     0.000152896        0.0106642      -0.0950979     -0.000290861     8.95423e-05        -0.108263       -0.988685
                       -0.894924       -0.425655     -0.000213832     8.48625e-05       -0.0938463      -0.0329148      -8.7057e-05    -9.98136e-05
                    -0.000115756     0.000270587        -0.108298       -0.989172     -8.12756e-05    -0.000192091        0.0308892       0.0907191
281720                 0.0857472       0.0513716       6.2112e-05     0.000246869        -0.894934       -0.425366     -0.000162937     0.000164075
                     4.43577e-05     0.000152908        0.0106521      -0.0950946      -0.00029087     8.96617e-05        -0.108506       -0.988659
                       -0.895056       -0.425375     -0.000213799     8.49364e-05       -0.0938776      -0.0328625     -8.71723e-05     -9.9844e-05
                    -0.000115695     0.000270636        -0.108542       -0.989146      -8.1366e-05    -0.000192092        0.0309213       0.0907033
281722                 0.0857589       0.0513758      6.21698e-05     0.000246935        -0.895066       -0.425086     -0.000162892     0.000164183
                     4.43864e-05      0.00015292        0.0106399      -0.0950912      -0.00029088     8.97813e-05         -0.10875       -0.988633
                       -0.895187       -0.425094     -0.000213766     8.50101e-05       -0.0939089      -0.0328102     -8.72876e-05    -9.98745e-05
                    -0.000115633     0.000270685        -0.108785       -0.989119     -8.14565e-05    -0.000192092        0.0309534       0.0906875
281724                 0.0857706         0.05138      6.22277e-05     0.000247001        -0.895197       -0.424805     -0.000162846     0.000164291
                     4.44152e-05     0.000152932        0.0106278      -0.0950879     -0.000290889     8.99009e-05        -0.108993       -0.988606
                       -0.895318       -0.424814     -0.000213734     8.50835e-05       -0.0939401      -0.0327578     -8.74029e-05     -9.9905e-05
                    -0.000115572     0.000270734        -0.109029       -0.989093     -8.15471e-05    -0.000192093        0.0309855       0.0906717
281726                 0.0857824       0.0513842      6.22857e-05     0.000247068        -0.895328       -0.424524     -0.000162801     0.000164399
                      4.4444e-05     0.000152945        0.0106156      -0.0950846     -0.000290899     9.00205e-05        -0.109237        -0.98858
                        -0.89545       -0.424533     -0.000213701     8.51567e-05       -0.0939714      -0.0327054     -8.75182e-05    -9.99355e-05
                     -0.00011551     0.000270783        -0.109273       -0.989066     -8.16378e-05    -0.000192093        0.0310175       0.0906558
281728                 0.0857941       0.0513884       6.2344e-05     0.000247135        -0.895459       -0.424244     -0.000162755     0.000164507
                     4.44728e-05     0.000152957        0.0106035      -0.0950813     -0.000290908     9.01403e-05         -0.10948       -0.988553
                       -0.895581       -0.424253     -0.000213668     8.52293e-05       -0.0940026       -0.032653     -8.76335e-05     -9.9966e-05
                    -0.000115448     0.000270832        -0.109517        -0.98904     -8.17286e-05    -0.000192094        0.0310496         0.09064
281730                 0.0858058       0.0513926      6.24027e-05     0.000247204         -0.89559       -0.423963      -0.00016271     0.000164614
                     4.45016e-05      0.00015297        0.0105913      -0.0950779     -0.000290917     9.02601e-05        -0.109724       -0.988526
                       -0.895712       -0.423972     -0.000213636     8.53011e-05       -0.0940337      -0.0326006     -8.77489e-05    -9.99965e-05
                    -0.000115386     0.000270881        -0.109761       -0.989013     -8.18195e-05    -0.000192094        0.0310817       0.0906241
281732                 0.0858176       0.0513967      6.24627e-05     0.000247276        -0.895721       -0.423682     -0.000162664     0.000164722
                     4.45305e-05     0.000152983        0.0105792      -0.0950745     -0.000290926       9.038e-05        -0.109967       -0.988499
                       -0.895843       -0.423691     -0.000213603     8.53714e-05       -0.0940649      -0.0325481     -8.78642e-05    -0.000100027
                    -0.000115324     0.000270929        -0.110004       -0.988987     -8.19104e-05    -0.000192094        0.0311137       0.0906082
281734                 0.0858293       0.0514009       6.2529e-05     0.000247358        -0.895852       -0.423401     -0.000162618      0.00016483
                     4.45594e-05     0.000152996        0.0105671      -0.0950713     -0.000290935        9.05e-05        -0.110211       -0.988473
                       -0.895973        -0.42341     -0.000213569     8.54396e-05        -0.094096      -0.0324956     -8.79796e-05    -0.000100058
                    -0.000115261     0.000270978        -0.110248        -0.98896     -8.20015e-05    -0.000192095        0.0311458       0.0905923
281736                 0.0858411       0.0514051      6.26652e-05     0.000247452        -0.895983        -0.42312     -0.000162571     0.000164937
                     4.45883e-05     0.000153009        0.0105549      -0.0950679     -0.000290944       9.062e-05        -0.110454       -0.988446
                       -0.896104        -0.42313      -0.00021353     8.55064e-05       -0.0941271      -0.0324431      -8.8095e-05    -0.000100088
                    -0.000115199     0.000271027        -0.110492       -0.988933     -8.20927e-05    -0.000192095        0.0311778       0.0905764
281738                 0.0858528       0.0514093      6.26743e-05     0.000247382        -0.896114       -0.422839     -0.000162525     0.000165044
                     4.46173e-05     0.000153022        0.0105428      -0.0950646     -0.000290953     9.07401e-05        -0.110698       -0.988419
                       -0.896235       -0.422849     -0.000213485     8.55772e-05       -0.0941581      -0.0323906     -8.82104e-05    -0.000100119
                    -0.000115137     0.000271075        -0.110736       -0.988906     -8.21839e-05    -0.000192095        0.0312098       0.0905605
281740                 0.0858646       0.0514135      6.27004e-05     0.000247476        -0.896244       -0.422558     -0.000162479     0.000165152
                     4.46463e-05     0.000153035        0.0105306      -0.0950613     -0.000290962     9.08603e-05        -0.110941       -0.988392
                       -0.896366       -0.422568     -0.000213442     8.56564e-05       -0.0941892      -0.0323381     -8.83258e-05    -0.000100149
                    -0.000115074     0.000271124         -0.11098       -0.988879     -8.22752e-05    -0.000192096        0.0312418       0.0905446
281742                 0.0858763       0.0514176      6.27532e-05     0.000247553        -0.896375       -0.422277     -0.000162432     0.000165259
                     4.46753e-05     0.000153049        0.0105185      -0.0950579      -0.00029097     9.09805e-05        -0.111185       -0.988365
                       -0.896496       -0.422287     -0.000213404     8.57381e-05       -0.0942201      -0.0322855     -8.84413e-05     -0.00010018
                    -0.000115012     0.000271173        -0.111223       -0.988852     -8.23666e-05    -0.000192096        0.0312739       0.0905287
281744                 0.0858881       0.0514218      6.28096e-05     0.000247623        -0.896505       -0.421996     -0.000162385     0.000165366
                     4.47044e-05     0.000153062        0.0105063      -0.0950546     -0.000290979     9.11007e-05        -0.111428       -0.988338
                       -0.896626       -0.422006     -0.000213371     8.58178e-05       -0.0942511      -0.0322329     -8.85567e-05     -0.00010021
                    -0.000114949     0.000271221        -0.111467       -0.988825     -8.24581e-05    -0.000192096        0.0313059       0.0905127
281746                 0.0858999        0.051426       6.2867e-05     0.000247691        -0.896635       -0.421715     -0.000162339     0.000165473
                     4.47335e-05     0.000153076        0.0104942      -0.0950512     -0.000290987      9.1221e-05        -0.111671        -0.98831
                       -0.896757       -0.421725     -0.000213338     8.58953e-05       -0.0942821      -0.0321803     -8.86722e-05    -0.000100241
                    -0.000114886      0.00027127        -0.111711       -0.988798     -8.25497e-05    -0.000192096        0.0313379       0.0904968
281748                 0.0859116       0.0514301      6.29248e-05     0.000247758        -0.896766       -0.421434     -0.000162292      0.00016558
                     4.47626e-05      0.00015309        0.0104821      -0.0950479     -0.000290995     9.13414e-05        -0.111915       -0.988283
                       -0.896887       -0.421444     -0.000213306     8.59715e-05        -0.094313      -0.0321276     -8.87876e-05    -0.000100272
                    -0.000114824     0.000271318        -0.111955       -0.988771     -8.26414e-05    -0.000192096        0.0313698       0.0904808
281750                 0.0859234       0.0514343      6.29829e-05     0.000247825        -0.896896       -0.421153     -0.000162244     0.000165687
                     4.47918e-05     0.000153104        0.0104699      -0.0950445     -0.000291003     9.14618e-05        -0.112158       -0.988256
                       -0.897017       -0.421162     -0.000213273      8.6047e-05       -0.0943438       -0.032075     -8.89031e-05    -0.000100302
                    -0.000114761     0.000271366        -0.112199       -0.988744     -8.27331e-05    -0.000192096        0.0314018       0.0904648
281752                 0.0859352       0.0514385       6.3041e-05     0.000247891        -0.897026       -0.420871     -0.000162197     0.000165793
                      4.4821e-05     0.000153119        0.0104578      -0.0950412     -0.000291012     9.15822e-05        -0.112402       -0.988229
                       -0.897147       -0.420881      -0.00021324     8.61219e-05       -0.0943747      -0.0320223     -8.90186e-05    -0.000100333
                    -0.000114698     0.000271414        -0.112442       -0.988717     -8.28249e-05    -0.000192096        0.0314338       0.0904488
281754                 0.0859469       0.0514426      6.30993e-05     0.000247956        -0.897156        -0.42059      -0.00016215       0.0001659
                     4.48502e-05     0.000153133        0.0104456      -0.0950378     -0.000291019     9.17027e-05        -0.112645       -0.988201
                       -0.897277         -0.4206     -0.000213206     8.61967e-05       -0.0944055      -0.0319696     -8.91341e-05    -0.000100363
                    -0.000114636     0.000271462        -0.112686        -0.98869     -8.29168e-05    -0.000192096        0.0314658       0.0904328
281756                 0.0859587       0.0514468      6.31576e-05     0.000248022        -0.897286       -0.420309     -0.000162102     0.000166007
                     4.48795e-05     0.000153148        0.0104335      -0.0950345     -0.000291027     9.18233e-05        -0.112889       -0.988174
                       -0.897407       -0.420319     -0.000213173     8.62712e-05       -0.0944363      -0.0319168     -8.92496e-05    -0.000100394
                    -0.000114573      0.00027151         -0.11293       -0.988662     -8.30088e-05    -0.000192096        0.0314977       0.0904168
281758                 0.0859705       0.0514509       6.3216e-05     0.000248087        -0.897415       -0.420027     -0.000162054     0.000166114
                      4.4909e-05     0.000153164        0.0104213      -0.0950311     -0.000291035     9.19439e-05        -0.113132       -0.988146
                       -0.897537       -0.420037     -0.000213139     8.63457e-05       -0.0944671      -0.0318641     -8.93652e-05    -0.000100425
                     -0.00011451     0.000271558        -0.113173       -0.988635     -8.31009e-05    -0.000192096        0.0315297       0.0904008
281760                 0.0859823       0.0514551      6.32744e-05     0.000248152        -0.897545       -0.419746     -0.000162006      0.00016622
                     4.49386e-05      0.00015318        0.0104092      -0.0950278     -0.000291043     9.20645e-05        -0.113375       -0.988118
                       -0.897667       -0.419756     -0.000213105     8.64201e-05       -0.0944978      -0.0318113     -8.94807e-05    -0.000100455
                    -0.000114448     0.000271604        -0.113417       -0.988607     -8.31931e-05    -0.000192096        0.0315616       0.0903848
281762                 0.0859941       0.0514592      6.33328e-05     0.000248217        -0.897675       -0.419464     -0.000161958     0.000166327
                      4.4969e-05     0.000153199        0.0103971      -0.0950244      -0.00029105     9.21853e-05        -0.113619       -0.988091
                       -0.897796       -0.419474     -0.000213072     8.64945e-05       -0.0945285      -0.0317585     -8.95962e-05    -0.000100486
