! TOUCHSTONE file generated by CST MICROWAVE STUDIO
! Date and time: Wed Oct 15 17:35:02 2025
! Project name: Teste_Macro_Metasurface_Nanopilar.cst
! Parameters = {H=600; L_x=195; L_y=130; Lambda=1064; Max_L=200; Min_L=70; PathPara=1; Phi=0; Step_L=10; Theta=0; p=520; phaseX=180; phaseY=0}
! Header version: 2018
! Port assignment regex: !\s*Touchstone port\s*([0-9]+)\s*=\s*(CST MWS port|CST DS port)\s*([0-9]+|Zmin|Zmax)\s*\(\"(.*)\"\)(\s*mode\s*([0-9]+))?.*
! Touchstone port assignment:
! Touchstone port 1 = CST MWS port Zmax ("") mode 1
! Touchstone port 2 = CST MWS port Zmax ("") mode 2
! Touchstone port 3 = CST MWS port Zmin ("") mode 1
! Touchstone port 4 = CST MWS port Zmin ("") mode 2
! S-Parameters are not renormalized. Each port impedance will be approximated by the real part at minimum frequency. The values are described via the [Reference] keyword.
! Default impedance is overridden by [Reference]
[Version] 2.0
# GHz S RI R 376.73
[Number of Ports] 4
[Reference]
376.73 376.73 259.888 259.888 
[Number of Frequencies] 51
[Network Data]
281700                  0.157221        0.284355      -0.00066972    -0.000633361          0.74182       -0.572563       7.2813e-05    -5.85152e-05
                    -0.000565277    -0.000596064         0.180092       0.0231146      0.000180899    -0.000386823         0.455257       -0.866901
                        0.741871       -0.572603      0.000144617    -0.000387075         0.237774        0.211416     -0.000652672    -0.000386404
                     1.05317e-05    -7.48149e-05         0.455237       -0.867787     -0.000673043    -0.000459147         0.119883        0.130937
281702                  0.157292         0.28448     -0.000670354    -0.000633032         0.741518       -0.572868      7.48035e-05    -5.92184e-05
                    -0.000565769    -0.000595982         0.180104       0.0231338      0.000180593    -0.000387484         0.454996       -0.867036
                        0.741569         -0.5729      0.000144482    -0.000386946         0.238074        0.211292     -0.000656015    -0.000383644
                       1.074e-05    -7.46887e-05         0.454977       -0.867922     -0.000674232    -0.000459346         0.119985        0.130862
281704                  0.157363        0.284606     -0.000671013    -0.000632692         0.741217       -0.573173      7.69009e-05    -6.00144e-05
                    -0.000566266    -0.000595895         0.180116        0.023153       0.00018024    -0.000388165         0.454734       -0.867171
                        0.741266       -0.573198       0.00014432    -0.000386761         0.238372        0.211168     -0.000659306     -0.00038053
                     1.09572e-05    -7.45537e-05         0.454716       -0.868057     -0.000675442    -0.000459541         0.120087        0.130788
281706                  0.157434        0.284731     -0.000671704     -0.00063234         0.740915       -0.573477      7.91125e-05    -6.09277e-05
                    -0.000566769    -0.000595806         0.180128       0.0231723      0.000179827    -0.000388871         0.454473       -0.867305
                        0.740963       -0.573496      0.000144122    -0.000386499         0.238671        0.211042     -0.000662492    -0.000377008
                     1.11826e-05    -7.44109e-05         0.454456       -0.868192     -0.000676677    -0.000459732         0.120189        0.130713
281708                  0.157505        0.284857     -0.000672437    -0.000631972         0.740613       -0.573782      8.14449e-05    -6.19904e-05
                    -0.000567278    -0.000595713         0.180141       0.0231915      0.000179339    -0.000389607         0.454211       -0.867439
                        0.740659       -0.573793      0.000143873    -0.000386125          0.23897        0.210916     -0.000665498    -0.000373016
                     1.14156e-05     -7.4261e-05         0.454196       -0.868327      -0.00067794    -0.000459917          0.12029        0.130639
281710                  0.157576        0.284983     -0.000673226    -0.000631584         0.740311       -0.574085      8.39018e-05    -6.32442e-05
                    -0.000567796    -0.000595618         0.180153       0.0232108      0.000178752    -0.000390382          0.45395       -0.867573
                        0.740354       -0.574091      0.000143554    -0.000385588         0.239268        0.210789     -0.000668218    -0.000368496
                     1.16556e-05    -7.41044e-05         0.453936       -0.868462     -0.000679236    -0.000460095         0.120391        0.130565
281712                  0.157647        0.285109     -0.000674094    -0.000631173         0.740009       -0.574389      8.64819e-05    -6.47437e-05
                    -0.000568322    -0.000595522         0.180165       0.0232302      0.000178036    -0.000391208         0.453689       -0.867707
                        0.740049       -0.574389      0.000143127    -0.000384788         0.239566        0.210661     -0.000670502    -0.000363394
                      1.1902e-05    -7.39419e-05         0.453675       -0.868597      -0.00068057    -0.000460265         0.120491        0.130492
281714                  0.157718        0.285235     -0.000675079    -0.000630731         0.739707       -0.574692      8.91744e-05      -6.656e-05
                    -0.000568857    -0.000595425         0.180177       0.0232496      0.000177142    -0.000392102         0.453428       -0.867841
                        0.739744       -0.574687      0.000142533    -0.000383535         0.239864        0.210533     -0.000672147    -0.000357686
                     1.21542e-05    -7.37739e-05         0.453415       -0.868731     -0.000681951    -0.000460425         0.120592        0.130419
281716                  0.157789        0.285362     -0.000676245    -0.000630253         0.739404       -0.574995      9.19504e-05    -6.87854e-05
                    -0.000569403    -0.000595331         0.180189        0.023269      0.000175995    -0.000393091         0.453167       -0.867974
                        0.739438       -0.574986      0.000141658    -0.000381398         0.240161        0.210402     -0.000672887    -0.000351399
                     1.24116e-05    -7.36007e-05         0.453154       -0.868866     -0.000683387    -0.000460572         0.120693        0.130345
281718                   0.15786        0.285488      -0.00067771    -0.000629739         0.739102       -0.575297      9.47502e-05    -7.15369e-05
                     -0.00056996     -0.00059524         0.180202       0.0232884      0.000174472    -0.000394217         0.452906       -0.868108
                        0.739131       -0.575284      0.000140298    -0.000377158         0.240458        0.210271     -0.000672397    -0.000344661
                     1.26738e-05    -7.34228e-05         0.452894          -0.869     -0.000684891    -0.000460703         0.120793        0.130273
281720                  0.157932        0.285615     -0.000679723    -0.000629217           0.7388       -0.575598      9.74612e-05     -7.4957e-05
                    -0.000570526    -0.000595156         0.180214       0.0233079      0.000172353    -0.000395552         0.452645       -0.868241
                        0.738824       -0.575582      0.000138591    -0.000365722         0.240755        0.210139     -0.000670321    -0.000337759
                     1.29402e-05    -7.32405e-05         0.452633       -0.869134      -0.00068648    -0.000460813         0.120894          0.1302
281722                  0.158003        0.285743     -0.000682869    -0.000628881         0.738497         -0.5759       9.9884e-05    -7.92038e-05
                    -0.000571103    -0.000595079         0.180226       0.0233274      0.000169207    -0.000397233         0.452384       -0.868375
                        0.738517       -0.575881      0.000179312     -0.00031289         0.241052        0.210005     -0.000666356    -0.000331194
                     1.32104e-05    -7.30541e-05         0.452373       -0.869268     -0.000688177    -0.000460896         0.120994        0.130127
281724                  0.158075         0.28587     -0.000688687    -0.000629969         0.738195         -0.5762      0.000101685     -8.4417e-05
                    -0.000571687    -0.000595014         0.180238       0.0233468      0.000164051    -0.000399535         0.452123       -0.868508
                        0.738209       -0.576179      0.000178586    -0.000415112         0.241348        0.209869     -0.000660389    -0.000325701
                     1.34838e-05    -7.28637e-05         0.452112       -0.869402     -0.000690016    -0.000460941         0.121095        0.130055
281726                  0.158147        0.285997     -0.000697636     -0.00064152         0.737892         -0.5765       0.00010235    -9.06325e-05
                    -0.000572277    -0.000594962         0.180249       0.0233663      0.000154076    -0.000403123         0.451862       -0.868642
                        0.737901       -0.576478      0.000158455    -0.000405406         0.241645        0.209731     -0.000652673    -0.000322156
                     1.37601e-05    -7.26696e-05         0.451852       -0.869535     -0.000692045    -0.000460933         0.121195        0.129982
281728                  0.158219        0.286125       -0.0006773    -0.000656243          0.73759         -0.5768       0.00010118    -9.76196e-05
                     -0.00057287    -0.000594923         0.180261       0.0233856      0.000126827    -0.000409691         0.451601       -0.868775
                        0.737592       -0.576777      0.000153489     -0.00040106         0.241941        0.209592     -0.000643947    -0.000321333
                     1.40389e-05    -7.24721e-05         0.451591       -0.869669     -0.000694339    -0.000460848         0.121296        0.129909
281730                  0.158291        0.286253     -0.000669236     -0.00064363         0.737288       -0.577098      9.74451e-05    -0.000104654
                    -0.000573462    -0.000594899         0.180273       0.0234048       -0.0001128     -0.00030838          0.45134       -0.868908
                        0.737283       -0.577076      0.000151344    -0.000398856         0.242238         0.20945     -0.000635341    -0.000323588
                     1.43198e-05    -7.22712e-05         0.451331       -0.869802     -0.000697018    -0.000460645         0.121397        0.129837
281732                  0.158363        0.286381     -0.000670417    -0.000637755         0.736986       -0.577395      9.08035e-05    -0.000110396
                    -0.000574051    -0.000594888         0.180284        0.023424       0.00025787    -0.000344995         0.451079       -0.869042
                        0.736974       -0.577375      0.000150164    -0.000397571         0.242536        0.209306     -0.000628063    -0.000328649
                     1.46024e-05    -7.20672e-05         0.451071       -0.869935     -0.000700288    -0.000460247         0.121497        0.129764
281734                  0.158435        0.286509     -0.000671989       -0.000635         0.736684       -0.577691      8.18708e-05    -0.000113222
                    -0.000574633     -0.00059489         0.180296        0.023443      0.000220454    -0.000375317         0.450818       -0.869175
                        0.736664       -0.577674      0.000149423    -0.000396758         0.242835        0.209159     -0.000622992    -0.000335697
                     1.48864e-05    -7.18601e-05         0.450812       -0.870068     -0.000704538    -0.000459498         0.121598        0.129692
281736                  0.158508        0.286638     -0.000673314    -0.000633398         0.736383       -0.577986       7.2351e-05    -0.000112111
                    -0.000575206    -0.000594903         0.180308        0.023462      0.000208403    -0.000383176         0.450557       -0.869308
                        0.736354       -0.577974      0.000148917    -0.000396217         0.243135         0.20901     -0.000620461    -0.000343692
                     1.51714e-05    -7.16502e-05         0.450553         -0.8702     -0.000710592    -0.000458027         0.121699        0.129619
281738                   0.15858        0.286766     -0.000674429    -0.000632312         0.736082       -0.578277      6.42536e-05    -0.000107375
                    -0.000575769    -0.000594923          0.18032       0.0234809      0.000202507    -0.000386966         0.450296       -0.869441
                        0.736044       -0.578273      0.000148552    -0.000395848         0.243439        0.208859     -0.000620311    -0.000351708
                     1.54572e-05    -7.14375e-05         0.450296       -0.870331     -0.000720547    -0.000454712           0.1218        0.129546
281740                  0.158653        0.286895       -0.0006754    -0.000631494          0.73578       -0.578566      5.88192e-05    -0.000100394
                     -0.00057632    -0.000594948         0.180332       0.0234998      0.000199016    -0.000389336         0.450035       -0.869575
                        0.735734       -0.578573      0.000148278    -0.000395594         0.243746        0.208706     -0.000622097    -0.000359115
                     1.57434e-05    -7.12221e-05          0.45004       -0.870457     -0.000741605    -0.000444362         0.121901        0.129473
281742                  0.158726        0.287024     -0.000676272    -0.000630832         0.735478       -0.578849      5.61871e-05    -9.26898e-05
                     -0.00057686    -0.000594977         0.180344       0.0235187      0.000196711     -0.00039105         0.449773       -0.869708
                        0.735423       -0.578872      0.000148066    -0.000395422         0.244057        0.208553     -0.000625302    -0.000365591
                     1.60298e-05    -7.10042e-05         0.449778       -0.870575     -0.000808139    -0.000357251         0.122002          0.1294
281744                  0.158799        0.287153     -0.000677077    -0.000630266         0.735171       -0.579126      5.58156e-05    -8.52953e-05
                    -0.000577388    -0.000595005         0.180356       0.0235377      0.000195076    -0.000392407         0.449512       -0.869841
                        0.735112       -0.579172      0.000147899    -0.000395311         0.244371        0.208401      -0.00062946    -0.000371039
                     1.63161e-05    -7.07838e-05         0.449503       -0.870698        -0.000567    -0.000435092         0.122103        0.129327
281746                  0.158872        0.287282     -0.000677834    -0.000629765         0.734855       -0.579397      5.70012e-05    -7.86802e-05
                    -0.000577907    -0.000595032         0.180368       0.0235566      0.000193858     -0.00039355          0.44925       -0.869974
                        0.734801       -0.579472      0.000147767    -0.000395245         0.244688        0.208252     -0.000634211      -0.0003755
                      1.6602e-05    -7.05611e-05         0.449229       -0.870835     -0.000642716    -0.000467326         0.122204        0.129254
281748                  0.158945        0.287412     -0.000678556    -0.000629308         0.734523       -0.579667      5.91532e-05    -7.29427e-05
                    -0.000578417    -0.000595055          0.18038       0.0235756      0.000192916    -0.000394552         0.448989       -0.870107
                         0.73449       -0.579771       0.00014766    -0.000395215         0.245008        0.208105     -0.000639299    -0.000379077
                     1.68872e-05    -7.03361e-05         0.448963       -0.870973     -0.000663442    -0.000469012         0.122305         0.12918
281750                  0.159018        0.287541     -0.000679254    -0.000628882         0.734174        -0.57995      6.18577e-05    -6.80022e-05
                    -0.000578919    -0.000595075         0.180392       0.0235947      0.000192167    -0.000395459         0.448727        -0.87024
                        0.734179       -0.580071      0.000147574    -0.000395215         0.245328        0.207961     -0.000644554    -0.000381894
                     1.71715e-05    -7.01089e-05           0.4487       -0.871109     -0.000673288    -0.000469113         0.122406        0.129107
281752                  0.159092        0.287671     -0.000679934    -0.000628481         0.733821       -0.580258      6.48513e-05     -6.3717e-05
                    -0.000579414    -0.000595089         0.180405       0.0236137      0.000191558    -0.000396297         0.448465       -0.870372
                        0.733868        -0.58037      0.000147505    -0.000395239         0.245647         0.20782     -0.000649868    -0.000384073
                     1.74547e-05    -6.98797e-05         0.448438       -0.871244     -0.000679322    -0.000469083         0.122507        0.129033
281754                  0.159165          0.2878     -0.000680602    -0.000628097         0.733485       -0.580584      6.79761e-05    -5.99408e-05
                    -0.000579904    -0.000595098         0.180417       0.0236328      0.000191055    -0.000397084         0.448203       -0.870505
                        0.733557        -0.58067      0.000147451    -0.000395283         0.245965        0.207682     -0.000655181    -0.000385722
                     1.77365e-05    -6.96484e-05         0.448176       -0.871377     -0.000683595    -0.000469096         0.122608        0.128959
281756                  0.159239         0.28793     -0.000681262    -0.000627727         0.733166        -0.58091      7.11418e-05    -5.65432e-05
                    -0.000580389    -0.000595102         0.180429       0.0236519      0.000190634    -0.000397831          0.44794       -0.870638
                        0.733246       -0.580968      0.000147409    -0.000395346         0.246281        0.207546      -0.00066046     -0.00038693
                     1.80165e-05    -6.94153e-05         0.447915        -0.87151     -0.000686914     -0.00046917         0.122709        0.128885
281758                  0.159313         0.28806     -0.000681918    -0.000627367         0.732857       -0.581231      7.42997e-05    -5.34152e-05
                     -0.00058087      -0.0005951         0.180441        0.023671      0.000190278    -0.000398547         0.447678        -0.87077
                        0.732935       -0.581267       0.00014738    -0.000395425         0.246595         0.20741     -0.000665696    -0.000387774
                     1.82945e-05    -6.91804e-05         0.447653       -0.871642     -0.000689662    -0.000469299         0.122809         0.12881
281760                  0.159387         0.28819     -0.000682573    -0.000627016         0.732554       -0.581544       7.7426e-05    -5.04666e-05
                    -0.000581348    -0.000595093         0.180453       0.0236901      0.000189974    -0.000399237         0.447415       -0.870902
                        0.732623       -0.581565      0.000147361    -0.000395519         0.246907        0.207274     -0.000670891    -0.000388313
                     1.85703e-05    -6.89439e-05         0.447391       -0.871773     -0.000692044    -0.000469477          0.12291        0.128736
281762                  0.159461        0.288321      -0.00068323    -0.000626672         0.732251       -0.581852      8.05121e-05    -4.76225e-05
                    -0.000581824     -0.00059508         0.180466       0.0237093      0.000189715    -0.000399905         0.447152       -0.871035
                        0.732311       -0.581862      0.000147353    -0.000395629         0.247217        0.207138     -0.000676059    -0.000388595
