! TOUCHSTONE file generated by CST MICROWAVE STUDIO
! Date and time: Wed Oct 15 17:32:36 2025
! Project name: Teste_Macro_Metasurface_Nanopilar.cst
! Parameters = {H=600; L_x=150; L_y=195; Lambda=1064; Max_L=200; Min_L=70; PathPara=1; Phi=0; Step_L=10; Theta=0; p=520; phaseX=180; phaseY=0}
! Header version: 2018
! Port assignment regex: !\s*Touchstone port\s*([0-9]+)\s*=\s*(CST MWS port|CST DS port)\s*([0-9]+|Zmin|Zmax)\s*\(\"(.*)\"\)(\s*mode\s*([0-9]+))?.*
! Touchstone port assignment:
! Touchstone port 1 = CST MWS port Zmax ("") mode 1
! Touchstone port 2 = CST MWS port Zmax ("") mode 2
! Touchstone port 3 = CST MWS port Zmin ("") mode 1
! Touchstone port 4 = CST MWS port Zmin ("") mode 2
! S-Parameters are not renormalized. Each port impedance will be approximated by the real part at minimum frequency. The values are described via the [Reference] keyword.
! Default impedance is overridden by [Reference]
[Version] 2.0
# GHz S RI R 376.73
[Number of Ports] 4
[Reference]
376.73 376.73 259.888 259.888 
[Number of Frequencies] 51
[Network Data]
281700                  0.236293       0.0894574     -0.000225562    -5.86888e-06         0.220962       -0.938418      0.000401765     0.000160405
                    -0.000129242      8.1284e-05         0.155288      0.00916377      0.000378651     0.000115333         0.619567       -0.762434
                        0.220896       -0.938487       0.00044619      0.00015773          0.24934       0.0230244     -0.000344565    -9.74881e-05
                     0.000255445     5.04381e-05         0.619328       -0.762281     -0.000241499     0.000124092        0.0385728        0.150391
281702                  0.236312       0.0894607      -0.00022554    -5.98417e-06         0.220689       -0.938478       0.00040182     0.000160292
                    -0.000129177     8.10051e-05         0.155265      0.00914419      0.000378929      0.00011528         0.619321       -0.762636
                        0.220624       -0.938546      0.000446344     0.000157542         0.249373       0.0228858     -0.000344373    -9.71474e-05
                     0.000255584      5.0598e-05         0.619081       -0.762483     -0.000241607     0.000124102        0.0386437        0.150352
281704                  0.236332       0.0894639     -0.000225518    -6.09943e-06         0.220416       -0.938537      0.000401876     0.000160179
                    -0.000129112     8.07261e-05         0.155242      0.00912456      0.000379208     0.000115227         0.619075       -0.762838
                        0.220351       -0.938605      0.000446498     0.000157354         0.249405       0.0227471     -0.000344182    -9.68073e-05
                     0.000255724     5.07582e-05         0.618835       -0.762685     -0.000241714     0.000124113        0.0387147        0.150313
281706                  0.236351       0.0894672     -0.000225496    -6.21472e-06         0.220143       -0.938596      0.000401932     0.000160066
                    -0.000129048     8.04472e-05         0.155219       0.0091049      0.000379486     0.000115174         0.618829       -0.763039
                        0.220079       -0.938664      0.000446652     0.000157166         0.249437       0.0226084     -0.000343993    -9.64678e-05
                     0.000255865     5.09187e-05         0.618588       -0.762886     -0.000241821     0.000124124        0.0387855        0.150274
281708                   0.23637       0.0894705     -0.000225474    -6.33007e-06         0.219869       -0.938655      0.000401988     0.000159953
                    -0.000128985     8.01682e-05         0.155196      0.00908519      0.000379765      0.00011512         0.618582       -0.763241
                        0.219807       -0.938723      0.000446806     0.000156979         0.249469       0.0224697     -0.000343806    -9.61287e-05
                     0.000256008     5.10795e-05         0.618342       -0.763088     -0.000241927     0.000124135        0.0388563        0.150235
281710                   0.23639       0.0894738     -0.000225451    -6.44552e-06         0.219596       -0.938713      0.000402045      0.00015984
                    -0.000128922     7.98892e-05         0.155172      0.00906544      0.000380043     0.000115065         0.618336       -0.763442
                        0.219534       -0.938782       0.00044696     0.000156791         0.249502       0.0223309      -0.00034362    -9.57902e-05
                     0.000256152     5.12404e-05         0.618095       -0.763289     -0.000242032     0.000124145        0.0389269        0.150196
281712                  0.236409       0.0894771     -0.000225429    -6.56114e-06         0.219323       -0.938772      0.000402102     0.000159727
                    -0.000128859     7.96103e-05         0.155149      0.00904565      0.000380321     0.000115011         0.618089       -0.763644
                        0.219262        -0.93884      0.000447114     0.000156604         0.249534       0.0221921     -0.000343437    -9.54521e-05
                     0.000256296     5.14016e-05         0.617848       -0.763491     -0.000242137     0.000124156        0.0389976        0.150157
281714                  0.236429       0.0894803     -0.000225406    -6.67697e-06          0.21905       -0.938831      0.000402159     0.000159615
                    -0.000128797     7.93313e-05         0.155126      0.00902582      0.000380599     0.000114955         0.617842       -0.763845
                        0.218989       -0.938899      0.000447268     0.000156416         0.249566       0.0220533     -0.000343255    -9.51144e-05
                     0.000256442     5.15629e-05         0.617601       -0.763692     -0.000242241     0.000124167        0.0390681        0.150117
281716                  0.236448       0.0894836     -0.000225382    -6.79306e-06         0.218777       -0.938889      0.000402216     0.000159503
                    -0.000128736     7.90524e-05         0.155103      0.00900595      0.000380878       0.0001149         0.617596       -0.764046
                        0.218717       -0.938957      0.000447423     0.000156229         0.249598       0.0219145     -0.000343075    -9.47771e-05
                     0.000256588     5.17245e-05         0.617354       -0.763893     -0.000242344     0.000124177        0.0391385        0.150078
281718                  0.236467       0.0894869     -0.000225359    -6.90946e-06         0.218503       -0.938948      0.000402274     0.000159391
                    -0.000128674     7.87734e-05         0.155079      0.00898603      0.000381156     0.000114844         0.617349       -0.764248
                        0.218445       -0.939016      0.000447578     0.000156041         0.249629       0.0217756     -0.000342896    -9.44402e-05
                     0.000256735     5.18862e-05         0.617107       -0.764095     -0.000242447     0.000124188        0.0392089        0.150038
281720                  0.236487       0.0894901     -0.000225335    -7.02623e-06          0.21823       -0.939006      0.000402332     0.000159279
                    -0.000128614     7.84945e-05         0.155056      0.00896608      0.000381434     0.000114787         0.617102       -0.764449
                        0.218172       -0.939074      0.000447733     0.000155854         0.249661       0.0216368     -0.000342719    -9.41037e-05
                     0.000256883     5.20481e-05          0.61686       -0.764296     -0.000242549     0.000124198        0.0392792        0.149999
281722                  0.236506       0.0894934     -0.000225311    -7.14341e-06         0.217957       -0.939065       0.00040239     0.000159167
                    -0.000128554     7.82156e-05         0.155032      0.00894608      0.000381712      0.00011473         0.616855        -0.76465
                          0.2179       -0.939133      0.000447888     0.000155666         0.249693       0.0214979     -0.000342544    -9.37675e-05
                     0.000257032     5.22102e-05         0.616613       -0.764497      -0.00024265     0.000124209        0.0393495        0.149959
281724                  0.236526       0.0894966     -0.000225287    -7.26108e-06         0.217684       -0.939123      0.000402449     0.000159055
                    -0.000128494     7.79366e-05         0.155009      0.00892605       0.00038199     0.000114673         0.616607       -0.764851
                        0.217627       -0.939191      0.000448044     0.000155478         0.249724       0.0213589      -0.00034237    -9.34316e-05
                     0.000257181     5.23724e-05         0.616365       -0.764698     -0.000242751     0.000124219        0.0394196         0.14992
281726                  0.236545       0.0894998     -0.000225263    -7.37926e-06         0.217411       -0.939181      0.000402508     0.000158944
                    -0.000128435     7.76577e-05         0.154985      0.00890597      0.000382267     0.000114615          0.61636       -0.765052
                        0.217355       -0.939249        0.0004482     0.000155289         0.249756         0.02122     -0.000342198     -9.3096e-05
                     0.000257331     5.25349e-05         0.616118       -0.764899     -0.000242851      0.00012423        0.0394897         0.14988
281728                  0.236564       0.0895031     -0.000225239    -7.49803e-06         0.217137       -0.939239      0.000402567     0.000158832
                    -0.000128376     7.73789e-05         0.154962      0.00888585      0.000382545     0.000114556         0.616113       -0.765253
                        0.217082       -0.939307      0.000448356       0.0001551         0.249787        0.021081     -0.000342028    -9.27606e-05
                     0.000257481     5.26975e-05          0.61587         -0.7651     -0.000242951      0.00012424        0.0395597         0.14984
281730                  0.236584       0.0895063     -0.000225214    -7.61741e-06         0.216864       -0.939297      0.000402627     0.000158721
                    -0.000128318        7.71e-05         0.154938      0.00886569      0.000382823     0.000114497         0.615865       -0.765454
                        0.216809       -0.939365      0.000448513     0.000154911         0.249819        0.020942      -0.00034186    -9.24255e-05
                     0.000257632     5.28603e-05         0.615623       -0.765301      -0.00024305      0.00012425        0.0396296          0.1498
281732                  0.236603       0.0895095     -0.000225189    -7.73747e-06         0.216591       -0.939355      0.000402687      0.00015861
                     -0.00012826     7.68212e-05         0.154914      0.00884548      0.000383101     0.000114438         0.615618       -0.765655
                        0.216537       -0.939423      0.000448669      0.00015472          0.24985        0.020803     -0.000341693    -9.20906e-05
                     0.000257783     5.30233e-05         0.615375       -0.765502     -0.000243148     0.000124261        0.0396994        0.149761
281734                  0.236623       0.0895128     -0.000225165    -7.85823e-06         0.216317       -0.939413      0.000402747     0.000158499
                    -0.000128203     7.65423e-05         0.154891      0.00882524      0.000383379     0.000114378          0.61537       -0.765856
                        0.216264       -0.939481      0.000448827      0.00015453         0.249881       0.0206639     -0.000341527    -9.17558e-05
                     0.000257935     5.31865e-05         0.615127       -0.765703     -0.000243245     0.000124271        0.0397692        0.149721
281736                  0.236642        0.089516      -0.00022514    -7.97975e-06         0.216044       -0.939471      0.000402808     0.000158388
                    -0.000128146     7.62635e-05         0.154867      0.00880495      0.000383656     0.000114318         0.615122       -0.766057
                        0.215992       -0.939539      0.000448984     0.000154338         0.249912       0.0205249     -0.000341364    -9.14212e-05
                     0.000258087     5.33499e-05         0.614879       -0.765904     -0.000243342     0.000124281        0.0398389        0.149681
281738                  0.236662       0.0895192     -0.000225115    -8.10204e-06         0.215771       -0.939528      0.000402869     0.000158277
                    -0.000128089     7.59848e-05         0.154843      0.00878462      0.000383934     0.000114257         0.614874       -0.766257
                        0.215719       -0.939596      0.000449141     0.000154146         0.249943       0.0203858     -0.000341202    -9.10868e-05
                     0.000258239     5.35136e-05         0.614631       -0.766105     -0.000243438     0.000124291        0.0399085        0.149641
281740                  0.236681       0.0895224      -0.00022509    -8.22515e-06         0.215497       -0.939586       0.00040293     0.000158166
                    -0.000128033      7.5706e-05         0.154819      0.00876425      0.000384212     0.000114195         0.614626       -0.766458
                        0.215446       -0.939654      0.000449299     0.000153953         0.249974       0.0202467     -0.000341041    -9.07524e-05
                     0.000258392     5.36774e-05         0.614382       -0.766305     -0.000243534     0.000124301         0.039978        0.149601
281742                    0.2367       0.0895256     -0.000225065     -8.3491e-06         0.215224       -0.939643      0.000402992     0.000158056
                    -0.000127978     7.54273e-05         0.154795      0.00874384       0.00038449     0.000114134         0.614378       -0.766659
                        0.215174       -0.939711      0.000449456      0.00015376         0.250005       0.0201075     -0.000340882    -9.04181e-05
                     0.000258545     5.38415e-05         0.614134       -0.766506     -0.000243629     0.000124311        0.0400475         0.14956
281744                   0.23672       0.0895288      -0.00022504     -8.4739e-06         0.214951       -0.939701      0.000403054     0.000157945
                    -0.000127923     7.51486e-05         0.154772      0.00872339      0.000384767     0.000114071          0.61413       -0.766859
                        0.214901       -0.939769      0.000449614     0.000153565         0.250036       0.0199684     -0.000340725    -9.00838e-05
                     0.000258699     5.40058e-05         0.613886       -0.766707     -0.000243723     0.000124321        0.0401169         0.14952
281746                  0.236739        0.089532     -0.000225015    -8.59958e-06         0.214677       -0.939758      0.000403116     0.000157835
                    -0.000127868     7.48699e-05         0.154748      0.00870289      0.000385045     0.000114008         0.613881        -0.76706
                        0.214628       -0.939826      0.000449771      0.00015337         0.250067       0.0198292     -0.000340569    -8.97496e-05
                     0.000258853     5.41704e-05         0.613637       -0.766907     -0.000243817      0.00012433        0.0401861         0.14948
281748                  0.236759       0.0895352      -0.00022499    -8.72614e-06         0.214404       -0.939816      0.000403179     0.000157725
                    -0.000127814     7.45913e-05         0.154724      0.00868235      0.000385323     0.000113945         0.613633       -0.767261
                        0.214356       -0.939883      0.000449929     0.000153174         0.250097         0.01969     -0.000340415    -8.94154e-05
                     0.000259007     5.43352e-05         0.613388       -0.767108      -0.00024391      0.00012434        0.0402554         0.14944
281750                  0.236778       0.0895384     -0.000224965    -8.85358e-06          0.21413       -0.939873      0.000403242     0.000157615
                     -0.00012776     7.43127e-05         0.154699      0.00866177        0.0003856     0.000113881         0.613384       -0.767461
                        0.214083       -0.939941      0.000450086     0.000152977         0.250128       0.0195507     -0.000340262    -8.90811e-05
                     0.000259161     5.45003e-05          0.61314       -0.767308     -0.000244002      0.00012435        0.0403245        0.149399
281752                  0.236797       0.0895416      -0.00022494     -8.9819e-06         0.213857        -0.93993      0.000403305     0.000157505
                    -0.000127707     7.40341e-05         0.154675      0.00864115      0.000385878     0.000113817         0.613136       -0.767661
                         0.21381       -0.939998      0.000450244     0.000152779         0.250158       0.0194115     -0.000340111    -8.87468e-05
                     0.000259316     5.46656e-05         0.612891       -0.767509     -0.000244093     0.000124359        0.0403936        0.149359
281754                  0.236817       0.0895447     -0.000224915     -9.1111e-06         0.213584       -0.939987      0.000403369     0.000157394
                    -0.000127654     7.37556e-05         0.154651      0.00862049      0.000386156     0.000113751         0.612887       -0.767862
                        0.213538       -0.940055      0.000450401     0.000152581         0.250189       0.0192722     -0.000339961    -8.84123e-05
                      0.00025947     5.48312e-05         0.612642       -0.767709     -0.000244184     0.000124369        0.0404625        0.149318
281756                  0.236836       0.0895479      -0.00022489    -9.24117e-06          0.21331       -0.940044      0.000403433     0.000157285
                    -0.000127602     7.34771e-05         0.154627      0.00859978      0.000386434     0.000113686         0.612638       -0.768062
                        0.213265       -0.940112      0.000450558     0.000152381         0.250219       0.0191329     -0.000339812    -8.80777e-05
                     0.000259625     5.49971e-05         0.612393       -0.767909     -0.000244273     0.000124378        0.0405314        0.149278
281758                  0.236856       0.0895511     -0.000224866    -9.37209e-06         0.213037       -0.940101      0.000403498     0.000157175
                     -0.00012755     7.31986e-05         0.154603      0.00857903      0.000386713     0.000113618         0.612389       -0.768262
                        0.212992       -0.940169      0.000450716     0.000152181         0.250249       0.0189935     -0.000339666     -8.7743e-05
                      0.00025978     5.51633e-05         0.612144        -0.76811     -0.000244361     0.000124386        0.0406003        0.149237
281760                  0.236875       0.0895543     -0.000224841    -9.50384e-06         0.212763       -0.940158      0.000403563     0.000157065
                    -0.000127498     7.29202e-05         0.154578      0.00855824      0.000386997     0.000113545          0.61214       -0.768463
                        0.212719       -0.940225      0.000450873      0.00015198         0.250279       0.0188542      -0.00033952     -8.7408e-05
                     0.000259935     5.53298e-05         0.611894        -0.76831      -0.00024444     0.000124392         0.040669        0.149197
281762                  0.236895       0.0895574     -0.000224816     -9.6364e-06          0.21249       -0.940214      0.000403628     0.000156955
                    -0.000127447     7.26418e-05         0.154554       0.0085374      0.000387253     0.000113505         0.611891       -0.768663
                        0.212446       -0.940282       0.00045103     0.000151779          0.25031       0.0187148     -0.000339376    -8.70726e-05
