! TOUCHSTONE file generated by CST MICROWAVE STUDIO
! Date and time: Wed Oct 15 17:29:53 2025
! Project name: Teste_Macro_Metasurface_Nanopilar.cst
! Parameters = {H=600; L_x=105; L_y=135; Lambda=1064; Max_L=200; Min_L=70; PathPara=1; Phi=0; Step_L=10; Theta=0; p=520; phaseX=180; phaseY=0}
! Header version: 2018
! Port assignment regex: !\s*Touchstone port\s*([0-9]+)\s*=\s*(CST MWS port|CST DS port)\s*([0-9]+|Zmin|Zmax)\s*\(\"(.*)\"\)(\s*mode\s*([0-9]+))?.*
! Touchstone port assignment:
! Touchstone port 1 = CST MWS port Zmax ("") mode 1
! Touchstone port 2 = CST MWS port Zmax ("") mode 2
! Touchstone port 3 = CST MWS port Zmin ("") mode 1
! Touchstone port 4 = CST MWS port Zmin ("") mode 2
! S-Parameters are not renormalized. Each port impedance will be approximated by the real part at minimum frequency. The values are described via the [Reference] keyword.
! Default impedance is overridden by [Reference]
[Version] 2.0
# GHz S RI R 376.73
[Number of Ports] 4
[Reference]
376.73 376.73 259.888 259.888 
[Number of Frequencies] 51
[Network Data]
281700               -0.00950511       0.0397163      0.000632887     0.000542327         0.707961        0.693595      0.000958604     7.09563e-05
                     0.000770867     0.000538189         0.137441       0.0932843      0.000636591     0.000282499        -0.952467        0.226296
                         0.70832        0.693402      0.000529596     0.000307092       -0.0400881       0.0129623       0.00109148     -0.00014287
                     0.000877531     8.19536e-05        -0.953006        0.226402       0.00107074    -0.000140886       -0.0797023        0.145055
281702               -0.00949598       0.0397483      0.000632842     0.000541727         0.708222        0.693327      0.000958716      7.0491e-05
                     0.000770979     0.000537871         0.137462       0.0932729      0.000636667     0.000282299        -0.952382        0.226641
                        0.708582        0.693134      0.000529397     0.000306706       -0.0401107       0.0129837       0.00109138    -0.000143393
                     0.000877574     8.16028e-05        -0.952922        0.226748       0.00107051    -0.000141298       -0.0796208        0.145112
281704               -0.00948685       0.0397803      0.000632795     0.000541128         0.708482         0.69306      0.000958827     7.00255e-05
                     0.000771091     0.000537553         0.137483       0.0932614      0.000636743       0.0002821        -0.952297        0.226987
                        0.708843        0.692866      0.000529197      0.00030632       -0.0401333       0.0130052       0.00109129    -0.000143915
                     0.000877619     8.12522e-05        -0.952837        0.227094       0.00107028     -0.00014171       -0.0795392        0.145169
281706               -0.00947772       0.0398123      0.000632748     0.000540528         0.708742        0.692792      0.000958937     6.95599e-05
                     0.000771203     0.000537235         0.137504         0.09325      0.000636818       0.0002819        -0.952213        0.227333
                        0.709104        0.692598      0.000528996     0.000305936       -0.0401559       0.0130267       0.00109119    -0.000144437
                     0.000877663     8.09016e-05        -0.952753        0.227441       0.00107006    -0.000142122       -0.0794577        0.145226
281708               -0.00946857       0.0398443        0.0006327     0.000539928         0.709002        0.692525      0.000959048     6.90943e-05
                     0.000771314     0.000536918         0.137525       0.0932385      0.000636894       0.0002817        -0.952128        0.227679
                        0.709365         0.69233      0.000528794     0.000305552       -0.0401785       0.0130482        0.0010911    -0.000144958
                     0.000877707     8.05512e-05        -0.952668        0.227787       0.00106983    -0.000142534        -0.079376        0.145283
281710               -0.00945941       0.0398762      0.000632651     0.000539328         0.709262        0.692257      0.000959157     6.86286e-05
                     0.000771426     0.000536602         0.137546       0.0932271      0.000636969     0.000281501        -0.952043        0.228024
                        0.709626        0.692062      0.000528591     0.000305169       -0.0402011       0.0130698         0.001091    -0.000145478
                     0.000877752     8.02008e-05        -0.952584        0.228133        0.0010696    -0.000142946       -0.0792944         0.14534
281712               -0.00945025       0.0399082      0.000632601     0.000538728         0.709522        0.691989      0.000959267     6.81629e-05
                     0.000771536     0.000536285         0.137566       0.0932156      0.000637045     0.000281302        -0.951957         0.22837
                        0.709887        0.691793      0.000528388     0.000304785       -0.0402236       0.0130914       0.00109091    -0.000145999
                     0.000877796     7.98506e-05        -0.952499        0.228479       0.00106937    -0.000143357       -0.0792127        0.145397
281714               -0.00944107       0.0399401      0.000632551     0.000538127         0.709782        0.691721      0.000959376     6.76972e-05
                     0.000771647      0.00053597         0.137587       0.0932041       0.00063712     0.000281103        -0.951872        0.228715
                        0.710147        0.691525      0.000528184     0.000304403       -0.0402462       0.0131131       0.00109081    -0.000146518
                     0.000877841     7.95004e-05        -0.952414        0.228825       0.00106914    -0.000143768       -0.0791309        0.145454
281716               -0.00943189       0.0399721        0.0006325     0.000537527         0.710041        0.691453      0.000959484     6.72316e-05
                     0.000771758     0.000535654         0.137608       0.0931926      0.000637196     0.000280904        -0.951787        0.229061
                        0.710408        0.691256       0.00052798      0.00030402       -0.0402687       0.0131348       0.00109072    -0.000147038
                     0.000877886     7.91503e-05        -0.952329        0.229171       0.00106891    -0.000144179       -0.0790491        0.145511
281718                -0.0094227        0.040004      0.000632448     0.000536926         0.710301        0.691185      0.000959593      6.6766e-05
                     0.000771868     0.000535339         0.137629       0.0931811      0.000637271     0.000280705        -0.951701        0.229406
                        0.710668        0.690987      0.000527776     0.000303636       -0.0402912       0.0131565       0.00109062    -0.000147557
                     0.000877931     7.88003e-05        -0.952244        0.229517       0.00106868     -0.00014459       -0.0789673        0.145567
281720                -0.0094135        0.040036      0.000632396     0.000536325          0.71056        0.690916      0.000959701     6.63005e-05
                     0.000771979     0.000535023          0.13765       0.0931696      0.000637346     0.000280506        -0.951615        0.229752
                        0.710929        0.690719      0.000527571     0.000303253       -0.0403137       0.0131782       0.00109052    -0.000148076
                     0.000877976     7.84503e-05        -0.952158        0.229863       0.00106844       -0.000145       -0.0788854        0.145624
281722               -0.00940429       0.0400679      0.000632344     0.000535724          0.71082        0.690648      0.000959808     6.58351e-05
                     0.000772089     0.000534708          0.13767       0.0931581      0.000637422     0.000280308         -0.95153        0.230097
                        0.711189         0.69045      0.000527365     0.000302869       -0.0403362          0.0132       0.00109043    -0.000148595
                     0.000878021     7.81005e-05        -0.952073        0.230209       0.00106821    -0.000145411       -0.0788035        0.145681
281724               -0.00939508       0.0400998      0.000632291     0.000535123         0.711079         0.69038      0.000959916     6.53698e-05
                     0.000772199     0.000534394         0.137691       0.0931466      0.000637497     0.000280109        -0.951444        0.230443
                        0.711449        0.690181      0.000527159     0.000302484       -0.0403587       0.0132218       0.00109033    -0.000149113
                     0.000878066     7.77507e-05        -0.951987        0.230555       0.00106798    -0.000145821       -0.0787215        0.145737
281726               -0.00938585       0.0401318      0.000632239     0.000534521         0.711338        0.690111      0.000960023     6.49046e-05
                     0.000772309     0.000534079         0.137712       0.0931351      0.000637572     0.000279911        -0.951358        0.230788
                        0.711709        0.689912      0.000526952     0.000302099       -0.0403811       0.0132436       0.00109024    -0.000149632
                     0.000878111     7.74009e-05        -0.951902        0.230901       0.00106774    -0.000146231       -0.0786395        0.145794
281728               -0.00937662       0.0401637      0.000632186     0.000533918         0.711597        0.689842       0.00096013     6.44396e-05
                     0.000772419     0.000533764         0.137733       0.0931236      0.000637647     0.000279713        -0.951271        0.231134
                        0.711969        0.689643      0.000526745     0.000301712       -0.0404036       0.0132655       0.00109014     -0.00015015
                     0.000878156     7.70513e-05        -0.951816        0.231247       0.00106751     -0.00014664       -0.0785575         0.14585
281730               -0.00936738       0.0401956      0.000632132     0.000533314         0.711856        0.689574      0.000960236     6.39746e-05
                     0.000772528      0.00053345         0.137754        0.093112      0.000637722     0.000279515        -0.951185        0.231479
                        0.712229        0.689374      0.000526536     0.000301325        -0.040426       0.0132874       0.00109004    -0.000150667
                     0.000878201     7.67017e-05         -0.95173        0.231592       0.00106727     -0.00014705       -0.0784754        0.145907
281732               -0.00935813       0.0402275      0.000632079     0.000532709         0.712114        0.689305      0.000960343     6.35098e-05
                     0.000772638     0.000533135         0.137774       0.0931004      0.000637797     0.000279317        -0.951099        0.231825
                        0.712488        0.689104      0.000526327     0.000300937       -0.0404484       0.0133093       0.00108994    -0.000151185
                     0.000878246     7.63521e-05        -0.951644        0.231938       0.00106704    -0.000147459       -0.0783932        0.145963
281734               -0.00934887       0.0402594      0.000632024     0.000532103         0.712373        0.689036      0.000960449     6.30452e-05
                     0.000772747     0.000532821         0.137795       0.0930889      0.000637872      0.00027912        -0.951012         0.23217
                        0.712748        0.688835      0.000526117     0.000300548       -0.0404708       0.0133313       0.00108985    -0.000151702
                     0.000878291     7.60026e-05        -0.951558        0.232284        0.0010668    -0.000147868       -0.0783111        0.146019
281736                -0.0093396       0.0402913      0.000631969     0.000531496         0.712632        0.688767      0.000960555     6.25807e-05
                     0.000772856     0.000532507         0.137816       0.0930773      0.000637947     0.000278922        -0.950925        0.232515
                        0.713007        0.688565      0.000525905     0.000300159       -0.0404932       0.0133533       0.00108975    -0.000152219
                     0.000878336     7.56532e-05        -0.951471         0.23263       0.00106656    -0.000148276       -0.0782289        0.146076
281738               -0.00933033       0.0403232      0.000631913     0.000530888          0.71289        0.688498      0.000960661     6.21164e-05
                     0.000772965     0.000532193         0.137837       0.0930658      0.000638022     0.000278725        -0.950838        0.232861
                        0.713267        0.688296      0.000525693     0.000299768       -0.0405156       0.0133753       0.00108965    -0.000152736
                     0.000878381     7.53038e-05        -0.951385        0.232976       0.00106632    -0.000148685       -0.0781466        0.146132
281740               -0.00932104       0.0403551      0.000631856      0.00053028         0.713148        0.688229      0.000960766     6.16522e-05
                     0.000773074     0.000531878         0.137858       0.0930542      0.000638097     0.000278528        -0.950751        0.233206
                        0.713526        0.688026      0.000525479     0.000299378       -0.0405379       0.0133974       0.00108955    -0.000153252
                     0.000878425     7.49544e-05        -0.951298        0.233321       0.00106608    -0.000149093       -0.0780643        0.146188
281742               -0.00931175        0.040387      0.000631797     0.000529671         0.713407        0.687959      0.000960871     6.11882e-05
                     0.000773183     0.000531564         0.137878       0.0930426      0.000638171     0.000278331        -0.950664        0.233551
                        0.713785        0.687756      0.000525264     0.000298986       -0.0405602       0.0134195       0.00108946    -0.000153769
                      0.00087847     7.46051e-05        -0.951212        0.233667       0.00106584    -0.000149501       -0.0779819        0.146244
281744               -0.00930245       0.0404188      0.000631738     0.000529061         0.713665         0.68769      0.000960977     6.07243e-05
                     0.000773291      0.00053125         0.137899       0.0930311      0.000638246     0.000278134        -0.950577        0.233896
                        0.714044        0.687487      0.000525049     0.000298595       -0.0405826       0.0134416       0.00108936    -0.000154285
                     0.000878515     7.42558e-05        -0.951125        0.234013        0.0010656    -0.000149908       -0.0778996          0.1463
281746               -0.00929314       0.0404507      0.000631678     0.000528451         0.713923        0.687421      0.000961081     6.02607e-05
                     0.000773399     0.000530936          0.13792       0.0930195      0.000638321     0.000277937         -0.95049        0.234242
                        0.714303        0.687217      0.000524832     0.000298202       -0.0406049       0.0134637       0.00108926    -0.000154801
                     0.000878559     7.39065e-05        -0.951038        0.234359       0.00106536    -0.000150316       -0.0778171        0.146356
281748               -0.00928383       0.0404826      0.000631617      0.00052784         0.714181        0.687151      0.000961186     5.97972e-05
                     0.000773508     0.000530622         0.137941       0.0930079      0.000638396     0.000277741        -0.950402        0.234587
                        0.714562        0.686947      0.000524615      0.00029781       -0.0406272       0.0134859       0.00108916    -0.000155317
                     0.000878604     7.35573e-05        -0.950951        0.234704       0.00106512    -0.000150723       -0.0777347        0.146412
281750                -0.0092745       0.0405145      0.000631555      0.00052723         0.714438        0.686882      0.000961291     5.93339e-05
                     0.000773615     0.000530308         0.137961       0.0929963       0.00063847     0.000277545        -0.950315        0.234932
                         0.71482        0.686677      0.000524396     0.000297418       -0.0406495       0.0135081       0.00108906    -0.000155832
                     0.000878648     7.32082e-05        -0.950864         0.23505       0.00106488     -0.00015113       -0.0776521        0.146468
281752               -0.00926517       0.0405463      0.000631492     0.000526619         0.714696        0.686612      0.000961395     5.88707e-05
                     0.000773723     0.000529994         0.137982       0.0929846      0.000638545     0.000277348        -0.950227        0.235277
                        0.715079        0.686406      0.000524177     0.000297025       -0.0406717       0.0135304       0.00108896    -0.000156347
                     0.000878692      7.2859e-05        -0.950776        0.235395       0.00106463    -0.000151536       -0.0775696        0.146524
281754               -0.00925582       0.0405782      0.000631429     0.000526008         0.714954        0.686342      0.000961499     5.84078e-05
                     0.000773831      0.00052968         0.138003        0.092973      0.000638619     0.000277152        -0.950139        0.235622
                        0.715337        0.686136      0.000523957     0.000296632        -0.040694       0.0135527       0.00108886    -0.000156862
                     0.000878736     7.25099e-05        -0.950689        0.235741       0.00106439    -0.000151943        -0.077487         0.14658
281756               -0.00924647         0.04061      0.000631365     0.000525397         0.715211        0.686072      0.000961603      5.7945e-05
                     0.000773938     0.000529365         0.138024       0.0929614      0.000638694     0.000276956        -0.950051        0.235967
                        0.715596        0.685866      0.000523737     0.000296239       -0.0407162        0.013575       0.00108876    -0.000157377
                      0.00087878     7.21608e-05        -0.950601        0.236087       0.00106415    -0.000152349       -0.0774044        0.146636
281758               -0.00923711       0.0406419      0.000631301     0.000524786         0.715469        0.685802      0.000961707     5.74824e-05
                     0.000774046     0.000529051         0.138044       0.0929498      0.000638768     0.000276761        -0.949963        0.236312
                        0.715854        0.685595      0.000523516     0.000295846       -0.0407384       0.0135973       0.00108866    -0.000157892
                     0.000878824     7.18117e-05        -0.950513        0.236432        0.0010639    -0.000152754       -0.0773217        0.146692
281760               -0.00922775       0.0406737      0.000631237     0.000524175         0.715726        0.685532       0.00096181     5.70199e-05
                     0.000774153     0.000528737         0.138065       0.0929381      0.000638843     0.000276565        -0.949875        0.236657
                        0.716112        0.685325      0.000523295     0.000295452       -0.0407606       0.0136197       0.00108856    -0.000158406
                     0.000878868     7.14627e-05        -0.950426        0.236778       0.00106366     -0.00015316        -0.077239        0.146747
281762               -0.00921837       0.0407055      0.000631172     0.000523563         0.715983        0.685262      0.000961914     5.65577e-05
                      0.00077426     0.000528423         0.138086       0.0929265      0.000638917      0.00027637        -0.949786        0.237002
                         0.71637        0.685054      0.000523073     0.000295059       -0.0407828       0.0136421       0.00108846     -0.00015892
