! TOUCHSTONE file generated by CST MICROWAVE STUDIO
! Date and time: Wed Oct 15 17:28:34 2025
! Project name: Teste_Macro_Metasurface_Nanopilar.cst
! Parameters = {H=600; L_x=80; L_y=190; Lambda=1064; Max_L=200; Min_L=70; PathPara=1; Phi=0; Step_L=10; Theta=0; p=520; phaseX=180; phaseY=0}
! Header version: 2018
! Port assignment regex: !\s*Touchstone port\s*([0-9]+)\s*=\s*(CST MWS port|CST DS port)\s*([0-9]+|Zmin|Zmax)\s*\(\"(.*)\"\)(\s*mode\s*([0-9]+))?.*
! Touchstone port assignment:
! Touchstone port 1 = CST MWS port Zmax ("") mode 1
! Touchstone port 2 = CST MWS port Zmax ("") mode 2
! Touchstone port 3 = CST MWS port Zmin ("") mode 1
! Touchstone port 4 = CST MWS port Zmin ("") mode 2
! S-Parameters are not renormalized. Each port impedance will be approximated by the real part at minimum frequency. The values are described via the [Reference] keyword.
! Default impedance is overridden by [Reference]
[Version] 2.0
# GHz S RI R 376.73
[Number of Ports] 4
[Reference]
376.73 376.73 259.888 259.888 
[Number of Frequencies] 51
[Network Data]
281700                  0.141932        0.340505      0.000179785    -7.84681e-05          0.78658       -0.482772      0.000167113    -0.000173488
                     0.000210946     -2.4931e-05        -0.037693       -0.021076      0.000120293      0.00047393        -0.511945       -0.856211
                        0.787318       -0.481815      0.000178731     0.000309094         0.241366        0.276145      0.000207058     0.000254877
                     0.000114367    -0.000241689        -0.512076       -0.856114      0.000185605     9.42896e-05       0.00070608       0.0437442
281702                  0.141993        0.340556      0.000179761    -7.84569e-05         0.786374       -0.483053      0.000167044    -0.000173602
                     0.000211213    -2.48008e-05       -0.0377015      -0.0210632       0.00012042      0.00047405        -0.512172       -0.856075
                        0.787116       -0.482098       0.00017877      0.00030908         0.241592         0.27604      0.000207246     0.000254762
                     0.000113933    -0.000242089        -0.512303       -0.855978      0.000185706     9.39683e-05       0.00071383       0.0437453
281704                  0.142054        0.340607      0.000179737    -7.84456e-05         0.786168       -0.483334      0.000166976    -0.000173716
                     0.000211471    -2.46805e-05       -0.0377101      -0.0210503      0.000120547     0.000474171        -0.512398       -0.855939
                        0.786913       -0.482381      0.000178809     0.000309066         0.241819        0.275934      0.000207435     0.000254647
                     0.000113511    -0.000242476         -0.51253       -0.855842      0.000185807     9.36471e-05       0.00072158       0.0437464
281706                  0.142115        0.340657      0.000179713    -7.84343e-05         0.785962       -0.483615      0.000166907    -0.000173831
                     0.000211718    -2.45723e-05       -0.0377186      -0.0210375      0.000120673     0.000474291        -0.512625       -0.855804
                         0.78671       -0.482664      0.000178848     0.000309052         0.242046        0.275828      0.000207623     0.000254532
                     0.000113104    -0.000242848        -0.512756       -0.855706      0.000185908     9.33262e-05      0.000729332       0.0437475
281708                  0.142176        0.340708      0.000179689     -7.8423e-05         0.785756       -0.483896      0.000166838    -0.000173945
                      0.00021195    -2.44786e-05       -0.0377272      -0.0210247        0.0001208     0.000474412        -0.512851       -0.855668
                        0.786507       -0.482946      0.000178886     0.000309039         0.242273        0.275722      0.000207811     0.000254417
                     0.000112717      -0.0002432        -0.512983        -0.85557      0.000186008     9.30054e-05      0.000737084       0.0437486
281710                  0.142238        0.340759      0.000179665    -7.84116e-05         0.785549       -0.484176      0.000166769    -0.000174059
                     0.000212164    -2.44026e-05       -0.0377357      -0.0210118      0.000120927     0.000474533        -0.513078       -0.855532
                        0.786303       -0.483228      0.000178925     0.000309025         0.242499        0.275616      0.000207999     0.000254302
                     0.000112355    -0.000243531         -0.51321       -0.855435      0.000186108     9.26849e-05      0.000744837       0.0437497
281712                  0.142299         0.34081      0.000179641    -7.84002e-05         0.785342       -0.484457        0.0001667    -0.000174173
                     0.000212358    -2.43487e-05       -0.0377442       -0.020999      0.000121054     0.000474654        -0.513304       -0.855396
                        0.786099        -0.48351      0.000178963     0.000309012         0.242726         0.27551      0.000208186     0.000254186
                     0.000112023    -0.000243835        -0.513436       -0.855299      0.000186208     9.23646e-05      0.000752592       0.0437508
281714                   0.14236        0.340861      0.000179618    -7.83887e-05         0.785136       -0.484738      0.000166631    -0.000174287
                     0.000212524    -2.43222e-05       -0.0377528      -0.0209861      0.000121181     0.000474774        -0.513531       -0.855259
                        0.785895       -0.483791      0.000179001     0.000308999         0.242953        0.275403      0.000208374      0.00025407
                     0.000111731    -0.000244107        -0.513663       -0.855162      0.000186308     9.20445e-05      0.000760347        0.043752
281716                  0.142421        0.340912      0.000179594    -7.83772e-05         0.784929       -0.485018      0.000166562    -0.000174401
                     0.000212654    -2.43307e-05       -0.0377613      -0.0209733      0.000121308     0.000474895        -0.513757       -0.855123
                         0.78569       -0.484072      0.000179038     0.000308986         0.243179        0.275297      0.000208561     0.000253954
                      0.00011149    -0.000244338        -0.513889       -0.855026      0.000186408     9.17246e-05      0.000768103       0.0437531
281718                  0.142483        0.340963      0.000179571    -7.83657e-05         0.784722       -0.485299      0.000166492    -0.000174515
                     0.000212739    -2.43841e-05       -0.0377699      -0.0209604      0.000121435     0.000475016        -0.513983       -0.854987
                        0.785484       -0.484352      0.000179076     0.000308973         0.243406         0.27519      0.000208748     0.000253838
                     0.000111317    -0.000244517        -0.514116        -0.85489      0.000186508     9.14048e-05       0.00077586       0.0437542
281720                  0.142544        0.341013      0.000179548    -7.83541e-05         0.784515       -0.485579      0.000166423    -0.000174629
                     0.000212762    -2.44968e-05       -0.0377784      -0.0209476      0.000121563     0.000475137         -0.51421       -0.854851
                        0.785277       -0.484631      0.000179113     0.000308961         0.243632        0.275083      0.000208936     0.000253722
                     0.000111234    -0.000244628        -0.514342       -0.854754      0.000186608     9.10852e-05      0.000783618       0.0437553
281722                  0.142606        0.341064      0.000179525    -7.83425e-05         0.784308       -0.485859      0.000166354    -0.000174743
                     0.000212698    -2.46895e-05       -0.0377869      -0.0209347       0.00012169     0.000475258        -0.514436       -0.854714
                        0.785069       -0.484909       0.00017915     0.000308948         0.243859        0.274976      0.000209123     0.000253606
                     0.000111278    -0.000244646        -0.514569       -0.854618      0.000186707     9.07659e-05      0.000791377       0.0437564
281724                  0.142667        0.341115      0.000179502    -7.83309e-05           0.7841        -0.48614      0.000166284    -0.000174857
                     0.000212509    -2.49932e-05       -0.0377955      -0.0209218      0.000121817     0.000475379        -0.514662       -0.854578
                        0.784859       -0.485184      0.000179187     0.000308936         0.244085        0.274868      0.000209309     0.000253489
                     0.000111504    -0.000244534        -0.514795       -0.854481      0.000186807     9.04466e-05      0.000799137       0.0437576
281726                  0.142729        0.341166       0.00017948    -7.83193e-05         0.783893        -0.48642      0.000166215    -0.000174971
                     0.000212128    -2.54571e-05        -0.037804       -0.020909      0.000121945       0.0004755        -0.514888       -0.854441
                        0.784646       -0.485454      0.000179224     0.000308924         0.244312        0.274761      0.000209496     0.000253372
                     0.000112005    -0.000244226        -0.515021       -0.854345      0.000186906     9.01276e-05      0.000806897       0.0437587
281728                   0.14279        0.341216      0.000179458    -7.83076e-05         0.783685         -0.4867      0.000166145    -0.000175084
                     0.000211435    -2.61625e-05       -0.0378125      -0.0208961      0.000122072     0.000475621        -0.515115       -0.854305
                        0.784429       -0.485713      0.000179261     0.000308912         0.244538        0.274653      0.000209683     0.000253255
                     0.000112947    -0.000243608        -0.515248       -0.854208      0.000187006     8.98087e-05      0.000814659       0.0437598
281730                  0.142852        0.341267      0.000179435    -7.82959e-05         0.783478        -0.48698      0.000166075    -0.000175198
                     0.000210184    -2.72531e-05        -0.037821      -0.0208833      0.000122199     0.000475743        -0.515341       -0.854168
                        0.784208       -0.485938      0.000179297       0.0003089         0.244765        0.274545      0.000209869     0.000253138
                     0.000114664     -0.00024245        -0.515474       -0.854072      0.000187105     8.94899e-05      0.000822422        0.043761
281732                  0.142913        0.341318      0.000179413    -7.82842e-05          0.78327        -0.48726      0.000166006    -0.000175312
                     0.000207794    -2.89969e-05       -0.0378296      -0.0208704      0.000122327     0.000475864        -0.515567       -0.854031
                        0.784091        -0.48605      0.000179333     0.000308888         0.244991        0.274437      0.000210055      0.00025302
                     0.000117937    -0.000240217          -0.5157       -0.853935      0.000187204     8.91713e-05      0.000830185       0.0437621
281734                  0.142975        0.341368      0.000179391    -7.82724e-05         0.783062       -0.487539      0.000165936    -0.000175425
                     0.000202534    -3.18698e-05       -0.0378381      -0.0208575      0.000122454     0.000475985        -0.515793       -0.853895
                         0.78412       -0.486562      0.000179369     0.000308877         0.245218        0.274329      0.000210241     0.000252903
                     0.000125114    -0.000235307        -0.515927       -0.853799      0.000187303     8.88529e-05       0.00083795       0.0437632
281736                  0.143036        0.341419       0.00017937    -7.82607e-05         0.782854       -0.487819      0.000165866    -0.000175539
                     0.000187068    -3.53076e-05       -0.0378466      -0.0208447      0.000122582     0.000476106        -0.516019       -0.853758
                        0.783798        -0.48693      0.000179405     0.000308865         0.245444         0.27422      0.000210427     0.000252785
                     0.000148018    -0.000219762        -0.516153       -0.853662      0.000187402     8.85345e-05      0.000845716       0.0437644
281738                  0.143098         0.34147      0.000179348    -7.82489e-05         0.782646       -0.488099      0.000165796    -0.000175652
                     0.000145937     1.28145e-05       -0.0378551      -0.0208318      0.000122709     0.000476228        -0.516245       -0.853621
                        0.783545       -0.487214      0.000179441     0.000308854         0.245671        0.274112      0.000210613     0.000252667
                      0.00105097     -0.00690979        -0.516379       -0.853525      0.000187501     8.82163e-05      0.000853482       0.0437655
281740                  0.143159         0.34152      0.000179327    -7.82371e-05         0.782437       -0.488378      0.000165726    -0.000175765
                      0.00022271     2.52596e-05       -0.0378636      -0.0208189      0.000122836     0.000476349        -0.516471       -0.853484
                        0.783317       -0.487491      0.000179476     0.000308843         0.245897        0.274003      0.000210799     0.000252549
                     5.39268e-05    -0.000285271        -0.516605       -0.853388        0.0001876     8.78982e-05       0.00086125       0.0437667
281742                  0.143221        0.341571      0.000179305    -7.82253e-05         0.782229       -0.488658      0.000165656    -0.000175879
                     0.000227752     3.60421e-06       -0.0378722      -0.0208061      0.000122963      0.00047647        -0.516697       -0.853347
                        0.783099       -0.487768      0.000179512     0.000308832         0.246123        0.273894      0.000210984     0.000252431
                     7.61973e-05    -0.000269374        -0.516831       -0.853251      0.000187699     8.75802e-05      0.000869018       0.0437678
281744                  0.143283        0.341622      0.000179284    -7.82135e-05         0.782021       -0.488937      0.000165586    -0.000175992
                     0.000226825    -3.92594e-06       -0.0378807      -0.0207932       0.00012309     0.000476591        -0.516923        -0.85321
                        0.782885       -0.488046      0.000179547     0.000308821          0.24635        0.273785       0.00021117     0.000252312
                     8.32477e-05    -0.000264382        -0.517057       -0.853114      0.000187798     8.72623e-05      0.000876788        0.043769
281746                  0.143344        0.341673      0.000179264    -7.82016e-05         0.781812       -0.489217      0.000165515    -0.000176105
                     0.000225987    -7.42188e-06       -0.0378892      -0.0207803      0.000123218     0.000476712        -0.517149       -0.853073
                        0.782673       -0.488324      0.000179582     0.000308811         0.246576        0.273676      0.000211355     0.000252193
                      8.6466e-05    -0.000262099        -0.517283       -0.852977      0.000187897     8.69445e-05      0.000884558       0.0437701
281748                  0.143406        0.341723      0.000179243    -7.81898e-05         0.781603       -0.489496      0.000165445    -0.000176219
                      0.00022546    -9.34392e-06       -0.0378977      -0.0207674      0.000123345     0.000476833        -0.517374       -0.852936
                        0.782463       -0.488602      0.000179617       0.0003088         0.246802        0.273567       0.00021154     0.000252075
                     8.81464e-05    -0.000260894        -0.517509        -0.85284      0.000187996     8.66269e-05       0.00089233       0.0437713
281750                  0.143467        0.341774      0.000179222    -7.81779e-05         0.781394       -0.489775      0.000165375    -0.000176332
                     0.000225161    -1.05045e-05       -0.0379062      -0.0207546      0.000123472     0.000476953          -0.5176       -0.852798
                        0.782253        -0.48888      0.000179652      0.00030879         0.247029        0.273457      0.000211725     0.000251956
                     8.90564e-05    -0.000260226        -0.517735       -0.852703      0.000188095     8.63092e-05      0.000900102       0.0437724
281752                  0.143529        0.341825      0.000179202     -7.8166e-05         0.781185       -0.490054      0.000165304    -0.000176445
                     0.000225017    -1.12422e-05       -0.0379147      -0.0207417      0.000123599     0.000477074        -0.517826       -0.852661
                        0.782044       -0.489159      0.000179687      0.00030878         0.247255        0.273347       0.00021191     0.000251836
                     8.95256e-05    -0.000259862        -0.517961       -0.852566      0.000188194     8.59917e-05      0.000907876       0.0437736
281754                  0.143591        0.341876      0.000179182    -7.81541e-05         0.780976       -0.490333      0.000165234    -0.000176558
                     0.000224981    -1.17222e-05       -0.0379232      -0.0207288      0.000123726     0.000477194        -0.518052       -0.852524
                        0.781836       -0.489437      0.000179721      0.00030877         0.247481        0.273237      0.000212095     0.000251717
                     8.97193e-05    -0.000259686        -0.518187       -0.852428      0.000188293     8.56742e-05       0.00091565       0.0437747
281756                  0.143652        0.341927      0.000179162    -7.81422e-05         0.780767       -0.490612      0.000165163    -0.000176671
                      0.00022502     -1.2034e-05       -0.0379317      -0.0207159      0.000123853     0.000477314        -0.518277       -0.852386
                        0.781627       -0.489716      0.000179756     0.000308761         0.247708        0.273127      0.000212279     0.000251597
                     8.97294e-05    -0.000259633        -0.518413       -0.852291      0.000188391     8.53568e-05      0.000923425       0.0437759
281758                  0.143714        0.341978      0.000179142    -7.81303e-05         0.780558       -0.490891      0.000165092    -0.000176784
                     0.000225114    -1.22308e-05       -0.0379403       -0.020703       0.00012398     0.000477433        -0.518503       -0.852249
                        0.781418       -0.489994       0.00017979     0.000308751         0.247934        0.273017      0.000212464     0.000251478
                     8.96116e-05    -0.000259663        -0.518639       -0.852154       0.00018849     8.50395e-05      0.000931202       0.0437771
281760                  0.143776        0.342029      0.000179122    -7.81183e-05         0.780348        -0.49117      0.000165022    -0.000176897
                     0.000225249    -1.23458e-05       -0.0379488      -0.0206902      0.000124108     0.000477553        -0.518728       -0.852111
                         0.78121       -0.490273      0.000179824     0.000308742          0.24816        0.272907      0.000212648     0.000251358
                     8.94014e-05    -0.000259753        -0.518864       -0.852016      0.000188589     8.47222e-05      0.000938979       0.0437782
281762                  0.143838         0.34208      0.000179102    -7.81062e-05         0.780138       -0.491448      0.000164951     -0.00017701
                     0.000225416    -1.24014e-05       -0.0379573      -0.0206773      0.000124236     0.000477672        -0.518954       -0.851974
                        0.781001       -0.490551      0.000179858     0.000308732         0.248386        0.272796      0.000212832     0.000251238
