! TOUCHSTONE file generated by CST MICROWAVE STUDIO
! Date and time: Wed Oct 15 17:33:08 2025
! Project name: Teste_Macro_Metasurface_Nanopilar.cst
! Parameters = {H=600; L_x=160; L_y=175; Lambda=1064; Max_L=200; Min_L=70; PathPara=1; Phi=0; Step_L=10; Theta=0; p=520; phaseX=180; phaseY=0}
! Header version: 2018
! Port assignment regex: !\s*Touchstone port\s*([0-9]+)\s*=\s*(CST MWS port|CST DS port)\s*([0-9]+|Zmin|Zmax)\s*\(\"(.*)\"\)(\s*mode\s*([0-9]+))?.*
! Touchstone port assignment:
! Touchstone port 1 = CST MWS port Zmax ("") mode 1
! Touchstone port 2 = CST MWS port Zmax ("") mode 2
! Touchstone port 3 = CST MWS port Zmin ("") mode 1
! Touchstone port 4 = CST MWS port Zmin ("") mode 2
! S-Parameters are not renormalized. Each port impedance will be approximated by the real part at minimum frequency. The values are described via the [Reference] keyword.
! Default impedance is overridden by [Reference]
[Version] 2.0
# GHz S RI R 376.73
[Number of Ports] 4
[Reference]
376.73 376.73 259.888 259.888 
[Number of Frequencies] 51
[Network Data]
281700                  0.190411       0.0578062      -0.00018739    -2.02418e-05         0.450826       -0.866329     -8.02779e-05    -0.000159756
                    -0.000164427     4.09586e-06         0.175936       0.0363597     -9.99788e-05    -0.000271284         0.585069        -0.78635
                        0.450815       -0.866484     -0.000122812    -0.000194572          0.15546        0.120137     -2.78134e-05    -5.23537e-05
                    -4.89484e-05    -3.22139e-05         0.584892       -0.786596     -3.08947e-05     3.61576e-05        0.0847424        0.155406
281702                  0.190421       0.0578137     -0.000187564    -2.02859e-05         0.450576       -0.866457     -8.04345e-05    -0.000159684
                     -0.00016443     4.38468e-06          0.17594       0.0363678     -0.000100156    -0.000271245          0.58484       -0.786519
                        0.450565       -0.866614     -0.000122698    -0.000195066         0.155541        0.120052     -2.76057e-05    -5.22396e-05
                    -4.90096e-05    -3.24697e-05         0.584663       -0.786766     -3.07343e-05     3.61027e-05        0.0848415        0.155359
281704                  0.190432       0.0578211     -0.000187738    -2.03268e-05         0.450325       -0.866585     -8.05915e-05    -0.000159612
                    -0.000164432     4.68362e-06         0.175944       0.0363758     -0.000100333    -0.000271205         0.584612       -0.786688
                        0.450316       -0.866744     -0.000122582    -0.000195566         0.155622        0.119967     -2.73989e-05    -5.21233e-05
                    -4.90713e-05    -3.27372e-05         0.584434       -0.786935     -3.05747e-05     3.60487e-05        0.0849407        0.155312
281706                  0.190442       0.0578285     -0.000187911    -2.03646e-05         0.450074       -0.866712     -8.07491e-05     -0.00015954
                    -0.000164435     4.99489e-06         0.175948       0.0363838      -0.00010051    -0.000271165         0.584383       -0.786857
                        0.450066       -0.866874     -0.000122465    -0.000196071         0.155704        0.119881     -2.71931e-05    -5.20048e-05
                    -4.91335e-05     -3.3019e-05         0.584205       -0.787105     -3.04157e-05     3.59957e-05        0.0850398        0.155265
281708                  0.190452       0.0578359     -0.000188083     -2.0399e-05         0.449824        -0.86684     -8.09072e-05    -0.000159468
                    -0.000164437     5.32143e-06         0.175953       0.0363919     -0.000100687    -0.000271126         0.584154       -0.787026
                        0.449817       -0.867003     -0.000122345    -0.000196583         0.155785        0.119796     -2.69883e-05     -5.1884e-05
                    -4.91961e-05    -3.33189e-05         0.583976       -0.787274     -3.02572e-05     3.59438e-05        0.0851389        0.155218
281710                  0.190462       0.0578433     -0.000188254    -2.04301e-05         0.449573       -0.866968      -8.1066e-05    -0.000159396
                     -0.00016444     5.66714e-06         0.175957       0.0363999     -0.000100863    -0.000271086         0.583926       -0.787195
                        0.449568       -0.867133     -0.000122223    -0.000197101         0.155866        0.119711     -2.67843e-05    -5.17611e-05
                    -4.92587e-05    -3.36416e-05         0.583747       -0.787444     -3.00991e-05      3.5893e-05         0.085238         0.15517
281712                  0.190472       0.0578506     -0.000188423    -2.04577e-05         0.449322       -0.867095     -8.12254e-05    -0.000159324
                    -0.000164444     6.03742e-06         0.175961       0.0364079     -0.000101038    -0.000271046         0.583697       -0.787364
                        0.449318       -0.867262       -0.0001221    -0.000197626         0.155948        0.119625     -2.65811e-05    -5.16358e-05
                    -4.93207e-05    -3.39945e-05         0.583517       -0.787613     -2.99413e-05     3.58434e-05         0.085337        0.155123
281714                  0.190482        0.057858     -0.000188592    -2.04818e-05         0.449071       -0.867222     -8.13856e-05    -0.000159252
                     -0.00016445     6.43982e-06         0.175965       0.0364159     -0.000101213    -0.000271005         0.583468       -0.787532
                        0.449069       -0.867391     -0.000121975    -0.000198159         0.156029         0.11954     -2.63788e-05    -5.15082e-05
                    -4.93804e-05    -3.43878e-05         0.583288       -0.787782     -2.97837e-05      3.5795e-05         0.085436        0.155076
281716                  0.190492       0.0578653      -0.00018876    -2.05023e-05          0.44882        -0.86735     -8.15465e-05    -0.000159181
                     -0.00016446     6.88537e-06          0.17597       0.0364239     -0.000101388    -0.000270965         0.583239       -0.787701
                         0.44882       -0.867521     -0.000121849    -0.000198699          0.15611        0.119454     -2.61772e-05    -5.13782e-05
                    -4.94343e-05    -3.48376e-05         0.583059       -0.787951     -2.96262e-05      3.5748e-05         0.085535        0.155029
281718                  0.190503       0.0578725     -0.000188927     -2.0519e-05         0.448569       -0.867477     -8.17082e-05     -0.00015911
                    -0.000164475     7.39069e-06         0.175974       0.0364319     -0.000101562    -0.000270924          0.58301       -0.787869
                        0.448571       -0.867649     -0.000121722    -0.000199248         0.156191        0.119368     -2.59763e-05    -5.12459e-05
                    -4.94747e-05    -3.53697e-05          0.58283        -0.78812     -2.94685e-05     3.57023e-05         0.085634        0.154981
281720                  0.190513       0.0578797     -0.000189092    -2.05319e-05         0.448318       -0.867604     -8.18709e-05    -0.000159038
                    -0.000164501     7.98216e-06         0.175978       0.0364399     -0.000101735    -0.000270884         0.582781       -0.788038
                        0.448323       -0.867778     -0.000121594    -0.000199805         0.156272        0.119283      -2.5776e-05     -5.1111e-05
                    -4.94836e-05    -3.60273e-05           0.5826       -0.788289     -2.93106e-05     3.56581e-05        0.0857329        0.154934
281722                  0.190523       0.0578868     -0.000189257    -2.05408e-05         0.448067       -0.867731     -8.20345e-05    -0.000158968
                    -0.000164546     8.70413e-06         0.175982       0.0364479     -0.000101907    -0.000270843         0.582552       -0.788206
                        0.448075       -0.867906     -0.000121465    -0.000200371         0.156353        0.119197     -2.55763e-05    -5.09737e-05
                    -4.94156e-05    -3.68878e-05         0.582371       -0.788458     -2.91523e-05     3.56153e-05        0.0858318        0.154886
281724                  0.190533       0.0578937     -0.000189421    -2.05457e-05         0.447816       -0.867858     -8.21991e-05    -0.000158897
                    -0.000164631     9.63721e-06         0.175987       0.0364559     -0.000102079    -0.000270801         0.582323       -0.788374
                        0.447827       -0.868034     -0.000121337    -0.000200947         0.156434        0.119111     -2.53771e-05    -5.08339e-05
                    -4.91406e-05    -3.80942e-05         0.582141       -0.788627     -2.89933e-05     3.55741e-05        0.0859306        0.154839
281726                  0.190543       0.0579002     -0.000189584    -2.05463e-05         0.447565       -0.867985     -8.23649e-05    -0.000158826
                    -0.000164806     1.09443e-05         0.175991       0.0364639     -0.000102249     -0.00027076         0.582094       -0.788543
                         0.44758       -0.868161     -0.000121209    -0.000201533         0.156515        0.119025     -2.51784e-05    -5.06915e-05
                    -4.82265e-05    -3.98862e-05         0.581912       -0.788796     -2.88334e-05     3.55345e-05        0.0860295        0.154791
281728                  0.190554       0.0579061     -0.000189746    -2.05427e-05         0.447314       -0.868112     -8.25319e-05    -0.000158756
                    -0.000165227     1.30079e-05         0.175995       0.0364719     -0.000102419    -0.000270717         0.581865       -0.788711
                        0.447334       -0.868287     -0.000121082    -0.000202131         0.156596         0.11894     -2.49802e-05    -5.05465e-05
                    -4.51109e-05    -4.21187e-05         0.581682       -0.788964     -2.86723e-05     3.54965e-05        0.0861283        0.154743
281730                  0.190566       0.0579104     -0.000189907    -2.05345e-05         0.447063       -0.868238     -8.27003e-05    -0.000158686
                     -0.00016658     1.69503e-05         0.175999       0.0364799     -0.000102587    -0.000270675         0.581636       -0.788879
                        0.447088       -0.868411     -0.000120956     -0.00020274         0.156677        0.118854     -2.47822e-05    -5.03988e-05
                    -3.82363e-05     -3.9546e-05         0.581453       -0.789133     -2.85096e-05     3.54602e-05        0.0862271        0.154696
281732                  0.190586       0.0579149     -0.000190067    -2.05217e-05         0.446812       -0.868365       -8.287e-05    -0.000158617
                    -0.000174751     2.69091e-05         0.176004       0.0364878     -0.000102754    -0.000270631         0.581406       -0.789047
                        0.446843       -0.868533     -0.000120833    -0.000203361         0.156757        0.118768     -2.45846e-05    -5.02485e-05
                    -3.96924e-05    -3.17237e-05         0.581223       -0.789302     -2.83451e-05     3.54256e-05        0.0863258        0.154648
281734                    0.1906        0.057941     -0.000190227     -2.0504e-05         0.446561       -0.868492     -8.30414e-05    -0.000158548
                    -0.000202055    -1.29189e-05         0.176008       0.0364958     -0.000102919    -0.000270586         0.581177       -0.789215
                        0.446595        -0.86865     -0.000120713    -0.000203996         0.156838        0.118682     -2.43872e-05    -5.00955e-05
                    -4.39744e-05    -3.05695e-05         0.580993        -0.78947     -2.81783e-05     3.53926e-05        0.0864245          0.1546
281736                    0.1906       0.0579494     -0.000190385    -2.04812e-05          0.44631       -0.868618     -8.32143e-05     -0.00015848
                    -0.000169783    -7.93488e-06         0.176012       0.0365038     -0.000103082     -0.00027054         0.580948       -0.789382
                        0.446344       -0.868765     -0.000120598    -0.000204645         0.156919        0.118596       -2.419e-05    -4.99398e-05
                    -4.61032e-05    -3.12696e-05         0.580763       -0.789639     -2.80086e-05     3.53612e-05        0.0865232        0.154552
281738                  0.190607        0.057955     -0.000190543    -2.04531e-05         0.446059       -0.868745     -8.33891e-05    -0.000158412
                    -0.000166218    -1.86485e-06         0.176016       0.0365117     -0.000103244    -0.000270492         0.580718        -0.78955
                        0.446086       -0.868881     -0.000120488    -0.000205308         0.156999        0.118509      -2.3993e-05    -4.97814e-05
                    -4.71801e-05    -3.20465e-05         0.580533       -0.789807     -2.78355e-05     3.53313e-05        0.0866219        0.154504
281740                  0.190616       0.0579613     -0.000190699    -2.04193e-05         0.445807       -0.868871     -8.35659e-05    -0.000158344
                    -0.000165273      9.0938e-07         0.176021       0.0365197     -0.000103404    -0.000270441         0.580489       -0.789718
                        0.445824          -0.869     -0.000120384    -0.000205987          0.15708        0.118423     -2.37962e-05    -4.96203e-05
                    -4.78012e-05    -3.27042e-05         0.580303       -0.789976     -2.76583e-05     3.53027e-05        0.0867205        0.154456
281742                  0.190626        0.057968     -0.000190855    -2.03796e-05         0.445556       -0.868997     -8.37447e-05    -0.000158278
                    -0.000164878     2.51878e-06         0.176025       0.0365276     -0.000103563    -0.000270387         0.580259       -0.789886
                        0.445562       -0.869125     -0.000120289    -0.000206684          0.15716        0.118337     -2.35994e-05    -4.94566e-05
                    -4.82013e-05    -3.32549e-05         0.580073       -0.790144     -2.74762e-05      3.5275e-05        0.0868191        0.154408
281744                  0.190636        0.057975     -0.000191011    -2.03334e-05         0.445305       -0.869124     -8.39258e-05    -0.000158212
                    -0.000164665     3.60047e-06         0.176029       0.0365356      -0.00010372    -0.000270328          0.58003       -0.790053
                        0.445302       -0.869253     -0.000120205    -0.000207398         0.157241        0.118251     -2.34028e-05    -4.92903e-05
                    -4.84817e-05    -3.37275e-05         0.579843       -0.790312     -2.72884e-05     3.52478e-05        0.0869177        0.154359
281746                  0.190646       0.0579821     -0.000191165    -2.02801e-05         0.445053        -0.86925     -8.41094e-05    -0.000158147
                    -0.000164529     4.39988e-06         0.176034       0.0365435     -0.000103879    -0.000270263         0.579801       -0.790221
                        0.445044       -0.869383     -0.000120132    -0.000208131         0.157321        0.118164     -2.32064e-05    -4.91215e-05
                    -4.86915e-05     -3.4144e-05         0.579613        -0.79048     -2.70936e-05     3.52204e-05        0.0870163        0.154311
281748                  0.190656       0.0579894     -0.000191319    -2.02192e-05         0.444802       -0.869376     -8.42955e-05    -0.000158084
                     -0.00016443     5.03015e-06         0.176038       0.0365515     -0.000104039    -0.000270191         0.579571       -0.790388
                        0.444788       -0.869513     -0.000120075    -0.000208886         0.157401        0.118078     -2.30104e-05    -4.89506e-05
                    -4.88567e-05    -3.45201e-05         0.579383       -0.790649     -2.68908e-05     3.51915e-05        0.0871148        0.154263
281750                  0.190666       0.0579967     -0.000191473    -2.01495e-05         0.444551       -0.869502     -8.44844e-05    -0.000158022
                     -0.00016435     5.55014e-06         0.176042       0.0365594     -0.000104207    -0.000270112         0.579341       -0.790556
                        0.444533       -0.869642     -0.000120035    -0.000209663         0.157482        0.117992     -2.28148e-05    -4.87776e-05
                    -4.89924e-05    -3.48659e-05         0.579153       -0.790817     -2.66784e-05     3.51597e-05        0.0872133        0.154214
281752                  0.190676        0.058004     -0.000191627    -2.00699e-05         0.444299       -0.869628     -8.46761e-05    -0.000157961
                     -0.00016428     5.99313e-06         0.176046       0.0365673     -0.000104386    -0.000270027         0.579112       -0.790724
                        0.444279       -0.869771     -0.000120017    -0.000210466         0.157562        0.117905       -2.262e-05     -4.8603e-05
                    -4.91078e-05    -3.51886e-05         0.578922       -0.790985      -2.6455e-05     3.51223e-05        0.0873118        0.154166
281754                  0.190686       0.0580114      -0.00019178    -1.99785e-05         0.444048       -0.869754     -8.48707e-05    -0.000157903
                    -0.000164213     6.37892e-06         0.176051       0.0365753      -0.00010458    -0.000269944         0.578882       -0.790891
                        0.444026       -0.869899     -0.000120026    -0.000211298         0.157642        0.117819     -2.24264e-05    -4.84274e-05
                    -4.92091e-05    -3.54931e-05         0.578692       -0.791153      -2.6219e-05     3.50754e-05        0.0874103        0.154118
281756                  0.190696       0.0580188     -0.000191934    -1.98727e-05         0.443796        -0.86988      -8.5068e-05    -0.000157847
                    -0.000164147     6.71955e-06         0.176055       0.0365832      -0.00010479    -0.000269871         0.578652       -0.791059
                        0.443774       -0.870027     -0.000120067    -0.000212165         0.157722        0.117732     -2.22344e-05    -4.82517e-05
                    -4.93006e-05    -3.57827e-05         0.578461       -0.791321     -2.59695e-05     3.50132e-05        0.0875088        0.154069
281758                  0.190706       0.0580263     -0.000192088    -1.97485e-05         0.443545       -0.870005     -8.52677e-05    -0.000157795
                    -0.000164076     7.02208e-06         0.176059       0.0365911      -0.00010501    -0.000269818         0.578421       -0.791226
                        0.443521       -0.870154     -0.000120149    -0.000213074         0.157802        0.117645      -2.2045e-05    -4.80771e-05
                    -4.93854e-05    -3.60595e-05          0.57823       -0.791489     -2.57073e-05      3.4926e-05        0.0876072         0.15402
281760                  0.190716       0.0580337     -0.000192245    -1.95992e-05         0.443293       -0.870131     -8.54688e-05    -0.000157748
                       -0.000164     7.28997e-06         0.176064        0.036599     -0.000105227    -0.000269788         0.578191       -0.791393
                        0.443269        -0.87028     -0.000120284     -0.00021404         0.157882        0.117559     -2.18589e-05    -4.79056e-05
                    -4.94664e-05    -3.63245e-05         0.577999       -0.791658     -2.54388e-05     3.47992e-05        0.0877056        0.153972
281762                  0.190726       0.0580412     -0.000192405    -1.94134e-05         0.443042       -0.870257     -8.56693e-05    -0.000157707
                    -0.000163913     7.52352e-06         0.176068        0.036607     -0.000105432    -0.000269779         0.577961        -0.79156
                        0.443016       -0.870406     -0.000120492    -0.000215087         0.157962        0.117472     -2.16775e-05    -4.77402e-05
