! TOUCHSTONE file generated by CST MICROWAVE STUDIO
! Date and time: Wed Oct 15 17:29:39 2025
! Project name: Teste_Macro_Metasurface_Nanopilar.cst
! Parameters = {H=600; L_x=100; L_y=160; Lambda=1064; Max_L=200; Min_L=70; PathPara=1; Phi=0; Step_L=10; Theta=0; p=520; phaseX=180; phaseY=0}
! Header version: 2018
! Port assignment regex: !\s*Touchstone port\s*([0-9]+)\s*=\s*(CST MWS port|CST DS port)\s*([0-9]+|Zmin|Zmax)\s*\(\"(.*)\"\)(\s*mode\s*([0-9]+))?.*
! Touchstone port assignment:
! Touchstone port 1 = CST MWS port Zmax ("") mode 1
! Touchstone port 2 = CST MWS port Zmax ("") mode 2
! Touchstone port 3 = CST MWS port Zmin ("") mode 1
! Touchstone port 4 = CST MWS port Zmin ("") mode 2
! S-Parameters are not renormalized. Each port impedance will be approximated by the real part at minimum frequency. The values are described via the [Reference] keyword.
! Default impedance is overridden by [Reference]
[Version] 2.0
# GHz S RI R 376.73
[Number of Ports] 4
[Reference]
376.73 376.73 259.888 259.888 
[Number of Frequencies] 51
[Network Data]
281700                 0.0979545        0.198647     -0.000526504      0.00123636         0.927639        -0.28403      0.000318358     0.000278107
                    -0.000555815      0.00108335         0.132873        0.121066     -0.000140569    -0.000368117        -0.939625        0.268347
                        0.927693        -0.28349     -0.000112311     -0.00035659        0.0314444        0.218207      -0.00122104     -0.00069123
                     0.000167134     0.000231487        -0.938458        0.267325      -0.00119078    -0.000644508       -0.0476209        0.172671
281702                 0.0979774        0.198669     -0.000526256      0.00123637         0.927538       -0.284336      0.000318487      0.00027797
                    -0.000555391      0.00108352         0.132898        0.121058     -0.000140764    -0.000368086        -0.939525        0.268686
                        0.927591       -0.283796     -0.000112564    -0.000356398        0.0315835        0.218217      -0.00122139    -0.000690743
                     0.000167209     0.000231459        -0.938359        0.267665      -0.00119106    -0.000643982       -0.0475217        0.172712
281704                 0.0980003        0.198692     -0.000526009      0.00123638         0.927437       -0.284643      0.000318616     0.000277834
                    -0.000554967      0.00108369         0.132923        0.121049     -0.000140959    -0.000368055        -0.939425        0.269025
                         0.92749       -0.284102     -0.000112817    -0.000356205        0.0317227        0.218228      -0.00122174    -0.000690254
                     0.000167284      0.00023143        -0.938261        0.268005      -0.00119134    -0.000643455       -0.0474225        0.172753
281706                 0.0980231        0.198715      -0.00052576      0.00123639         0.927336       -0.284949      0.000318744     0.000277697
                    -0.000554543      0.00108386         0.132948        0.121041     -0.000141154    -0.000368024        -0.939325        0.269364
                        0.927388       -0.284408      -0.00011307    -0.000356013        0.0318619        0.218238      -0.00122208    -0.000689766
                      0.00016736     0.000231402        -0.938162        0.268346      -0.00119162    -0.000642928       -0.0473233        0.172793
281708                  0.098046        0.198737     -0.000525511       0.0012364         0.927235       -0.285255      0.000318873     0.000277561
                    -0.000554119      0.00108403         0.132973        0.121033     -0.000141349    -0.000367993        -0.939225        0.269703
                        0.927287       -0.284713     -0.000113323     -0.00035582        0.0320012        0.218248      -0.00122243    -0.000689278
                     0.000167435     0.000231373        -0.938063        0.268686       -0.0011919    -0.000642401        -0.047224        0.172834
281710                 0.0980689         0.19876     -0.000525262      0.00123641         0.927133       -0.285561      0.000319002     0.000277424
                    -0.000553695      0.00108419         0.132998        0.121025     -0.000141544    -0.000367961        -0.939124        0.270041
                        0.927185       -0.285019     -0.000113577    -0.000355627        0.0321404        0.218258      -0.00122278    -0.000688789
                     0.000167511     0.000231345        -0.937964        0.269026      -0.00119218    -0.000641874       -0.0471247        0.172875
281712                 0.0980918        0.198783     -0.000525012      0.00123642         0.927032       -0.285867       0.00031913     0.000277287
                    -0.000553271      0.00108436         0.133023        0.121016      -0.00014174    -0.000367929        -0.939024         0.27038
                        0.927083       -0.285325     -0.000113831    -0.000355434        0.0322797        0.218267      -0.00122313      -0.0006883
                     0.000167587     0.000231317        -0.937865        0.269367      -0.00119246    -0.000641346       -0.0470254        0.172915
281714                 0.0981147        0.198806     -0.000524761      0.00123643          0.92693       -0.286173      0.000319259      0.00027715
                    -0.000552847      0.00108453         0.133048        0.121008     -0.000141935    -0.000367897        -0.938923        0.270719
                        0.926981       -0.285631     -0.000114085    -0.000355242        0.0324191        0.218277      -0.00122348    -0.000687811
                     0.000167663     0.000231288        -0.937766        0.269707      -0.00119274    -0.000640817       -0.0469261        0.172955
281716                 0.0981376        0.198828      -0.00052451      0.00123644         0.926828       -0.286479      0.000319387     0.000277013
                    -0.000552424       0.0010847         0.133073           0.121     -0.000142131    -0.000367864        -0.938823        0.271058
                        0.926879       -0.285936     -0.000114339    -0.000355049        0.0325584        0.218287      -0.00122383    -0.000687322
                     0.000167739      0.00023126        -0.937667        0.270047      -0.00119302    -0.000640289       -0.0468267        0.172996
281718                 0.0981605        0.198851     -0.000524259      0.00123645         0.926726       -0.286785      0.000319516     0.000276876
                       -0.000552      0.00108487         0.133098        0.120991     -0.000142327    -0.000367831        -0.938722        0.271396
                        0.926777       -0.286242     -0.000114593    -0.000354856        0.0326978        0.218297      -0.00122418    -0.000686832
                     0.000167815     0.000231232        -0.937568        0.270387       -0.0011933     -0.00063976       -0.0467272        0.173036
281720                 0.0981834        0.198874     -0.000524007      0.00123646         0.926624       -0.287091      0.000319644     0.000276739
                    -0.000551576      0.00108504         0.133123        0.120983     -0.000142522    -0.000367797        -0.938621        0.271735
                        0.926675       -0.286548     -0.000114847    -0.000354663        0.0328372        0.218306      -0.00122452    -0.000686343
                     0.000167892     0.000231203        -0.937468        0.270727      -0.00119358     -0.00063923       -0.0466278        0.173076
281722                 0.0982064        0.198896     -0.000523754      0.00123647         0.926522       -0.287397      0.000319772     0.000276602
                    -0.000551153      0.00108521         0.133148        0.120975     -0.000142718    -0.000367763         -0.93852        0.272074
                        0.926572       -0.286853     -0.000115102     -0.00035447        0.0329766        0.218315      -0.00122487    -0.000685853
                     0.000167969     0.000231175        -0.937369        0.271067      -0.00119385    -0.000638701       -0.0465283        0.173116
281724                 0.0982293        0.198919     -0.000523501      0.00123648          0.92642       -0.287703        0.0003199     0.000276465
                    -0.000550729      0.00108537         0.133174        0.120967     -0.000142913    -0.000367728        -0.938419        0.272412
                         0.92647       -0.287159     -0.000115357    -0.000354277        0.0331161        0.218325      -0.00122522    -0.000685363
                     0.000168045     0.000231147        -0.937269        0.271408      -0.00119413    -0.000638172       -0.0464288        0.173156
281726                 0.0982522        0.198942     -0.000523247      0.00123649         0.926318       -0.288009      0.000320028     0.000276327
                    -0.000550306      0.00108554         0.133199        0.120958     -0.000143108    -0.000367694        -0.938317        0.272751
                        0.926367       -0.287464     -0.000115612    -0.000354084        0.0332556        0.218334      -0.00122556    -0.000684872
                     0.000168122     0.000231119        -0.937169        0.271748       -0.0011944    -0.000637643       -0.0463292        0.173196
281728                 0.0982751        0.198965     -0.000522993       0.0012365         0.926215       -0.288315      0.000320157      0.00027619
                    -0.000549882      0.00108571         0.133224         0.12095     -0.000143302    -0.000367659        -0.938216        0.273089
                        0.926265        -0.28777     -0.000115867    -0.000353891        0.0333951        0.218343      -0.00122591    -0.000684382
                       0.0001682     0.000231091        -0.937069        0.272088      -0.00119467    -0.000637115       -0.0462296        0.173236
281730                 0.0982981        0.198987     -0.000522738      0.00123651         0.926113        -0.28862      0.000320285     0.000276052
                    -0.000549459      0.00108588         0.133249        0.120942     -0.000143496    -0.000367623        -0.938114        0.273428
                        0.926162       -0.288075     -0.000116122    -0.000353698        0.0335346        0.218352      -0.00122626    -0.000683891
                     0.000168277     0.000231063        -0.936969        0.272428      -0.00119495    -0.000636586         -0.04613        0.173276
281732                  0.098321         0.19901     -0.000522482      0.00123652          0.92601       -0.288926      0.000320413     0.000275914
                    -0.000549036      0.00108604         0.133274        0.120933      -0.00014369    -0.000367588        -0.938012        0.273766
                        0.926059        -0.28838     -0.000116377    -0.000353505        0.0336742        0.218361       -0.0012266      -0.0006834
                     0.000168354     0.000231035        -0.936869        0.272768      -0.00119522    -0.000636058       -0.0460303        0.173316
281734                  0.098344        0.199033     -0.000522226      0.00123653         0.925908       -0.289232       0.00032054     0.000275777
                    -0.000548612      0.00108621         0.133299        0.120925     -0.000143884    -0.000367553        -0.937911        0.274105
                        0.925956       -0.288686     -0.000116633    -0.000353312        0.0338138         0.21837      -0.00122695    -0.000682909
                     0.000168432     0.000231007        -0.936769        0.273108      -0.00119549     -0.00063553       -0.0459306        0.173356
281736                 0.0983669        0.199056     -0.000521969      0.00123654         0.925805       -0.289538      0.000320668     0.000275639
                    -0.000548189      0.00108638         0.133324        0.120916     -0.000144078    -0.000367518        -0.937809        0.274443
                        0.925853       -0.288991     -0.000116889    -0.000353118        0.0339534        0.218379      -0.00122729    -0.000682417
                      0.00016851     0.000230979        -0.936668        0.273447      -0.00119577    -0.000635001       -0.0458309        0.173396
281738                 0.0983899        0.199078     -0.000521711      0.00123655         0.925702       -0.289843      0.000320796     0.000275501
                    -0.000547766      0.00108654         0.133349        0.120908     -0.000144272    -0.000367483        -0.937707        0.274781
                         0.92575       -0.289296     -0.000117145    -0.000352925        0.0340931        0.218388      -0.00122764    -0.000681926
                     0.000168588     0.000230951        -0.936568        0.273787      -0.00119604    -0.000634472       -0.0457311        0.173435
281740                 0.0984128        0.199101     -0.000521453      0.00123655         0.925599       -0.290149      0.000320924     0.000275363
                    -0.000547343      0.00108671         0.133374          0.1209     -0.000144466    -0.000367447        -0.937604         0.27512
                        0.925647       -0.289602     -0.000117401    -0.000352732        0.0342327        0.218397      -0.00122798    -0.000681434
                     0.000168666     0.000230923        -0.936467        0.274127      -0.00119631    -0.000633944       -0.0456314        0.173475
281742                 0.0984358        0.199124     -0.000521194      0.00123656         0.925496       -0.290455      0.000321052     0.000275225
                     -0.00054692      0.00108688         0.133399        0.120891      -0.00014466    -0.000367412        -0.937502        0.275458
                        0.925543       -0.289907     -0.000117657    -0.000352539        0.0343724        0.218405      -0.00122833    -0.000680942
                     0.000168744     0.000230895        -0.936366        0.274467      -0.00119658    -0.000633415       -0.0455315        0.173515
281744                 0.0984587        0.199147     -0.000520935      0.00123657         0.925393        -0.29076      0.000321179     0.000275087
                    -0.000546497      0.00108704         0.133424        0.120883     -0.000144854    -0.000367377          -0.9374        0.275796
                         0.92544       -0.290212     -0.000117913    -0.000352346        0.0345122        0.218414      -0.00122867     -0.00068045
                     0.000168823     0.000230868        -0.936265        0.274807      -0.00119686    -0.000632885       -0.0454317        0.173554
281746                 0.0984817        0.199169     -0.000520675      0.00123658         0.925289       -0.291066      0.000321307     0.000274949
                    -0.000546074      0.00108721         0.133449        0.120875     -0.000145047    -0.000367341        -0.937297        0.276135
                        0.925336       -0.290517     -0.000118169    -0.000352153        0.0346519        0.218422      -0.00122901    -0.000679957
                     0.000168902      0.00023084        -0.936164        0.275147      -0.00119713    -0.000632356       -0.0453318        0.173593
281748                 0.0985047        0.199192     -0.000520414      0.00123659         0.925186       -0.291371      0.000321434      0.00027481
                    -0.000545652      0.00108737         0.133474        0.120866     -0.000145241    -0.000367305        -0.937194        0.276473
                        0.925233       -0.290822     -0.000118426    -0.000351959        0.0347917        0.218431      -0.00122936    -0.000679464
                     0.000168981     0.000230812        -0.936063        0.275486       -0.0011974    -0.000631826       -0.0452319        0.173633
281750                 0.0985277        0.199215     -0.000520153       0.0012366         0.925082       -0.291677      0.000321562     0.000274672
                    -0.000545229      0.00108754         0.133499        0.120858     -0.000145435    -0.000367269        -0.937092        0.276811
                        0.925129       -0.291127     -0.000118683    -0.000351766        0.0349316        0.218439       -0.0012297    -0.000678971
                      0.00016906     0.000230784        -0.935962        0.275826      -0.00119767    -0.000631296       -0.0451319        0.173672
281752                 0.0985507        0.199238      -0.00051989       0.0012366         0.924979       -0.291982      0.000321689     0.000274533
                    -0.000544807      0.00108771         0.133524        0.120849     -0.000145629    -0.000367233        -0.936989        0.277149
                        0.925025       -0.291432      -0.00011894    -0.000351573        0.0350714        0.218447      -0.00123004    -0.000678478
                      0.00016914     0.000230757        -0.935861        0.276166      -0.00119794    -0.000630766       -0.0450319        0.173711
281754                 0.0985736        0.199261     -0.000519628      0.00123661         0.924875       -0.292287      0.000321817     0.000274395
                    -0.000544388      0.00108788         0.133549        0.120841     -0.000145823    -0.000367197        -0.936885        0.277487
                        0.924921       -0.291738     -0.000119197     -0.00035138        0.0352113        0.218455      -0.00123038    -0.000677985
                     0.000169225     0.000230731        -0.935759        0.276505      -0.00119821    -0.000630235       -0.0449319        0.173751
281756                 0.0985966        0.199283     -0.000519364      0.00123662         0.924771       -0.292593      0.000321944     0.000274256
                    -0.000543956      0.00108803         0.133574        0.120832     -0.000146017    -0.000367161        -0.936782        0.277825
                        0.924817       -0.292042     -0.000119454    -0.000351187        0.0353512        0.218463      -0.00123072    -0.000677491
                     0.000169291     0.000230699        -0.935658        0.276845      -0.00119848    -0.000629705       -0.0448318         0.17379
281758                 0.0986196        0.199306     -0.000519098      0.00123662         0.924667       -0.292898      0.000322071     0.000274116
                    -0.000543536      0.00108819         0.133599        0.120824     -0.000146211    -0.000367124        -0.936679        0.278163
                        0.924712       -0.292347     -0.000119711    -0.000350994        0.0354911        0.218471      -0.00123106    -0.000676997
                     0.000169374     0.000230673        -0.935556        0.277185      -0.00119875    -0.000629174       -0.0447318        0.173829
281760                 0.0986426        0.199329     -0.000518832      0.00123663         0.924563       -0.293203      0.000322201     0.000273981
                    -0.000543114      0.00108836         0.133624        0.120815     -0.000146405    -0.000367088        -0.936576        0.278501
                        0.924608       -0.292652     -0.000119969      -0.0003508        0.0356311        0.218479       -0.0012314    -0.000676499
                     0.000169454     0.000230645        -0.935454        0.277524      -0.00119901    -0.000628643       -0.0446316        0.173868
281762                 0.0986656        0.199352     -0.000518567      0.00123664         0.924459       -0.293509      0.000322327     0.000273841
                    -0.000542692      0.00108852         0.133649        0.120807     -0.000146598    -0.000367051        -0.936472        0.278839
                        0.924504       -0.292957     -0.000120226    -0.000350607         0.035771        0.218487      -0.00123175    -0.000676009
