! TOUCHSTONE file generated by CST MICROWAVE STUDIO
! Date and time: Wed Oct 15 17:32:38 2025
! Project name: Teste_Macro_Metasurface_Nanopilar.cst
! Parameters = {H=600; L_x=155; L_y=70; Lambda=1064; Max_L=200; Min_L=70; PathPara=1; Phi=0; Step_L=10; Theta=0; p=520; phaseX=180; phaseY=0}
! Header version: 2018
! Port assignment regex: !\s*Touchstone port\s*([0-9]+)\s*=\s*(CST MWS port|CST DS port)\s*([0-9]+|Zmin|Zmax)\s*\(\"(.*)\"\)(\s*mode\s*([0-9]+))?.*
! Touchstone port assignment:
! Touchstone port 1 = CST MWS port Zmax ("") mode 1
! Touchstone port 2 = CST MWS port Zmax ("") mode 2
! Touchstone port 3 = CST MWS port Zmin ("") mode 1
! Touchstone port 4 = CST MWS port Zmin ("") mode 2
! S-Parameters are not renormalized. Each port impedance will be approximated by the real part at minimum frequency. The values are described via the [Reference] keyword.
! Default impedance is overridden by [Reference]
[Version] 2.0
# GHz S RI R 376.73
[Number of Ports] 4
[Reference]
376.73 376.73 259.888 259.888 
[Number of Frequencies] 51
[Network Data]
281700                  0.020318       -0.107972      0.000160126    -8.11816e-05       -0.0364901       -0.993076     -0.000208182    -8.14022e-05
                     0.000341849    -2.19407e-05      -0.00553982       -0.156361      0.000265559    -7.36768e-05        -0.134425        0.969255
                      -0.0355948       -0.993425      0.000372006    -5.31796e-06         0.028024        0.106323      -6.6662e-05    -5.52713e-05
                    -4.96371e-05    -5.13145e-05        -0.134742        0.968897      2.98811e-05      6.5943e-05       -0.0506618        0.149027
281702                 0.0203056       -0.107971      0.000160183    -8.11429e-05       -0.0367309       -0.993068     -0.000208178    -8.13664e-05
                     0.000342011     -2.1859e-05      -0.00558347       -0.156334      0.000265537    -7.37889e-05        -0.134039        0.969312
                      -0.0358358       -0.993417      0.000372026    -5.60667e-06        0.0280631        0.106309     -6.67045e-05    -5.51948e-05
                    -4.95039e-05     -5.1227e-05        -0.134357        0.968954      2.98229e-05     6.59543e-05       -0.0505781         0.14903
281704                 0.0202933        -0.10797      0.000160239    -8.11042e-05       -0.0369717       -0.993059     -0.000208175    -8.13308e-05
                     0.000342173    -2.17774e-05      -0.00562711       -0.156308      0.000265515     -7.3901e-05        -0.133653        0.969369
                      -0.0360768       -0.993409      0.000372046    -5.89524e-06        0.0281022        0.106295      -6.6747e-05    -5.51184e-05
                    -4.93709e-05    -5.11395e-05        -0.133972        0.969011      2.97647e-05     6.59656e-05       -0.0504944        0.149032
281706                 0.0202809       -0.107968      0.000160296    -8.10653e-05       -0.0372125       -0.993051     -0.000208171    -8.12954e-05
                     0.000342335    -2.16957e-05      -0.00567075       -0.156281      0.000265492    -7.40131e-05        -0.133267        0.969426
                      -0.0363178       -0.993401      0.000372066    -6.18366e-06        0.0281413        0.106281     -6.67893e-05    -5.50419e-05
                    -4.92381e-05    -5.10521e-05        -0.133587        0.969068      2.97065e-05     6.59769e-05       -0.0504107        0.149035
281708                 0.0202686       -0.107967      0.000160352    -8.10263e-05       -0.0374532       -0.993042     -0.000208167    -8.12603e-05
                     0.000342498    -2.16141e-05      -0.00571438       -0.156254       0.00026547    -7.41252e-05        -0.132881        0.969483
                      -0.0365587       -0.993392      0.000372085    -6.47193e-06        0.0281804        0.106267     -6.68314e-05    -5.49654e-05
                    -4.91054e-05    -5.09648e-05        -0.133201        0.969125      2.96483e-05     6.59883e-05       -0.0503271        0.149037
281710                 0.0202562       -0.107966      0.000160409    -8.09872e-05        -0.037694       -0.993033     -0.000208164    -8.12253e-05
                      0.00034266    -2.15325e-05        -0.005758       -0.156228      0.000265448    -7.42374e-05        -0.132494        0.969539
                      -0.0367997       -0.993384      0.000372103    -6.76006e-06        0.0282195        0.106253     -6.68735e-05    -5.48888e-05
                    -4.89729e-05    -5.08776e-05        -0.132816        0.969181      2.95901e-05     6.59996e-05       -0.0502434        0.149039
281712                 0.0202439       -0.107964      0.000160466    -8.09479e-05       -0.0379348       -0.993024     -0.000208161    -8.11904e-05
                     0.000342823    -2.14509e-05      -0.00580161       -0.156201      0.000265425    -7.43495e-05        -0.132108        0.969596
                      -0.0370407       -0.993375      0.000372121    -7.04803e-06        0.0282585        0.106239     -6.69155e-05    -5.48123e-05
                    -4.88405e-05    -5.07906e-05        -0.132431        0.969238      2.95319e-05      6.6011e-05       -0.0501598        0.149042
281714                 0.0202315       -0.107963      0.000160523    -8.09086e-05       -0.0381756       -0.993016     -0.000208158    -8.11557e-05
                     0.000342986    -2.13694e-05      -0.00584522       -0.156174      0.000265403    -7.44616e-05        -0.131722        0.969652
                      -0.0372817       -0.993367      0.000372139    -7.33585e-06        0.0282976        0.106225     -6.69574e-05    -5.47358e-05
                    -4.87083e-05    -5.07036e-05        -0.132045        0.969294      2.94737e-05     6.60224e-05       -0.0500762        0.149044
281716                 0.0202192       -0.107962       0.00016058    -8.08691e-05       -0.0384164       -0.993007     -0.000208155    -8.11212e-05
                     0.000343149    -2.12878e-05      -0.00588882       -0.156148       0.00026538    -7.45738e-05        -0.131336        0.969709
                      -0.0375227       -0.993359      0.000372156    -7.62352e-06        0.0283367        0.106211     -6.69991e-05    -5.46592e-05
                    -4.85762e-05    -5.06167e-05         -0.13166         0.96935      2.94155e-05     6.60339e-05       -0.0499927        0.149046
281718                 0.0202068       -0.107961      0.000160638    -8.08294e-05       -0.0386572       -0.992998     -0.000208152    -8.10867e-05
                     0.000343312    -2.12063e-05      -0.00593242       -0.156121      0.000265357    -7.46859e-05        -0.130949        0.969765
                      -0.0377637        -0.99335      0.000372172    -7.91103e-06        0.0283757        0.106197     -6.70408e-05    -5.45826e-05
                    -4.84443e-05    -5.05299e-05        -0.131274        0.969406      2.93574e-05     6.60453e-05       -0.0499091        0.149048
281720                 0.0201945       -0.107959      0.000160695    -8.07897e-05        -0.038898       -0.992989     -0.000208149    -8.10524e-05
                     0.000343475    -2.11248e-05      -0.00597601       -0.156094      0.000265335     -7.4798e-05        -0.130563        0.969821
                      -0.0380046       -0.993341      0.000372188    -8.19838e-06        0.0284147        0.106183     -6.70823e-05    -5.45061e-05
                    -4.83125e-05    -5.04432e-05        -0.130889        0.969462      2.92992e-05     6.60568e-05       -0.0498255         0.14905
281722                 0.0201821       -0.107958      0.000160753    -8.07498e-05       -0.0391387        -0.99298     -0.000208147    -8.10182e-05
                     0.000343639    -2.10434e-05      -0.00601959       -0.156068      0.000265312    -7.49102e-05        -0.130177        0.969876
                      -0.0382456       -0.993333      0.000372203    -8.48557e-06        0.0284538        0.106169     -6.71238e-05    -5.44295e-05
                    -4.81809e-05    -5.03566e-05        -0.130503        0.969518      2.92411e-05     6.60683e-05        -0.049742        0.149052
281724                 0.0201698       -0.107957      0.000160811    -8.07098e-05       -0.0393795       -0.992971     -0.000208145    -8.09842e-05
                     0.000343803    -2.09619e-05      -0.00606317       -0.156041      0.000265289    -7.50223e-05         -0.12979        0.969932
                      -0.0384866       -0.993324      0.000372218     -8.7726e-06        0.0284928        0.106154     -6.71651e-05    -5.43529e-05
                    -4.80494e-05    -5.02701e-05        -0.130118        0.969573       2.9183e-05     6.60798e-05       -0.0496585        0.149054
281726                 0.0201574       -0.107955      0.000160869    -8.06697e-05       -0.0396203       -0.992962     -0.000208142    -8.09502e-05
                     0.000343966    -2.08805e-05      -0.00610673       -0.156014      0.000265266    -7.51344e-05        -0.129404        0.969987
                      -0.0387276       -0.993315      0.000372233    -9.05947e-06        0.0285318         0.10614     -6.72063e-05    -5.42764e-05
                    -4.79181e-05    -5.01837e-05        -0.129732        0.969629       2.9125e-05     6.60914e-05        -0.049575        0.149056
281728                 0.0201451       -0.107954      0.000160927    -8.06295e-05       -0.0398611       -0.992952      -0.00020814    -8.09163e-05
                      0.00034413    -2.07991e-05       -0.0061503       -0.155987      0.000265244    -7.52465e-05        -0.129018        0.970043
                      -0.0389685       -0.993306      0.000372246    -9.34617e-06        0.0285708        0.106126     -6.72475e-05    -5.41998e-05
                     -4.7787e-05    -5.00974e-05        -0.129347        0.969684       2.9067e-05     6.61029e-05       -0.0494915        0.149058
281730                 0.0201327       -0.107953      0.000160985    -8.05891e-05       -0.0401018       -0.992943     -0.000208138    -8.08825e-05
                     0.000344295    -2.07178e-05      -0.00619385        -0.15596      0.000265221    -7.53585e-05        -0.128631        0.970098
                      -0.0392095       -0.993297       0.00037226    -9.63271e-06        0.0286099        0.106112     -6.72885e-05    -5.41232e-05
                     -4.7656e-05    -5.00111e-05        -0.128961        0.969739      2.90091e-05     6.61145e-05       -0.0494081         0.14906
281732                 0.0201204       -0.107951      0.000161043    -8.05487e-05       -0.0403426       -0.992934     -0.000208137    -8.08488e-05
                     0.000344459    -2.06364e-05       -0.0062374       -0.155934      0.000265198    -7.54704e-05        -0.128245        0.970153
                      -0.0394505       -0.993288      0.000372272    -9.91907e-06        0.0286489        0.106098     -6.73295e-05    -5.40466e-05
                    -4.75251e-05     -4.9925e-05        -0.128576        0.969794      2.89513e-05     6.61261e-05       -0.0493246        0.149061
281734                  0.020108        -0.10795      0.000161102    -8.05081e-05       -0.0405834       -0.992924     -0.000208135    -8.08151e-05
                     0.000344623    -2.05551e-05      -0.00628094       -0.155907      0.000265176    -7.55823e-05        -0.127858        0.970208
                      -0.0396915       -0.993279      0.000372285    -1.02053e-05        0.0286878        0.106083     -6.73704e-05    -5.39701e-05
                    -4.73944e-05     -4.9839e-05         -0.12819        0.969849      2.88936e-05     6.61377e-05       -0.0492412        0.149063
281736                 0.0200957       -0.107949      0.000161161    -8.04673e-05       -0.0408242       -0.992915     -0.000208133    -8.07816e-05
                     0.000344788    -2.04739e-05      -0.00632448        -0.15588      0.000265154     -7.5694e-05        -0.127472        0.970262
                      -0.0399324        -0.99327      0.000372296    -1.04913e-05        0.0287268        0.106069     -6.74111e-05    -5.38935e-05
                    -4.72639e-05    -4.97531e-05        -0.127804        0.969903      2.88362e-05     6.61492e-05       -0.0491578        0.149065
281738                 0.0200833       -0.107947      0.000161219    -8.04265e-05       -0.0410649       -0.992905     -0.000208132    -8.07481e-05
                     0.000344953    -2.03926e-05      -0.00636801       -0.155853      0.000265133    -7.58053e-05        -0.127085        0.970317
                      -0.0401734       -0.993261      0.000372307    -1.07771e-05        0.0287658        0.106055     -6.74517e-05    -5.38169e-05
                    -4.71335e-05    -4.96673e-05        -0.127419        0.969958      2.87791e-05     6.61608e-05       -0.0490744        0.149067
281740                  0.020071       -0.107946      0.000161278    -8.03855e-05       -0.0413057       -0.992896      -0.00020813    -8.07147e-05
                     0.000345118    -2.03114e-05      -0.00641153       -0.155826      0.000265113    -7.59161e-05        -0.126699        0.970371
                      -0.0404144       -0.993252      0.000372318    -1.10628e-05        0.0288048        0.106041     -6.74923e-05    -5.37403e-05
                    -4.70033e-05    -4.95815e-05        -0.127033        0.970012      2.87226e-05     6.61722e-05       -0.0489911        0.149068
281742                 0.0200586       -0.107945      0.000161338    -8.03444e-05       -0.0415465       -0.992886     -0.000208129    -8.06813e-05
                     0.000345283    -2.02302e-05      -0.00645504       -0.155799      0.000265096    -7.60254e-05        -0.126312        0.970425
                      -0.0406553       -0.993242      0.000372328    -1.13483e-05        0.0288437        0.106026     -6.75326e-05    -5.36637e-05
                    -4.68732e-05    -4.94959e-05        -0.126647        0.970066      2.86676e-05     6.61835e-05       -0.0489077         0.14907
281744                 0.0200463       -0.107943      0.000161397    -8.03032e-05       -0.0417872       -0.992876     -0.000208128    -8.06481e-05
                     0.000345448    -2.01491e-05      -0.00649855       -0.155772      0.000265089    -7.61302e-05        -0.125926        0.970479
                      -0.0408963       -0.993233      0.000372338    -1.16336e-05        0.0288827        0.106012     -6.75728e-05    -5.35872e-05
                    -4.67433e-05    -4.94104e-05        -0.126261         0.97012      2.86167e-05      6.6194e-05       -0.0488244        0.149071
281746                 0.0200339       -0.107942      0.000161456    -8.02619e-05        -0.042028       -0.992867     -0.000208127     -8.0615e-05
                     0.000345613     -2.0068e-05      -0.00654205       -0.155746      0.000265146    -7.61985e-05        -0.125539        0.970533
                      -0.0411373       -0.993224      0.000372347    -1.19188e-05        0.0289217        0.105998     -6.76128e-05    -5.35106e-05
                    -4.66135e-05    -4.93249e-05        -0.125876        0.970174       2.8593e-05     6.61991e-05       -0.0487411        0.149073
281748                 0.0200216       -0.107941      0.000161516    -8.02205e-05       -0.0422687       -0.992857     -0.000208127     -8.0582e-05
                     0.000345779    -1.99869e-05      -0.00658555       -0.155719      0.000264867    -7.64123e-05        -0.125152        0.970587
                      -0.0413782       -0.993214      0.000372355    -1.22037e-05        0.0289606        0.105984     -6.76523e-05    -5.34339e-05
                    -4.64839e-05    -4.92396e-05         -0.12549        0.970228      2.84212e-05      6.6228e-05       -0.0486578        0.149074
281750                 0.0200092       -0.107939      0.000161576    -8.01789e-05       -0.0425095       -0.992847     -0.000208127    -8.05493e-05
                     0.000345944    -1.99058e-05      -0.00662903       -0.155692      0.000264931    -7.65017e-05        -0.124766        0.970641
                      -0.0416192       -0.993205      0.000372363    -1.24885e-05        0.0289995        0.105969     -6.76909e-05    -5.33572e-05
                    -4.63545e-05    -4.91544e-05        -0.125104        0.970281      2.84044e-05     6.62354e-05       -0.0485745        0.149075
281752                 0.0199969       -0.107938      0.000161636    -8.01373e-05       -0.0427502       -0.992837     -0.000208127    -8.05171e-05
                      0.00034611    -1.98248e-05      -0.00667252       -0.155665      0.000264924    -7.66084e-05        -0.124379        0.970694
                      -0.0418602       -0.993195      0.000372371     -1.2773e-05        0.0290385        0.105955     -6.77269e-05    -5.32802e-05
                    -4.62252e-05    -4.90692e-05        -0.124718        0.970335      2.83541e-05     6.62462e-05       -0.0484912        0.149077
281754                 0.0199845       -0.107937      0.000161696    -8.00955e-05        -0.042991       -0.992827     -0.000208133    -8.04868e-05
                     0.000346276    -1.97438e-05      -0.00671599       -0.155638      0.000264907    -7.67183e-05        -0.123992        0.970747
                      -0.0421011       -0.993186      0.000372378    -1.30574e-05        0.0290774         0.10594     -6.77411e-05    -5.32028e-05
                    -4.60961e-05    -4.89841e-05        -0.124332        0.970388      2.82993e-05     6.62576e-05        -0.048408        0.149078
281756                 0.0199722       -0.107935      0.000161756    -8.00536e-05       -0.0432317       -0.992817      -0.00020813    -8.03643e-05
                     0.000346442    -1.96625e-05      -0.00675946       -0.155611      0.000264887    -7.68294e-05        -0.123606          0.9708
                      -0.0423421       -0.993176      0.000372384    -1.33416e-05        0.0291163        0.105926     -6.78439e-05    -5.31343e-05
                    -4.59672e-05    -4.88988e-05        -0.123946        0.970441      2.82431e-05     6.62693e-05       -0.0483248        0.149079
281758                 0.0199598       -0.107934      0.000161817    -8.00117e-05       -0.0434725       -0.992807     -0.000208112    -8.04064e-05
                     0.000346609     -1.9583e-05      -0.00680292       -0.155584      0.000264865     -7.6941e-05        -0.123219        0.970853
                       -0.042583       -0.993166       0.00037239    -1.36255e-05        0.0291552        0.105912     -6.78683e-05     -5.3054e-05
                    -4.58379e-05     -4.8816e-05         -0.12356        0.970494      2.81861e-05     6.62811e-05       -0.0482416         0.14908
281760                 0.0199475       -0.107933      0.000161878    -7.99696e-05       -0.0437132       -0.992797     -0.000208115    -8.03772e-05
                     0.000346775    -1.95016e-05      -0.00684637       -0.155557      0.000264842    -7.70529e-05        -0.122832        0.970906
                       -0.042824       -0.993156      0.000372396    -1.39092e-05        0.0291941        0.105897     -6.79049e-05    -5.29769e-05
                    -4.57094e-05    -4.87302e-05        -0.123174        0.970547      2.81289e-05      6.6293e-05       -0.0481584        0.149081
281762                 0.0199351       -0.107931      0.000161939    -7.99275e-05        -0.043954       -0.992787     -0.000208116    -8.03454e-05
                     0.000346942    -1.94207e-05      -0.00688982        -0.15553      0.000264819    -7.71651e-05        -0.122445        0.970959
                       -0.043065       -0.993146      0.000372401    -1.41927e-05         0.029233        0.105883     -6.79436e-05    -5.29003e-05
