! TOUCHSTONE file generated by CST MICROWAVE STUDIO
! Date and time: Wed Oct 15 17:30:56 2025
! Project name: Teste_Macro_Metasurface_Nanopilar.cst
! Parameters = {H=600; L_x=125; L_y=85; Lambda=1064; Max_L=200; Min_L=70; PathPara=1; Phi=0; Step_L=10; Theta=0; p=520; phaseX=180; phaseY=0}
! Header version: 2018
! Port assignment regex: !\s*Touchstone port\s*([0-9]+)\s*=\s*(CST MWS port|CST DS port)\s*([0-9]+|Zmin|Zmax)\s*\(\"(.*)\"\)(\s*mode\s*([0-9]+))?.*
! Touchstone port assignment:
! Touchstone port 1 = CST MWS port Zmax ("") mode 1
! Touchstone port 2 = CST MWS port Zmax ("") mode 2
! Touchstone port 3 = CST MWS port Zmin ("") mode 1
! Touchstone port 4 = CST MWS port Zmin ("") mode 2
! S-Parameters are not renormalized. Each port impedance will be approximated by the real part at minimum frequency. The values are described via the [Reference] keyword.
! Default impedance is overridden by [Reference]
[Version] 2.0
# GHz S RI R 376.73
[Number of Ports] 4
[Reference]
376.73 376.73 259.888 259.888 
[Number of Frequencies] 51
[Network Data]
281700                -0.0125943      -0.0634751     -0.000424434      6.1142e-05        -0.276256       -0.957355        -0.000406     0.000652782
                    -0.000483581     2.75354e-05         0.171346      0.00324971     -0.000285777     0.000419321        -0.963885        0.167677
                       -0.276189       -0.957901     -0.000342318     0.000483124        0.0230225       0.0607336      0.000154537     0.000418919
                    -0.000340306     0.000520433        -0.963921        0.167701      0.000118212     0.000564746        -0.159466       0.0614168
281702                -0.0126043      -0.0634668     -0.000424467     6.11985e-05        -0.276499       -0.957286     -0.000405815     0.000653045
                    -0.000483612     2.76188e-05         0.171352      0.00322826      -0.00028566     0.000419364        -0.963823        0.168023
                       -0.276433       -0.957831     -0.000342195     0.000483197        0.0230405       0.0607203      0.000154785     0.000418746
                    -0.000340138     0.000520544        -0.963859        0.168047      0.000118486     0.000564772        -0.159435       0.0615131
281704                -0.0126144      -0.0634586       -0.0004245     6.12551e-05        -0.276743       -0.957216      -0.00040563     0.000653308
                    -0.000483642     2.77023e-05         0.171358      0.00320682     -0.000285543     0.000419407        -0.963761        0.168369
                       -0.276677       -0.957761     -0.000342073      0.00048327        0.0230585       0.0607069      0.000155033     0.000418572
                    -0.000339971     0.000520655        -0.963797        0.168393      0.000118761     0.000564798        -0.159404       0.0616094
281706                -0.0126244      -0.0634503     -0.000424533     6.13116e-05        -0.276987       -0.957146     -0.000405444     0.000653572
                    -0.000483673     2.77857e-05         0.171364      0.00318537     -0.000285427      0.00041945        -0.963698        0.168715
                       -0.276921        -0.95769      -0.00034195     0.000483343        0.0230765       0.0606936       0.00015528     0.000418399
                    -0.000339803     0.000520766        -0.963735        0.168739      0.000119035     0.000564824        -0.159373       0.0617057
281708                -0.0126345       -0.063442     -0.000424566     6.13682e-05        -0.277231       -0.957076     -0.000405259     0.000653835
                    -0.000483704     2.78691e-05          0.17137      0.00316391      -0.00028531     0.000419493        -0.963636        0.169062
                       -0.277165        -0.95762     -0.000341828     0.000483416        0.0230945       0.0606802      0.000155528     0.000418225
                    -0.000339635     0.000520878        -0.963673        0.169085      0.000119309      0.00056485        -0.159341        0.061802
281710                -0.0126445      -0.0634338     -0.000424599     6.14248e-05        -0.277475       -0.957006     -0.000405074     0.000654098
                    -0.000483735     2.79526e-05         0.171376      0.00314245     -0.000285193     0.000419536        -0.963574        0.169408
                       -0.277409        -0.95755     -0.000341705     0.000483489        0.0231124       0.0606669      0.000155775      0.00041805
                    -0.000339467     0.000520989         -0.96361        0.169431      0.000119584     0.000564875         -0.15931       0.0618983
281712                -0.0126546      -0.0634255     -0.000424631     6.14815e-05        -0.277718       -0.956936     -0.000404888     0.000654362
                    -0.000483766      2.8036e-05         0.171382      0.00312099     -0.000285076     0.000419579        -0.963511        0.169754
                       -0.277652        -0.95748     -0.000341583     0.000483561        0.0231304       0.0606535      0.000156023     0.000417876
                    -0.000339299       0.0005211        -0.963548        0.169778      0.000119858     0.000564901        -0.159279       0.0619945
281714                -0.0126646      -0.0634172     -0.000424664     6.15381e-05        -0.277962       -0.956866     -0.000404702     0.000654625
                    -0.000483796     2.81195e-05         0.171388      0.00309952      -0.00028496     0.000419621        -0.963449          0.1701
                       -0.277896       -0.957409      -0.00034146     0.000483634        0.0231484       0.0606402       0.00015627     0.000417701
                    -0.000339131     0.000521212        -0.963485        0.170124      0.000120133     0.000564926        -0.159247       0.0620908
281716                -0.0126747      -0.0634089     -0.000424697     6.15948e-05        -0.278206       -0.956795     -0.000404516     0.000654889
                    -0.000483827     2.82029e-05         0.171394      0.00307805     -0.000284843     0.000419664        -0.963386        0.170446
                        -0.27814       -0.957339     -0.000341337     0.000483706        0.0231663       0.0606268      0.000156517     0.000417526
                    -0.000338963     0.000521323        -0.963422         0.17047      0.000120407     0.000564951        -0.159216        0.062187
281718                -0.0126847      -0.0634007      -0.00042473     6.16515e-05         -0.27845       -0.956725      -0.00040433     0.000655152
                    -0.000483858     2.82864e-05           0.1714      0.00305657     -0.000284726     0.000419706        -0.963323        0.170791
                       -0.278384       -0.957268     -0.000341214     0.000483779        0.0231842       0.0606135      0.000156765     0.000417351
                    -0.000338795     0.000521435        -0.963359        0.170816      0.000120682     0.000564976        -0.159184       0.0622832
281720                -0.0126948      -0.0633924     -0.000424763     6.17082e-05        -0.278693       -0.956655     -0.000404144     0.000655416
                    -0.000483889     2.83698e-05         0.171406      0.00303509     -0.000284609     0.000419749         -0.96326        0.171137
                       -0.278628       -0.957198     -0.000341092     0.000483851        0.0232022       0.0606001      0.000157012     0.000417175
                    -0.000338626     0.000521547        -0.963296        0.171162      0.000120957     0.000565001        -0.159152       0.0623794
281722                -0.0127048      -0.0633841     -0.000424795      6.1765e-05        -0.278937       -0.956584     -0.000403958     0.000655679
                     -0.00048392     2.84533e-05         0.171412       0.0030136     -0.000284493     0.000419791        -0.963197        0.171483
                       -0.278872       -0.957127     -0.000340969     0.000483923        0.0232201       0.0605867      0.000157259     0.000416999
                    -0.000338458     0.000521658        -0.963233        0.171508      0.000121231     0.000565025        -0.159121       0.0624756
281724                -0.0127148      -0.0633758     -0.000424828     6.18218e-05        -0.279181       -0.956514     -0.000403771     0.000655943
                     -0.00048395     2.85368e-05         0.171418      0.00299212     -0.000284376     0.000419833        -0.963133        0.171829
                       -0.279115       -0.957056     -0.000340846     0.000483994         0.023238       0.0605733      0.000157506     0.000416823
                    -0.000338289      0.00052177         -0.96317        0.171854      0.000121506      0.00056505        -0.159089       0.0625717
281726                -0.0127249      -0.0633676     -0.000424861     6.18786e-05        -0.279424       -0.956443     -0.000403585     0.000656206
                    -0.000483981     2.86202e-05         0.171424      0.00297062     -0.000284259     0.000419875         -0.96307        0.172175
                       -0.279359       -0.956985     -0.000340724     0.000484066        0.0232559         0.06056      0.000157752     0.000416647
                    -0.000338121     0.000521882        -0.963107          0.1722      0.000121781     0.000565074        -0.159057       0.0626679
281728                -0.0127349      -0.0633593     -0.000424894     6.19354e-05        -0.279668       -0.956373     -0.000403398      0.00065647
                    -0.000484012     2.87037e-05         0.171429      0.00294912     -0.000284142     0.000419917        -0.963006        0.172521
                       -0.279603       -0.956914     -0.000340602     0.000484138        0.0232738       0.0605466      0.000157999     0.000416471
                    -0.000337952     0.000521994        -0.963043        0.172546      0.000122055     0.000565098        -0.159025        0.062764
281730                 -0.012745       -0.063351     -0.000424926     6.19923e-05        -0.279911       -0.956302     -0.000403211     0.000656733
                    -0.000484043     2.87871e-05         0.171435      0.00292762     -0.000284025     0.000419959        -0.962943        0.172867
                       -0.279847       -0.956844     -0.000340479     0.000484209        0.0232917       0.0605332      0.000158246     0.000416294
                    -0.000337783     0.000522105         -0.96298        0.172892       0.00012233     0.000565122        -0.158993       0.0628601
281732                 -0.012755      -0.0633427     -0.000424959     6.20492e-05        -0.280155       -0.956231     -0.000403024     0.000656997
                    -0.000484073     2.88706e-05         0.171441      0.00290612     -0.000283908     0.000420001        -0.962879        0.173213
                        -0.28009       -0.956773     -0.000340357      0.00048428        0.0233096       0.0605198      0.000158492     0.000416117
                    -0.000337615     0.000522217        -0.962916        0.173238      0.000122605     0.000565146        -0.158961       0.0629562
281734                 -0.012765      -0.0633344     -0.000424992     6.21062e-05        -0.280399       -0.956161     -0.000402837     0.000657261
                    -0.000484104      2.8954e-05         0.171447      0.00288461     -0.000283791     0.000420043        -0.962815        0.173559
                       -0.280334       -0.956702     -0.000340235     0.000484352        0.0233275       0.0605064      0.000158739     0.000415939
                    -0.000337446     0.000522329        -0.962852        0.173584       0.00012288      0.00056517        -0.158929       0.0630523
281736                -0.0127751      -0.0633262     -0.000425024     6.21632e-05        -0.280642        -0.95609      -0.00040265     0.000657524
                    -0.000484135     2.90374e-05         0.171453      0.00286309     -0.000283674     0.000420085        -0.962751        0.173905
                       -0.280578        -0.95663     -0.000340113     0.000484424        0.0233454        0.060493      0.000158985     0.000415762
                    -0.000337277      0.00052244        -0.962788         0.17393      0.000123155     0.000565193        -0.158897       0.0631483
281738                -0.0127851      -0.0633179     -0.000425057     6.22203e-05        -0.280886       -0.956019     -0.000402462     0.000657788
                    -0.000484165     2.91209e-05         0.171459      0.00284158     -0.000283558     0.000420126        -0.962687         0.17425
                       -0.280821       -0.956559     -0.000339991     0.000484495        0.0233633       0.0604796      0.000159231     0.000415584
                    -0.000337108     0.000522552        -0.962724        0.174276       0.00012343     0.000565217        -0.158865       0.0632444
281740                -0.0127951      -0.0633096     -0.000425089     6.22774e-05        -0.281129       -0.955948     -0.000402275     0.000658052
                    -0.000484196     2.92043e-05         0.171465      0.00282005     -0.000283441     0.000420168        -0.962622        0.174596
                       -0.281065       -0.956488     -0.000339869     0.000484567        0.0233811       0.0604662      0.000159477     0.000415406
                    -0.000336939     0.000522664         -0.96266        0.174622      0.000123705      0.00056524        -0.158833       0.0633404
281742                -0.0128052      -0.0633013     -0.000425122     6.23345e-05        -0.281373       -0.955877     -0.000402087     0.000658315
                    -0.000484226     2.92877e-05         0.171471      0.00279853     -0.000283324     0.000420209        -0.962558        0.174942
                       -0.281308       -0.956417     -0.000339747     0.000484639         0.023399       0.0604528      0.000159724     0.000415228
                     -0.00033677     0.000522776        -0.962595        0.174968       0.00012398     0.000565263          -0.1588       0.0634364
281744                -0.0128152       -0.063293     -0.000425154     6.23918e-05        -0.281616       -0.955806     -0.000401899     0.000658579
                    -0.000484257     2.93711e-05         0.171477        0.002777     -0.000283207     0.000420251        -0.962493        0.175288
                       -0.281552       -0.956345     -0.000339625     0.000484711        0.0234168       0.0604393       0.00015997     0.000415049
                    -0.000336601     0.000522887        -0.962531        0.175313      0.000124255     0.000565286        -0.158768       0.0635324
281746                -0.0128252      -0.0632847     -0.000425187     6.24491e-05         -0.28186       -0.955735     -0.000401711     0.000658843
                    -0.000484288     2.94545e-05         0.171482      0.00275546      -0.00028309     0.000420292        -0.962429        0.175634
                       -0.281796       -0.956274     -0.000339503     0.000484782        0.0234347       0.0604259      0.000160215      0.00041487
                    -0.000336432     0.000522999        -0.962466        0.175659       0.00012453     0.000565309        -0.158735       0.0636284
281748                -0.0128353      -0.0632764     -0.000425219     6.25065e-05        -0.282103       -0.955664     -0.000401523     0.000659106
                    -0.000484318     2.95379e-05         0.171488      0.00273393     -0.000282972     0.000420333        -0.962364        0.175979
                       -0.282039       -0.956203     -0.000339381     0.000484854        0.0234525       0.0604125      0.000160461     0.000414691
                    -0.000336263      0.00052311        -0.962401        0.176005      0.000124806     0.000565332        -0.158703       0.0637243
281750                -0.0128453      -0.0632681     -0.000425252     6.25639e-05        -0.282347       -0.955592     -0.000401335      0.00065937
                    -0.000484349     2.96213e-05         0.171494      0.00271238     -0.000282855     0.000420374        -0.962299        0.176325
                       -0.282283       -0.956131     -0.000339259     0.000484926        0.0234704       0.0603991      0.000160707     0.000414512
                    -0.000336094     0.000523222        -0.962336        0.176351      0.000125081     0.000565355         -0.15867       0.0638203
281752                -0.0128553      -0.0632599     -0.000425284     6.26215e-05         -0.28259       -0.955521     -0.000401146     0.000659634
                    -0.000484379     2.97047e-05           0.1715      0.00269084     -0.000282738     0.000420415        -0.962234        0.176671
                       -0.282526       -0.956059     -0.000339136     0.000484998        0.0234882       0.0603856      0.000160953     0.000414332
                    -0.000335925     0.000523334        -0.962271        0.176697      0.000125356     0.000565377        -0.158638       0.0639162
281754                -0.0128653      -0.0632516     -0.000425317     6.26791e-05        -0.282833        -0.95545     -0.000400958     0.000659897
                    -0.000484409     2.97881e-05         0.171506      0.00266928     -0.000282621     0.000420456        -0.962169        0.177016
                        -0.28277       -0.955988     -0.000339014     0.000485069         0.023506       0.0603722      0.000161198     0.000414152
                    -0.000335755     0.000523445        -0.962206        0.177043      0.000125631       0.0005654        -0.158605       0.0640121
281756                -0.0128754      -0.0632433      -0.00042535     6.27368e-05        -0.283077       -0.955378     -0.000400769     0.000660161
                     -0.00048444     2.98715e-05         0.171512      0.00264773     -0.000282504     0.000420497        -0.962104        0.177362
                       -0.283013       -0.955916     -0.000338891     0.000485141        0.0235238       0.0603587      0.000161444     0.000413972
                    -0.000335586     0.000523556        -0.962141        0.177388      0.000125907     0.000565422        -0.158572        0.064108
281758                -0.0128854       -0.063235     -0.000425382     6.27945e-05         -0.28332       -0.955307      -0.00040058     0.000660425
                     -0.00048447     2.99549e-05         0.171517      0.00262617     -0.000282387     0.000420538        -0.962038        0.177708
                       -0.283257       -0.955844     -0.000338769     0.000485213        0.0235416       0.0603453      0.000161689     0.000413792
                    -0.000335417     0.000523668        -0.962076        0.177734      0.000126182     0.000565444         -0.15854       0.0642039
281760                -0.0128954      -0.0632267     -0.000425415     6.28523e-05        -0.283563       -0.955235     -0.000400391     0.000660689
                      -0.0004845     3.00383e-05         0.171523      0.00260461      -0.00028227     0.000420579        -0.961973        0.178054
                         -0.2835       -0.955772     -0.000338646     0.000485284        0.0235594       0.0603318      0.000161934     0.000413611
                    -0.000335247     0.000523779         -0.96201         0.17808      0.000126458     0.000565467        -0.158507       0.0642997
281762                -0.0129054      -0.0632184     -0.000425448       6.291e-05        -0.283807       -0.955163     -0.000400202     0.000660953
                    -0.000484531     3.01217e-05         0.171529      0.00258304     -0.000282152      0.00042062        -0.961907        0.178399
                       -0.283744         -0.9557     -0.000338523     0.000485355        0.0235772       0.0603184      0.000162179     0.000413431
