! TOUCHSTONE file generated by CST MICROWAVE STUDIO
! Date and time: Wed Oct 15 17:32:32 2025
! Project name: Teste_Macro_Metasurface_Nanopilar.cst
! Parameters = {H=600; L_x=150; L_y=160; Lambda=1064; Max_L=200; Min_L=70; PathPara=1; Phi=0; Step_L=10; Theta=0; p=520; phaseX=180; phaseY=0}
! Header version: 2018
! Port assignment regex: !\s*Touchstone port\s*([0-9]+)\s*=\s*(CST MWS port|CST DS port)\s*([0-9]+|Zmin|Zmax)\s*\(\"(.*)\"\)(\s*mode\s*([0-9]+))?.*
! Touchstone port assignment:
! Touchstone port 1 = CST MWS port Zmax ("") mode 1
! Touchstone port 2 = CST MWS port Zmax ("") mode 2
! Touchstone port 3 = CST MWS port Zmin ("") mode 1
! Touchstone port 4 = CST MWS port Zmin ("") mode 2
! S-Parameters are not renormalized. Each port impedance will be approximated by the real part at minimum frequency. The values are described via the [Reference] keyword.
! Default impedance is overridden by [Reference]
[Version] 2.0
# GHz S RI R 376.73
[Number of Ports] 4
[Reference]
376.73 376.73 259.888 259.888 
[Number of Frequencies] 51
[Network Data]
281700                  0.171563      -0.0585581     -0.000250413    -0.000115248         0.775831       -0.595638      9.70804e-05    -0.000117336
                    -0.000374123    -2.08737e-05         0.207984       -0.120702     -4.97503e-05    -4.19817e-05         0.864965       -0.422431
                         0.77638       -0.596152     -0.000112598    -4.19947e-05       -0.0995974        0.144009       0.00014048    -0.000266954
                     0.000153135    -0.000214248         0.864599       -0.422305      0.000153482    -0.000185846        -0.217613       0.0776775
281702                  0.171548      -0.0585193     -0.000250588    -0.000115081         0.775642       -0.595893      9.72385e-05     -0.00011716
                    -0.000374037    -2.11958e-05         0.207926       -0.120625     -4.96748e-05    -4.17003e-05         0.864823       -0.422782
                        0.776191       -0.596407     -0.000112361    -4.21027e-05       -0.0994624        0.144072      0.000139894    -0.000267159
                      0.00015304    -0.000213827         0.864457       -0.422656      0.000153069    -0.000186125        -0.217457       0.0778605
281704                  0.171534      -0.0584805     -0.000250763    -0.000114914         0.775453       -0.596149      9.73962e-05    -0.000116985
                     -0.00037395    -2.15181e-05         0.207869       -0.120547     -4.95993e-05    -4.14192e-05          0.86468       -0.423132
                        0.776002       -0.596663     -0.000112122     -4.2209e-05       -0.0993273        0.144135      0.000139307    -0.000267363
                     0.000152945    -0.000213406         0.864315       -0.423006      0.000152656    -0.000186404        -0.217301       0.0780433
281706                   0.17152      -0.0584417     -0.000250938    -0.000114748         0.775264       -0.596404      9.75537e-05     -0.00011681
                    -0.000373864    -2.18406e-05         0.207812       -0.120469     -4.95237e-05    -4.11384e-05         0.864538       -0.423482
                        0.775812       -0.596918     -0.000111883    -4.23135e-05       -0.0991922        0.144198      0.000138721    -0.000267566
                     0.000152852    -0.000212984         0.864173       -0.423356      0.000152243    -0.000186683        -0.217145       0.0782259
281708                  0.171505       -0.058403     -0.000251113    -0.000114582         0.775075        -0.59666       9.7711e-05    -0.000116637
                    -0.000373777    -2.21632e-05         0.207755       -0.120392      -4.9448e-05     -4.0858e-05         0.864396       -0.423832
                        0.775623       -0.597174     -0.000111643    -4.24164e-05       -0.0990571        0.144261      0.000138135    -0.000267767
                      0.00015276    -0.000212562         0.864031       -0.423706       0.00015183     -0.00018696        -0.216989       0.0784082
281710                  0.171491      -0.0583643     -0.000251288    -0.000114416         0.774885       -0.596915       9.7868e-05    -0.000116463
                    -0.000373692    -2.24861e-05         0.207698       -0.120314     -4.93724e-05    -4.05778e-05         0.864253       -0.424181
                        0.775433       -0.597429     -0.000111403    -4.25176e-05        -0.098922        0.144324      0.000137548    -0.000267968
                     0.000152668    -0.000212139         0.863889       -0.424056      0.000151417    -0.000187237        -0.216833       0.0785903
281712                  0.171477      -0.0583256     -0.000251463    -0.000114251         0.774696       -0.597171      9.80247e-05    -0.000116291
                    -0.000373606    -2.28092e-05         0.207641       -0.120236     -4.92967e-05     -4.0298e-05          0.86411       -0.424531
                        0.775244       -0.597684     -0.000111161    -4.26171e-05       -0.0987868        0.144387      0.000136962    -0.000268167
                     0.000152578    -0.000211716         0.863747       -0.424406      0.000151005    -0.000187514        -0.216677       0.0787722
281714                  0.171462      -0.0582869     -0.000251637    -0.000114086         0.774507       -0.597426      9.81812e-05    -0.000116119
                    -0.000373521    -2.31325e-05         0.207584       -0.120159     -4.92209e-05    -4.00185e-05         0.863967        -0.42488
                        0.775054       -0.597939     -0.000110919    -4.27149e-05       -0.0986517         0.14445      0.000136377    -0.000268366
                     0.000152488    -0.000211293         0.863604       -0.424755      0.000150592    -0.000187789        -0.216521       0.0789539
281716                  0.171448      -0.0582482     -0.000251812    -0.000113922         0.774317       -0.597681      9.83376e-05    -0.000115948
                    -0.000373436     -2.3456e-05         0.207527       -0.120082     -4.91452e-05    -3.97393e-05         0.863824        -0.42523
                        0.774865       -0.598194     -0.000110677     -4.2811e-05       -0.0985165        0.144513      0.000135791    -0.000268563
                       0.0001524    -0.000210869         0.863462       -0.425104       0.00015018    -0.000188064        -0.216365       0.0791354
281718                  0.171434      -0.0582096     -0.000251987    -0.000113758         0.774128       -0.597936      9.84937e-05    -0.000115778
                    -0.000373351    -2.37796e-05         0.207471       -0.120004     -4.90694e-05    -3.94604e-05         0.863681       -0.425579
                        0.774675       -0.598449     -0.000110433    -4.29054e-05       -0.0983814        0.144575      0.000135205    -0.000268759
                     0.000152312    -0.000210445         0.863319       -0.425454      0.000149767    -0.000188339        -0.216209       0.0793166
281720                   0.17142      -0.0581709     -0.000252162    -0.000113594         0.773938       -0.598191      9.86496e-05    -0.000115608
                    -0.000373266    -2.41034e-05         0.207414       -0.119927     -4.89936e-05    -3.91818e-05         0.863538       -0.425928
                        0.774485       -0.598704     -0.000110189     -4.2998e-05       -0.0982462        0.144638       0.00013462    -0.000268954
                     0.000152225    -0.000210021         0.863176       -0.425803      0.000149355    -0.000188613        -0.216053       0.0794976
281722                  0.171405      -0.0581323     -0.000252337    -0.000113432         0.773748       -0.598446      9.88053e-05    -0.000115438
                    -0.000373182    -2.44275e-05         0.207358        -0.11985     -4.89178e-05    -3.89035e-05         0.863394       -0.426277
                        0.774295       -0.598959     -0.000109944     -4.3089e-05        -0.098111          0.1447      0.000134035    -0.000269148
                     0.000152139    -0.000209596         0.863033       -0.426152      0.000148943    -0.000188886        -0.215896       0.0796784
281724                  0.171391      -0.0580937     -0.000252513    -0.000113269         0.773559       -0.598701      9.89608e-05    -0.000115269
                    -0.000373098    -2.47516e-05         0.207301       -0.119772     -4.88419e-05    -3.86254e-05         0.863251       -0.426625
                        0.774105       -0.599214     -0.000109699    -4.31783e-05       -0.0979758        0.144762       0.00013345    -0.000269341
                     0.000152054    -0.000209171          0.86289         -0.4265      0.000148531    -0.000189158         -0.21574        0.079859
281726                  0.171377      -0.0580551     -0.000252688    -0.000113107         0.773369       -0.598955      9.91161e-05    -0.000115101
                    -0.000373014     -2.5076e-05         0.207245       -0.119695      -4.8766e-05    -3.83477e-05         0.863107       -0.426974
                        0.773915       -0.599469     -0.000109452    -4.32659e-05       -0.0978406        0.144824      0.000132865    -0.000269534
                      0.00015197    -0.000208745         0.862746       -0.426849      0.000148119     -0.00018943        -0.215583       0.0800393
281728                  0.171363      -0.0580166     -0.000252863    -0.000112946         0.773179        -0.59921      9.92713e-05    -0.000114933
                     -0.00037293    -2.54005e-05         0.207188       -0.119618     -4.86901e-05    -3.80703e-05         0.862963       -0.427322
                        0.773725       -0.599723     -0.000109205    -4.33518e-05       -0.0977053        0.144886      0.000132281    -0.000269725
                     0.000151887     -0.00020832         0.862603       -0.427198      0.000147707    -0.000189701        -0.215427       0.0802194
281730                  0.171349       -0.057978     -0.000253039    -0.000112785         0.772989       -0.599465      9.94263e-05    -0.000114766
                    -0.000372847    -2.57252e-05         0.207132       -0.119541     -4.86142e-05    -3.77932e-05         0.862819       -0.427671
                        0.773535       -0.599978     -0.000108957     -4.3436e-05       -0.0975701        0.144948      0.000131696    -0.000269915
                     0.000151805    -0.000207894         0.862459       -0.427546      0.000147295    -0.000189972         -0.21527       0.0803993
281732                  0.171334      -0.0579395     -0.000253214    -0.000112625         0.772799       -0.599719      9.95811e-05    -0.000114599
                    -0.000372764    -2.60501e-05         0.207076       -0.119464     -4.85383e-05    -3.75163e-05         0.862675       -0.428019
                        0.773344       -0.600232     -0.000108709    -4.35185e-05       -0.0974348         0.14501      0.000131112    -0.000270104
                     0.000151723    -0.000207467         0.862316       -0.427894      0.000146884    -0.000190242        -0.215114        0.080579
281734                   0.17132      -0.0579009      -0.00025339    -0.000112465         0.772609       -0.599973      9.97357e-05    -0.000114433
                    -0.000372681    -2.63751e-05          0.20702       -0.119387     -4.84624e-05    -3.72397e-05         0.862531       -0.428367
                        0.773154       -0.600486      -0.00010846    -4.35993e-05       -0.0972996        0.145072      0.000130529    -0.000270292
                     0.000151643    -0.000207041         0.862172       -0.428242      0.000146472    -0.000190511        -0.214957       0.0807585
281736                  0.171306      -0.0578624     -0.000253566    -0.000112306         0.772419       -0.600228      9.98902e-05    -0.000114267
                    -0.000372598    -2.67002e-05         0.206964        -0.11931     -4.83864e-05    -3.69635e-05         0.862386       -0.428715
                        0.772964       -0.600741      -0.00010821    -4.36784e-05       -0.0971643        0.145133      0.000129945    -0.000270479
                     0.000151563    -0.000206614         0.862028        -0.42859      0.000146061     -0.00019078        -0.214801       0.0809377
281738                  0.171292      -0.0578239     -0.000253742    -0.000112148         0.772228       -0.600482      0.000100045    -0.000114101
                    -0.000372516    -2.70255e-05         0.206908       -0.119233     -4.83105e-05    -3.66875e-05         0.862242       -0.429062
                        0.772773       -0.600995     -0.000107959    -4.37558e-05        -0.097029        0.145194      0.000129362    -0.000270666
                     0.000151485    -0.000206186         0.861884       -0.428938      0.000145649    -0.000191048        -0.214644       0.0811167
281740                  0.171278      -0.0577855     -0.000253919     -0.00011199         0.772038       -0.600736      0.000100199    -0.000113936
                    -0.000372434     -2.7351e-05         0.206852       -0.119156     -4.82345e-05    -3.64117e-05         0.862097        -0.42941
                        0.772583       -0.601249     -0.000107707    -4.38315e-05       -0.0968937        0.145256       0.00012878    -0.000270851
                     0.000151407    -0.000205759          0.86174       -0.429286      0.000145238    -0.000191315        -0.214487       0.0812955
281742                  0.171264       -0.057747     -0.000254095    -0.000111833         0.771848        -0.60099      0.000100353    -0.000113772
                    -0.000372352    -2.76766e-05         0.206796       -0.119079     -4.81585e-05    -3.61363e-05         0.861952       -0.429757
                        0.772392       -0.601503     -0.000107455    -4.39055e-05       -0.0967584        0.145317      0.000128197    -0.000271035
                      0.00015133    -0.000205331         0.861595       -0.429633      0.000144827    -0.000191582         -0.21433       0.0814741
281744                   0.17125      -0.0577086     -0.000254272    -0.000111676         0.771657       -0.601244      0.000100507    -0.000113607
                     -0.00037227    -2.80024e-05          0.20674       -0.119003     -4.80825e-05    -3.58611e-05         0.861807       -0.430104
                        0.772201       -0.601757     -0.000107202    -4.39779e-05       -0.0966231        0.145378      0.000127615    -0.000271219
                     0.000151255    -0.000204903         0.861451        -0.42998      0.000144416    -0.000191848        -0.214173       0.0816524
281746                  0.171236      -0.0576701     -0.000254449     -0.00011152         0.771466       -0.601498      0.000100661    -0.000113443
                    -0.000372189    -2.83282e-05         0.206685       -0.118926     -4.80065e-05    -3.55862e-05         0.861662       -0.430452
                        0.772011       -0.602011     -0.000106948    -4.40485e-05       -0.0964878        0.145439      0.000127033    -0.000271402
                      0.00015118    -0.000204474         0.861306       -0.430328      0.000144005    -0.000192114        -0.214017       0.0818306
281748                  0.171222      -0.0576317     -0.000254627    -0.000111365         0.771276       -0.601752      0.000100814     -0.00011328
                    -0.000372108    -2.86543e-05         0.206629       -0.118849     -4.79305e-05    -3.53116e-05         0.861517       -0.430798
                         0.77182       -0.602264     -0.000106693    -4.41175e-05       -0.0963524          0.1455      0.000126452    -0.000271584
                     0.000151106    -0.000204046         0.861161       -0.430675      0.000143594    -0.000192379         -0.21386       0.0820085
281750                  0.171208      -0.0575933     -0.000254805    -0.000111211         0.771085       -0.602006      0.000100968    -0.000113117
                    -0.000372027    -2.89804e-05         0.206574       -0.118773     -4.78545e-05    -3.50372e-05         0.861372       -0.431145
                        0.771629       -0.602518     -0.000106438    -4.41848e-05       -0.0962171        0.145561      0.000125871    -0.000271765
                     0.000151033    -0.000203617         0.861017       -0.431022      0.000143183    -0.000192643        -0.213703       0.0821862
281752                  0.171194       -0.057555     -0.000254983    -0.000111057         0.770894       -0.602259      0.000101121    -0.000112954
                    -0.000371946    -2.93067e-05         0.206518       -0.118696     -4.77785e-05    -3.47631e-05         0.861226       -0.431492
                        0.771438       -0.602772     -0.000106182    -4.42504e-05       -0.0960817        0.145621      0.000125291    -0.000271945
                     0.000150961    -0.000203188         0.860872       -0.431368      0.000142773    -0.000192907        -0.213545       0.0823637
281754                   0.17118      -0.0575166     -0.000255161    -0.000110904         0.770703       -0.602513      0.000101275    -0.000112792
                    -0.000371866    -2.96331e-05         0.206463        -0.11862     -4.77025e-05    -3.44893e-05         0.861081       -0.431838
                        0.771247       -0.603025     -0.000105925    -4.43143e-05       -0.0959463        0.145682      0.000124711    -0.000272124
                      0.00015089    -0.000202758         0.860726       -0.431715      0.000142362     -0.00019317        -0.213388       0.0825409
281756                  0.171166      -0.0574783      -0.00025534    -0.000110752         0.770513       -0.602766      0.000101428    -0.000112629
                    -0.000371786    -2.99597e-05         0.206407       -0.118543     -4.76265e-05    -3.42158e-05         0.860935       -0.432185
                        0.771056       -0.603278     -0.000105667    -4.43765e-05        -0.095811        0.145742      0.000124131    -0.000272302
                     0.000150819    -0.000202329         0.860581       -0.432062      0.000141952    -0.000193433        -0.213231       0.0827179
281758                  0.171152      -0.0574399     -0.000255519      -0.0001106         0.770322        -0.60302      0.000101581    -0.000112468
                    -0.000371706    -3.02863e-05         0.206352       -0.118467     -4.75505e-05    -3.39425e-05         0.860789       -0.432531
                        0.770864       -0.603532     -0.000105408    -4.44371e-05       -0.0956756        0.145803      0.000123552     -0.00027248
                      0.00015075    -0.000201899         0.860436       -0.432408      0.000141542    -0.000193695        -0.213074       0.0828948
281760                  0.171138      -0.0574016     -0.000255699     -0.00011045          0.77013       -0.603273      0.000101734    -0.000112306
                    -0.000371626    -3.06131e-05         0.206297        -0.11839     -4.74745e-05    -3.36695e-05         0.860643       -0.432877
                        0.770673       -0.603785     -0.000105149     -4.4496e-05       -0.0955402        0.145863      0.000122973    -0.000272657
                     0.000150682    -0.000201469          0.86029       -0.432754      0.000141132    -0.000193956        -0.212917       0.0830713
281762                  0.171124      -0.0573633     -0.000255879      -0.0001103         0.769939       -0.603526      0.000101887    -0.000112145
                    -0.000371547    -3.09399e-05         0.206242       -0.118314     -4.73985e-05    -3.33967e-05         0.860497       -0.433223
                        0.770482       -0.604038     -0.000104888    -4.45532e-05       -0.0954047        0.145923      0.000122394    -0.000272833
