! TOUCHSTONE file generated by CST MICROWAVE STUDIO
! Date and time: Wed Oct 15 17:34:34 2025
! Project name: Teste_Macro_Metasurface_Nanopilar.cst
! Parameters = {H=600; L_x=185; L_y=180; Lambda=1064; Max_L=200; Min_L=70; PathPara=1; Phi=0; Step_L=10; Theta=0; p=520; phaseX=180; phaseY=0}
! Header version: 2018
! Port assignment regex: !\s*Touchstone port\s*([0-9]+)\s*=\s*(CST MWS port|CST DS port)\s*([0-9]+|Zmin|Zmax)\s*\(\"(.*)\"\)(\s*mode\s*([0-9]+))?.*
! Touchstone port assignment:
! Touchstone port 1 = CST MWS port Zmax ("") mode 1
! Touchstone port 2 = CST MWS port Zmax ("") mode 2
! Touchstone port 3 = CST MWS port Zmin ("") mode 1
! Touchstone port 4 = CST MWS port Zmin ("") mode 2
! S-Parameters are not renormalized. Each port impedance will be approximated by the real part at minimum frequency. The values are described via the [Reference] keyword.
! Default impedance is overridden by [Reference]
[Version] 2.0
# GHz S RI R 376.73
[Number of Ports] 4
[Reference]
376.73 376.73 259.888 259.888 
[Number of Frequencies] 51
[Network Data]
281700                  0.379381        0.272134     -0.000607055    -0.000146467          0.37322       -0.788738     -0.000939752     8.31031e-05
                     -0.00072275    -9.39655e-06        -0.149433       0.0708954      -0.00122573    -0.000428799        -0.255994       -0.911221
                        0.372976       -0.788753      -0.00108774    -0.000376676         0.445421        0.135561     -0.000951151    -0.000209556
                     -0.00112022     9.59134e-05        -0.255694       -0.911133      -0.00124423    -0.000203557        -0.135502       0.0855428
281702                   0.37935        0.271969     -0.000608148    -0.000145785         0.372914       -0.788971     -0.000939597     8.32703e-05
                    -0.000723646    -8.12115e-06        -0.150083       0.0712461      -0.00122804    -0.000427877        -0.256875       -0.910728
                         0.37267       -0.788986      -0.00108867    -0.000375699         0.445394        0.135226     -0.000951812    -0.000209938
                     -0.00112136     9.79134e-05        -0.256578       -0.910641      -0.00124662    -0.000202022        -0.136023       0.0861008
281704                  0.379318        0.271804     -0.000609245    -0.000145101         0.372609       -0.789204     -0.000939959     8.41491e-05
                    -0.000724545    -6.83807e-06        -0.150735       0.0715989      -0.00123037     -0.00042695        -0.257759       -0.910233
                        0.372365       -0.789219       -0.0010896    -0.000374718         0.445368        0.134892     -0.000952662    -0.000209642
                     -0.00112251      9.9919e-05        -0.257462       -0.910146      -0.00124902    -0.000200479        -0.136546       0.0866622
281706                  0.379287         0.27164     -0.000610344    -0.000144413         0.372303       -0.789436     -0.000940976      8.5833e-05
                    -0.000725449    -5.54731e-06        -0.151388       0.0719539       -0.0012327    -0.000426018        -0.258645       -0.909736
                         0.37206       -0.789452      -0.00109054    -0.000373733         0.445341        0.134558     -0.000953892    -0.000208437
                     -0.00112365     0.000101929        -0.258347       -0.909648      -0.00125143    -0.000198928        -0.137068        0.087227
281708                  0.379256        0.271476     -0.000611446    -0.000143724         0.371997       -0.789668     -0.000943086      8.8499e-05
                    -0.000726356    -4.24888e-06        -0.152042       0.0723112      -0.00123504    -0.000425081        -0.259533       -0.909238
                        0.371755       -0.789684      -0.00109147    -0.000372743         0.445315        0.134224      -0.00095559    -0.000206086
                     -0.00112481     0.000103943        -0.259233       -0.909148      -0.00125384    -0.000197369        -0.137592       0.0877954
281710                  0.379224        0.271312     -0.000612551    -0.000143031         0.371691         -0.7899     -0.000947474     9.22482e-05
                    -0.000727266     -2.9428e-06        -0.152697       0.0726707      -0.00123738    -0.000424138        -0.260426       -0.908737
                         0.37145       -0.789916      -0.00109241    -0.000371748         0.445288        0.133891     -0.000957614    -0.000202385
                     -0.00112596     0.000105961        -0.260119       -0.908645      -0.00125627    -0.000195803        -0.138115       0.0883678
281712                  0.379193        0.271149     -0.000613659    -0.000142336         0.371386       -0.790131     -0.000957085     9.57255e-05
                    -0.000728181    -1.62906e-06        -0.153354       0.0730324      -0.00123973     -0.00042319        -0.261326       -0.908237
                        0.371145       -0.790147      -0.00109334    -0.000370749         0.445261        0.133558     -0.000959517    -0.000197307
                     -0.00112712     0.000107981        -0.261007       -0.908139       -0.0012587    -0.000194229         -0.13864        0.088945
281714                  0.379161        0.270985     -0.000614769    -0.000141639          0.37108       -0.790362     -0.000973922     8.96779e-05
                    -0.000729099    -3.07649e-07        -0.154012       0.0733964      -0.00124209    -0.000422236        -0.262237       -0.907738
                         0.37084       -0.790378      -0.00109427    -0.000369746         0.445234        0.133225      -0.00096068    -0.000191214
                     -0.00112828     0.000110004        -0.261895        -0.90763      -0.00126113    -0.000192647        -0.139166       0.0895282
281716                   0.37913        0.270822     -0.000615882    -0.000140938         0.370774       -0.790593     -0.000977163     6.72657e-05
                    -0.000730021     1.02146e-06        -0.154671       0.0737627      -0.00124446    -0.000421277        -0.263176       -0.907248
                        0.370535       -0.790609      -0.00109521    -0.000368738         0.445207        0.132892     -0.000960708    -0.000184883
                     -0.00112944     0.000112031        -0.262783       -0.907119      -0.00126358    -0.000191057        -0.139697       0.0901219
281718                  0.379098         0.27066     -0.000616998    -0.000140236         0.370468       -0.790823     -0.000963637     5.77645e-05
                    -0.000730946     2.35832e-06        -0.155331       0.0741313      -0.00124683    -0.000420312        -0.264215       -0.906811
                         0.37023       -0.790839      -0.00109614    -0.000367725          0.44518         0.13256     -0.000959723    -0.000179147
                      -0.0011306      0.00011406        -0.263673       -0.906604      -0.00126603    -0.000189459        -0.140246       0.0907437
281720                  0.379067        0.270497     -0.000618117     -0.00013953         0.370162       -0.791053     -0.000954636     5.91111e-05
                    -0.000731875     3.70303e-06        -0.155993       0.0745021      -0.00124921    -0.000419342          -0.2647       -0.909036
                        0.369925       -0.791069      -0.00109707    -0.000366707         0.445153        0.132228     -0.000958232    -0.000174474
                     -0.00113177     0.000116092        -0.264563       -0.906087      -0.00126849    -0.000187853        -0.141244       0.0912843
281722                  0.379036        0.270335     -0.000619238    -0.000138822         0.369856       -0.791282     -0.000950362     6.22107e-05
                    -0.000732808     5.05565e-06        -0.156656       0.0748753       -0.0012516    -0.000418365        -0.265297       -0.905569
                         0.36962       -0.791299      -0.00109801    -0.000365685         0.445125        0.131896     -0.000956746    -0.000170886
                     -0.00113294     0.000118127        -0.265454       -0.905567      -0.00127096    -0.000186239        -0.141236       0.0917121
281724                  0.379004        0.270173     -0.000620362    -0.000138111         0.369551       -0.791511     -0.000948372     6.50953e-05
                    -0.000733744     6.41628e-06         -0.15732       0.0752508        -0.001254    -0.000417384        -0.266375       -0.905066
                        0.369315       -0.791528      -0.00109894    -0.000364659         0.445098        0.131564     -0.000955571    -0.000168163
                     -0.00113411     0.000120165        -0.266346       -0.905045      -0.00127343    -0.000184617         -0.14176       0.0923633
281726                  0.378973        0.270012     -0.000621488    -0.000137397         0.369245        -0.79174     -0.000947486     6.75765e-05
                    -0.000734684     7.78501e-06        -0.157985       0.0756286       -0.0012564    -0.000416396        -0.267325       -0.904551
                         0.36901       -0.791757      -0.00109987    -0.000363627         0.445071        0.131233     -0.000954816    -0.000166044
                     -0.00113529     0.000122206        -0.267238       -0.904519      -0.00127592    -0.000182987        -0.142286       0.0929767
281728                  0.378942        0.269851     -0.000622617    -0.000136681         0.368939       -0.791968     -0.000947182     6.97353e-05
                    -0.000735627      9.1619e-06        -0.158652       0.0760088      -0.00125881    -0.000415403        -0.268245       -0.904029
                        0.368705       -0.791986      -0.00110081    -0.000362591         0.445043        0.130902     -0.000954468    -0.000164319
                     -0.00113646     0.000124251        -0.268131        -0.90399      -0.00127841    -0.000181349        -0.142812       0.0935834
281730                  0.378911         0.26969     -0.000623749    -0.000135962         0.368633       -0.792196     -0.000947212     7.16645e-05
                    -0.000736575      1.0547e-05        -0.159319       0.0763914      -0.00126123    -0.000414404        -0.269154       -0.903502
                        0.368399       -0.792214      -0.00110174     -0.00036155         0.445016        0.130572      -0.00095447    -0.000162843
                     -0.00113764       0.0001263        -0.269025       -0.903459      -0.00128091    -0.000179702        -0.143337       0.0941895
281732                  0.378879        0.269529     -0.000624883     -0.00013524         0.368327       -0.792424     -0.000947449     7.34332e-05
                    -0.000737526     1.19404e-05        -0.159988       0.0767763      -0.00126365    -0.000413399        -0.270058        -0.90297
                        0.368094       -0.792442      -0.00110267    -0.000360504         0.444988        0.130241     -0.000954755    -0.000161519
                     -0.00113883     0.000128351         -0.26992       -0.902925      -0.00128341    -0.000178047        -0.143862        0.094797
281734                  0.378848        0.269369      -0.00062602    -0.000134516         0.368021       -0.792651     -0.000947822     7.50898e-05
                    -0.000738481     1.33421e-05        -0.160659       0.0771636      -0.00126609    -0.000412388        -0.270959       -0.902435
                        0.367789       -0.792669      -0.00110361    -0.000359453          0.44496        0.129911     -0.000955262    -0.000160291
                     -0.00114001     0.000130407        -0.270815       -0.902388      -0.00128593    -0.000176383        -0.144387       0.0954066
281736                  0.378817        0.269208     -0.000627159    -0.000133788         0.367716       -0.792878     -0.000948287     7.66672e-05
                    -0.000739439     1.47522e-05         -0.16133       0.0775533      -0.00126853    -0.000411371        -0.271859       -0.901896
                        0.367484       -0.792896      -0.00110454    -0.000358397         0.444932        0.129581      -0.00095594    -0.000159121
                      -0.0011412     0.000132466        -0.271711       -0.901847      -0.00128845    -0.000174712        -0.144912       0.0960188
281738                  0.378786        0.269049     -0.000628301    -0.000133058          0.36741       -0.793105     -0.000948819     7.81888e-05
                    -0.000740402     1.61707e-05        -0.162003       0.0779455      -0.00127097    -0.000410349        -0.272758       -0.901354
                        0.367179       -0.793123      -0.00110548    -0.000357336         0.444904        0.129252     -0.000956748    -0.000157987
                     -0.00114239     0.000134529        -0.272607       -0.901304      -0.00129098    -0.000173031        -0.145437       0.0966338
281740                  0.378755        0.268889     -0.000629445    -0.000132325         0.367104       -0.793331       -0.0009494     7.96706e-05
                    -0.000741369     1.75975e-05        -0.162676         0.07834      -0.00127343     -0.00040932        -0.273657       -0.900809
                        0.366874        -0.79335      -0.00110641     -0.00035627         0.444876        0.128922     -0.000957658    -0.000156874
                     -0.00114358     0.000136597        -0.273505       -0.900758      -0.00129352    -0.000171342        -0.145962       0.0972518
281742                  0.378723         0.26873     -0.000630592     -0.00013159         0.366798       -0.793557     -0.000950018     8.11245e-05
                     -0.00074234     1.90328e-05        -0.163352       0.0787369      -0.00127589    -0.000408285        -0.274556       -0.900261
                        0.366569       -0.793576      -0.00110735    -0.000355197         0.444848        0.128593     -0.000958644    -0.000155773
                     -0.00114477     0.000138668        -0.274403       -0.900209      -0.00129606    -0.000169645        -0.146487       0.0978728
281744                  0.378692        0.268571      -0.00063174    -0.000130851         0.366492       -0.793782     -0.000950665     8.25588e-05
                    -0.000743314     2.04766e-05        -0.164028       0.0791366      -0.00127836    -0.000407244        -0.275456        -0.89971
                        0.366264       -0.793801      -0.00110829    -0.000354116          0.44482        0.128265     -0.000959689    -0.000154678
                     -0.00114597     0.000140743        -0.275301       -0.899657      -0.00129862    -0.000167939        -0.147013        0.098497
281746                  0.378661        0.268412     -0.000632892    -0.000130109         0.366186       -0.794008     -0.000951335     8.39798e-05
                    -0.000744293     2.19289e-05        -0.164706       0.0795385      -0.00128084    -0.000406196        -0.276355       -0.899155
                        0.365959       -0.794027      -0.00110922    -0.000353017         0.444792        0.127936     -0.000960779    -0.000153586
                     -0.00114716     0.000142822        -0.276201       -0.899102      -0.00130118    -0.000166224        -0.147538       0.0991243
281748                   0.37863        0.268253     -0.000634045    -0.000129365          0.36588       -0.794232     -0.000952023     8.53922e-05
                    -0.000745276     2.33897e-05        -0.165384        0.079943      -0.00128333    -0.000405139        -0.277256       -0.898598
                        0.365654       -0.794252      -0.00111012    -0.000351932         0.444764        0.127608     -0.000961904    -0.000152494
                     -0.00114836     0.000144906        -0.277101       -0.898544      -0.00130374    -0.000164501        -0.148063       0.0997549
281750                  0.378599        0.268095     -0.000635202    -0.000128617         0.365575       -0.794457     -0.000952725     8.67995e-05
                    -0.000746263     2.48591e-05        -0.166064       0.0803499      -0.00128582    -0.000404089        -0.278156       -0.898037
                        0.365349       -0.794476      -0.00111105    -0.000350869         0.444735         0.12728     -0.000963056      -0.0001514
                     -0.00114956     0.000146994        -0.278001       -0.897983      -0.00130632    -0.000162769        -0.148588        0.100389
281752                  0.378568        0.267937      -0.00063636    -0.000127867         0.365269       -0.794681      -0.00095344     8.82044e-05
                    -0.000747254     2.63371e-05        -0.166745       0.0807594      -0.00128833    -0.000403022        -0.279058       -0.897474
                        0.365044         -0.7947        -0.001112     -0.00034978         0.444707        0.126952     -0.000964228    -0.000150302
                     -0.00115076     0.000149086        -0.278903       -0.897419       -0.0013089    -0.000161031        -0.149113        0.101026
281754                  0.378537         0.26778     -0.000637521    -0.000127113         0.364963       -0.794905     -0.000954164     8.96089e-05
                    -0.000748249     2.78237e-05        -0.167428       0.0811714      -0.00129083    -0.000401949         -0.27996       -0.896907
                        0.364738       -0.794924      -0.00111294    -0.000348681         0.444678        0.126625     -0.000965416    -0.000149201
                     -0.00115197     0.000151183        -0.279805       -0.896852       -0.0013115    -0.000159296        -0.149638        0.101666
281756                  0.378506        0.267622     -0.000638686    -0.000126356         0.364657       -0.795128     -0.000954896     9.10146e-05
                    -0.000749249     2.93189e-05        -0.168111        0.081586      -0.00129335    -0.000400871        -0.280862       -0.896337
                        0.364433       -0.795148      -0.00111387    -0.000347576          0.44465        0.126298     -0.000966616    -0.000148094
                     -0.00115317     0.000153285        -0.280707       -0.896282      -0.00131411    -0.000157525        -0.150163         0.10231
281758                  0.378475        0.267465     -0.000639856      -0.0001256         0.364351       -0.795351     -0.000955635     9.24228e-05
                    -0.000750253     3.08228e-05        -0.168796       0.0820031      -0.00129588    -0.000399786        -0.281765       -0.895765
                        0.364128       -0.795371      -0.00111481    -0.000346466         0.444621        0.125971     -0.000967825    -0.000146983
                     -0.00115438     0.000155391         -0.28161       -0.895708      -0.00131672    -0.000155753        -0.150688        0.102957
281760                  0.378444        0.267308     -0.000641019    -0.000124844         0.364045       -0.795574     -0.000956379     9.38343e-05
                    -0.000751261     3.23354e-05        -0.169482       0.0824228      -0.00129841    -0.000398695        -0.282669       -0.895189
                        0.363823       -0.795594      -0.00111575    -0.000345351         0.444592        0.125644      -0.00096904    -0.000145866
                     -0.00115558     0.000157502        -0.282514       -0.895132      -0.00131934    -0.000153975        -0.151213        0.103607
281762                  0.378413        0.267152     -0.000642185    -0.000124078         0.363739       -0.795796     -0.000957128       9.525e-05
                    -0.000752273     3.38568e-05        -0.170169       0.0828451      -0.00130095    -0.000397597        -0.283573        -0.89461
                        0.363518       -0.795817      -0.00111669    -0.000344231         0.444563        0.125318      -0.00097026    -0.000144744
