! TOUCHSTONE file generated by CST MICROWAVE STUDIO
! Date and time: Wed Oct 15 17:28:20 2025
! Project name: Teste_Macro_Metasurface_Nanopilar.cst
! Parameters = {H=600; L_x=80; L_y=75; Lambda=1064; Max_L=200; Min_L=70; PathPara=1; Phi=0; Step_L=10; Theta=0; p=520; phaseX=180; phaseY=0}
! Header version: 2018
! Port assignment regex: !\s*Touchstone port\s*([0-9]+)\s*=\s*(CST MWS port|CST DS port)\s*([0-9]+|Zmin|Zmax)\s*\(\"(.*)\"\)(\s*mode\s*([0-9]+))?.*
! Touchstone port assignment:
! Touchstone port 1 = CST MWS port Zmax ("") mode 1
! Touchstone port 2 = CST MWS port Zmax ("") mode 2
! Touchstone port 3 = CST MWS port Zmin ("") mode 1
! Touchstone port 4 = CST MWS port Zmin ("") mode 2
! S-Parameters are not renormalized. Each port impedance will be approximated by the real part at minimum frequency. The values are described via the [Reference] keyword.
! Default impedance is overridden by [Reference]
[Version] 2.0
# GHz S RI R 376.73
[Number of Ports] 4
[Reference]
376.73 376.73 259.888 259.888 
[Number of Frequencies] 51
[Network Data]
281700                 0.0556491       -0.128375     -0.000546407    -0.000249042         0.175024       -0.974408     -3.46093e-05     8.43703e-06
                    -0.000596838     -0.00013898        0.0493079       -0.124235     -3.10882e-05    -1.54387e-05          0.13758        -0.98099
                        0.175393       -0.974388      2.47499e-05     -1.6974e-05       0.00741192        0.139732     -0.000543813     1.14933e-05
                    -0.000106038     0.000194791         0.137812       -0.981395     -0.000634474     5.39756e-05        0.0131967        0.133036
281702                 0.0556373       -0.128378     -0.000546459    -0.000248875         0.174793        -0.97445     -3.46267e-05     8.43718e-06
                    -0.000596905    -0.000138831         0.049296       -0.124237     -3.11023e-05    -1.54494e-05         0.137347       -0.981023
                        0.175163        -0.97443      2.47596e-05     -1.6928e-05       0.00746602        0.139727     -0.000544011     1.16849e-05
                     -0.00010606     0.000194793         0.137579       -0.981428     -0.000634446     5.40712e-05        0.0132481        0.133029
281704                 0.0556254       -0.128381     -0.000546511    -0.000248709         0.174563       -0.974492     -3.46442e-05     8.43731e-06
                    -0.000596971    -0.000138682        0.0492841       -0.124239     -3.11164e-05    -1.54603e-05         0.137114       -0.981056
                        0.174932       -0.974472      2.47693e-05    -1.68821e-05       0.00752012        0.139722     -0.000544209     1.18764e-05
                    -0.000106082     0.000194795         0.137345       -0.981461     -0.000634419     5.41667e-05        0.0132994        0.133021
281706                 0.0556136       -0.128383     -0.000546563    -0.000248542         0.174332       -0.974534     -3.46618e-05     8.43737e-06
                    -0.000597037    -0.000138533        0.0492721       -0.124241     -3.11305e-05    -1.54711e-05          0.13688       -0.981089
                        0.174702       -0.974513       2.4779e-05    -1.68363e-05       0.00757422        0.139717     -0.000544408     1.20676e-05
                    -0.000106104     0.000194797         0.137112       -0.981494     -0.000634391     5.42621e-05        0.0133507        0.133013
281708                 0.0556017       -0.128386     -0.000546615    -0.000248376         0.174101       -0.974575     -3.46797e-05     8.43729e-06
                    -0.000597103    -0.000138384        0.0492602       -0.124243     -3.11446e-05    -1.54819e-05         0.136647       -0.981122
                        0.174472       -0.974555      2.47885e-05    -1.67907e-05       0.00762831        0.139711     -0.000544606     1.22586e-05
                    -0.000106126     0.000194799         0.136879       -0.981528     -0.000634364     5.43576e-05         0.013402        0.133005
281710                 0.0555899       -0.128389     -0.000546666    -0.000248209         0.173871       -0.974617     -3.46977e-05       8.437e-06
                     -0.00059717    -0.000138235        0.0492483       -0.124245     -3.11588e-05    -1.54928e-05         0.136414       -0.981154
                        0.174241       -0.974597       2.4798e-05    -1.67451e-05       0.00768241        0.139706     -0.000544805     1.24494e-05
                    -0.000106149     0.000194801         0.136646       -0.981561     -0.000634336     5.44529e-05        0.0134533        0.132998
281712                  0.055578       -0.128391     -0.000546718    -0.000248043          0.17364       -0.974658     -3.47157e-05     8.43647e-06
                    -0.000597236    -0.000138087        0.0492364       -0.124247     -3.11729e-05    -1.55036e-05          0.13618       -0.981187
                        0.174011       -0.974638      2.48075e-05    -1.66996e-05       0.00773649        0.139701     -0.000545004     1.26399e-05
                    -0.000106171     0.000194803         0.136413       -0.981594     -0.000634308     5.45483e-05        0.0135046         0.13299
281714                 0.0555662       -0.128394      -0.00054677    -0.000247876         0.173409       -0.974699     -3.47337e-05     8.43571e-06
                    -0.000597302    -0.000137938        0.0492245       -0.124249     -3.11871e-05    -1.55145e-05         0.135947       -0.981219
                         0.17378        -0.97468      2.48168e-05    -1.66543e-05       0.00779058        0.139696     -0.000545203     1.28302e-05
                    -0.000106194     0.000194805          0.13618       -0.981626     -0.000634281     5.46436e-05        0.0135559        0.132982
281716                 0.0555543       -0.128397     -0.000546821     -0.00024771         0.173179       -0.974741     -3.47515e-05     8.43476e-06
                    -0.000597368    -0.000137789        0.0492126       -0.124251     -3.12013e-05    -1.55254e-05         0.135714       -0.981252
                         0.17355       -0.974721      2.48262e-05     -1.6609e-05       0.00784466         0.13969     -0.000545402     1.30202e-05
                    -0.000106216     0.000194807         0.135947       -0.981659     -0.000634253     5.47388e-05        0.0136072        0.132974
281718                 0.0555425       -0.128399     -0.000546873    -0.000247543         0.172948       -0.974782     -3.47692e-05     8.43368e-06
                    -0.000597435     -0.00013764        0.0492007       -0.124252     -3.12155e-05    -1.55363e-05          0.13548       -0.981284
                        0.173319       -0.974763      2.48354e-05    -1.65639e-05       0.00789874        0.139685     -0.000545601       1.321e-05
                    -0.000106239     0.000194808         0.135713       -0.981692     -0.000634226     5.48339e-05        0.0136585        0.132966
281720                 0.0555306       -0.128402     -0.000546925    -0.000247376         0.172717       -0.974823     -3.47868e-05     8.43256e-06
                    -0.000597501    -0.000137491        0.0491887       -0.124254     -3.12297e-05    -1.55473e-05         0.135247       -0.981317
                        0.173089       -0.974804      2.48446e-05    -1.65188e-05       0.00795281         0.13968       -0.0005458     1.33995e-05
                    -0.000106262      0.00019481          0.13548       -0.981725     -0.000634198      5.4929e-05        0.0137098        0.132958
281722                 0.0555188       -0.128405     -0.000546976     -0.00024721         0.172487       -0.974865     -3.48042e-05     8.43142e-06
                    -0.000597567    -0.000137343        0.0491768       -0.124256      -3.1244e-05    -1.55582e-05         0.135014       -0.981349
                        0.172858       -0.974845      2.48537e-05    -1.64739e-05       0.00800688        0.139674        -0.000546     1.35888e-05
                    -0.000106285     0.000194812         0.135247       -0.981758     -0.000634171     5.50239e-05        0.0137611         0.13295
281724                 0.0555069       -0.128407     -0.000547028    -0.000247043         0.172256       -0.974906     -3.48215e-05     8.43033e-06
                    -0.000597634    -0.000137194        0.0491649       -0.124258     -3.12582e-05    -1.55692e-05          0.13478       -0.981381
                        0.172628       -0.974886      2.48628e-05     -1.6429e-05       0.00806095        0.139669     -0.000546199     1.37777e-05
                    -0.000106308     0.000194814         0.135014        -0.98179     -0.000634143     5.51187e-05        0.0138124        0.132942
281726                 0.0554951        -0.12841     -0.000547079    -0.000246877         0.172025       -0.974947     -3.48387e-05     8.42927e-06
                      -0.0005977    -0.000137045         0.049153        -0.12426     -3.12725e-05    -1.55802e-05         0.134547       -0.981414
                        0.172397       -0.974927      2.48718e-05    -1.63843e-05       0.00811501        0.139664     -0.000546398     1.39664e-05
                    -0.000106331     0.000194816         0.134781       -0.981823     -0.000634116     5.52133e-05        0.0138636        0.132934
281728                 0.0554832       -0.128413     -0.000547131     -0.00024671         0.171794       -0.974988     -3.48558e-05     8.42828e-06
                    -0.000597767    -0.000136897        0.0491411       -0.124262     -3.12868e-05    -1.55912e-05         0.134313       -0.981446
                        0.172167       -0.974969      2.48807e-05    -1.63397e-05       0.00816908        0.139658     -0.000546598     1.41548e-05
                    -0.000106355     0.000194817         0.134547       -0.981855     -0.000634088     5.53077e-05        0.0139149        0.132926
281730                 0.0554713       -0.128415     -0.000547182    -0.000246544         0.171564       -0.975029      -3.4873e-05     8.42734e-06
                    -0.000597833    -0.000136748        0.0491292       -0.124264     -3.13012e-05    -1.56022e-05          0.13408       -0.981478
                        0.171936        -0.97501      2.48896e-05    -1.62952e-05       0.00822313        0.139653     -0.000546798     1.43429e-05
                    -0.000106378     0.000194819         0.134314       -0.981888     -0.000634061     5.54017e-05        0.0139662        0.132918
281732                 0.0554595       -0.128418     -0.000547234    -0.000246377         0.171333        -0.97507       -3.489e-05     8.42644e-06
                    -0.000597899    -0.000136599        0.0491173       -0.124266     -3.13155e-05    -1.56133e-05         0.133847        -0.98151
                        0.171706       -0.975051      2.48984e-05    -1.62507e-05       0.00827719        0.139647     -0.000546997     1.45307e-05
                    -0.000106402     0.000194821         0.134081        -0.98192     -0.000634034     5.54953e-05        0.0140174         0.13291
281734                 0.0554476       -0.128421     -0.000547285    -0.000246211         0.171102       -0.975111     -3.49071e-05     8.42559e-06
                    -0.000597966    -0.000136451        0.0491053       -0.124268       -3.133e-05    -1.56244e-05         0.133613       -0.981542
                        0.171475       -0.975092      2.49072e-05    -1.62064e-05       0.00833124        0.139642     -0.000547197     1.47181e-05
                    -0.000106425     0.000194823         0.133848       -0.981953     -0.000634008      5.5588e-05        0.0140687        0.132902
281736                 0.0554358       -0.128423     -0.000547337    -0.000246044         0.170871       -0.975151     -3.49242e-05     8.42477e-06
                    -0.000598032    -0.000136302        0.0490934       -0.124269     -3.13445e-05    -1.56355e-05          0.13338       -0.981574
                        0.171245       -0.975132      2.49159e-05    -1.61622e-05       0.00838529        0.139636     -0.000547397     1.49053e-05
                    -0.000106449     0.000194824         0.133615       -0.981985     -0.000633983     5.56795e-05          0.01412        0.132894
281738                 0.0554239       -0.128426     -0.000547388    -0.000245878          0.17064       -0.975192     -3.49413e-05     8.42398e-06
                    -0.000598099    -0.000136154        0.0490815       -0.124271     -3.13591e-05    -1.56466e-05         0.133146       -0.981606
                        0.171014       -0.975173      2.49245e-05    -1.61181e-05       0.00843933        0.139631     -0.000547597     1.50921e-05
                    -0.000106473     0.000194826         0.133381       -0.982017      -0.00063396     5.57683e-05        0.0141712        0.132886
281740                 0.0554121       -0.128429      -0.00054744    -0.000245711          0.17041       -0.975233     -3.49584e-05     8.42321e-06
                    -0.000598165    -0.000136005        0.0490696       -0.124273     -3.13738e-05    -1.56579e-05         0.132913       -0.981638
                        0.170783       -0.975214       2.4933e-05    -1.60741e-05       0.00849338        0.139625     -0.000547797     1.52787e-05
                    -0.000106497     0.000194828         0.133148       -0.982049     -0.000633947     5.58523e-05        0.0142224        0.132878
281742                 0.0554002       -0.128431     -0.000547491    -0.000245544         0.170179       -0.975273     -3.49755e-05     8.42245e-06
                    -0.000598231    -0.000135856        0.0490577       -0.124275     -3.13888e-05    -1.56692e-05         0.132679        -0.98167
                        0.170553       -0.975255      2.49415e-05    -1.60302e-05       0.00854742         0.13962     -0.000547997     1.54649e-05
                    -0.000106521     0.000194829         0.132915       -0.982081     -0.000633983     5.59511e-05        0.0142737         0.13287
281744                 0.0553883       -0.128434     -0.000547543    -0.000245378         0.169948       -0.975314     -3.49925e-05      8.4217e-06
                    -0.000598298    -0.000135708        0.0490458       -0.124277     -3.14043e-05    -1.56808e-05         0.132446       -0.981701
                        0.170322       -0.975295        2.495e-05    -1.59864e-05       0.00860145        0.139614     -0.000548197     1.56508e-05
                    -0.000106545     0.000194831         0.132681       -0.982114     -0.000633908     5.61583e-05        0.0143249        0.132862
281746                 0.0553765       -0.128436     -0.000547594    -0.000245211         0.169717       -0.975355     -3.50096e-05     8.42095e-06
                    -0.000598364    -0.000135559        0.0490338       -0.124279      -3.1421e-05    -1.56937e-05         0.132212       -0.981733
                        0.170092       -0.975336      2.49584e-05    -1.59427e-05       0.00865548        0.139608     -0.000548397     1.58364e-05
                     -0.00010657     0.000194832         0.132448       -0.982146     -0.000633836     5.62196e-05        0.0143761        0.132853
281748                 0.0553646       -0.128439     -0.000547645    -0.000245045         0.169486       -0.975395     -3.50266e-05     8.42019e-06
                    -0.000598431    -0.000135411        0.0490219       -0.124281     -3.14375e-05    -1.57135e-05         0.131979       -0.981765
                        0.169861       -0.975377      2.49667e-05    -1.58991e-05       0.00870951        0.139603     -0.000548597     1.60218e-05
                    -0.000106594     0.000194834         0.132215       -0.982178     -0.000633803     5.62983e-05        0.0144274        0.132845
281750                 0.0553528       -0.128442     -0.000547697    -0.000244878         0.169255       -0.975435     -3.50435e-05      8.4194e-06
                    -0.000598498    -0.000135262          0.04901       -0.124283     -3.14358e-05    -1.57256e-05         0.131745       -0.981796
                         0.16963       -0.975417      2.49749e-05    -1.58557e-05       0.00876354        0.139597     -0.000548797      1.6207e-05
                    -0.000106619     0.000194835         0.131982       -0.982209     -0.000633774     5.63854e-05        0.0144786        0.132837
281752                 0.0553409       -0.128444     -0.000547748    -0.000244712         0.169025       -0.975476     -3.50604e-05     8.41855e-06
                    -0.000598564    -0.000135114        0.0489981       -0.124284     -3.14508e-05     -1.5729e-05         0.131512       -0.981828
                          0.1694       -0.975458      2.49831e-05    -1.58126e-05       0.00881755        0.139591     -0.000548997      1.6392e-05
                    -0.000106644     0.000194837         0.131748       -0.982241     -0.000633746     5.64757e-05        0.0145298        0.132829
281754                 0.0553291       -0.128447     -0.000547801    -0.000244548         0.168793       -0.975516      -3.5077e-05      8.4176e-06
                    -0.000598631    -0.000134965        0.0489862       -0.124286     -3.14669e-05    -1.57384e-05         0.131278       -0.981859
                        0.169169       -0.975498      2.49868e-05    -1.57703e-05       0.00887161        0.139586     -0.000549198     1.65771e-05
                     -0.00010667     0.000194838         0.131515       -0.982273     -0.000633718     5.65674e-05         0.014581        0.132821
281756                 0.0553172        -0.12845     -0.000547851    -0.000244378         0.168563       -0.975556     -3.50932e-05     8.41639e-06
                    -0.000598696    -0.000134818        0.0489743       -0.124288     -3.14822e-05    -1.57491e-05         0.131045       -0.981891
                        0.168938       -0.975538       2.4999e-05    -1.57249e-05        0.0089256         0.13958     -0.000549399     1.67625e-05
                    -0.000106688      0.00019484         0.131282       -0.982305     -0.000633691     5.66599e-05        0.0146322        0.132812
281758                 0.0553053       -0.128452     -0.000547902    -0.000244212         0.168332       -0.975597     -3.51084e-05     8.41441e-06
                    -0.000598763    -0.000134669        0.0489623        -0.12429     -3.14971e-05    -1.57603e-05         0.130811       -0.981922
                        0.168708       -0.975579      2.50071e-05    -1.56821e-05       0.00897961        0.139574     -0.000549601      1.6949e-05
                    -0.000106716     0.000194842         0.131048       -0.982337     -0.000633663     5.67525e-05        0.0146834        0.132804
281760                 0.0552935       -0.128455     -0.000547953    -0.000244045         0.168101       -0.975637     -3.51206e-05     8.40832e-06
                     -0.00059883    -0.000134521        0.0489504       -0.124292     -3.15117e-05    -1.57716e-05         0.130578       -0.981953
                        0.168477       -0.975619      2.50151e-05    -1.56392e-05       0.00903362        0.139569     -0.000549804     1.71386e-05
                    -0.000106741     0.000194843         0.130815       -0.982368     -0.000633637      5.6845e-05        0.0147346        0.132796
281762                 0.0552816       -0.128458     -0.000548004    -0.000243879          0.16787       -0.975677     -3.51659e-05     8.38079e-06
                    -0.000598896    -0.000134373        0.0489385       -0.124294     -3.15262e-05     -1.5783e-05         0.130344       -0.981985
                        0.168246       -0.975659      2.50229e-05    -1.55964e-05       0.00908763        0.139563      -0.00055001     1.73398e-05
