! TOUCHSTONE file generated by CST MICROWAVE STUDIO
! Date and time: Wed Oct 15 17:27:45 2025
! Project name: Teste_Macro_Metasurface_Nanopilar.cst
! Parameters = {H=600; L_x=70; L_y=75; Lambda=1064; Max_L=200; Min_L=70; PathPara=1; Phi=0; Step_L=10; Theta=0; p=520; phaseX=180; phaseY=0}
! Header version: 2018
! Port assignment regex: !\s*Touchstone port\s*([0-9]+)\s*=\s*(CST MWS port|CST DS port)\s*([0-9]+|Zmin|Zmax)\s*\(\"(.*)\"\)(\s*mode\s*([0-9]+))?.*
! Touchstone port assignment:
! Touchstone port 1 = CST MWS port Zmax ("") mode 1
! Touchstone port 2 = CST MWS port Zmax ("") mode 2
! Touchstone port 3 = CST MWS port Zmin ("") mode 1
! Touchstone port 4 = CST MWS port Zmin ("") mode 2
! S-Parameters are not renormalized. Each port impedance will be approximated by the real part at minimum frequency. The values are described via the [Reference] keyword.
! Default impedance is overridden by [Reference]
[Version] 2.0
# GHz S RI R 376.73
[Number of Ports] 4
[Reference]
376.73 376.73 259.888 259.888 
[Number of Frequencies] 51
[Network Data]
281700                 0.0620386       -0.132558     -0.000195728    -0.000172723         0.214648        -0.96547      5.15274e-05     -1.6061e-05
                     -2.4759e-05    -0.000204227        0.0674973       -0.135043     -3.50872e-05     4.21865e-05         0.243903       -0.957744
                        0.214584       -0.965395       6.0705e-05     9.87454e-05     -1.86709e-05        0.146372      -7.5002e-05     0.000209975
                    -3.41129e-05    -5.27527e-05          0.24424       -0.958006     -0.000183097     0.000137681       -0.0053718        0.150855
281702                 0.0620266       -0.132561     -0.000195768    -0.000172644          0.21442       -0.965521      5.15764e-05    -1.60886e-05
                    -2.48342e-05    -0.000204171        0.0674854       -0.135046     -3.50753e-05     4.21959e-05         0.243678       -0.957801
                        0.214357       -0.965446      6.07145e-05     9.87685e-05      3.81466e-05        0.146369     -7.48371e-05     0.000210138
                    -3.41969e-05    -5.27754e-05         0.244015       -0.958064     -0.000183073     0.000137709      -0.00531317        0.150855
281704                 0.0620146       -0.132564     -0.000195808    -0.000172566         0.214193       -0.965572      5.16256e-05    -1.61162e-05
                    -2.49094e-05    -0.000204115        0.0674734        -0.13505     -3.50634e-05     4.22053e-05         0.243453       -0.957858
                        0.214129       -0.965497       6.0724e-05     9.87915e-05      9.49622e-05        0.146367     -7.46719e-05     0.000210302
                    -3.42808e-05    -5.27981e-05          0.24379       -0.958122     -0.000183048     0.000137738      -0.00525454        0.150855
281706                 0.0620026       -0.132567     -0.000195847    -0.000172488         0.213965       -0.965623      5.16748e-05    -1.61439e-05
                    -2.49846e-05    -0.000204059        0.0674615       -0.135054     -3.50515e-05     4.22147e-05         0.243228       -0.957916
                        0.213902       -0.965548      6.07335e-05     9.88144e-05      0.000151776        0.146365     -7.45065e-05     0.000210466
                    -3.43646e-05    -5.28208e-05         0.243565       -0.958179     -0.000183023     0.000137767      -0.00519592        0.150855
281708                 0.0619906        -0.13257     -0.000195887    -0.000172409         0.213738       -0.965674      5.17241e-05    -1.61716e-05
                    -2.50599e-05    -0.000204003        0.0674495       -0.135057     -3.50396e-05     4.22241e-05         0.243003       -0.957973
                        0.213674       -0.965598      6.07429e-05     9.88374e-05      0.000208588        0.146362     -7.43407e-05      0.00021063
                    -3.44483e-05    -5.28436e-05          0.24334       -0.958237     -0.000182999     0.000137796      -0.00513729        0.150855
281710                 0.0619785       -0.132573     -0.000195927    -0.000172331          0.21351       -0.965724      5.17735e-05    -1.61993e-05
                    -2.51352e-05    -0.000203946        0.0674376       -0.135061     -3.50276e-05     4.22335e-05         0.242778       -0.958031
                        0.213447       -0.965649      6.07524e-05     9.88604e-05      0.000265397         0.14636     -7.41747e-05     0.000210795
                     -3.4532e-05    -5.28663e-05         0.243115       -0.958294     -0.000182974     0.000137825      -0.00507867        0.150855
281712                 0.0619665       -0.132576     -0.000195966    -0.000172252         0.213283       -0.965775       5.1823e-05    -1.62271e-05
                    -2.52105e-05     -0.00020389        0.0674256       -0.135064     -3.50156e-05     4.22429e-05         0.242554       -0.958088
                         0.21322       -0.965699      6.07618e-05     9.88833e-05      0.000322205        0.146357     -7.40084e-05     0.000210959
                    -3.46155e-05     -5.2889e-05          0.24289       -0.958352     -0.000182949     0.000137853      -0.00502005        0.150855
281714                 0.0619545       -0.132579     -0.000196006    -0.000172174         0.213055       -0.965825      5.18726e-05     -1.6255e-05
                    -2.52859e-05    -0.000203834        0.0674136       -0.135068     -3.50036e-05     4.22523e-05         0.242329       -0.958145
                        0.212992        -0.96575      6.07712e-05     9.89062e-05      0.000379011        0.146355     -7.38419e-05     0.000211125
                    -3.46989e-05    -5.29117e-05         0.242665       -0.958409     -0.000182924     0.000137882      -0.00496143        0.150854
281716                 0.0619425       -0.132582     -0.000196045    -0.000172096         0.212828       -0.965876      5.19222e-05    -1.62829e-05
                    -2.53613e-05    -0.000203778        0.0674017       -0.135072     -3.49916e-05     4.22617e-05         0.242104       -0.958202
                        0.212765         -0.9658      6.07806e-05      9.8929e-05      0.000435815        0.146352      -7.3675e-05      0.00021129
                    -3.47822e-05    -5.29345e-05          0.24244       -0.958466       -0.0001829     0.000137911      -0.00490281        0.150854
281718                 0.0619305       -0.132585     -0.000196084    -0.000172017           0.2126       -0.965926      5.19719e-05    -1.63109e-05
                    -2.54368e-05    -0.000203722        0.0673897       -0.135075     -3.49796e-05     4.22712e-05         0.241878       -0.958259
                        0.212537       -0.965851        6.079e-05     9.89519e-05      0.000492617         0.14635     -7.35079e-05     0.000211456
                    -3.48654e-05    -5.29572e-05         0.242215       -0.958524     -0.000182875      0.00013794      -0.00484419        0.150854
281720                 0.0619185       -0.132588     -0.000196124    -0.000171939         0.212373       -0.965977      5.20217e-05    -1.63389e-05
                    -2.55124e-05    -0.000203666        0.0673778       -0.135079     -3.49676e-05     4.22806e-05         0.241653       -0.958316
                         0.21231       -0.965901      6.07994e-05     9.89746e-05      0.000549417        0.146347     -7.33405e-05     0.000211622
                    -3.49485e-05    -5.29799e-05          0.24199       -0.958581      -0.00018285     0.000137969      -0.00478557        0.150854
281722                 0.0619065       -0.132591     -0.000196163     -0.00017186         0.212145       -0.966027      5.20716e-05    -1.63669e-05
                    -2.55879e-05     -0.00020361        0.0673658       -0.135083     -3.49555e-05       4.229e-05         0.241428       -0.958373
                        0.212082       -0.965951      6.08087e-05     9.89974e-05      0.000606215        0.146345     -7.31729e-05     0.000211788
                    -3.50315e-05    -5.30027e-05         0.241765       -0.958638     -0.000182825     0.000137998      -0.00472695        0.150853
281724                 0.0618945       -0.132594     -0.000196202    -0.000171782         0.211918       -0.966078      5.21215e-05     -1.6395e-05
                    -2.56636e-05    -0.000203554        0.0673539       -0.135086     -3.49434e-05     4.22994e-05         0.241203        -0.95843
                        0.211854       -0.966002       6.0818e-05     9.90201e-05      0.000663011        0.146342     -7.30049e-05     0.000211955
                    -3.51144e-05    -5.30254e-05          0.24154       -0.958695       -0.0001828     0.000138027      -0.00466834        0.150853
281726                 0.0618824       -0.132597     -0.000196242    -0.000171703          0.21169       -0.966128      5.21715e-05    -1.64231e-05
                    -2.57393e-05    -0.000203498        0.0673419        -0.13509     -3.49314e-05     4.23088e-05         0.240978       -0.958487
                        0.211627       -0.966052      6.08273e-05     9.90428e-05      0.000719805         0.14634     -7.28367e-05     0.000212121
                    -3.51972e-05    -5.30481e-05         0.241315       -0.958752     -0.000182775     0.000138056      -0.00460972        0.150853
281728                 0.0618704         -0.1326     -0.000196281    -0.000171625         0.211462       -0.966178      5.22216e-05    -1.64513e-05
                     -2.5815e-05    -0.000203442          0.06733       -0.135093     -3.49193e-05     4.23183e-05         0.240753       -0.958544
                        0.211399       -0.966102      6.08366e-05     9.90655e-05      0.000776597        0.146337     -7.26683e-05     0.000212288
                    -3.52799e-05    -5.30709e-05          0.24109       -0.958809      -0.00018275     0.000138085      -0.00455111        0.150852
281730                 0.0618584       -0.132603      -0.00019632    -0.000171546         0.211235       -0.966228      5.22717e-05    -1.64796e-05
                    -2.58908e-05    -0.000203386         0.067318       -0.135097     -3.49071e-05     4.23277e-05         0.240528       -0.958601
                        0.211172       -0.966152      6.08458e-05     9.90881e-05      0.000833387        0.146334     -7.24995e-05     0.000212456
                    -3.53624e-05    -5.30936e-05         0.240864       -0.958866     -0.000182725     0.000138114       -0.0044925        0.150852
281732                 0.0618464       -0.132606     -0.000196359    -0.000171467         0.211007       -0.966278       5.2322e-05    -1.65079e-05
                    -2.59666e-05     -0.00020333        0.0673061       -0.135101      -3.4895e-05     4.23371e-05         0.240303       -0.958657
                        0.210944       -0.966202       6.0855e-05     9.91106e-05      0.000890175        0.146332     -7.23305e-05     0.000212623
                    -3.54449e-05    -5.31163e-05         0.240639       -0.958923       -0.0001827     0.000138143      -0.00443388        0.150852
281734                 0.0618344       -0.132609     -0.000196398    -0.000171389          0.21078       -0.966328      5.23722e-05    -1.65362e-05
                    -2.60425e-05    -0.000203274        0.0672941       -0.135104     -3.48829e-05     4.23465e-05         0.240078       -0.958714
                        0.210717       -0.966252      6.08642e-05     9.91331e-05      0.000946961        0.146329     -7.21613e-05     0.000212791
                    -3.55272e-05     -5.3139e-05         0.240414        -0.95898     -0.000182674     0.000138172      -0.00437527        0.150851
281736                 0.0618224       -0.132612     -0.000196437     -0.00017131         0.210552       -0.966378      5.24225e-05    -1.65646e-05
                    -2.61185e-05    -0.000203218        0.0672822       -0.135108     -3.48707e-05      4.2356e-05         0.239853       -0.958771
                        0.210489       -0.966302      6.08733e-05     9.91555e-05       0.00100375        0.146326     -7.19917e-05     0.000212959
                    -3.56095e-05    -5.31617e-05         0.240189       -0.959037     -0.000182649     0.000138201      -0.00431666        0.150851
281738                 0.0618104       -0.132615     -0.000196476    -0.000171232         0.210324       -0.966428      5.24729e-05     -1.6593e-05
                    -2.61945e-05    -0.000203162        0.0672702       -0.135112     -3.48585e-05     4.23654e-05         0.239628       -0.958827
                        0.210261       -0.966352      6.08823e-05     9.91779e-05       0.00106053        0.146323     -7.18219e-05     0.000213128
                    -3.56916e-05    -5.31844e-05         0.239964       -0.959093     -0.000182624      0.00013823      -0.00425805         0.15085
281740                 0.0617983       -0.132618     -0.000196515    -0.000171153         0.210097       -0.966478      5.25234e-05    -1.66215e-05
                    -2.62706e-05    -0.000203106        0.0672583       -0.135115     -3.48463e-05     4.23749e-05         0.239402       -0.958884
                        0.210034       -0.966402      6.08913e-05     9.92002e-05       0.00111731        0.146321     -7.16518e-05     0.000213296
                    -3.57736e-05    -5.32071e-05         0.239738        -0.95915     -0.000182598     0.000138259      -0.00419945         0.15085
281742                 0.0617863       -0.132621     -0.000196554    -0.000171074         0.209869       -0.966528      5.25739e-05    -1.66501e-05
                    -2.63467e-05     -0.00020305        0.0672463       -0.135119     -3.48342e-05     4.23843e-05         0.239177        -0.95894
                        0.209806       -0.966451      6.09003e-05     9.92224e-05       0.00117408        0.146318     -7.14814e-05     0.000213465
                    -3.58555e-05    -5.32298e-05         0.239513       -0.959207     -0.000182573     0.000138288      -0.00414084        0.150849
281744                 0.0617743       -0.132624     -0.000196593    -0.000170995         0.209641       -0.966578      5.26245e-05    -1.66787e-05
                    -2.64229e-05    -0.000202994        0.0672343       -0.135122      -3.4822e-05     4.23937e-05         0.238952       -0.958997
                        0.209578       -0.966501      6.09092e-05     9.92446e-05       0.00123086        0.146315     -7.13108e-05     0.000213634
                    -3.59373e-05    -5.32525e-05         0.239288       -0.959263     -0.000182548     0.000138317      -0.00408223        0.150849
281746                 0.0617623       -0.132627     -0.000196632    -0.000170917         0.209414       -0.966627      5.26751e-05    -1.67074e-05
                    -2.64992e-05    -0.000202938        0.0672224       -0.135126     -3.48097e-05     4.24032e-05         0.238727       -0.959053
                        0.209351       -0.966551       6.0918e-05     9.92667e-05       0.00128763        0.146312     -7.11399e-05     0.000213803
                    -3.60189e-05    -5.32751e-05         0.239063        -0.95932     -0.000182522     0.000138346      -0.00402363        0.150848
281748                 0.0617503        -0.13263      -0.00019667    -0.000170838         0.209186       -0.966677      5.27258e-05    -1.67361e-05
                    -2.65755e-05    -0.000202882        0.0672104        -0.13513     -3.47975e-05     4.24126e-05         0.238502       -0.959109
                        0.209123         -0.9666      6.09267e-05     9.92887e-05       0.00134441        0.146309     -7.09688e-05     0.000213973
                    -3.61005e-05    -5.32978e-05         0.238837       -0.959376     -0.000182497     0.000138375      -0.00396503        0.150848
281750                 0.0617383       -0.132633     -0.000196709    -0.000170759         0.208958       -0.966727      5.27765e-05    -1.67649e-05
                    -2.66519e-05    -0.000202827        0.0671985       -0.135133     -3.47853e-05      4.2422e-05         0.238277       -0.959165
                        0.208895        -0.96665      6.09354e-05     9.93106e-05       0.00140117        0.146307     -7.07973e-05     0.000214143
                    -3.61819e-05    -5.33204e-05         0.238612       -0.959433     -0.000182471     0.000138404      -0.00390643        0.150847
281752                 0.0617262       -0.132636     -0.000196747     -0.00017068         0.208731       -0.966776      5.28273e-05    -1.67937e-05
                    -2.67284e-05    -0.000202771        0.0671865       -0.135137     -3.47731e-05     4.24314e-05         0.238051       -0.959222
                        0.208668       -0.966699       6.0944e-05     9.93324e-05       0.00145794        0.146304     -7.06256e-05     0.000214313
                    -3.62632e-05    -5.33431e-05         0.238387       -0.959489     -0.000182446     0.000138433      -0.00384782        0.150847
281754                 0.0617142       -0.132639     -0.000196786    -0.000170601         0.208503       -0.966826      5.28782e-05    -1.68226e-05
                    -2.68049e-05    -0.000202715        0.0671746       -0.135141     -3.47609e-05     4.24409e-05         0.237826       -0.959278
                         0.20844       -0.966749      6.09524e-05      9.9354e-05       0.00151471        0.146301     -7.04537e-05     0.000214483
                    -3.63444e-05    -5.33657e-05         0.238162       -0.959545      -0.00018242     0.000138462      -0.00378922        0.150846
281756                 0.0617022       -0.132642     -0.000196824    -0.000170522         0.208275       -0.966875      5.29291e-05    -1.68516e-05
                    -2.68815e-05    -0.000202659        0.0671626       -0.135144     -3.47487e-05     4.24503e-05         0.237601       -0.959334
                        0.208212       -0.966798      6.09608e-05     9.93756e-05       0.00157147        0.146298     -7.02814e-05     0.000214653
                    -3.64255e-05    -5.33883e-05         0.237936       -0.959602     -0.000182395     0.000138491      -0.00373063        0.150845
281758                 0.0616902       -0.132645     -0.000196862    -0.000170443         0.208047       -0.966925      5.29801e-05    -1.68806e-05
                    -2.69582e-05    -0.000202603        0.0671507       -0.135148     -3.47365e-05     4.24597e-05         0.237375        -0.95939
                        0.207984       -0.966848      6.09691e-05     9.93971e-05       0.00162823        0.146295     -7.01089e-05     0.000214824
                    -3.65064e-05    -5.34109e-05         0.237711       -0.959658     -0.000182369      0.00013852      -0.00367203        0.150845
281760                 0.0616782       -0.132648       -0.0001969    -0.000170364         0.207819       -0.966974      5.30312e-05    -1.69097e-05
                    -2.70349e-05    -0.000202547        0.0671387       -0.135151     -3.47242e-05     4.24691e-05          0.23715       -0.959446
                        0.207757       -0.966897      6.09772e-05     9.94184e-05       0.00168499        0.146292     -6.99361e-05     0.000214995
                    -3.65872e-05    -5.34335e-05         0.237486       -0.959714     -0.000182343     0.000138549      -0.00361343        0.150844
281762                 0.0616662       -0.132651     -0.000196938    -0.000170285         0.207592       -0.967023      5.30824e-05    -1.69389e-05
                    -2.71117e-05    -0.000202492        0.0671267       -0.135155      -3.4712e-05     4.24785e-05         0.236925       -0.959502
                        0.207529       -0.966946      6.09852e-05     9.94396e-05       0.00174175        0.146289      -6.9763e-05     0.000215166
