! TOUCHSTONE file generated by CST MICROWAVE STUDIO
! Date and time: Wed Oct 15 17:32:16 2025
! Project name: Teste_Macro_Metasurface_Nanopilar.cst
! Parameters = {H=600; L_x=145; L_y=170; Lambda=1064; Max_L=200; Min_L=70; PathPara=1; Phi=0; Step_L=10; Theta=0; p=520; phaseX=180; phaseY=0}
! Header version: 2018
! Port assignment regex: !\s*Touchstone port\s*([0-9]+)\s*=\s*(CST MWS port|CST DS port)\s*([0-9]+|Zmin|Zmax)\s*\(\"(.*)\"\)(\s*mode\s*([0-9]+))?.*
! Touchstone port assignment:
! Touchstone port 1 = CST MWS port Zmax ("") mode 1
! Touchstone port 2 = CST MWS port Zmax ("") mode 2
! Touchstone port 3 = CST MWS port Zmin ("") mode 1
! Touchstone port 4 = CST MWS port Zmin ("") mode 2
! S-Parameters are not renormalized. Each port impedance will be approximated by the real part at minimum frequency. The values are described via the [Reference] keyword.
! Default impedance is overridden by [Reference]
[Version] 2.0
# GHz S RI R 376.73
[Number of Ports] 4
[Reference]
376.73 376.73 259.888 259.888 
[Number of Frequencies] 51
[Network Data]
281700                  0.166443      -0.0132331     -0.000526774     0.000826788         0.665013       -0.722342     -0.000361573     -0.00109717
                    -0.000521129     0.000829582         0.230929       -0.133334      -0.00070652     -0.00101322         0.884414       -0.357378
                        0.664983        -0.72224     -0.000688824     -0.00108697      0.000502414        0.162364       0.00135817     0.000153725
                    -0.000362232     -0.00111263         0.884395       -0.357902       0.00129193     0.000210419        -0.250497       0.0491872
281702                  0.166443      -0.0132098     -0.000526401     0.000826054         0.664795       -0.722544     -0.000361976     -0.00109636
                    -0.000520668     0.000829227         0.230843       -0.133236     -0.000706623     -0.00101243         0.884297       -0.357776
                        0.664765       -0.722442     -0.000689139      -0.0010856       0.00062432        0.162362       0.00135776     0.000152564
                    -0.000362603     -0.00111193         0.884279         -0.3583       0.00129138     0.000209355        -0.250329       0.0494309
281704                  0.166442      -0.0131865     -0.000526029     0.000825321         0.664577       -0.722746     -0.000362379     -0.00109555
                    -0.000520207     0.000828873         0.230758       -0.133139     -0.000706727     -0.00101164          0.88418       -0.358174
                        0.664546       -0.722644     -0.000689451     -0.00108422      0.000746214        0.162361       0.00135735     0.000151405
                    -0.000362974     -0.00111123         0.884163       -0.358698       0.00129083     0.000208293        -0.250161       0.0496742
281706                  0.166442      -0.0131632      -0.00052566     0.000824589         0.664359       -0.722948     -0.000362782     -0.00109475
                    -0.000519746      0.00082852         0.230672       -0.133042      -0.00070683     -0.00101085         0.884063       -0.358572
                        0.664328       -0.722846      -0.00068976     -0.00108285      0.000868096        0.162359       0.00135694     0.000150247
                    -0.000363345     -0.00111054         0.884047       -0.359095       0.00129028     0.000207233        -0.249993       0.0499173
281708                  0.166442      -0.0131399     -0.000525293     0.000823859          0.66414       -0.723149     -0.000363183     -0.00109394
                    -0.000519287     0.000828166         0.230587       -0.132946     -0.000706932     -0.00101006         0.883945       -0.358969
                         0.66411       -0.723047     -0.000690067     -0.00108148      0.000989966        0.162357       0.00135653     0.000149091
                    -0.000363714     -0.00110984          0.88393       -0.359492       0.00128973     0.000206175        -0.249825         0.05016
281710                  0.166442      -0.0131167     -0.000524928     0.000823129         0.663922       -0.723351     -0.000363584     -0.00109313
                    -0.000518828     0.000827813         0.230502       -0.132849     -0.000707035     -0.00100927         0.883828       -0.359367
                        0.663891       -0.723249     -0.000690372     -0.00108011       0.00111182        0.162355       0.00135612     0.000147937
                    -0.000364083     -0.00110914         0.883813       -0.359889       0.00128917     0.000205118        -0.249657       0.0504023
281712                  0.166441      -0.0130934     -0.000524566       0.0008224         0.663704       -0.723552     -0.000363985     -0.00109233
                    -0.000518369      0.00082746         0.230417       -0.132752     -0.000707136     -0.00100848          0.88371       -0.359764
                        0.663673        -0.72345     -0.000690674     -0.00107875       0.00123367        0.162353       0.00135571     0.000146785
                    -0.000364451     -0.00110844         0.883697       -0.360286       0.00128862     0.000204063        -0.249489       0.0506444
281714                  0.166441      -0.0130701     -0.000524205     0.000821673         0.663485       -0.723754     -0.000364385     -0.00109152
                    -0.000517912     0.000827107         0.230332       -0.132655     -0.000707237     -0.00100769         0.883592       -0.360161
                        0.663454       -0.723652     -0.000690974     -0.00107738        0.0013555        0.162351       0.00135529     0.000145634
                    -0.000364819     -0.00110774          0.88358       -0.360682       0.00128807     0.000203009        -0.249321       0.0508862
281716                  0.166441      -0.0130469     -0.000523846     0.000820946         0.663267       -0.723955     -0.000364785     -0.00109071
                    -0.000517455     0.000826755         0.230247       -0.132559     -0.000707338     -0.00100691         0.883473       -0.360558
                        0.663235       -0.723853     -0.000691271     -0.00107601       0.00147732        0.162349       0.00135488     0.000144485
                    -0.000365185     -0.00110705         0.883462       -0.361078       0.00128752     0.000201958        -0.249153       0.0511276
281718                  0.166441      -0.0130236      -0.00052349     0.000820221         0.663048       -0.724157     -0.000365184     -0.00108991
                    -0.000516998     0.000826402         0.230162       -0.132462     -0.000707439     -0.00100612         0.883355       -0.360954
                        0.663017       -0.724054     -0.000691566     -0.00107464       0.00159913        0.162347       0.00135446     0.000143338
                    -0.000365551     -0.00110635         0.883345       -0.361475       0.00128696     0.000200908        -0.248984       0.0513687
281720                   0.16644      -0.0130004     -0.000523136     0.000819496          0.66283       -0.724358     -0.000365582      -0.0010891
                    -0.000516543      0.00082605         0.230078       -0.132366     -0.000707539     -0.00100534         0.883236       -0.361351
                        0.662798       -0.724256     -0.000691858     -0.00107327       0.00172093        0.162345       0.00135404     0.000142192
                    -0.000365917     -0.00110566         0.883227       -0.361871       0.00128641     0.000199859        -0.248816       0.0516094
281722                   0.16644      -0.0129772     -0.000522783     0.000818773         0.662611       -0.724559      -0.00036598      -0.0010883
                    -0.000516088     0.000825698         0.229993       -0.132269     -0.000707638     -0.00100455         0.883117       -0.361747
                        0.662579       -0.724457     -0.000692148      -0.0010719       0.00184271        0.162342       0.00135362     0.000141048
                    -0.000366281     -0.00110496          0.88311       -0.362266       0.00128586     0.000198812        -0.248648       0.0518499
281724                   0.16644      -0.0129539     -0.000522433     0.000818051         0.662392        -0.72476     -0.000366378     -0.00108749
                    -0.000515633     0.000825346         0.229909       -0.132173     -0.000707738     -0.00100377         0.882998       -0.362143
                         0.66236       -0.724658     -0.000692436     -0.00107054       0.00196448         0.16234        0.0013532     0.000139905
                    -0.000366645     -0.00110427         0.882992       -0.362662        0.0012853     0.000197767        -0.248479         0.05209
281726                   0.16644      -0.0129307     -0.000522085      0.00081733         0.662173       -0.724961     -0.000366775     -0.00108669
                    -0.000515179     0.000824995         0.229825       -0.132077     -0.000707837     -0.00100299         0.882879       -0.362539
                        0.662141       -0.724859     -0.000692721     -0.00106917       0.00208624        0.162337       0.00135278     0.000138765
                    -0.000367007     -0.00110358         0.882873       -0.363057       0.00128475     0.000196723        -0.248311       0.0523299
281728                   0.16644      -0.0129075     -0.000521739     0.000816611         0.661954       -0.725162     -0.000367171     -0.00108589
                    -0.000514726     0.000824643         0.229741       -0.131981     -0.000707936     -0.00100221          0.88276       -0.362934
                        0.661922        -0.72506     -0.000693003      -0.0010678       0.00220799        0.162335       0.00135236     0.000137625
                    -0.000367369     -0.00110288         0.882755       -0.363452       0.00128419      0.00019568        -0.248142       0.0525694
281730                  0.166439      -0.0128843     -0.000521395     0.000815892         0.661736       -0.725363     -0.000367566     -0.00108509
                    -0.000514274     0.000824292         0.229657       -0.131885     -0.000708035     -0.00100143          0.88264        -0.36333
                        0.661703       -0.725261     -0.000693283     -0.00106644       0.00232972        0.162332       0.00135194     0.000136488
                    -0.000367728     -0.00110219         0.882636       -0.363847       0.00128364     0.000194638        -0.247973       0.0528085
281732                  0.166439      -0.0128611     -0.000521053     0.000815175         0.661517       -0.725563      -0.00036796     -0.00108429
                    -0.000513822     0.000823941         0.229573       -0.131789     -0.000708135     -0.00100065          0.88252       -0.363725
                        0.661484       -0.725461      -0.00069356     -0.00106507       0.00245144        0.162329       0.00135151     0.000135352
                    -0.000368083      -0.0011015         0.882518       -0.364242       0.00128308     0.000193598        -0.247804       0.0530474
281734                  0.166439      -0.0128378     -0.000520713     0.000814458         0.661298       -0.725764     -0.000368353     -0.00108349
                     -0.00051337      0.00082359          0.22949       -0.131693     -0.000708235    -0.000999868           0.8824        -0.36412
                        0.661264       -0.725662     -0.000693835     -0.00106371       0.00257315        0.162326       0.00135109     0.000134217
                    -0.000368438      -0.0011008         0.882399       -0.364636       0.00128253     0.000192557        -0.247635        0.053286
281736                  0.166439      -0.0128147     -0.000520375     0.000813743         0.661079       -0.725965     -0.000368745     -0.00108269
                     -0.00051292     0.000823239         0.229406       -0.131597     -0.000708337     -0.00099909          0.88228       -0.364515
                        0.661047       -0.725863     -0.000694107     -0.00106234       0.00269484        0.162324       0.00135066     0.000133084
                    -0.000368798      -0.0011001          0.88228       -0.365031       0.00128198     0.000191516        -0.247467       0.0535242
281738                  0.166439      -0.0127916     -0.000520039     0.000813029         0.660859       -0.726165     -0.000369136      -0.0010819
                     -0.00051247     0.000822888         0.229323       -0.131501     -0.000708444    -0.000998312          0.88216       -0.364909
                        0.660827       -0.726063     -0.000694377     -0.00106098       0.00281652        0.162321       0.00135024     0.000131953
                     -0.00036916     -0.00109941         0.882161       -0.365425       0.00128143     0.000190472        -0.247298       0.0537621
281740                  0.166439      -0.0127684     -0.000519705     0.000812317          0.66064       -0.726366     -0.000369525      -0.0010811
                     -0.00051202     0.000822537         0.229239       -0.131405     -0.000708565    -0.000997533          0.88204       -0.365304
                        0.660608       -0.726264     -0.000694644     -0.00105961       0.00293818        0.162317       0.00134981     0.000130823
                    -0.000369521     -0.00109872         0.882041       -0.365819        0.0012809     0.000189413        -0.247128       0.0539997
281742                  0.166438      -0.0127453     -0.000519373     0.000811605         0.660421       -0.726566     -0.000369912     -0.00108031
                    -0.000511571     0.000822187         0.229156        -0.13131     -0.000708793     -0.00099673         0.881919       -0.365698
                        0.660388       -0.726464     -0.000694909     -0.00105825       0.00305982        0.162314       0.00134938     0.000129694
                    -0.000369881     -0.00109803         0.881921       -0.366212       0.00128043      0.00018825        -0.246959        0.054237
281744                  0.166438      -0.0127221     -0.000519043     0.000810895         0.660201       -0.726768     -0.000370298     -0.00107952
                    -0.000511123     0.000821836         0.229073       -0.131214      -0.00070851    -0.000995965         0.881798       -0.366092
                        0.660169       -0.726664     -0.000695171     -0.00105689        0.0031816        0.162311       0.00134895     0.000128567
                    -0.000370239     -0.00109734         0.881802       -0.366606       0.00127942       0.0001876         -0.24679       0.0544739
281746                  0.166438       -0.012699     -0.000518715     0.000810186         0.659982       -0.726967     -0.000370681     -0.00107873
                    -0.000510675     0.000821486          0.22899       -0.131119      -0.00070872     -0.00099521         0.881677       -0.366486
                        0.659949       -0.726865     -0.000695431     -0.00105553       0.00330316        0.162308       0.00134852     0.000127441
                    -0.000370595     -0.00109665         0.881682       -0.366999       0.00127908     0.000186465        -0.246621       0.0547106
281748                  0.166438      -0.0126758     -0.000518389     0.000809478         0.659763       -0.727167     -0.000371063     -0.00107794
                    -0.000510227     0.000821135         0.228908       -0.131023     -0.000708839    -0.000994438         0.881556       -0.366879
                         0.65973       -0.727065     -0.000695688     -0.00105417       0.00342477        0.162304       0.00134809     0.000126317
                    -0.000370951     -0.00109596         0.881561       -0.367392       0.00127855     0.000185414        -0.246451       0.0549469
281750                  0.166438      -0.0126527     -0.000518065     0.000808771         0.659544       -0.727367     -0.000371443     -0.00107716
                    -0.000509781     0.000820785         0.228825       -0.130928     -0.000708943    -0.000993666         0.881435       -0.367273
                         0.65951       -0.727265     -0.000695943      -0.0010528       0.00354637        0.162301       0.00134766     0.000125193
                    -0.000371306     -0.00109527         0.881441       -0.367785         0.001278     0.000184379        -0.246282       0.0551829
281752                  0.166438      -0.0126296     -0.000517743     0.000808066         0.659324       -0.727567     -0.000371822     -0.00107638
                    -0.000509335     0.000820434         0.228742       -0.130832     -0.000709041    -0.000992895         0.881313       -0.367666
                         0.65929       -0.727465     -0.000696195     -0.00105144       0.00366795        0.162297       0.00134723     0.000124071
                    -0.000371661     -0.00109458         0.881321       -0.368178       0.00127745     0.000183351        -0.246113       0.0554187
281754                  0.166438      -0.0126065     -0.000517423     0.000807362         0.659104       -0.727767     -0.000372203      -0.0010756
                    -0.000508889     0.000820084          0.22866       -0.130737     -0.000709138    -0.000992124         0.881191       -0.368059
                        0.659071       -0.727665     -0.000696445     -0.00105009       0.00378953        0.162294        0.0013468     0.000122951
                    -0.000372014     -0.00109389           0.8812       -0.368571        0.0012769     0.000182327        -0.245943        0.055654
281756                  0.166438      -0.0125834     -0.000517105     0.000806659         0.658885       -0.727967     -0.000372589     -0.00107483
                    -0.000508444     0.000819734         0.228578       -0.130642     -0.000709232    -0.000991354         0.881069       -0.368452
                        0.658851       -0.727865     -0.000696692     -0.00104873       0.00391109         0.16229       0.00134637     0.000121831
                    -0.000372367     -0.00109321         0.881079       -0.368963       0.00127634     0.000181306        -0.245773       0.0558891
281758                  0.166437      -0.0125603     -0.000516788     0.000805958         0.658665       -0.728167     -0.000372983     -0.00107406
                       -0.000508     0.000819384         0.228496       -0.130547     -0.000709326    -0.000990585         0.880947       -0.368844
                        0.658631       -0.728065     -0.000696937     -0.00104737       0.00403265        0.162286       0.00134593     0.000120713
                    -0.000372718     -0.00109252         0.880958       -0.369355       0.00127578     0.000180287        -0.245604       0.0561239
281760                  0.166437      -0.0125372     -0.000516474     0.000805258         0.658445       -0.728366      -0.00037338     -0.00107328
                    -0.000507557     0.000819034         0.228414       -0.130452     -0.000709419    -0.000989816         0.880825       -0.369237
                        0.658411       -0.728264     -0.000697179     -0.00104601       0.00415418        0.162282        0.0013455     0.000119597
                     -0.00037307     -0.00109183         0.880836       -0.369747       0.00127522      0.00017927        -0.245434       0.0563583
281762                  0.166437      -0.0125141     -0.000516161     0.000804559         0.658226       -0.728566     -0.000373773     -0.00107249
                    -0.000507114     0.000818684         0.228332       -0.130357     -0.000709511    -0.000989048         0.880703       -0.369629
                        0.658191       -0.728464     -0.000697418     -0.00104465       0.00427571        0.162278       0.00134507     0.000118482
