! TOUCHSTONE file generated by CST MICROWAVE STUDIO
! Date and time: Wed Oct 15 17:30:41 2025
! Project name: Teste_Macro_Metasurface_Nanopilar.cst
! Parameters = {H=600; L_x=120; L_y=100; Lambda=1064; Max_L=200; Min_L=70; PathPara=1; Phi=0; Step_L=10; Theta=0; p=520; phaseX=180; phaseY=0}
! Header version: 2018
! Port assignment regex: !\s*Touchstone port\s*([0-9]+)\s*=\s*(CST MWS port|CST DS port)\s*([0-9]+|Zmin|Zmax)\s*\(\"(.*)\"\)(\s*mode\s*([0-9]+))?.*
! Touchstone port assignment:
! Touchstone port 1 = CST MWS port Zmax ("") mode 1
! Touchstone port 2 = CST MWS port Zmax ("") mode 2
! Touchstone port 3 = CST MWS port Zmin ("") mode 1
! Touchstone port 4 = CST MWS port Zmin ("") mode 2
! S-Parameters are not renormalized. Each port impedance will be approximated by the real part at minimum frequency. The values are described via the [Reference] keyword.
! Default impedance is overridden by [Reference]
[Version] 2.0
# GHz S RI R 376.73
[Number of Ports] 4
[Reference]
376.73 376.73 259.888 259.888 
[Number of Frequencies] 51
[Network Data]
281700                0.00623723        0.059465      0.000734642    -0.000563904         -0.80947       -0.578749      0.000102948     0.000325729
                     0.000706013    -0.000618747          0.17251      -0.0163428     -0.000170375     0.000362898        -0.839126        0.500302
                       -0.809439       -0.578952     -0.000174849     0.000316832       -0.0580168       0.0143781     -0.000589411    -0.000603542
                     0.000187519     0.000302827        -0.839033        0.500155     -0.000695312     -0.00051642        -0.096111        0.143425
281702                0.00624372       0.0594811      0.000734573    -0.000564372        -0.809643       -0.578506      0.000102922     0.000325667
                      0.00070597    -0.000619129         0.172506      -0.0163683     -0.000170279     0.000362929        -0.838933        0.500625
                       -0.809612       -0.578708       -0.0001747     0.000316926       -0.0580255       0.0144121     -0.000589605    -0.000603574
                     0.000187562     0.000302717         -0.83884        0.500479     -0.000695614     -0.00051627       -0.0960215        0.143483
281704                0.00625021       0.0594971      0.000734504    -0.000564838        -0.809816       -0.578262      0.000102896     0.000325605
                     0.000705927     -0.00061951         0.172503      -0.0163939     -0.000170183     0.000362961         -0.83874        0.500948
                       -0.809785       -0.578465     -0.000174551     0.000317019       -0.0580342       0.0144461     -0.000589799    -0.000603605
                     0.000187606     0.000302607        -0.838647        0.500802     -0.000695917    -0.000516119        -0.095932        0.143542
281706                 0.0062567       0.0595132      0.000734434    -0.000565305        -0.809989       -0.578018      0.000102871     0.000325545
                     0.000705884    -0.000619891         0.172499      -0.0164194     -0.000170087     0.000362992        -0.838546        0.501271
                       -0.809957       -0.578221     -0.000174403     0.000317111       -0.0580429       0.0144801     -0.000589992    -0.000603637
                     0.000187649     0.000302497        -0.838453        0.501125      -0.00069622    -0.000515969       -0.0958424          0.1436
281708                 0.0062632       0.0595292      0.000734365    -0.000565772        -0.810162       -0.577774      0.000102845     0.000325484
                      0.00070584    -0.000620272         0.172495       -0.016445      -0.00016999     0.000363024        -0.838353        0.501594
                        -0.81013       -0.577977     -0.000174254     0.000317204       -0.0580516       0.0145141     -0.000590186    -0.000603668
                     0.000187692     0.000302387         -0.83826        0.501448     -0.000696523    -0.000515819       -0.0957528        0.143658
281710                 0.0062697       0.0595452      0.000734295    -0.000566238        -0.810334        -0.57753      0.000102819     0.000325424
                     0.000705796    -0.000620654         0.172492      -0.0164705     -0.000169894     0.000363055        -0.838159        0.501916
                       -0.810303       -0.577733     -0.000174106     0.000317296       -0.0580602       0.0145482      -0.00059038    -0.000603699
                     0.000187735     0.000302276        -0.838066        0.501771     -0.000696827    -0.000515668       -0.0956632        0.143717
281712                0.00627621       0.0595613      0.000734225    -0.000566704        -0.810507       -0.577286      0.000102794     0.000325365
                     0.000705752    -0.000621035         0.172488      -0.0164961     -0.000169797     0.000363086        -0.837966        0.502239
                       -0.810475       -0.577489     -0.000173957     0.000317388       -0.0580688       0.0145822     -0.000590574    -0.000603731
                     0.000187778     0.000302166        -0.837873        0.502094     -0.000697131    -0.000515518       -0.0955735        0.143775
281714                0.00628272       0.0595773      0.000734155     -0.00056717         -0.81068       -0.577042      0.000102769     0.000325306
                     0.000705708    -0.000621416         0.172484      -0.0165216       -0.0001697     0.000363117        -0.837772        0.502561
                       -0.810647       -0.577244     -0.000173809      0.00031748       -0.0580774       0.0146163     -0.000590768    -0.000603762
                     0.000187821     0.000302056        -0.837679        0.502417     -0.000697435    -0.000515368       -0.0954838        0.143833
281716                0.00628923       0.0595933      0.000734084    -0.000567635        -0.810852       -0.576798      0.000102744     0.000325248
                     0.000705663    -0.000621798          0.17248      -0.0165472     -0.000169602     0.000363148        -0.837578        0.502884
                        -0.81082          -0.577     -0.000173661     0.000317571        -0.058086       0.0146504     -0.000590962    -0.000603793
                     0.000187864     0.000301946        -0.837485        0.502739      -0.00069774    -0.000515217        -0.095394        0.143891
281718                0.00629575       0.0596093      0.000734014    -0.000568101        -0.811025       -0.576553      0.000102719      0.00032519
                     0.000705619    -0.000622179         0.172477      -0.0165727     -0.000169505     0.000363179        -0.837384        0.503206
                       -0.810992       -0.576756     -0.000173513     0.000317663       -0.0580946       0.0146845     -0.000591156    -0.000603824
                     0.000187906     0.000301835        -0.837291        0.503062     -0.000698045    -0.000515067       -0.0953042        0.143949
281720                0.00630227       0.0596254      0.000733943    -0.000568566        -0.811197       -0.576309      0.000102694     0.000325133
                     0.000705574    -0.000622561         0.172473      -0.0165983     -0.000169406     0.000363211        -0.837189        0.503529
                       -0.811164       -0.576512     -0.000173365     0.000317754       -0.0581031       0.0147186      -0.00059135    -0.000603855
                     0.000187949     0.000301725        -0.837096        0.503385     -0.000698349    -0.000514917       -0.0952144        0.144007
281722                 0.0063088       0.0596414      0.000733872    -0.000569032        -0.811369       -0.576065      0.000102669     0.000325076
                     0.000705529    -0.000622943         0.172469      -0.0166238     -0.000169308     0.000363242        -0.836995        0.503851
                       -0.811336       -0.576267     -0.000173217     0.000317845       -0.0581116       0.0147527     -0.000591544    -0.000603886
                     0.000187991     0.000301615        -0.836902        0.503707     -0.000698654    -0.000514767       -0.0951245        0.144065
281724                0.00631533       0.0596574      0.000733802    -0.000569497        -0.811542        -0.57582      0.000102645     0.000325019
                     0.000705484    -0.000623324         0.172466      -0.0166494      -0.00016921     0.000363274          -0.8368        0.504173
                       -0.811508       -0.576023      -0.00017307     0.000317936       -0.0581201       0.0147869     -0.000591739    -0.000603917
                     0.000188034     0.000301504        -0.836707         0.50403     -0.000698959    -0.000514617       -0.0950346        0.144123
281726                0.00632186       0.0596735       0.00073373    -0.000569962        -0.811714       -0.575576       0.00010262     0.000324963
                     0.000705438    -0.000623706         0.172462      -0.0166749     -0.000169112     0.000363307        -0.836606        0.504495
                        -0.81168       -0.575778     -0.000172922     0.000318026       -0.0581286        0.014821     -0.000591933    -0.000603948
                     0.000188076     0.000301394        -0.836513        0.504352     -0.000699264    -0.000514467       -0.0949446        0.144181
281728                 0.0063284       0.0596895      0.000733659    -0.000570427        -0.811886       -0.575332      0.000102596     0.000324907
                     0.000705393    -0.000624088         0.172458      -0.0167005     -0.000169014      0.00036334        -0.836411        0.504817
                       -0.811852       -0.575534     -0.000172775     0.000318117       -0.0581371       0.0148552     -0.000592128    -0.000603979
                     0.000188118     0.000301284        -0.836318        0.504675     -0.000699569    -0.000514317       -0.0948546        0.144239
281730                0.00633494       0.0597055      0.000733588    -0.000570892        -0.812058       -0.575087      0.000102571     0.000324852
                     0.000705347    -0.000624469         0.172454      -0.0167261     -0.000168916     0.000363372        -0.836216        0.505139
                       -0.812024       -0.575289     -0.000172627     0.000318207       -0.0581455       0.0148894     -0.000592322     -0.00060401
                     0.000188161     0.000301173        -0.836123        0.504997     -0.000699874    -0.000514167       -0.0947646        0.144296
281732                0.00634148       0.0597215      0.000733516    -0.000571356         -0.81223       -0.574842      0.000102547     0.000324797
                     0.000705301    -0.000624851          0.17245      -0.0167516     -0.000168818     0.000363406        -0.836021        0.505461
                       -0.812196       -0.575044      -0.00017248     0.000318297       -0.0581539       0.0149236     -0.000592517    -0.000604042
                     0.000188203     0.000301063        -0.835928        0.505319     -0.000700179    -0.000514016       -0.0946745        0.144354
281734                0.00634803       0.0597376      0.000733444    -0.000571821        -0.812402       -0.574598      0.000102522     0.000324742
                     0.000705255    -0.000625233         0.172447      -0.0167772     -0.000168721     0.000363439        -0.835826        0.505783
                       -0.812368         -0.5748     -0.000172333     0.000318388       -0.0581623       0.0149578     -0.000592712    -0.000604073
                     0.000188245     0.000300953        -0.835733        0.505642     -0.000700484    -0.000513866       -0.0945844        0.144411
281736                0.00635458       0.0597536      0.000733372    -0.000572286        -0.812573       -0.574353      0.000102498     0.000324687
                     0.000705208    -0.000625615         0.172443      -0.0168027     -0.000168624     0.000363472         -0.83563        0.506105
                       -0.812539       -0.574555     -0.000172186     0.000318478       -0.0581707        0.014992     -0.000592908    -0.000604104
                     0.000188287     0.000300842        -0.835538        0.505964     -0.000700789    -0.000513716       -0.0944942        0.144469
281738                0.00636114       0.0597696        0.0007333     -0.00057275        -0.812745       -0.574108      0.000102474     0.000324633
                     0.000705161    -0.000625997         0.172439      -0.0168283     -0.000168527     0.000363505        -0.835435        0.506427
                       -0.812711        -0.57431     -0.000172039     0.000318568       -0.0581791       0.0150262     -0.000593103    -0.000604136
                     0.000188329     0.000300732        -0.835342        0.506286     -0.000701093    -0.000513565       -0.0944041        0.144526
281740                 0.0063677       0.0597856      0.000733228    -0.000573215        -0.812917       -0.573863       0.00010245      0.00032458
                     0.000705114    -0.000626379         0.172435      -0.0168539      -0.00016843     0.000363538         -0.83524        0.506749
                       -0.812882       -0.574065     -0.000171892     0.000318657       -0.0581874       0.0150604     -0.000593299    -0.000604168
                      0.00018837     0.000300622        -0.835147        0.506608     -0.000701398    -0.000513415       -0.0943138        0.144584
281742                0.00637426       0.0598017      0.000733155    -0.000573679        -0.813088       -0.573618      0.000102426     0.000324526
                     0.000705067    -0.000626761         0.172431      -0.0168794     -0.000168333      0.00036357        -0.835044         0.50707
                       -0.813054        -0.57382     -0.000171745     0.000318747       -0.0581957       0.0150947     -0.000593495      -0.0006042
                     0.000188412     0.000300511        -0.834951         0.50693     -0.000701703    -0.000513264       -0.0942236        0.144641
281744                0.00638083       0.0598177      0.000733083    -0.000574144         -0.81326       -0.573374      0.000102402     0.000324473
                      0.00070502    -0.000627143         0.172428       -0.016905     -0.000168237     0.000363603        -0.834848        0.507392
                       -0.813225       -0.573575     -0.000171598     0.000318837        -0.058204        0.015129     -0.000593691    -0.000604232
                     0.000188454     0.000300401        -0.834755        0.507252     -0.000702008    -0.000513113       -0.0941333        0.144698
281746                 0.0063874       0.0598337       0.00073301    -0.000574608        -0.813431       -0.573129      0.000102378      0.00032442
                     0.000704972    -0.000627525         0.172424      -0.0169305     -0.000168141     0.000363636        -0.834652        0.507713
                       -0.813396        -0.57333     -0.000171451     0.000318926       -0.0582123       0.0151632     -0.000593888    -0.000604264
                     0.000188495      0.00030029        -0.834559        0.507573     -0.000702312    -0.000512962       -0.0940429        0.144755
281748                0.00639397       0.0598497      0.000732937    -0.000575072        -0.813603       -0.572883      0.000102354     0.000324367
                     0.000704925    -0.000627907          0.17242      -0.0169561     -0.000168044     0.000363668        -0.834456        0.508035
                       -0.813567       -0.573085     -0.000171304     0.000319016       -0.0582206       0.0151975     -0.000594085    -0.000604297
                     0.000188537      0.00030018        -0.834363        0.507895     -0.000702617    -0.000512811       -0.0939525        0.144813
281750                0.00640055       0.0598657      0.000732864    -0.000575537        -0.813774       -0.572638       0.00010233     0.000324315
                     0.000704876     -0.00062829         0.172416      -0.0169817     -0.000167948       0.0003637         -0.83426        0.508356
                       -0.813739        -0.57284     -0.000171157     0.000319105       -0.0582288       0.0152318     -0.000594282     -0.00060433
                     0.000188578      0.00030007        -0.834167        0.508217     -0.000702921     -0.00051266       -0.0938621         0.14487
281752                0.00640713       0.0598817       0.00073279    -0.000576001        -0.813945       -0.572393      0.000102306     0.000324263
                     0.000704828    -0.000628672         0.172412      -0.0170072     -0.000167852     0.000363732        -0.834063        0.508678
                        -0.81391       -0.572595      -0.00017101     0.000319195       -0.0582371       0.0152661      -0.00059448    -0.000604364
                      0.00018862     0.000299959        -0.833971        0.508538     -0.000703226    -0.000512509       -0.0937716        0.144927
281754                0.00641372       0.0598978      0.000732716    -0.000576466        -0.814117       -0.572148      0.000102282     0.000324211
                      0.00070478    -0.000629054         0.172408      -0.0170328     -0.000167756     0.000363764        -0.833867        0.508999
                       -0.814081        -0.57235     -0.000170863     0.000319284       -0.0582453       0.0153005     -0.000594679    -0.000604398
                     0.000188661     0.000299849        -0.833774         0.50886      -0.00070353    -0.000512358       -0.0936811        0.144984
281756                0.00642031       0.0599138      0.000732643     -0.00057693        -0.814288       -0.571903      0.000102259      0.00032416
                     0.000704731    -0.000629436         0.172404      -0.0170584      -0.00016766     0.000363796         -0.83367         0.50932
                       -0.814251       -0.572104     -0.000170716     0.000319373       -0.0582535       0.0153348     -0.000594878    -0.000604432
                     0.000188702     0.000299739        -0.833578        0.509181     -0.000703834    -0.000512207       -0.0935906        0.145041
281758                 0.0064269       0.0599298      0.000732569    -0.000577395        -0.814459       -0.571657      0.000102235     0.000324109
                     0.000704682    -0.000629819         0.172401       -0.017084     -0.000167564     0.000363828        -0.833474        0.509641
                       -0.814422       -0.571859     -0.000170569     0.000319462       -0.0582616       0.0153692     -0.000595078    -0.000604467
                     0.000188744     0.000299629        -0.833381        0.509503     -0.000704137    -0.000512057          -0.0935        0.145097
281760                 0.0064335       0.0599458      0.000732494     -0.00057786         -0.81463       -0.571412      0.000102211     0.000324058
                     0.000704633    -0.000630201         0.172397      -0.0171095     -0.000167469     0.000363859        -0.833277        0.509962
                       -0.814593       -0.571613     -0.000170422     0.000319552       -0.0582698       0.0154034     -0.000595278    -0.000604503
                     0.000188785     0.000299518        -0.833184        0.509824     -0.000704438    -0.000511908       -0.0934094        0.145154
281762                 0.0064401       0.0599618       0.00073242    -0.000578325        -0.814801       -0.571167      0.000102188     0.000324007
                     0.000704583    -0.000630584         0.172393      -0.0171351     -0.000167373     0.000363889         -0.83308        0.510283
                       -0.814764       -0.571368     -0.000170275     0.000319641       -0.0582779       0.0154378     -0.000595478    -0.000604539
