! TOUCHSTONE file generated by CST MICROWAVE STUDIO
! Date and time: Wed Oct 15 17:31:11 2025
! Project name: Teste_Macro_Metasurface_Nanopilar.cst
! Parameters = {H=600; L_x=130; L_y=70; Lambda=1064; Max_L=200; Min_L=70; PathPara=1; Phi=0; Step_L=10; Theta=0; p=520; phaseX=180; phaseY=0}
! Header version: 2018
! Port assignment regex: !\s*Touchstone port\s*([0-9]+)\s*=\s*(CST MWS port|CST DS port)\s*([0-9]+|Zmin|Zmax)\s*\(\"(.*)\"\)(\s*mode\s*([0-9]+))?.*
! Touchstone port assignment:
! Touchstone port 1 = CST MWS port Zmax ("") mode 1
! Touchstone port 2 = CST MWS port Zmax ("") mode 2
! Touchstone port 3 = CST MWS port Zmin ("") mode 1
! Touchstone port 4 = CST MWS port Zmin ("") mode 2
! S-Parameters are not renormalized. Each port impedance will be approximated by the real part at minimum frequency. The values are described via the [Reference] keyword.
! Default impedance is overridden by [Reference]
[Version] 2.0
# GHz S RI R 376.73
[Number of Ports] 4
[Reference]
376.73 376.73 259.888 259.888 
[Number of Frequencies] 51
[Network Data]
281700                 0.0342947       -0.118754     -0.000207305     0.000360087        0.0554947       -0.990465      1.94728e-07      7.6663e-05
                      -0.0002688     0.000314082         0.127131       0.0369998      5.38943e-06    -8.64107e-05        -0.937458       -0.308339
                       0.0557664       -0.990482     -3.21571e-05    -0.000145507        0.0207511        0.121932     -0.000305349     0.000161222
                    -3.00402e-05     8.79838e-05        -0.937396       -0.307992     -0.000434894     4.83361e-05        -0.124147      -0.0444379
281702                 0.0342822       -0.118755     -0.000207214     0.000360129        0.0552574       -0.990479      2.36291e-07     7.67094e-05
                    -0.000268714     0.000314105         0.127144       0.0369962      5.28175e-06    -8.64048e-05        -0.937555        -0.30804
                       0.0555291       -0.990495     -3.22175e-05    -0.000145456         0.020797        0.121921      -0.00030527     0.000161234
                     -3.0068e-05     8.79803e-05        -0.937493       -0.307692     -0.000434925     4.85294e-05        -0.124183      -0.0443692
281704                 0.0342696       -0.118755     -0.000207123     0.000360171        0.0550201       -0.990492      2.77989e-07     7.67558e-05
                    -0.000268628     0.000314129         0.127157       0.0369926      5.17406e-06    -8.63989e-05        -0.937651        -0.30774
                       0.0552918       -0.990509     -3.22778e-05    -0.000145405        0.0208429        0.121909     -0.000305192     0.000161247
                    -3.00958e-05     8.79768e-05        -0.937589       -0.307393     -0.000434955     4.87228e-05         -0.12422      -0.0443005
281706                  0.034257       -0.118755     -0.000207032     0.000360212        0.0547827       -0.990506       3.1983e-07     7.68022e-05
                    -0.000268542     0.000314153          0.12717       0.0369891      5.06634e-06    -8.63929e-05        -0.937748        -0.30744
                       0.0550545       -0.990522     -3.23379e-05    -0.000145355        0.0208889        0.121898     -0.000305113     0.000161259
                    -3.01235e-05     8.79732e-05        -0.937685       -0.307093     -0.000434986     4.89163e-05        -0.124257      -0.0442317
281708                 0.0342445       -0.118755     -0.000206941     0.000360254        0.0545453       -0.990519      3.61826e-07     7.68486e-05
                    -0.000268456     0.000314177         0.127183       0.0369855       4.9586e-06    -8.63869e-05        -0.937844       -0.307141
                       0.0548171       -0.990536     -3.23979e-05    -0.000145304        0.0209348        0.121887     -0.000305034     0.000161272
                    -3.01511e-05     8.79697e-05        -0.937781       -0.306793     -0.000435016     4.91099e-05        -0.124293      -0.0441629
281710                 0.0342319       -0.118756      -0.00020685     0.000360296         0.054308       -0.990533      4.03993e-07     7.68949e-05
                     -0.00026837       0.0003142         0.127195       0.0369819      4.85083e-06    -8.63808e-05         -0.93794       -0.306841
                       0.0545798       -0.990549     -3.24578e-05    -0.000145254        0.0209807        0.121876     -0.000304955     0.000161285
                    -3.01785e-05      8.7966e-05        -0.937877       -0.306494     -0.000435046     4.93035e-05         -0.12433      -0.0440941
281712                 0.0342194       -0.118756     -0.000206759     0.000360338        0.0540706       -0.990546      4.46352e-07     7.69411e-05
                    -0.000268284     0.000314224         0.127208       0.0369783      4.74305e-06    -8.63746e-05        -0.938036       -0.306541
                       0.0543425       -0.990563     -3.25176e-05    -0.000145203        0.0210266        0.121865     -0.000304876     0.000161298
                    -3.02059e-05     8.79623e-05        -0.937973       -0.306194     -0.000435076     4.94972e-05        -0.124366      -0.0440252
281714                 0.0342068       -0.118756     -0.000206668     0.000360379        0.0538333        -0.99056      4.88936e-07     7.69872e-05
                    -0.000268198     0.000314248         0.127221       0.0369747      4.63523e-06    -8.63684e-05        -0.938132       -0.306241
                       0.0541051       -0.990576     -3.25773e-05    -0.000145153        0.0210725        0.121853     -0.000304797     0.000161311
                    -3.02333e-05     8.79586e-05        -0.938068       -0.305894     -0.000435106      4.9691e-05        -0.124403      -0.0439563
281716                 0.0341942       -0.118756     -0.000206576     0.000360421        0.0535959       -0.990573       5.3179e-07     7.70332e-05
                    -0.000268112     0.000314271         0.127234       0.0369711      4.52739e-06    -8.63621e-05        -0.938229       -0.305942
                       0.0538678       -0.990589     -3.26369e-05    -0.000145103        0.0211184        0.121842     -0.000304717     0.000161324
                    -3.02605e-05     8.79548e-05        -0.938164       -0.305595     -0.000435135     4.98849e-05         -0.12444       -0.043887
281718                 0.0341817       -0.118757     -0.000206485     0.000360462        0.0533585       -0.990586      5.74987e-07      7.7079e-05
                    -0.000268026     0.000314295         0.127247       0.0369675      4.41953e-06    -8.63557e-05        -0.938323       -0.305642
                       0.0536305       -0.990602     -3.26964e-05    -0.000145053        0.0211643        0.121831     -0.000304637     0.000161338
                    -3.02876e-05      8.7951e-05         -0.93826       -0.305295     -0.000435165     5.00788e-05        -0.124475      -0.0438187
281720                 0.0341691       -0.118757     -0.000206394     0.000360504        0.0531211       -0.990599      6.18644e-07     7.71244e-05
                    -0.000267939     0.000314318          0.12726       0.0369639      4.31163e-06    -8.63493e-05        -0.938419       -0.305342
                       0.0533931       -0.990616     -3.27558e-05    -0.000145002        0.0212102         0.12182     -0.000304556     0.000161352
                    -3.03147e-05     8.79471e-05        -0.938355       -0.304995     -0.000435195     5.02728e-05        -0.124512      -0.0437497
281722                 0.0341566       -0.118757     -0.000206303     0.000360545        0.0528838       -0.990612       6.6297e-07     7.71693e-05
                    -0.000267853     0.000314341         0.127273       0.0369603      4.20371e-06    -8.63428e-05        -0.938514       -0.305042
                       0.0531558       -0.990629     -3.28151e-05    -0.000144952        0.0212561        0.121808     -0.000304474     0.000161365
                    -3.03416e-05     8.79432e-05         -0.93845       -0.304695     -0.000435224     5.04668e-05        -0.124548      -0.0436807
281724                  0.034144       -0.118757     -0.000206211     0.000360586        0.0526464       -0.990625      7.08361e-07     7.72133e-05
                    -0.000267766     0.000314365         0.127285       0.0369567      4.09577e-06    -8.63362e-05         -0.93861       -0.304742
                       0.0529184       -0.990642     -3.28744e-05    -0.000144902        0.0213019        0.121797     -0.000304391     0.000161379
                    -3.03685e-05     8.79393e-05        -0.938546       -0.304395     -0.000435253      5.0661e-05        -0.124584      -0.0436117
281726                 0.0341314       -0.118758      -0.00020612     0.000360627         0.052409       -0.990638      7.55693e-07     7.72552e-05
                     -0.00026768     0.000314388         0.127298       0.0369531      3.98779e-06    -8.63296e-05        -0.938705       -0.304442
                       0.0526811       -0.990655     -3.29335e-05    -0.000144852        0.0213478        0.121786     -0.000304306     0.000161391
                    -3.03953e-05     8.79353e-05        -0.938641       -0.304095     -0.000435283     5.08552e-05         -0.12462      -0.0435427
281728                 0.0341189       -0.118758     -0.000206029     0.000360668        0.0521716       -0.990651      8.07314e-07     7.72921e-05
                    -0.000267593     0.000314411         0.127311       0.0369495      3.87979e-06    -8.63229e-05          -0.9388       -0.304142
                       0.0524437       -0.990668     -3.29926e-05    -0.000144802        0.0213937        0.121774     -0.000304219       0.0001614
                    -3.04219e-05     8.79312e-05        -0.938736       -0.303795     -0.000435312     5.10495e-05        -0.124657      -0.0434736
281730                 0.0341063       -0.118758     -0.000205938     0.000360709        0.0519342       -0.990664      8.72012e-07     7.73091e-05
                    -0.000267507     0.000314434         0.127324       0.0369458      3.77175e-06    -8.63162e-05        -0.938895       -0.303842
                       0.0522064       -0.990681     -3.30517e-05    -0.000144753        0.0214395        0.121763     -0.000304133     0.000161406
                    -3.04485e-05     8.79271e-05        -0.938831       -0.303495     -0.000435341     5.12438e-05        -0.124693      -0.0434045
281732                 0.0340938       -0.118758     -0.000205847     0.000360749        0.0516968       -0.990677      8.27437e-07      7.7006e-05
                     -0.00026742     0.000314457         0.127337       0.0369422      3.66369e-06    -8.63094e-05         -0.93899       -0.303541
                        0.051969       -0.990693     -3.31107e-05    -0.000144703        0.0214854        0.121751     -0.000304049     0.000161407
                    -3.04751e-05     8.79229e-05        -0.938926       -0.303195      -0.00043537     5.14382e-05        -0.124729      -0.0433354
281734                 0.0340812       -0.118759     -0.000205756      0.00036079        0.0514594        -0.99069      8.15307e-07     7.75105e-05
                    -0.000267333      0.00031448          0.12735       0.0369386       3.5556e-06    -8.63025e-05        -0.939085       -0.303241
                       0.0517316       -0.990706     -3.31696e-05    -0.000144653        0.0215312         0.12174     -0.000303971     0.000161406
                    -3.05015e-05     8.79187e-05        -0.939021       -0.302895     -0.000435398     5.16327e-05        -0.124765      -0.0432663
281736                 0.0340686       -0.118759     -0.000205665     0.000360831         0.051222       -0.990702      9.08042e-07      7.7537e-05
                    -0.000267247     0.000314503         0.127363       0.0369349      3.44747e-06    -8.62956e-05         -0.93918       -0.302941
                       0.0514943       -0.990719     -3.32284e-05    -0.000144603        0.0215771        0.121729     -0.000303899     0.000161406
                    -3.05278e-05     8.79144e-05        -0.939115       -0.302595     -0.000435427     5.18272e-05        -0.124801      -0.0431971
281738                 0.0340561       -0.118759     -0.000205574     0.000360872        0.0509846       -0.990715      9.65402e-07     7.75757e-05
                     -0.00026716     0.000314526         0.127375       0.0369313      3.33932e-06    -8.62886e-05        -0.939275       -0.302641
                       0.0512569       -0.990731     -3.32872e-05    -0.000144554        0.0216229        0.121717      -0.00030383     0.000161411
                    -3.05541e-05     8.79101e-05         -0.93921       -0.302295     -0.000435456     5.20218e-05        -0.124837       -0.043128
281740                 0.0340435       -0.118759     -0.000205484     0.000360912        0.0507472       -0.990728      1.01522e-06     7.76184e-05
                    -0.000267073     0.000314549         0.127388       0.0369276      3.23114e-06    -8.62815e-05         -0.93937        -0.30234
                       0.0510195       -0.990744      -3.3346e-05    -0.000144504        0.0216687        0.121706     -0.000303761      0.00016142
                    -3.05802e-05     8.79057e-05        -0.939305       -0.301995     -0.000435484     5.22165e-05        -0.124873      -0.0430588
281742                  0.034031       -0.118759     -0.000205393     0.000360953        0.0505098        -0.99074      1.06228e-06     7.76628e-05
                    -0.000266986     0.000314572         0.127401        0.036924      3.12293e-06    -8.62744e-05        -0.939464        -0.30204
                       0.0507821       -0.990757     -3.34047e-05    -0.000144455        0.0217145        0.121694     -0.000303691     0.000161431
                    -3.06063e-05     8.79013e-05        -0.939399       -0.301694     -0.000435513     5.24113e-05        -0.124909      -0.0429895
281744                 0.0340184        -0.11876     -0.000205302     0.000360994        0.0502724       -0.990753      1.10806e-06     7.77082e-05
                    -0.000266899     0.000314594         0.127414       0.0369203       3.0147e-06    -8.62672e-05        -0.939559        -0.30174
                       0.0505447       -0.990769     -3.34633e-05    -0.000144405        0.0217604        0.121683     -0.000303621     0.000161444
                    -3.06323e-05     8.78968e-05        -0.939493       -0.301394     -0.000435541     5.26061e-05        -0.124945      -0.0429203
281746                 0.0340058        -0.11876     -0.000205211     0.000361035        0.0500349       -0.990765      1.15315e-06     7.77541e-05
                    -0.000266812     0.000314617         0.127427       0.0369167      2.90644e-06    -8.62599e-05        -0.939653       -0.301439
                       0.0503074       -0.990781     -3.35219e-05    -0.000144356        0.0218062        0.121671     -0.000303549     0.000161458
                    -3.06581e-05     8.78923e-05        -0.939588       -0.301094     -0.000435569      5.2801e-05        -0.124981       -0.042851
281748                 0.0339933        -0.11876      -0.00020512     0.000361075        0.0497975       -0.990777      1.19786e-06     7.78004e-05
                    -0.000266725      0.00031464          0.12744        0.036913      2.79819e-06    -8.62526e-05        -0.939747       -0.301139
                         0.05007       -0.990794     -3.35804e-05    -0.000144306         0.021852         0.12166     -0.000303476     0.000161472
                    -3.06839e-05     8.78877e-05        -0.939682       -0.300794     -0.000435597      5.2996e-05        -0.125016      -0.0427817
281750                 0.0339807        -0.11876      -0.00020503     0.000361116        0.0495601        -0.99079      1.24234e-06      7.7847e-05
                    -0.000266637     0.000314662         0.127453       0.0369093      2.68998e-06    -8.62453e-05        -0.939842       -0.300839
                       0.0498326       -0.990806     -3.36389e-05    -0.000144257        0.0218978        0.121648     -0.000303403     0.000161486
                    -3.07096e-05     8.78831e-05        -0.939776       -0.300493     -0.000435625     5.31912e-05        -0.125052      -0.0427123
281752                 0.0339682       -0.118761     -0.000204939     0.000361157        0.0493227       -0.990802      1.28669e-06     7.78938e-05
                     -0.00026655     0.000314685         0.127465       0.0369057      2.58202e-06    -8.62381e-05        -0.939936       -0.300538
                       0.0495952       -0.990818     -3.36973e-05    -0.000144207        0.0219436        0.121636      -0.00030333     0.000161501
                    -3.07353e-05     8.78785e-05         -0.93987       -0.300193     -0.000435652     5.33868e-05        -0.125088       -0.042643
281754                 0.0339556       -0.118761     -0.000204848     0.000361197        0.0490853       -0.990814      1.33095e-06     7.79408e-05
                    -0.000266463     0.000314707         0.127478        0.036902      2.48144e-06    -8.62341e-05         -0.94003       -0.300238
                       0.0493578        -0.99083     -3.37556e-05    -0.000144158        0.0219894        0.121625     -0.000303257     0.000161515
                    -3.07608e-05     8.78739e-05        -0.939964       -0.299892     -0.000435685      5.3619e-05        -0.125123      -0.0425736
281756                  0.033943       -0.118761     -0.000204757     0.000361237        0.0488478       -0.990826      1.37517e-06     7.79878e-05
                    -0.000266376      0.00031473         0.127491       0.0368983      2.36289e-06    -8.62214e-05        -0.940124       -0.299937
                       0.0491204       -0.990843     -3.38138e-05    -0.000144108        0.0220351        0.121613     -0.000303183     0.000161529
                    -3.07862e-05     8.78695e-05        -0.940057       -0.299592      -0.00043571     5.37748e-05        -0.125159      -0.0425042
281758                 0.0339305       -0.118761     -0.000204666     0.000361277        0.0486103       -0.990838      1.41936e-06     7.80351e-05
                     -0.00026629     0.000314752         0.127504       0.0368946      2.25501e-06    -8.62141e-05        -0.940217       -0.299636
                        0.048883       -0.990855     -3.38719e-05    -0.000144059        0.0220809        0.121602      -0.00030311     0.000161543
                    -3.08122e-05     8.78674e-05        -0.940151       -0.299291     -0.000435737     5.39706e-05        -0.125195      -0.0424347
281760                 0.0339179       -0.118761     -0.000204574     0.000361316        0.0483729        -0.99085      1.46354e-06     7.80824e-05
                    -0.000266199     0.000314773         0.127517       0.0368909      2.14665e-06    -8.62065e-05        -0.940311       -0.299336
                       0.0486456       -0.990867     -3.39299e-05     -0.00014401        0.0221267         0.12159     -0.000303037     0.000161557
                    -3.08383e-05     8.78568e-05        -0.940245       -0.298991     -0.000435765      5.4166e-05         -0.12523      -0.0423653
281762                 0.0339054       -0.118762      -0.00020448     0.000361357        0.0481354       -0.990862      1.50773e-06     7.81299e-05
                    -0.000266112     0.000314796          0.12753       0.0368873      2.03814e-06    -8.61987e-05        -0.940405       -0.299035
                       0.0484082       -0.990879     -3.39875e-05    -0.000143961        0.0221725        0.121578     -0.000302964     0.000161571
