! TOUCHSTONE file generated by CST MICROWAVE STUDIO
! Date and time: Wed Oct 15 17:33:47 2025
! Project name: Teste_Macro_Metasurface_Nanopilar.cst
! Parameters = {H=600; L_x=175; L_y=80; Lambda=1064; Max_L=200; Min_L=70; PathPara=1; Phi=0; Step_L=10; Theta=0; p=520; phaseX=180; phaseY=0}
! Header version: 2018
! Port assignment regex: !\s*Touchstone port\s*([0-9]+)\s*=\s*(CST MWS port|CST DS port)\s*([0-9]+|Zmin|Zmax)\s*\(\"(.*)\"\)(\s*mode\s*([0-9]+))?.*
! Touchstone port assignment:
! Touchstone port 1 = CST MWS port Zmax ("") mode 1
! Touchstone port 2 = CST MWS port Zmax ("") mode 2
! Touchstone port 3 = CST MWS port Zmin ("") mode 1
! Touchstone port 4 = CST MWS port Zmin ("") mode 2
! S-Parameters are not renormalized. Each port impedance will be approximated by the real part at minimum frequency. The values are described via the [Reference] keyword.
! Default impedance is overridden by [Reference]
[Version] 2.0
# GHz S RI R 376.73
[Number of Ports] 4
[Reference]
376.73 376.73 259.888 259.888 
[Number of Frequencies] 51
[Network Data]
281700                -0.0292689      -0.0403303     -0.000376712    -3.39964e-05        -0.430225        -0.90003     -5.39416e-06     -0.00032746
                    -0.000347823    -1.43319e-05        0.0422984        0.192974     -0.000200062     0.000125436         0.973901      -0.0305419
                       -0.429691        -0.90006     -0.000180317     0.000173356        0.0129095        0.048612     -0.000142118     -0.00034866
                     3.93663e-05    -0.000273805         0.973704      -0.0305649     -0.000196184    -0.000402129       -0.0285454        0.195209
281702                -0.0292788      -0.0403196     -0.000376855    -3.38987e-05         -0.43046       -0.899918     -5.49612e-06    -0.000327479
                     -0.00034796    -1.42375e-05        0.0423236        0.192998     -0.000200015     0.000125507         0.973885      -0.0308783
                       -0.429925       -0.899948     -0.000180265     0.000173399        0.0129202       0.0486063     -0.000142287    -0.000348737
                     3.92329e-05    -0.000273938         0.973687      -0.0309011     -0.000196295    -0.000402206       -0.0284339        0.195254
281704                -0.0292887      -0.0403089     -0.000376998     -3.3801e-05        -0.430694       -0.899805     -5.59803e-06    -0.000327498
                    -0.000348097     -1.4143e-05        0.0423487        0.193023     -0.000199968     0.000125579         0.973868      -0.0312147
                        -0.43016       -0.899836     -0.000180213     0.000173442        0.0129309       0.0486006     -0.000142457    -0.000348813
                     3.90997e-05    -0.000274071         0.973671      -0.0312373     -0.000196407    -0.000402282       -0.0283223          0.1953
281706                -0.0292986      -0.0402982     -0.000377141    -3.37034e-05        -0.430929       -0.899693     -5.69989e-06    -0.000327517
                    -0.000348233    -1.40484e-05        0.0423739        0.193047     -0.000199921      0.00012565         0.973852      -0.0315511
                       -0.430394       -0.899724     -0.000180161     0.000173485        0.0129415        0.048595     -0.000142627    -0.000348889
                     3.89668e-05    -0.000274204         0.973654      -0.0315735     -0.000196518    -0.000402359       -0.0282107        0.195345
281708                -0.0293085      -0.0402875     -0.000377284    -3.36057e-05        -0.431163        -0.89958      -5.8017e-06    -0.000327537
                     -0.00034837    -1.39539e-05         0.042399        0.193072     -0.000199873     0.000125722         0.973835      -0.0318876
                       -0.430628       -0.899612      -0.00018011     0.000173528        0.0129522       0.0485893     -0.000142797    -0.000348966
                     3.88341e-05    -0.000274337         0.973637      -0.0319097     -0.000196629    -0.000402435        -0.028099        0.195391
281710                -0.0293184      -0.0402768     -0.000377427    -3.35081e-05        -0.431398       -0.899468     -5.90348e-06    -0.000327556
                    -0.000348506    -1.38592e-05        0.0424242        0.193096     -0.000199826     0.000125793         0.973818       -0.032224
                       -0.430862         -0.8995     -0.000180058      0.00017357        0.0129629       0.0485836     -0.000142968    -0.000349042
                     3.87016e-05     -0.00027447          0.97362      -0.0322459      -0.00019674     -0.00040251       -0.0279874        0.195436
281712                -0.0293283      -0.0402661      -0.00037757    -3.34105e-05        -0.431632       -0.899355     -6.00521e-06    -0.000327575
                    -0.000348643    -1.37646e-05        0.0424494        0.193121     -0.000199779     0.000125864         0.973801      -0.0325603
                       -0.431096       -0.899388     -0.000180006     0.000173613        0.0129736       0.0485779     -0.000143139    -0.000349119
                     3.85693e-05    -0.000274602         0.973603       -0.032582     -0.000196851    -0.000402586       -0.0278756        0.195481
281714                -0.0293382      -0.0402554     -0.000377713    -3.33128e-05        -0.431867       -0.899242      -6.1069e-06    -0.000327594
                    -0.000348779    -1.36699e-05        0.0424745        0.193145     -0.000199732     0.000125935         0.973784      -0.0328967
                       -0.431331       -0.899275     -0.000179954     0.000173656        0.0129843       0.0485723      -0.00014331    -0.000349195
                     3.84373e-05    -0.000274735         0.973586      -0.0329182     -0.000196962    -0.000402662       -0.0277638        0.195526
281716                -0.0293481      -0.0402447     -0.000377855    -3.32152e-05        -0.432101       -0.899129     -6.20856e-06    -0.000327613
                    -0.000348914    -1.35752e-05        0.0424997        0.193169     -0.000199685     0.000126007         0.973767      -0.0332331
                       -0.431565       -0.899163     -0.000179903     0.000173698         0.012995       0.0485666     -0.000143481    -0.000349271
                     3.83055e-05    -0.000274867         0.973568      -0.0332543     -0.000197073    -0.000402737        -0.027652        0.195571
281718                 -0.029358       -0.040234     -0.000377998    -3.31175e-05        -0.432335       -0.899017     -6.31018e-06    -0.000327632
                     -0.00034905    -1.34804e-05        0.0425249        0.193194     -0.000199638     0.000126078         0.973749      -0.0335694
                       -0.431799       -0.899051     -0.000179851     0.000173741        0.0130056       0.0485609     -0.000143653    -0.000349347
                      3.8174e-05       -0.000275         0.973551      -0.0335905     -0.000197184    -0.000402812       -0.0275401        0.195616
281720                -0.0293679      -0.0402233     -0.000378141    -3.30199e-05         -0.43257       -0.898904     -6.41176e-06    -0.000327651
                    -0.000349185    -1.33856e-05        0.0425501        0.193218     -0.000199591     0.000126149         0.973732      -0.0339058
                       -0.432033       -0.898938     -0.000179799     0.000173783        0.0130163       0.0485552     -0.000143825    -0.000349423
                     3.80427e-05    -0.000275132         0.973533      -0.0339266     -0.000197295    -0.000402887       -0.0274282        0.195661
281722                -0.0293778      -0.0402126     -0.000378284    -3.29223e-05        -0.432804       -0.898791     -6.51331e-06    -0.000327671
                    -0.000349321    -1.32908e-05        0.0425752        0.193243     -0.000199543      0.00012622         0.973714      -0.0342421
                       -0.432267       -0.898826     -0.000179748     0.000173825         0.013027       0.0485496     -0.000143998    -0.000349499
                     3.79116e-05    -0.000275264         0.973515      -0.0342627     -0.000197406    -0.000402962       -0.0273162        0.195706
281724                -0.0293877      -0.0402018     -0.000378426    -3.28246e-05        -0.433038       -0.898678     -6.61483e-06     -0.00032769
                    -0.000349456    -1.31959e-05        0.0426004        0.193267     -0.000199496     0.000126291         0.973697      -0.0345785
                       -0.432501       -0.898713     -0.000179696     0.000173867        0.0130376       0.0485439      -0.00014417    -0.000349575
                     3.77808e-05    -0.000275396         0.973497      -0.0345989     -0.000197517    -0.000403037       -0.0272042        0.195751
281726                -0.0293976      -0.0401911     -0.000378569     -3.2727e-05        -0.433272       -0.898565     -6.71632e-06    -0.000327709
                    -0.000349591     -1.3101e-05        0.0426256        0.193292     -0.000199449     0.000126362         0.973679      -0.0349148
                       -0.432735         -0.8986     -0.000179645     0.000173909        0.0130483       0.0485382     -0.000144343     -0.00034965
                     3.76502e-05    -0.000275527         0.973479       -0.034935     -0.000197628    -0.000403112       -0.0270922        0.195796
281728                -0.0294074      -0.0401804     -0.000378712    -3.26294e-05        -0.433507       -0.898451     -6.81779e-06    -0.000327728
                    -0.000349725    -1.30061e-05        0.0426508        0.193316     -0.000199402     0.000126433         0.973661      -0.0352511
                       -0.432969       -0.898487     -0.000179593     0.000173951         0.013059       0.0485325     -0.000144516    -0.000349726
                     3.75198e-05    -0.000275659         0.973461       -0.035271     -0.000197739    -0.000403187         -0.02698         0.19584
281730                -0.0294173      -0.0401697     -0.000378854    -3.25318e-05        -0.433741       -0.898338     -6.91922e-06    -0.000327747
                     -0.00034986    -1.29111e-05         0.042676        0.193341     -0.000199355     0.000126504         0.973643      -0.0355874
                       -0.433203       -0.898375     -0.000179542     0.000173993        0.0130696       0.0485269     -0.000144689    -0.000349802
                     3.73897e-05     -0.00027579         0.973443      -0.0356071     -0.000197849    -0.000403261       -0.0268679        0.195885
281732                -0.0294272       -0.040159     -0.000378997    -3.24341e-05        -0.433975       -0.898225     -7.02063e-06    -0.000327766
                    -0.000349994    -1.28162e-05        0.0427012        0.193365     -0.000199307     0.000126575         0.973625      -0.0359237
                       -0.433437       -0.898262      -0.00017949     0.000174035        0.0130803       0.0485212     -0.000144863    -0.000349877
                     3.72598e-05    -0.000275922         0.973425      -0.0359432      -0.00019796    -0.000403336       -0.0267557         0.19593
281734                -0.0294371      -0.0401483      -0.00037914    -3.23365e-05        -0.434209       -0.898112     -7.12202e-06    -0.000327785
                    -0.000350128    -1.27211e-05        0.0427264         0.19339      -0.00019926     0.000126646         0.973606        -0.03626
                       -0.433671       -0.898149     -0.000179439     0.000174076        0.0130909       0.0485155     -0.000145036    -0.000349952
                     3.71301e-05    -0.000276053         0.973406      -0.0362793     -0.000198071     -0.00040341       -0.0266435        0.195974
281736                 -0.029447      -0.0401375     -0.000379282    -3.22389e-05        -0.434443       -0.897998     -7.22339e-06    -0.000327804
                    -0.000350262    -1.26261e-05        0.0427516        0.193414     -0.000199213     0.000126717         0.973588      -0.0365963
                       -0.433904       -0.898036     -0.000179387     0.000174118        0.0131016       0.0485098      -0.00014521    -0.000350027
                     3.70007e-05    -0.000276184         0.973388      -0.0366153     -0.000198182    -0.000403484       -0.0265312        0.196019
281738                -0.0294569      -0.0401268     -0.000379425    -3.21413e-05        -0.434677       -0.897885     -7.32473e-06    -0.000327823
                    -0.000350396     -1.2531e-05        0.0427768        0.193439     -0.000199166     0.000126788          0.97357      -0.0369325
                       -0.434138       -0.897923     -0.000179336      0.00017416        0.0131122       0.0485042     -0.000145384    -0.000350103
                     3.68715e-05    -0.000276315         0.973369      -0.0369513     -0.000198293    -0.000403559       -0.0264188        0.196063
281740                -0.0294668      -0.0401161     -0.000379567    -3.20437e-05        -0.434911       -0.897771     -7.42605e-06    -0.000327842
                    -0.000350529     -1.2436e-05         0.042802        0.193463     -0.000199119     0.000126859         0.973551      -0.0372688
                       -0.434372        -0.89781     -0.000179285     0.000174201        0.0131229       0.0484985     -0.000145558    -0.000350178
                     3.67426e-05    -0.000276445          0.97335      -0.0372874     -0.000198404    -0.000403633       -0.0263065        0.196107
281742                -0.0294767      -0.0401054     -0.000379709    -3.19461e-05        -0.435145       -0.897658     -7.52736e-06    -0.000327861
                    -0.000350662    -1.23408e-05        0.0428272        0.193488     -0.000199071      0.00012693         0.973532       -0.037605
                       -0.434606       -0.897696     -0.000179233     0.000174242        0.0131335       0.0484928     -0.000145732    -0.000350253
                     3.66139e-05    -0.000276576         0.973331      -0.0376234     -0.000198515    -0.000403707        -0.026194        0.196152
281744                -0.0294865      -0.0400946     -0.000379852    -3.18485e-05        -0.435379       -0.897544     -7.62864e-06     -0.00032788
                    -0.000350795    -1.22457e-05        0.0428524        0.193512     -0.000199024     0.000127001         0.973513      -0.0379412
                       -0.434839       -0.897583     -0.000179182     0.000174284        0.0131442       0.0484871     -0.000145907    -0.000350327
                     3.64854e-05    -0.000276706         0.973312      -0.0379594     -0.000198625    -0.000403781       -0.0260816        0.196196
281746                -0.0294964      -0.0400839     -0.000379994    -3.17509e-05        -0.435613        -0.89743     -7.72991e-06    -0.000327899
                    -0.000350928    -1.21506e-05        0.0428776        0.193537     -0.000198977     0.000127072         0.973494      -0.0382775
                       -0.435073        -0.89747     -0.000179131     0.000174325        0.0131548       0.0484815     -0.000146082    -0.000350402
                     3.63572e-05    -0.000276836         0.973293      -0.0382954     -0.000198736    -0.000403854        -0.025969         0.19624
281748                -0.0295063      -0.0400732     -0.000380137    -3.16532e-05        -0.435847       -0.897317     -7.83117e-06    -0.000327917
                    -0.000351061    -1.20554e-05        0.0429028        0.193561     -0.000198929     0.000127142         0.973475      -0.0386137
                       -0.435307       -0.897356      -0.00017908     0.000174366        0.0131654       0.0484758     -0.000146257    -0.000350477
                     3.62292e-05    -0.000276966         0.973274      -0.0386314     -0.000198847    -0.000403928       -0.0258565        0.196284
281750                -0.0295162      -0.0400625     -0.000380279    -3.15556e-05        -0.436081       -0.897203     -7.93241e-06    -0.000327936
                    -0.000351193    -1.19602e-05        0.0429281        0.193586     -0.000198882     0.000127213         0.973456      -0.0389499
                       -0.435541       -0.897243     -0.000179029     0.000174407        0.0131761       0.0484701     -0.000146432    -0.000350551
                     3.61014e-05    -0.000277096         0.973254      -0.0389674     -0.000198958    -0.000404002       -0.0257439        0.196328
281752                -0.0295261      -0.0400517     -0.000380421    -3.14581e-05        -0.436315       -0.897089     -8.03364e-06    -0.000327955
                    -0.000351325     -1.1865e-05        0.0429533         0.19361     -0.000198835     0.000127284         0.973437      -0.0392861
                       -0.435774       -0.897129     -0.000178977     0.000174448        0.0131867       0.0484644     -0.000146607    -0.000350626
                     3.59739e-05    -0.000277226         0.973235      -0.0393033     -0.000199069    -0.000404076       -0.0256312        0.196372
281754                -0.0295359       -0.040041     -0.000380563    -3.13605e-05        -0.436549       -0.896975     -8.13486e-06    -0.000327974
                    -0.000351457    -1.17698e-05        0.0429785        0.193635     -0.000198787     0.000127355         0.973417      -0.0396222
                       -0.436008       -0.897016     -0.000178926     0.000174489        0.0131973       0.0484588     -0.000146782      -0.0003507
                     3.58466e-05    -0.000277355         0.973215      -0.0396393      -0.00019918    -0.000404149       -0.0255185        0.196416
281756                -0.0295458      -0.0400302     -0.000380705    -3.12629e-05        -0.436782       -0.896861     -8.23606e-06    -0.000327993
                    -0.000351589    -1.16745e-05        0.0430037        0.193659      -0.00019874     0.000127426         0.973398      -0.0399584
                       -0.436241       -0.896902     -0.000178875     0.000174529        0.0132079       0.0484531     -0.000146958    -0.000350775
                     3.57196e-05    -0.000277485         0.973195      -0.0399752     -0.000199291    -0.000404223       -0.0254058         0.19646
281758                -0.0295557      -0.0400195     -0.000380847    -3.11653e-05        -0.437016       -0.896747     -8.33727e-06    -0.000328011
                    -0.000351721    -1.15792e-05         0.043029        0.193684     -0.000198693     0.000127497         0.973378      -0.0402946
                       -0.436475       -0.896789     -0.000178824      0.00017457        0.0132186       0.0484474     -0.000147134    -0.000350849
                     3.55927e-05    -0.000277614         0.973175      -0.0403111     -0.000199401    -0.000404296        -0.025293        0.196504
281760                -0.0295656      -0.0400088     -0.000380989    -3.10678e-05         -0.43725       -0.896633     -8.43846e-06     -0.00032803
                    -0.000351852     -1.1484e-05        0.0430542        0.193708     -0.000198645     0.000127568         0.973358      -0.0406307
                       -0.436708       -0.896675     -0.000178774     0.000174611        0.0132292       0.0484417      -0.00014731    -0.000350923
                     3.54662e-05    -0.000277743         0.973155      -0.0406471     -0.000199512     -0.00040437       -0.0251802        0.196547
281762                -0.0295754       -0.039998     -0.000381129    -3.09704e-05        -0.437484       -0.896519     -8.53966e-06    -0.000328049
                    -0.000351983    -1.13886e-05        0.0430794        0.193732     -0.000198598     0.000127639         0.973338      -0.0409669
                       -0.436942       -0.896561     -0.000178724     0.000174654        0.0132398       0.0484361     -0.000147486    -0.000350997
