! TOUCHSTONE file generated by CST MICROWAVE STUDIO
! Date and time: Wed Oct 15 17:28:23 2025
! Project name: Teste_Macro_Metasurface_Nanopilar.cst
! Parameters = {H=600; L_x=80; L_y=100; Lambda=1064; Max_L=200; Min_L=70; PathPara=1; Phi=0; Step_L=10; Theta=0; p=520; phaseX=180; phaseY=0}
! Header version: 2018
! Port assignment regex: !\s*Touchstone port\s*([0-9]+)\s*=\s*(CST MWS port|CST DS port)\s*([0-9]+|Zmin|Zmax)\s*\(\"(.*)\"\)(\s*mode\s*([0-9]+))?.*
! Touchstone port assignment:
! Touchstone port 1 = CST MWS port Zmax ("") mode 1
! Touchstone port 2 = CST MWS port Zmax ("") mode 2
! Touchstone port 3 = CST MWS port Zmin ("") mode 1
! Touchstone port 4 = CST MWS port Zmin ("") mode 2
! S-Parameters are not renormalized. Each port impedance will be approximated by the real part at minimum frequency. The values are described via the [Reference] keyword.
! Default impedance is overridden by [Reference]
[Version] 2.0
# GHz S RI R 376.73
[Number of Ports] 4
[Reference]
376.73 376.73 259.888 259.888 
[Number of Frequencies] 51
[Network Data]
281700                0.00214891      -0.0613183      0.000306597    -0.000159154        -0.272632       -0.958825      0.000207338    -2.85146e-05
                     9.86974e-05    -0.000201654        0.0265063       -0.110088       0.00028969     2.93627e-06       0.00626143       -0.992771
                       -0.272696       -0.959129      0.000225566    -1.38686e-05        0.0338231       0.0512866      0.000149366     0.000153665
                     0.000284539     -4.8244e-05       0.00634145       -0.993356      8.35558e-05     0.000177727        0.0250159        0.110506
281702                0.00213913      -0.0613116       0.00030668    -0.000159185        -0.272877       -0.958756       0.00020733    -2.85582e-05
                     9.86363e-05    -0.000201667        0.0264943       -0.110087      0.000289699     2.86353e-06       0.00602092       -0.992773
                       -0.272941        -0.95906      0.000225555    -1.39755e-05        0.0338374       0.0512688      0.000149385     0.000153505
                     0.000284547    -4.83017e-05       0.00610088       -0.993358      8.35855e-05     0.000177665        0.0250574        0.110493
281704                0.00212934      -0.0613048      0.000306763    -0.000159215        -0.273122       -0.958687      0.000207321    -2.86015e-05
                     9.85753e-05    -0.000201679        0.0264823       -0.110086      0.000289708     2.79086e-06       0.00578041       -0.992775
                       -0.273186       -0.958991      0.000225544    -1.40823e-05        0.0338516       0.0512509      0.000149405     0.000153344
                     0.000284555    -4.83594e-05       0.00586031       -0.993359      8.36151e-05     0.000177603        0.0250989         0.11048
281706                0.00211956      -0.0612981      0.000306845    -0.000159246        -0.273366       -0.958617      0.000207313    -2.86446e-05
                     9.85143e-05    -0.000201691        0.0264703       -0.110085      0.000289716     2.71827e-06        0.0055399       -0.992776
                       -0.273431       -0.958921      0.000225532    -1.41889e-05        0.0338659        0.051233      0.000149425     0.000153183
                     0.000284563    -4.84172e-05       0.00561974       -0.993361      8.36447e-05     0.000177541        0.0251404        0.110466
281708                0.00210978      -0.0612913      0.000306927    -0.000159277        -0.273611       -0.958548      0.000207304    -2.86875e-05
                     9.84533e-05    -0.000201703        0.0264583       -0.110084      0.000289725     2.64579e-06        0.0052994       -0.992778
                       -0.273676       -0.958852       0.00022552    -1.42954e-05        0.0338801       0.0512152      0.000149444     0.000153023
                     0.000284571    -4.84748e-05       0.00537916       -0.993363      8.36742e-05     0.000177479        0.0251819        0.110453
281710                    0.0021      -0.0612846      0.000307009    -0.000159308        -0.273856       -0.958478      0.000207296    -2.87302e-05
                     9.83923e-05    -0.000201716        0.0264463       -0.110083      0.000289734     2.57342e-06       0.00505888        -0.99278
                        -0.27392       -0.958782      0.000225508    -1.44018e-05        0.0338944       0.0511973      0.000149464     0.000152862
                     0.000284579    -4.85325e-05       0.00513859       -0.993365      8.37037e-05     0.000177417        0.0252233         0.11044
281712                0.00209022      -0.0612779       0.00030709    -0.000159339        -0.274101       -0.958409      0.000207287    -2.87727e-05
                     9.83314e-05    -0.000201728        0.0264342       -0.110082      0.000289743     2.50116e-06       0.00481837       -0.992782
                       -0.274165       -0.958713      0.000225496     -1.4508e-05        0.0339086       0.0511794      0.000149483     0.000152701
                     0.000284587    -4.85902e-05       0.00489801       -0.993367      8.37331e-05     0.000177355        0.0252648        0.110426
281714                0.00208044      -0.0612711      0.000307171     -0.00015937        -0.274345       -0.958339      0.000207278    -2.88151e-05
                     9.82704e-05     -0.00020174        0.0264222       -0.110081      0.000289752     2.42901e-06       0.00457786       -0.992783
                        -0.27441       -0.958643      0.000225484    -1.46141e-05        0.0339228       0.0511616      0.000149502      0.00015254
                     0.000284595    -4.86478e-05       0.00465743       -0.993368      8.37625e-05     0.000177294        0.0253063        0.110413
281716                0.00207066      -0.0612644      0.000307252    -0.000159401         -0.27459        -0.95827       0.00020727    -2.88573e-05
                     9.82095e-05    -0.000201752        0.0264102        -0.11008      0.000289761     2.35694e-06       0.00433735       -0.992785
                       -0.274654       -0.958573      0.000225471    -1.47201e-05         0.033937       0.0511437      0.000149521      0.00015238
                     0.000284603    -4.87054e-05       0.00441686        -0.99337      8.37918e-05     0.000177232        0.0253477        0.110399
281718                0.00206089      -0.0612576      0.000307332    -0.000159432        -0.274835         -0.9582      0.000207261    -2.88993e-05
                     9.81486e-05    -0.000201765        0.0263982       -0.110079       0.00028977     2.28495e-06       0.00409684       -0.992786
                       -0.274899       -0.958503      0.000225458    -1.48259e-05        0.0339512       0.0511258      0.000149541     0.000152219
                     0.000284611     -4.8763e-05       0.00417628       -0.993372      8.38211e-05      0.00017717        0.0253892        0.110386
281720                0.00205111      -0.0612509      0.000307412    -0.000159464        -0.275079        -0.95813      0.000207252    -2.89412e-05
                     9.80877e-05    -0.000201777        0.0263862       -0.110078      0.000289779     2.21303e-06       0.00385632       -0.992787
                       -0.275144       -0.958433      0.000225445    -1.49315e-05        0.0339654       0.0511079      0.000149559     0.000152057
                     0.000284618    -4.88206e-05        0.0039357       -0.993373      8.38503e-05     0.000177108        0.0254306        0.110373
281722                0.00204133      -0.0612441      0.000307492    -0.000159495        -0.275324        -0.95806      0.000207243     -2.8983e-05
                     9.80268e-05    -0.000201789        0.0263742       -0.110077      0.000289788     2.14116e-06       0.00361581       -0.992789
                       -0.275388       -0.958363      0.000225431    -1.50371e-05        0.0339796         0.05109      0.000149578     0.000151896
                     0.000284626    -4.88781e-05       0.00369511       -0.993375      8.38794e-05     0.000177046        0.0254721        0.110359
281724                0.00203156      -0.0612374      0.000307571    -0.000159527        -0.275568        -0.95799      0.000207234    -2.90247e-05
                     9.79659e-05    -0.000201802        0.0263622       -0.110076      0.000289796     2.06934e-06       0.00337529        -0.99279
                       -0.275633       -0.958293      0.000225417    -1.51425e-05        0.0339938       0.0510722      0.000149597     0.000151735
                     0.000284634    -4.89356e-05       0.00345453       -0.993376      8.39085e-05     0.000176984        0.0255135        0.110346
281726                0.00202179      -0.0612306      0.000307651    -0.000159558        -0.275813        -0.95792      0.000207225    -2.90663e-05
                     9.79051e-05    -0.000201814        0.0263501       -0.110075      0.000289805     1.99755e-06       0.00313477       -0.992791
                       -0.275878       -0.958223      0.000225403    -1.52477e-05         0.034008       0.0510543      0.000149616     0.000151574
                     0.000284641    -4.89932e-05       0.00321395       -0.993377      8.39375e-05     0.000176922        0.0255549        0.110332
281728                0.00201201      -0.0612238      0.000307729     -0.00015959        -0.276058        -0.95785      0.000207216    -2.91078e-05
                     9.78442e-05    -0.000201826        0.0263381       -0.110074      0.000289814     1.92578e-06       0.00289426       -0.992792
                       -0.276122       -0.958153      0.000225389    -1.53528e-05        0.0340221       0.0510364      0.000149635     0.000151412
                     0.000284649    -4.90507e-05       0.00297336       -0.993379      8.39664e-05      0.00017686        0.0255963        0.110319
281730                0.00200224      -0.0612171      0.000307808    -0.000159622        -0.276302        -0.95778      0.000207207    -2.91493e-05
                     9.77834e-05    -0.000201838        0.0263261       -0.110073      0.000289822     1.85404e-06       0.00265374       -0.992793
                       -0.276367       -0.958083      0.000225375    -1.54578e-05        0.0340363       0.0510185      0.000149653     0.000151251
                     0.000284657    -4.91081e-05       0.00273278        -0.99338      8.39952e-05     0.000176798        0.0256377        0.110305
281732                0.00199247      -0.0612103      0.000307886    -0.000159654        -0.276547        -0.95771      0.000207198    -2.91906e-05
                     9.77227e-05     -0.00020185        0.0263141       -0.110072      0.000289831     1.78232e-06       0.00241322       -0.992795
                       -0.276611       -0.958013       0.00022536    -1.55627e-05        0.0340504       0.0510006      0.000149672      0.00015109
                     0.000284664    -4.91657e-05       0.00249219       -0.993381      8.40239e-05     0.000176736        0.0256791        0.110292
281734                 0.0019827      -0.0612036      0.000307964    -0.000159686        -0.276791        -0.95764      0.000207189    -2.92319e-05
                     9.76619e-05    -0.000201863        0.0263021       -0.110071      0.000289839     1.71061e-06        0.0021727       -0.992796
                       -0.276856       -0.957942      0.000225345    -1.56674e-05        0.0340645       0.0509827       0.00014969     0.000150928
                     0.000284672    -4.92233e-05        0.0022516       -0.993382      8.40525e-05     0.000176674        0.0257205        0.110278
281736                0.00197293      -0.0611968      0.000308042    -0.000159718        -0.277036        -0.95757       0.00020718    -2.92731e-05
                      9.7601e-05    -0.000201874        0.0262901        -0.11007      0.000289847      1.6389e-06       0.00193218       -0.992796
                         -0.2771       -0.957872       0.00022533    -1.57719e-05        0.0340786       0.0509648      0.000149708     0.000150766
                     0.000284679    -4.92819e-05       0.00201101       -0.993383       8.4081e-05     0.000176612        0.0257619        0.110265
281738                0.00196316        -0.06119      0.000308119     -0.00015975         -0.27728       -0.957499       0.00020717    -2.93143e-05
                     9.75396e-05    -0.000201887        0.0262781       -0.110069      0.000289856     1.56721e-06       0.00169166       -0.992797
                       -0.277345       -0.957802      0.000225315    -1.58763e-05        0.0340927       0.0509469      0.000149727     0.000150605
                     0.000284685    -4.93391e-05       0.00177042       -0.993384      8.41092e-05     0.000176549        0.0258033        0.110251
281740                0.00195339      -0.0611833      0.000308196    -0.000159783        -0.277525       -0.957429      0.000207161    -2.93554e-05
                      9.7479e-05      -0.0002019         0.026266       -0.110068      0.000289864     1.49551e-06       0.00145114       -0.992798
                       -0.277589       -0.957731      0.000225299    -1.59806e-05        0.0341068        0.050929      0.000149745     0.000150443
                     0.000284692    -4.93955e-05       0.00152983       -0.993385      8.41373e-05     0.000176487        0.0258447        0.110238
281742                0.00194362      -0.0611765      0.000308272    -0.000159815        -0.277769       -0.957359      0.000207151    -2.93965e-05
                     9.74184e-05    -0.000201912         0.026254       -0.110067      0.000289872     1.42382e-06       0.00121062       -0.992799
                       -0.277834       -0.957661      0.000225283    -1.60848e-05        0.0341209        0.050911      0.000149763     0.000150281
                       0.0002847    -4.94526e-05       0.00128924       -0.993386       8.4165e-05     0.000176425         0.025886        0.110224
281744                0.00193385      -0.0611697      0.000308349    -0.000159848        -0.278014       -0.957288      0.000207142    -2.94375e-05
                     9.73578e-05    -0.000201924         0.026242       -0.110066       0.00028988     1.35213e-06      0.000970096         -0.9928
                       -0.278078        -0.95759      0.000225267    -1.61888e-05         0.034135       0.0508931      0.000149781     0.000150119
                     0.000284707    -4.95099e-05       0.00104865       -0.993387      8.41924e-05     0.000176363        0.0259274         0.11021
281746                0.00192409       -0.061163      0.000308425     -0.00015988        -0.278258       -0.957217      0.000207132    -2.94784e-05
                     9.72971e-05    -0.000201936          0.02623       -0.110065      0.000289888     1.28043e-06      0.000729573         -0.9928
                       -0.278323       -0.957519      0.000225251    -1.62926e-05        0.0341491       0.0508752      0.000149799     0.000149957
                     0.000284714    -4.95672e-05      0.000808056       -0.993387      8.42194e-05     0.000176301        0.0259687        0.110197
281748                0.00191432      -0.0611562        0.0003085    -0.000159913        -0.278502       -0.957147      0.000207123    -2.95193e-05
                     9.72364e-05    -0.000201949         0.026218       -0.110064      0.000289897     1.20873e-06      0.000489049       -0.992801
                       -0.278567       -0.957448      0.000225234    -1.63964e-05        0.0341631       0.0508573      0.000149817     0.000149796
                     0.000284721    -4.96244e-05      0.000567461       -0.993388       8.4246e-05     0.000176239        0.0260101        0.110183
281750                0.00190456      -0.0611494      0.000308576    -0.000159946        -0.278747       -0.957076      0.000207113    -2.95602e-05
                     9.71758e-05    -0.000201961         0.026206       -0.110063      0.000289905     1.13703e-06      0.000248525       -0.992801
                       -0.278812       -0.957378      0.000225217       -1.65e-05        0.0341772       0.0508394      0.000149834     0.000149633
                     0.000284729    -4.96817e-05      0.000326866       -0.993389      8.42725e-05     0.000176178        0.0260514         0.11017
281752                0.00189479      -0.0611427      0.000308651    -0.000159979        -0.278991       -0.957005      0.000207103    -2.96011e-05
                     9.71151e-05    -0.000201973         0.026194       -0.110062      0.000289912     1.06533e-06      7.99998e-06       -0.992802
                       -0.279056       -0.957307        0.0002252    -1.66034e-05        0.0341912       0.0508214      0.000149852     0.000149471
                     0.000284736    -4.97389e-05      8.62705e-05       -0.993389      8.42994e-05     0.000176118        0.0260928        0.110156
281754                0.00188503      -0.0611359      0.000308726    -0.000160012        -0.279236       -0.956934      0.000207094    -2.96419e-05
                     9.70545e-05    -0.000201985         0.026182       -0.110061       0.00028992     9.93613e-07     -0.000232525       -0.992802
                         -0.2793       -0.957236      0.000225183    -1.67068e-05        0.0342053       0.0508035       0.00014987     0.000149309
                     0.000284743    -4.97961e-05     -0.000154326        -0.99339      8.43269e-05     0.000176059        0.0261341        0.110142
281756                0.00187527      -0.0611291        0.0003088    -0.000160045         -0.27948       -0.956863      0.000207084    -2.96827e-05
                     9.69938e-05    -0.000201997        0.0261699        -0.11006      0.000289928     9.21893e-07     -0.000473051       -0.992802
                       -0.279545       -0.957165      0.000225165    -1.68099e-05        0.0342193       0.0507856      0.000149887     0.000149147
                      0.00028475    -4.98533e-05     -0.000394924        -0.99339       8.4355e-05     0.000175999        0.0261754        0.110129
281758                0.00186551      -0.0611223      0.000308874    -0.000160078        -0.279724       -0.956792      0.000207074    -2.97234e-05
                     9.69332e-05     -0.00020201        0.0261579       -0.110059      0.000289936     8.50164e-07     -0.000713578       -0.992803
                       -0.279789       -0.957094      0.000225148     -1.6913e-05        0.0342333       0.0507676      0.000149905     0.000148985
                     0.000284756    -4.99105e-05     -0.000635522        -0.99339      8.43836e-05     0.000175939        0.0262167        0.110115
281760                0.00185575      -0.0611155      0.000308948    -0.000160111        -0.279969       -0.956721      0.000207064    -2.97642e-05
                     9.68726e-05    -0.000202022        0.0261459       -0.110058      0.000289944     7.78422e-07     -0.000954104       -0.992803
                       -0.280033       -0.957022      0.000225129    -1.70159e-05        0.0342473       0.0507497      0.000149922     0.000148822
                     0.000284763    -4.99676e-05     -0.000876121       -0.993391      8.44122e-05     0.000175878         0.026258        0.110101
281762                0.00184599      -0.0611088      0.000309021    -0.000160144        -0.280213        -0.95665      0.000207054    -2.98049e-05
                      9.6812e-05    -0.000202034        0.0261339       -0.110057      0.000289951     7.06655e-07      -0.00119463       -0.992803
                       -0.280278       -0.956951      0.000225111    -1.71187e-05        0.0342613       0.0507318      0.000149939     0.000148659
