! TOUCHSTONE file generated by CST MICROWAVE STUDIO
! Date and time: Wed Oct 15 17:29:01 2025
! Project name: Teste_Macro_Metasurface_Nanopilar.cst
! Parameters = {H=600; L_x=90; L_y=130; Lambda=1064; Max_L=200; Min_L=70; PathPara=1; Phi=0; Step_L=10; Theta=0; p=520; phaseX=180; phaseY=0}
! Header version: 2018
! Port assignment regex: !\s*Touchstone port\s*([0-9]+)\s*=\s*(CST MWS port|CST DS port)\s*([0-9]+|Zmin|Zmax)\s*\(\"(.*)\"\)(\s*mode\s*([0-9]+))?.*
! Touchstone port assignment:
! Touchstone port 1 = CST MWS port Zmax ("") mode 1
! Touchstone port 2 = CST MWS port Zmax ("") mode 2
! Touchstone port 3 = CST MWS port Zmin ("") mode 1
! Touchstone port 4 = CST MWS port Zmin ("") mode 2
! S-Parameters are not renormalized. Each port impedance will be approximated by the real part at minimum frequency. The values are described via the [Reference] keyword.
! Default impedance is overridden by [Reference]
[Version] 2.0
# GHz S RI R 376.73
[Number of Ports] 4
[Reference]
376.73 376.73 259.888 259.888 
[Number of Frequencies] 51
[Network Data]
281700                  0.125505       -0.102988     -2.22232e-05    -7.56331e-05        -0.548762        0.808938      3.80542e-05     0.000131063
                    -6.01451e-05    -0.000102553        -0.020054      -0.0213781      -9.6158e-05     7.51867e-05        -0.491873        -0.86833
                       -0.548604        0.809155     -3.44237e-05     0.000140599       -0.0505242        0.153841      0.000121461    -0.000147317
                    -4.31818e-05     4.13039e-05        -0.492409       -0.867525      0.000170368    -0.000199405       0.00790977       0.0287448
281702                  0.125474       -0.103001     -2.22703e-05    -7.54423e-05        -0.548438        0.809161      3.80816e-05      0.00013095
                    -6.01568e-05    -0.000102482       -0.0200621      -0.0213663      -9.6115e-05     7.52034e-05        -0.492105       -0.868198
                       -0.548279        0.809378     -3.44183e-05     0.000140599       -0.0504245        0.153857      0.000121424    -0.000147327
                    -4.32388e-05     4.13006e-05        -0.492642       -0.867393      0.000170325    -0.000199433       0.00791088       0.0287415
281704                  0.125442       -0.103014     -2.23175e-05    -7.52516e-05        -0.548114        0.809383      3.81092e-05     0.000130838
                    -6.01684e-05    -0.000102412       -0.0200703      -0.0213545     -9.60719e-05       7.522e-05        -0.492338       -0.868065
                       -0.547954          0.8096     -3.44128e-05       0.0001406       -0.0503247        0.153873      0.000121386    -0.000147338
                     -4.3296e-05     4.12975e-05        -0.492876       -0.867261      0.000170282    -0.000199461         0.007912       0.0287383
281706                  0.125411       -0.103027     -2.23648e-05    -7.50611e-05        -0.547789        0.809606      3.81371e-05     0.000130725
                    -6.01799e-05    -0.000102342       -0.0200784      -0.0213428     -9.60288e-05     7.52368e-05        -0.492571       -0.867933
                        -0.54763        0.809823     -3.44071e-05     0.000140601       -0.0502249        0.153889      0.000121349    -0.000147349
                    -4.33531e-05     4.12946e-05        -0.493109       -0.867128      0.000170239     -0.00019949       0.00791311        0.028735
281708                   0.12538        -0.10304     -2.24123e-05    -7.48707e-05        -0.547464        0.809828      3.81653e-05     0.000130613
                    -6.01915e-05    -0.000102272       -0.0200865       -0.021331     -9.59857e-05     7.52535e-05        -0.492803       -0.867801
                       -0.547305        0.810045     -3.44012e-05     0.000140601       -0.0501251        0.153905      0.000121311     -0.00014736
                    -4.34104e-05      4.1292e-05        -0.493342       -0.866996      0.000170196    -0.000199519       0.00791423       0.0287317
281710                  0.125349       -0.103053     -2.24598e-05    -7.46805e-05        -0.547139         0.81005      3.81938e-05     0.000130501
                     -6.0203e-05    -0.000102202       -0.0200947      -0.0213192     -9.59425e-05     7.52703e-05        -0.493036       -0.867668
                        -0.54698        0.810267     -3.43952e-05     0.000140602       -0.0500254        0.153921      0.000121273     -0.00014737
                    -4.34676e-05     4.12896e-05        -0.493575       -0.866863      0.000170153    -0.000199547       0.00791534       0.0287285
281712                  0.125318       -0.103066     -2.25075e-05    -7.44904e-05        -0.546815        0.810272      3.82225e-05     0.000130389
                    -6.02145e-05    -0.000102132       -0.0201028      -0.0213074     -9.58992e-05     7.52872e-05        -0.493268       -0.867536
                       -0.546655        0.810489     -3.43889e-05     0.000140602       -0.0499256        0.153937      0.000121235    -0.000147381
                     -4.3525e-05     4.12873e-05        -0.493808        -0.86673       0.00017011    -0.000199576       0.00791645       0.0287252
281714                  0.125287       -0.103079     -2.25553e-05    -7.43004e-05         -0.54649        0.810494      3.82516e-05     0.000130276
                    -6.02259e-05    -0.000102062       -0.0201109      -0.0212956     -9.58559e-05     7.53041e-05        -0.493501       -0.867403
                        -0.54633        0.810711     -3.43825e-05     0.000140602       -0.0498258        0.153953      0.000121197    -0.000147392
                    -4.35823e-05     4.12853e-05        -0.494041       -0.866598      0.000170067    -0.000199605       0.00791755        0.028722
281716                  0.125255       -0.103092     -2.26032e-05    -7.41106e-05        -0.546164        0.810716      3.82809e-05     0.000130164
                    -6.02373e-05    -0.000101992        -0.020119      -0.0212839     -9.58126e-05      7.5321e-05        -0.493733        -0.86727
                       -0.546005        0.810933     -3.43759e-05     0.000140603        -0.049726        0.153969      0.000121159    -0.000147404
                    -4.36397e-05     4.12835e-05        -0.494274       -0.866465      0.000170024    -0.000199634       0.00791866       0.0287187
281718                  0.125224       -0.103105     -2.26512e-05    -7.39209e-05        -0.545839        0.810937      3.83105e-05     0.000130052
                    -6.02488e-05    -0.000101922       -0.0201272      -0.0212721     -9.57692e-05     7.53379e-05        -0.493966       -0.867138
                       -0.545679        0.811154     -3.43691e-05     0.000140603       -0.0496262        0.153985      0.000121121    -0.000147415
                    -4.36971e-05     4.12819e-05        -0.494507       -0.866332       0.00016998    -0.000199663       0.00791976       0.0287155
281720                  0.125193       -0.103118     -2.26994e-05    -7.37314e-05        -0.545514        0.811159      3.83405e-05      0.00012994
                    -6.02601e-05    -0.000101853       -0.0201353      -0.0212603     -9.57258e-05     7.53549e-05        -0.494198       -0.867005
                       -0.545354        0.811376     -3.43621e-05     0.000140603       -0.0495264           0.154      0.000121083    -0.000147426
                    -4.37545e-05     4.12805e-05         -0.49474       -0.866199      0.000169937    -0.000199693       0.00792086       0.0287123
281722                  0.125162       -0.103131     -2.27476e-05     -7.3542e-05        -0.545189         0.81138      3.83707e-05     0.000129828
                    -6.02715e-05    -0.000101783       -0.0201434      -0.0212485     -9.56823e-05     7.53719e-05         -0.49443       -0.866872
                       -0.545029        0.811597     -3.43549e-05     0.000140604       -0.0494267        0.154016      0.000121044    -0.000147438
                     -4.3812e-05     4.12793e-05        -0.494973       -0.866066      0.000169894    -0.000199722       0.00792196        0.028709
281724                  0.125131       -0.103144      -2.2796e-05    -7.33527e-05        -0.544863        0.811602      3.84012e-05     0.000129716
                    -6.02829e-05    -0.000101714       -0.0201515      -0.0212367     -9.56387e-05     7.53889e-05        -0.494663       -0.866739
                       -0.544703        0.811818     -3.43476e-05     0.000140604       -0.0493269        0.154031      0.000121006    -0.000147449
                    -4.38695e-05     4.12783e-05        -0.495206       -0.865933      0.000169851    -0.000199751       0.00792306       0.0287058
281726                  0.125099       -0.103157     -2.28444e-05    -7.31635e-05        -0.544538        0.811823       3.8432e-05     0.000129605
                    -6.02942e-05    -0.000101645       -0.0201597      -0.0212249     -9.55952e-05      7.5406e-05        -0.494895       -0.866606
                       -0.544377        0.812039       -3.434e-05     0.000140604       -0.0492271        0.154047      0.000120967    -0.000147461
                    -4.39269e-05     4.12775e-05        -0.495439         -0.8658      0.000169807    -0.000199781       0.00792416       0.0287026
281728                  0.125068        -0.10317      -2.2893e-05    -7.29745e-05        -0.544212        0.812044       3.8463e-05     0.000129493
                    -6.03055e-05    -0.000101576       -0.0201678      -0.0212131     -9.55515e-05     7.54231e-05        -0.495127       -0.866473
                       -0.544052         0.81226     -3.43323e-05     0.000140604       -0.0491273        0.154062      0.000120928    -0.000147472
                    -4.39844e-05     4.12769e-05        -0.495672       -0.865667      0.000169764     -0.00019981       0.00792526       0.0286994
281730                  0.125037       -0.103183     -2.29417e-05    -7.27856e-05        -0.543886        0.812265      3.84944e-05     0.000129381
                    -6.03169e-05    -0.000101507       -0.0201759      -0.0212013     -9.55079e-05     7.54402e-05         -0.49536        -0.86634
                       -0.543726        0.812481     -3.43244e-05     0.000140604       -0.0490275        0.154077      0.000120889    -0.000147484
                    -4.40419e-05     4.12765e-05        -0.495904       -0.865534      0.000169721     -0.00019984       0.00792635       0.0286962
281732                  0.125006       -0.103196     -2.29905e-05    -7.25969e-05         -0.54356        0.812485      3.85261e-05      0.00012927
                    -6.03282e-05    -0.000101438        -0.020184      -0.0211895     -9.54641e-05     7.54573e-05        -0.495592       -0.866207
                         -0.5434        0.812702     -3.43164e-05     0.000140604       -0.0489277        0.154093       0.00012085    -0.000147496
                    -4.40994e-05     4.12763e-05        -0.496137       -0.865401      0.000169677    -0.000199869       0.00792744        0.028693
281734                  0.124975       -0.103209     -2.30394e-05    -7.24083e-05        -0.543234        0.812706       3.8558e-05     0.000129158
                    -6.03395e-05    -0.000101369       -0.0201921      -0.0211777     -9.54204e-05     7.54745e-05        -0.495824       -0.866074
                       -0.543074        0.812923     -3.43081e-05     0.000140604       -0.0488279        0.154108      0.000120811    -0.000147508
                    -4.41569e-05     4.12763e-05         -0.49637       -0.865267      0.000169634    -0.000199899       0.00792853       0.0286898
281736                  0.124943       -0.103221     -2.30885e-05    -7.22198e-05        -0.542908        0.812927      3.85902e-05     0.000129047
                    -6.03508e-05      -0.0001013       -0.0202002      -0.0211659     -9.53766e-05     7.54917e-05        -0.496056        -0.86594
                       -0.542748        0.813143     -3.42997e-05     0.000140603       -0.0487281        0.154123      0.000120772    -0.000147521
                    -4.42143e-05     4.12764e-05        -0.496603       -0.865134       0.00016959    -0.000199929       0.00792962       0.0286866
281738                  0.124912       -0.103234     -2.31376e-05    -7.20314e-05        -0.542582        0.813147      3.86228e-05     0.000128936
                    -6.03621e-05    -0.000101232       -0.0202083      -0.0211541     -9.53327e-05     7.55089e-05        -0.496288       -0.865807
                       -0.542422        0.813363     -3.42911e-05     0.000140603       -0.0486283        0.154138      0.000120732    -0.000147533
                    -4.42718e-05     4.12767e-05        -0.496835          -0.865      0.000169547    -0.000199959       0.00793071       0.0286834
281740                  0.124881       -0.103247     -2.31868e-05    -7.18432e-05        -0.542256        0.813367      3.86556e-05     0.000128824
                    -6.03735e-05    -0.000101163       -0.0202164      -0.0211423     -9.52888e-05     7.55261e-05         -0.49652       -0.865674
                       -0.542095        0.813584     -3.42823e-05     0.000140603       -0.0485285        0.154153      0.000120693    -0.000147545
                    -4.43292e-05     4.12772e-05        -0.497068       -0.864867      0.000169503    -0.000199989       0.00793179       0.0286802
281742                   0.12485        -0.10326     -2.32361e-05    -7.16551e-05         -0.54193        0.813587      3.86887e-05     0.000128713
                    -6.03848e-05    -0.000101095       -0.0202245      -0.0211305     -9.52449e-05     7.55433e-05        -0.496752        -0.86554
                       -0.541769        0.813804     -3.42733e-05     0.000140603       -0.0484287        0.154168      0.000120653    -0.000147558
                    -4.43866e-05     4.12779e-05          -0.4973       -0.864733       0.00016946    -0.000200019       0.00793287        0.028677
281744                  0.124818       -0.103273     -2.32856e-05    -7.14671e-05        -0.541603        0.813807      3.87221e-05     0.000128602
                    -6.03962e-05    -0.000101026       -0.0202327      -0.0211187     -9.52009e-05     7.55606e-05        -0.496984       -0.865407
                       -0.541442        0.814024     -3.42642e-05     0.000140602       -0.0483289        0.154183      0.000120614     -0.00014757
                     -4.4444e-05     4.12788e-05        -0.497533         -0.8646      0.000169416    -0.000200049       0.00793396       0.0286739
281746                  0.124787       -0.103286     -2.33351e-05    -7.12793e-05        -0.541277        0.814027      3.87558e-05     0.000128491
                    -6.04076e-05    -0.000100958       -0.0202408      -0.0211069     -9.51569e-05     7.55779e-05        -0.497216       -0.865273
                       -0.541116        0.814244     -3.42548e-05     0.000140602       -0.0482292        0.154197      0.000120574    -0.000147583
                    -4.45013e-05     4.12798e-05        -0.497765       -0.864466      0.000169373    -0.000200079       0.00793504       0.0286707
281748                  0.124756       -0.103299     -2.33847e-05    -7.10916e-05         -0.54095        0.814247      3.87898e-05      0.00012838
                     -6.0419e-05     -0.00010089       -0.0202489      -0.0210951     -9.51128e-05     7.55951e-05        -0.497448       -0.865139
                       -0.540789        0.814463     -3.42453e-05     0.000140601       -0.0481294        0.154212      0.000120534    -0.000147596
                    -4.45587e-05      4.1281e-05        -0.497998       -0.864332      0.000169329    -0.000200109       0.00793611       0.0286675
281750                  0.124724       -0.103312     -2.34344e-05    -7.09039e-05        -0.540624        0.814467      3.88241e-05      0.00012827
                    -6.04304e-05    -0.000100822        -0.020257      -0.0210833     -9.50687e-05     7.56124e-05         -0.49768       -0.865006
                       -0.540462        0.814683     -3.42357e-05     0.000140601       -0.0480296        0.154227      0.000120494    -0.000147609
                     -4.4616e-05     4.12824e-05         -0.49823       -0.864198      0.000169286    -0.000200139       0.00793719       0.0286644
281752                  0.124693       -0.103324     -2.34842e-05    -7.07164e-05        -0.540297        0.814686      3.88587e-05     0.000128159
                    -6.04418e-05    -0.000100754       -0.0202651      -0.0210715     -9.50246e-05     7.56298e-05        -0.497912       -0.864872
                       -0.540135        0.814902     -3.42258e-05       0.0001406       -0.0479298        0.154241      0.000120454    -0.000147622
                    -4.46732e-05     4.12839e-05        -0.498463       -0.864064      0.000169242    -0.000200169       0.00793827       0.0286612
281754                  0.124662       -0.103337     -2.35341e-05     -7.0529e-05         -0.53997        0.814905      3.88935e-05     0.000128048
                    -6.04533e-05    -0.000100686       -0.0202732      -0.0210596     -9.49804e-05     7.56471e-05        -0.498144       -0.864738
                       -0.539808        0.815122     -3.42158e-05       0.0001406         -0.04783        0.154256      0.000120414    -0.000147635
                    -4.47304e-05     4.12856e-05        -0.498695        -0.86393      0.000169199      -0.0002002       0.00793934       0.0286581
281756                   0.12463        -0.10335      -2.3584e-05    -7.03415e-05        -0.539643        0.815125      3.89287e-05     0.000127938
                    -6.04649e-05    -0.000100619       -0.0202812      -0.0210478     -9.49362e-05     7.56644e-05        -0.498376       -0.864604
                       -0.539481        0.815341     -3.42057e-05     0.000140599       -0.0477302         0.15427      0.000120374    -0.000147649
                    -4.47876e-05     4.12874e-05        -0.498928       -0.863796      0.000169155     -0.00020023       0.00794041       0.0286549
281758                  0.124599       -0.103363      -2.3634e-05    -7.01535e-05        -0.539316        0.815344      3.89641e-05     0.000127827
                    -6.04765e-05    -0.000100551       -0.0202893       -0.021036     -9.48919e-05     7.56818e-05        -0.498607        -0.86447
                       -0.539154         0.81556     -3.41954e-05     0.000140598       -0.0476304        0.154284      0.000120333    -0.000147662
                    -4.48447e-05     4.12894e-05         -0.49916       -0.863662      0.000169111    -0.000200261       0.00794148       0.0286518
281760                  0.124568       -0.103376     -2.36881e-05    -6.99665e-05        -0.538989        0.815563      3.89999e-05     0.000127717
                    -6.04881e-05    -0.000100483       -0.0202974      -0.0210242     -9.48476e-05     7.56992e-05        -0.498839       -0.864336
                       -0.538827        0.815779     -3.41849e-05     0.000140598       -0.0475306        0.154299      0.000120293    -0.000147676
                    -4.49018e-05     4.12916e-05        -0.499392       -0.863528      0.000169068    -0.000200291       0.00794255       0.0286487
281762                  0.124537       -0.103388     -2.37366e-05     -6.9782e-05        -0.538662        0.815782      3.90359e-05     0.000127606
                    -6.04998e-05    -0.000100416       -0.0203055      -0.0210124     -9.48032e-05     7.57166e-05        -0.499071       -0.864202
                         -0.5385        0.815998     -3.41742e-05     0.000140597       -0.0474308        0.154313      0.000120252    -0.000147689
