! TOUCHSTONE file generated by CST MICROWAVE STUDIO
! Date and time: Wed Oct 15 17:28:35 2025
! Project name: Teste_Macro_Metasurface_Nanopilar.cst
! Parameters = {H=600; L_x=80; L_y=195; Lambda=1064; Max_L=200; Min_L=70; PathPara=1; Phi=0; Step_L=10; Theta=0; p=520; phaseX=180; phaseY=0}
! Header version: 2018
! Port assignment regex: !\s*Touchstone port\s*([0-9]+)\s*=\s*(CST MWS port|CST DS port)\s*([0-9]+|Zmin|Zmax)\s*\(\"(.*)\"\)(\s*mode\s*([0-9]+))?.*
! Touchstone port assignment:
! Touchstone port 1 = CST MWS port Zmax ("") mode 1
! Touchstone port 2 = CST MWS port Zmax ("") mode 2
! Touchstone port 3 = CST MWS port Zmin ("") mode 1
! Touchstone port 4 = CST MWS port Zmin ("") mode 2
! S-Parameters are not renormalized. Each port impedance will be approximated by the real part at minimum frequency. The values are described via the [Reference] keyword.
! Default impedance is overridden by [Reference]
[Version] 2.0
# GHz S RI R 376.73
[Number of Ports] 4
[Reference]
376.73 376.73 259.888 259.888 
[Number of Frequencies] 51
[Network Data]
281700                  0.223074        0.421711     -0.000248384    -0.000269242         0.629522       -0.601945      0.000308237     0.000153191
                    -0.000222206    -0.000204046        -0.039731      -0.0143574      0.000387332    -0.000295355        -0.540791       -0.838229
                          0.6302       -0.601735       0.00043751    -0.000219038         0.412808        0.233282     -0.000380415     0.000381722
                     0.000308254     0.000112125        -0.540051       -0.838526     -0.000267315     0.000518659      -0.00328665       0.0427002
281702                  0.223181         0.42177     -0.000248548    -0.000269157         0.629234       -0.602165      0.000308353     0.000153146
                    -0.000222439    -0.000203468       -0.0397391      -0.0143438        0.0003872    -0.000295463        -0.541015       -0.838084
                        0.629912       -0.601959      0.000437456    -0.000219327         0.413056        0.233048     -0.000380398     0.000381877
                     0.000308565     0.000111464        -0.540275       -0.838381     -0.000267174     0.000518693      -0.00327964       0.0427038
281704                  0.223287        0.421828     -0.000248712    -0.000269073         0.628946       -0.602384      0.000308469     0.000153101
                    -0.000222659    -0.000202923       -0.0397472      -0.0143303      0.000387068    -0.000295571        -0.541238       -0.837939
                        0.629623       -0.602183      0.000437403    -0.000219616         0.413304        0.232813     -0.000380381     0.000382032
                     0.000308855     0.000110848        -0.540498       -0.838237     -0.000267033     0.000518727      -0.00327262       0.0427073
281706                  0.223393        0.421886     -0.000248876    -0.000268988         0.628657       -0.602604      0.000308585     0.000153055
                    -0.000222868    -0.000202415       -0.0397553      -0.0143167      0.000386936     -0.00029568        -0.541461       -0.837794
                        0.629334       -0.602406      0.000437349    -0.000219905         0.413551        0.232579     -0.000380363     0.000382187
                     0.000309121     0.000110283        -0.540721       -0.838093     -0.000266892     0.000518761      -0.00326561       0.0427109
281708                  0.223499        0.421945      -0.00024904    -0.000268903         0.628368       -0.602823      0.000308701      0.00015301
                    -0.000223063    -0.000201948       -0.0397634      -0.0143032      0.000386804    -0.000295789        -0.541684       -0.837649
                        0.629046       -0.602629      0.000437295    -0.000220195         0.413798        0.232344     -0.000380345     0.000382343
                     0.000309362     0.000109774        -0.540944       -0.837948     -0.000266751     0.000518794      -0.00325859       0.0427145
281710                  0.223606        0.422003     -0.000249204    -0.000268819          0.62808       -0.603042      0.000308817     0.000152964
                    -0.000223246    -0.000201526       -0.0397715      -0.0142896      0.000386673    -0.000295898        -0.541907       -0.837504
                        0.628757       -0.602851      0.000437241    -0.000220484         0.414046        0.232109     -0.000380326     0.000382498
                     0.000309577      0.00010933        -0.541167       -0.837804      -0.00026661     0.000518827      -0.00325156       0.0427181
281712                  0.223712        0.422061     -0.000249368    -0.000268734         0.627791       -0.603261      0.000308933     0.000152918
                    -0.000223414    -0.000201155       -0.0397796       -0.014276      0.000386541    -0.000296008        -0.542129       -0.837359
                        0.628469       -0.603073      0.000437187    -0.000220774         0.414293        0.231873     -0.000380306     0.000382653
                     0.000309764     0.000108957         -0.54139       -0.837659     -0.000266469      0.00051886      -0.00324454       0.0427217
281714                  0.223819        0.422119     -0.000249532    -0.000268649         0.627502        -0.60348      0.000309049     0.000152871
                    -0.000223567    -0.000200841       -0.0397877      -0.0142625       0.00038641    -0.000296118        -0.542352       -0.837214
                         0.62818       -0.603294      0.000437133    -0.000221063          0.41454        0.231638     -0.000380286     0.000382808
                      0.00030992     0.000108665        -0.541613       -0.837515     -0.000266328     0.000518893      -0.00323751       0.0427253
281716                  0.223925        0.422178     -0.000249696    -0.000268564         0.627213       -0.603698      0.000309165     0.000152825
                    -0.000223705    -0.000200591       -0.0397958      -0.0142489      0.000386279    -0.000296228        -0.542575       -0.837069
                        0.627892       -0.603514      0.000437079    -0.000221352         0.414787        0.231402     -0.000380266     0.000382964
                     0.000310041     0.000108465        -0.541836        -0.83737     -0.000266187     0.000518925      -0.00323048       0.0427289
281718                  0.224032        0.422236      -0.00024986    -0.000268478         0.626923       -0.603917      0.000309281     0.000152778
                    -0.000223826    -0.000200413       -0.0398038      -0.0142353      0.000386148    -0.000296338        -0.542798       -0.836924
                        0.627603       -0.603734      0.000437025    -0.000221642         0.415034        0.231166     -0.000380245     0.000383119
                     0.000310126     0.000108368        -0.542059       -0.837225     -0.000266046     0.000518957      -0.00322345       0.0427325
281720                  0.224138        0.422294     -0.000250024    -0.000268393         0.626634       -0.604135      0.000309397     0.000152731
                    -0.000223928    -0.000200316       -0.0398119      -0.0142217      0.000386018    -0.000296449        -0.543021       -0.836778
                        0.627315       -0.603953       0.00043697    -0.000221931          0.41528         0.23093     -0.000380223     0.000383274
                      0.00031017     0.000108388        -0.542282       -0.837081     -0.000265905     0.000518988      -0.00321641       0.0427361
281722                  0.224245        0.422353     -0.000250188    -0.000268308         0.626345       -0.604353      0.000309513     0.000152683
                    -0.000224011     -0.00020031         -0.03982      -0.0142082      0.000385887    -0.000296559        -0.543243       -0.836633
                        0.627027        -0.60417      0.000436916    -0.000222221         0.415527        0.230693     -0.000380201      0.00038343
                     0.000310168      0.00010854        -0.542505       -0.836936     -0.000265764     0.000519019      -0.00320938       0.0427397
281724                  0.224352        0.422411     -0.000250352    -0.000268222         0.626055       -0.604571      0.000309628     0.000152636
                    -0.000224072    -0.000200408       -0.0398281      -0.0141946      0.000385757     -0.00029667        -0.543466       -0.836487
                        0.626739       -0.604387      0.000436862     -0.00022251         0.415774        0.230456     -0.000380179     0.000383585
                     0.000310116     0.000108841        -0.542728       -0.836791     -0.000265624      0.00051905      -0.00320234       0.0427433
281726                  0.224459        0.422469     -0.000250516    -0.000268137         0.625765       -0.604789      0.000309744     0.000152588
                     -0.00022411    -0.000200622       -0.0398362       -0.014181      0.000385627     -0.00029678        -0.543689       -0.836342
                        0.626451       -0.604603      0.000436807      -0.0002228          0.41602        0.230219     -0.000380156     0.000383741
                     0.000310006     0.000109311         -0.54295       -0.836646     -0.000265483     0.000519081      -0.00319529       0.0427469
281728                  0.224566        0.422527      -0.00025068    -0.000268051         0.625476       -0.605007       0.00030986      0.00015254
                    -0.000224122    -0.000200967       -0.0398442      -0.0141674      0.000385497    -0.000296891        -0.543911       -0.836196
                        0.626163       -0.604817      0.000436753     -0.00022309         0.416267        0.229982     -0.000380133     0.000383896
                     0.000309832      0.00010997        -0.543173       -0.836501     -0.000265343     0.000519111      -0.00318825       0.0427505
281730                  0.224672        0.422586     -0.000250844    -0.000267965         0.625186       -0.605225      0.000309976     0.000152492
                    -0.000224106    -0.000201458       -0.0398523      -0.0141539      0.000385367    -0.000297002        -0.544134       -0.836051
                        0.625875        -0.60503      0.000436698    -0.000223379         0.416513        0.229745     -0.000380109     0.000384052
                     0.000309585      0.00011084        -0.543396       -0.836356     -0.000265203     0.000519142       -0.0031812       0.0427541
281732                  0.224779        0.422644     -0.000251008    -0.000267879         0.624896       -0.605442      0.000310091     0.000152443
                    -0.000224061    -0.000202108       -0.0398604      -0.0141403      0.000385237    -0.000297112        -0.544356       -0.835905
                        0.625586       -0.605242      0.000436644    -0.000223669         0.416759        0.229507     -0.000380084     0.000384207
                      0.00030926     0.000111938        -0.543618       -0.836211     -0.000265063     0.000519171      -0.00317415       0.0427577
281734                  0.224887        0.422702     -0.000251173    -0.000267793         0.624605        -0.60566      0.000310207     0.000152394
                    -0.000223984    -0.000202926       -0.0398685      -0.0141267      0.000385107    -0.000297223        -0.544579       -0.835759
                        0.625298       -0.605452      0.000436589    -0.000223959         0.417005        0.229269     -0.000380059     0.000384363
                     0.000308849     0.000113278        -0.543841       -0.836065     -0.000264923     0.000519201       -0.0031671       0.0427613
281736                  0.224994         0.42276     -0.000251337    -0.000267707         0.624315       -0.605877      0.000310322     0.000152346
                    -0.000223878    -0.000203912       -0.0398765      -0.0141131      0.000384978    -0.000297334        -0.544801       -0.835613
                        0.625009        -0.60566      0.000436535    -0.000224248         0.417251        0.229031     -0.000380034     0.000384518
                     0.000308351     0.000114855        -0.544064        -0.83592     -0.000264783      0.00051923      -0.00316005       0.0427649
281738                  0.225101        0.422819     -0.000251501    -0.000267621         0.624025       -0.606094      0.000310438     0.000152296
                    -0.000223748    -0.000205043       -0.0398846      -0.0140995      0.000384848    -0.000297444        -0.545024       -0.835468
                         0.62472       -0.605867       0.00043648    -0.000224538         0.417497        0.228793     -0.000380008     0.000384674
                     0.000307776     0.000116634        -0.544286       -0.835775     -0.000264644     0.000519259      -0.00315299       0.0427685
281740                  0.225208        0.422877     -0.000251665    -0.000267535         0.623734       -0.606311      0.000310554     0.000152247
                    -0.000223608    -0.000206248       -0.0398927      -0.0140859      0.000384719    -0.000297555        -0.545246       -0.835322
                        0.624429       -0.606074      0.000436425    -0.000224828         0.417743        0.228554     -0.000379982     0.000384829
                     0.000307157     0.000118516        -0.544509       -0.835629     -0.000264504     0.000519288      -0.00314594       0.0427722
281742                  0.225315        0.422935     -0.000251829    -0.000267448         0.623444       -0.606528      0.000310669     0.000152197
                    -0.000223489    -0.000207377       -0.0399007      -0.0140723       0.00038459    -0.000297666        -0.545468       -0.835176
                        0.624139       -0.606282      0.000436371    -0.000225117         0.417989        0.228315     -0.000379955     0.000384985
                     0.000306574     0.000120283        -0.544731       -0.835484     -0.000264365     0.000519317      -0.00313888       0.0427758
281744                  0.225422        0.422993     -0.000251994    -0.000267362         0.623153       -0.606745      0.000310785     0.000152147
                    -0.000223451    -0.000208125       -0.0399088      -0.0140587      0.000384461    -0.000297776        -0.545691        -0.83503
                        0.623848       -0.606493      0.000436316    -0.000225407         0.418234        0.228076     -0.000379928     0.000385141
                      0.00030619     0.000121509        -0.544953       -0.835339     -0.000264226     0.000519345      -0.00313181       0.0427794
281746                   0.22553        0.423052     -0.000252158    -0.000267275         0.622862       -0.606962        0.0003109     0.000152097
                    -0.000223601    -0.000207946       -0.0399168      -0.0140452      0.000384332    -0.000297887        -0.545913       -0.834884
                        0.623557       -0.606711      0.000436261    -0.000225697          0.41848        0.227837       -0.0003799     0.000385296
                       0.0003063     0.000121423        -0.545176       -0.835193     -0.000264087     0.000519373      -0.00312475        0.042783
281748                  0.225637         0.42311     -0.000252322    -0.000267188         0.622571       -0.607178      0.000311016     0.000152047
                    -0.000224095    -0.000205959       -0.0399249      -0.0140316      0.000384203    -0.000297998        -0.546135       -0.834737
                        0.623268       -0.606943      0.000436206    -0.000225987         0.418725        0.227598     -0.000379872     0.000385452
                     0.000307351     0.000118773        -0.545398       -0.835047     -0.000263948       0.0005194      -0.00311768       0.0427867
281750                  0.225744        0.423168     -0.000252486    -0.000267101          0.62228       -0.607394      0.000311131     0.000151996
                    -0.000225102    -0.000201022        -0.039933       -0.014018      0.000384074    -0.000298109        -0.546357       -0.834591
                        0.622978       -0.607199      0.000436152    -0.000226277          0.41897        0.227358     -0.000379843     0.000385608
                     0.000309811      0.00011184        -0.545621       -0.834902     -0.000263809     0.000519427      -0.00311061       0.0427903
281752                  0.225851        0.423226     -0.000252651    -0.000267014         0.621989       -0.607611      0.000311246     0.000151945
                    -0.000226662    -0.000192213        -0.039941      -0.0140044      0.000383946     -0.00029822        -0.546579       -0.834445
                        0.622673       -0.607485      0.000436097    -0.000226567         0.419216        0.227118      -0.00037981     0.000385769
                     0.000313734     9.90292e-05        -0.545843       -0.834756     -0.000263671     0.000519453      -0.00310354        0.042794
281754                  0.225958        0.423283     -0.000252815    -0.000266927         0.621697       -0.607827      0.000311363     0.000151894
                    -0.000228523    -0.000179821       -0.0399491      -0.0139908      0.000383819    -0.000298332        -0.546802       -0.834298
                         0.62233       -0.607787      0.000436042    -0.000226857         0.419461        0.226878     -0.000379787      0.00038592
                     0.000318209     8.03171e-05        -0.546065        -0.83461     -0.000263533     0.000519478      -0.00309646       0.0427976
281756                  0.226064         0.42334      -0.00025298     -0.00026684         0.621406       -0.608042      0.000311478     0.000151843
                    -0.000230213    -0.000165923       -0.0399571      -0.0139772      0.000383693    -0.000298445        -0.547024       -0.834152
                        0.621952       -0.608064      0.000435987    -0.000227146         0.419706        0.226637     -0.000379756     0.000386076
                     0.000321672     5.85587e-05        -0.546287       -0.834464     -0.000263395       0.0005195      -0.00308938       0.0428012
281758                  0.226171        0.423394     -0.000253144    -0.000266752         0.621114       -0.608258      0.000311593     0.000151792
                    -0.000231392    -0.000153368       -0.0399652      -0.0139636      0.000383572    -0.000298562        -0.547246       -0.834006
                        0.621579       -0.608298      0.000435933    -0.000227436         0.419951        0.226397     -0.000379726     0.000386232
                     0.000323269     3.83584e-05        -0.546509       -0.834318     -0.000263261     0.000519515       -0.0030823       0.0428049
281760                  0.226283        0.423445     -0.000253309    -0.000266665         0.620823       -0.608473      0.000311709      0.00015174
                     -0.00023205    -0.000143964       -0.0399732        -0.01395      0.000383483    -0.000298697        -0.547468       -0.833859
                        0.621233        -0.60851      0.000435878    -0.000227726         0.420195        0.226156     -0.000379695     0.000386387
                     0.000323436     2.29948e-05        -0.546732       -0.834172     -0.000263186     0.000519502      -0.00307522       0.0428085
281762                    0.2264        0.423505     -0.000253474    -0.000266576         0.620531        -0.60869      0.000311824     0.000151688
                    -0.000232353    -0.000137896       -0.0399813      -0.0139364      0.000383252    -0.000298667        -0.547689       -0.833712
                        0.620911       -0.608718      0.000435825    -0.000228016          0.42044        0.225914     -0.000379664     0.000386543
