! TOUCHSTONE file generated by CST MICROWAVE STUDIO
! Date and time: Wed Oct 15 17:33:48 2025
! Project name: Teste_Macro_Metasurface_Nanopilar.cst
! Parameters = {H=600; L_x=175; L_y=85; Lambda=1064; Max_L=200; Min_L=70; PathPara=1; Phi=0; Step_L=10; Theta=0; p=520; phaseX=180; phaseY=0}
! Header version: 2018
! Port assignment regex: !\s*Touchstone port\s*([0-9]+)\s*=\s*(CST MWS port|CST DS port)\s*([0-9]+|Zmin|Zmax)\s*\(\"(.*)\"\)(\s*mode\s*([0-9]+))?.*
! Touchstone port assignment:
! Touchstone port 1 = CST MWS port Zmax ("") mode 1
! Touchstone port 2 = CST MWS port Zmax ("") mode 2
! Touchstone port 3 = CST MWS port Zmin ("") mode 1
! Touchstone port 4 = CST MWS port Zmin ("") mode 2
! S-Parameters are not renormalized. Each port impedance will be approximated by the real part at minimum frequency. The values are described via the [Reference] keyword.
! Default impedance is overridden by [Reference]
[Version] 2.0
# GHz S RI R 376.73
[Number of Ports] 4
[Reference]
376.73 376.73 259.888 259.888 
[Number of Frequencies] 51
[Network Data]
281700                -0.0383583        0.015033     -0.000343844    -9.72437e-05        -0.644277       -0.761431     -0.000213585     5.50108e-05
                    -0.000399883    -9.19289e-05        0.0823346        0.229529      -0.00010103    -0.000181831         0.928912       -0.259102
                       -0.644387       -0.760867     -0.000115357    -0.000126423       -0.0210038         0.03613      -0.00026447    -0.000241769
                     -0.00013021     2.94924e-05         0.928837       -0.258906      -0.00031259    -0.000182593        0.0500969        0.237643
281702                -0.0383632       0.0150495     -0.000343965    -9.70986e-05        -0.644488       -0.761252     -0.000213567     5.51491e-05
                    -0.000399967    -9.17861e-05        0.0823637        0.229558     -0.000101092    -0.000181828         0.928814       -0.259418
                       -0.644597       -0.760689     -0.000115339    -0.000126389        -0.021001       0.0361437     -0.000264646    -0.000241923
                    -0.000130245     2.94732e-05         0.928739       -0.259222     -0.000312686    -0.000182557        0.0502505        0.237647
281704                 -0.038368       0.0150661     -0.000344085    -9.69533e-05        -0.644698       -0.761074     -0.000213549     5.52874e-05
                    -0.000400051    -9.16431e-05        0.0823928        0.229586     -0.000101153    -0.000181826         0.928716       -0.259735
                       -0.644807        -0.76051      -0.00011532    -0.000126356       -0.0209982       0.0361575     -0.000264823    -0.000242078
                    -0.000130281      2.9454e-05         0.928641       -0.259539     -0.000312781    -0.000182522        0.0504041        0.237652
281706                -0.0383728       0.0150827     -0.000344205    -9.68079e-05        -0.644908       -0.760895     -0.000213531     5.54258e-05
                    -0.000400135       -9.15e-05        0.0824219        0.229615     -0.000101214    -0.000181823         0.928618       -0.260052
                       -0.645017       -0.760332     -0.000115301    -0.000126322       -0.0209955       0.0361712     -0.000264999    -0.000242233
                    -0.000130317     2.94348e-05         0.928544       -0.259855     -0.000312877    -0.000182486        0.0505577        0.237657
281708                -0.0383777       0.0150993     -0.000344325    -9.66625e-05        -0.645117       -0.760717     -0.000213512     5.55643e-05
                    -0.000400219    -9.13569e-05        0.0824511        0.229643     -0.000101275    -0.000181821          0.92852       -0.260368
                       -0.645226       -0.760153     -0.000115282    -0.000126289       -0.0209927        0.036185     -0.000265176    -0.000242388
                    -0.000130353     2.94156e-05         0.928445       -0.260171     -0.000312973    -0.000182451        0.0507114        0.237661
281710                -0.0383825       0.0151159     -0.000344445    -9.65169e-05        -0.645327       -0.760538     -0.000213493     5.57029e-05
                    -0.000400303    -9.12136e-05        0.0824802        0.229672     -0.000101336    -0.000181818         0.928421       -0.260685
                       -0.645436       -0.759974     -0.000115264    -0.000126255       -0.0209899       0.0361987     -0.000265354    -0.000242543
                    -0.000130389     2.93965e-05         0.928347       -0.260488     -0.000313068    -0.000182415        0.0508651        0.237665
281712                -0.0383873       0.0151325     -0.000344565    -9.63713e-05        -0.645537       -0.760359     -0.000213474     5.58415e-05
                    -0.000400386    -9.10703e-05        0.0825093        0.229701     -0.000101397    -0.000181816         0.928323       -0.261001
                       -0.645646       -0.759795     -0.000115245    -0.000126222       -0.0209871       0.0362125     -0.000265531    -0.000242697
                    -0.000130425     2.93773e-05         0.928249       -0.260804     -0.000313164    -0.000182379        0.0510188         0.23767
281714                -0.0383921       0.0151491     -0.000344685    -9.62256e-05        -0.645747        -0.76018     -0.000213455     5.59802e-05
                     -0.00040047    -9.09269e-05        0.0825384        0.229729     -0.000101458    -0.000181813         0.928224       -0.261318
                       -0.645855       -0.759616     -0.000115227    -0.000126189       -0.0209843       0.0362263     -0.000265709    -0.000242852
                     -0.00013046     2.93581e-05         0.928151        -0.26112      -0.00031326    -0.000182343        0.0511725        0.237674
281716                -0.0383969       0.0151657     -0.000344804    -9.60797e-05        -0.645957       -0.760001     -0.000213435     5.61189e-05
                    -0.000400553    -9.07833e-05        0.0825676        0.229758     -0.000101519     -0.00018181         0.928126       -0.261634
                       -0.646065       -0.759438     -0.000115208    -0.000126156       -0.0209814         0.03624     -0.000265888    -0.000243007
                    -0.000130496     2.93389e-05         0.928052       -0.261436     -0.000313356    -0.000182307        0.0513263        0.237678
281718                -0.0384018       0.0151823     -0.000344924    -9.59338e-05        -0.646166       -0.759823     -0.000213415     5.62577e-05
                    -0.000400637    -9.06397e-05        0.0825967        0.229787      -0.00010158    -0.000181807         0.928027       -0.261951
                       -0.646274       -0.759259      -0.00011519    -0.000126123       -0.0209786       0.0362538     -0.000266067    -0.000243162
                    -0.000130532     2.93197e-05         0.927954       -0.261752     -0.000313451     -0.00018227        0.0514801        0.237682
281720                -0.0384066       0.0151989     -0.000345043    -9.57877e-05        -0.646376       -0.759644     -0.000213395     5.63966e-05
                     -0.00040072     -9.0496e-05        0.0826259        0.229815     -0.000101641    -0.000181805         0.927928       -0.262267
                       -0.646483        -0.75908     -0.000115172     -0.00012609       -0.0209758       0.0362676     -0.000266246    -0.000243316
                    -0.000130568     2.93005e-05         0.927855       -0.262068     -0.000313547    -0.000182234        0.0516339        0.237686
281722                -0.0384114       0.0152155     -0.000345163    -9.56416e-05        -0.646586       -0.759465     -0.000213375     5.65356e-05
                    -0.000400804    -9.03522e-05         0.082655        0.229844     -0.000101701    -0.000181802         0.927829       -0.262583
                       -0.646693         -0.7589     -0.000115153    -0.000126057       -0.0209729       0.0362814     -0.000266425    -0.000243471
                    -0.000130604     2.92814e-05         0.927756       -0.262384     -0.000313643    -0.000182198        0.0517878         0.23769
281724                -0.0384162       0.0152322     -0.000345282    -9.54954e-05        -0.646795       -0.759286     -0.000213354     5.66746e-05
                    -0.000400887    -9.02083e-05        0.0826842        0.229872     -0.000101762    -0.000181799          0.92773       -0.262899
                       -0.646902       -0.758721     -0.000115135    -0.000126024       -0.0209701       0.0362952     -0.000266605    -0.000243626
                     -0.00013064     2.92622e-05         0.927657         -0.2627     -0.000313738    -0.000182161        0.0519417        0.237693
281726                 -0.038421       0.0152488     -0.000345401     -9.5349e-05        -0.647005       -0.759106     -0.000213334     5.68137e-05
                     -0.00040097    -9.00643e-05        0.0827134        0.229901     -0.000101823    -0.000181796         0.927631       -0.263216
                       -0.647111       -0.758542     -0.000115117    -0.000125991       -0.0209672        0.036309     -0.000266785     -0.00024378
                    -0.000130676      2.9243e-05         0.927558       -0.263016     -0.000313834    -0.000182124        0.0520956        0.237697
281728                -0.0384258       0.0152654      -0.00034552    -9.52026e-05        -0.647214       -0.758927     -0.000213313     5.69528e-05
                    -0.000401053    -8.99202e-05        0.0827426         0.22993     -0.000101883    -0.000181793         0.927532       -0.263532
                       -0.647321       -0.758363     -0.000115099    -0.000125958       -0.0209644       0.0363228     -0.000266966    -0.000243935
                    -0.000130712     2.92239e-05         0.927459       -0.263332      -0.00031393    -0.000182088        0.0522495        0.237701
281730                -0.0384306        0.015282     -0.000345639    -9.50561e-05        -0.647424       -0.758748     -0.000213291     5.70921e-05
                    -0.000401136     -8.9776e-05        0.0827717        0.229958     -0.000101943     -0.00018179         0.927432       -0.263848
                        -0.64753       -0.758183     -0.000115081    -0.000125926       -0.0209615       0.0363366     -0.000267147     -0.00024409
                    -0.000130748     2.92048e-05          0.92736       -0.263648     -0.000314025    -0.000182051        0.0524035        0.237704
281732                -0.0384354       0.0152986     -0.000345758    -9.49094e-05        -0.647633       -0.758569      -0.00021327     5.72313e-05
                    -0.000401218    -8.96317e-05        0.0828009        0.229987     -0.000102004    -0.000181787         0.927333       -0.264164
                       -0.647739       -0.758004     -0.000115064    -0.000125893       -0.0209586       0.0363504     -0.000267328    -0.000244245
                    -0.000130784     2.91856e-05          0.92726       -0.263964     -0.000314121    -0.000182014        0.0525575        0.237707
281734                -0.0384402       0.0153152     -0.000345876    -9.47627e-05        -0.647842       -0.758389     -0.000213248     5.73707e-05
                    -0.000401301    -8.94873e-05        0.0828301        0.230016     -0.000102064    -0.000181784         0.927233        -0.26448
                       -0.647948       -0.757824     -0.000115046     -0.00012586       -0.0209557       0.0363642     -0.000267509    -0.000244399
                     -0.00013082     2.91665e-05         0.927161        -0.26428     -0.000314216    -0.000181977        0.0527115        0.237711
281736                 -0.038445       0.0153318     -0.000345995    -9.46159e-05        -0.648052        -0.75821     -0.000213226     5.75101e-05
                    -0.000401384    -8.93427e-05        0.0828593        0.230044     -0.000102124    -0.000181781         0.927133       -0.264796
                       -0.648157       -0.757645     -0.000115028    -0.000125828       -0.0209528       0.0363781     -0.000267691    -0.000244554
                    -0.000130856     2.91474e-05         0.927061       -0.264596     -0.000314312     -0.00018194        0.0528656        0.237714
281738                -0.0384498       0.0153485     -0.000346113    -9.44689e-05        -0.648261        -0.75803     -0.000213204     5.76496e-05
                    -0.000401466    -8.91981e-05        0.0828885        0.230073     -0.000102185    -0.000181778         0.927033       -0.265112
                       -0.648366       -0.757465      -0.00011501    -0.000125795       -0.0209499       0.0363919     -0.000267874    -0.000244709
                    -0.000130892     2.91283e-05         0.926961       -0.264911     -0.000314407    -0.000181902        0.0530197        0.237717
281740                -0.0384546       0.0153651     -0.000346232    -9.43219e-05         -0.64847       -0.757851     -0.000213181     5.77891e-05
                    -0.000401548    -8.90533e-05        0.0829178        0.230102     -0.000102245    -0.000181775         0.926933       -0.265428
                       -0.648575       -0.757286     -0.000114993    -0.000125763        -0.020947       0.0364057     -0.000268056    -0.000244863
                    -0.000130928     2.91092e-05         0.926861       -0.265227     -0.000314503    -0.000181865        0.0531738         0.23772
281742                -0.0384594       0.0153817      -0.00034635    -9.41747e-05        -0.648679       -0.757671     -0.000213158     5.79287e-05
                    -0.000401631    -8.89084e-05         0.082947         0.23013     -0.000102305    -0.000181772         0.926833       -0.265744
                       -0.648784       -0.757106     -0.000114975    -0.000125731       -0.0209441       0.0364196     -0.000268239    -0.000245018
                    -0.000130964     2.90901e-05         0.926762       -0.265543     -0.000314598    -0.000181827        0.0533279        0.237723
281744                -0.0384641       0.0153983     -0.000346468    -9.40275e-05        -0.648888       -0.757491     -0.000213135     5.80684e-05
                    -0.000401713    -8.87633e-05        0.0829762        0.230159     -0.000102365    -0.000181769         0.926733        -0.26606
                       -0.648993       -0.756926     -0.000114958    -0.000125698       -0.0209412       0.0364334     -0.000268423    -0.000245172
                       -0.000131      2.9071e-05         0.926661       -0.265858     -0.000314693     -0.00018179        0.0534821        0.237725
281746                -0.0384689       0.0154149     -0.000346586    -9.38801e-05        -0.649097       -0.757312     -0.000213112     5.82081e-05
                    -0.000401795    -8.86179e-05        0.0830055        0.230188     -0.000102425    -0.000181766         0.926633       -0.266376
                       -0.649201       -0.756746      -0.00011494    -0.000125666       -0.0209382       0.0364473     -0.000268606    -0.000245327
                    -0.000131036     2.90519e-05         0.926561       -0.266174     -0.000314789    -0.000181752        0.0536363        0.237728
281748                -0.0384737       0.0154316     -0.000346704    -9.37327e-05        -0.649306       -0.757132     -0.000213089     5.83479e-05
                    -0.000401876    -8.84722e-05        0.0830347        0.230216     -0.000102485    -0.000181763         0.926532       -0.266692
                        -0.64941       -0.756566     -0.000114923    -0.000125634       -0.0209353       0.0364611      -0.00026879    -0.000245482
                    -0.000131072     2.90328e-05         0.926461        -0.26649     -0.000314884    -0.000181714        0.0537905        0.237731
281750                -0.0384785       0.0154482     -0.000346821    -9.35851e-05        -0.649515       -0.756952     -0.000213065     5.84877e-05
                    -0.000401958    -8.83259e-05        0.0830639        0.230245     -0.000102545     -0.00018176         0.926432       -0.267008
                       -0.649619       -0.756386     -0.000114905    -0.000125602       -0.0209323        0.036475     -0.000268975    -0.000245636
                    -0.000131108     2.90136e-05         0.926361       -0.266805     -0.000314979    -0.000181676        0.0539447        0.237733
281752                -0.0384833       0.0154648     -0.000346939    -9.34374e-05        -0.649724       -0.756772     -0.000213041     5.86276e-05
                    -0.000402038    -8.81785e-05        0.0830932        0.230274     -0.000102605    -0.000181757         0.926331       -0.267324
                       -0.649827       -0.756206     -0.000114888     -0.00012557       -0.0209294       0.0364889      -0.00026916    -0.000245791
                    -0.000131143     2.89944e-05          0.92626       -0.267121     -0.000315074    -0.000181638         0.054099        0.237736
281754                 -0.038488       0.0154815     -0.000347057    -9.32896e-05        -0.649933       -0.756592     -0.000213017     5.87676e-05
                    -0.000402116    -8.80283e-05        0.0831225        0.230302     -0.000102665    -0.000181754          0.92623       -0.267639
                       -0.650036       -0.756026     -0.000114871    -0.000125538       -0.0209264       0.0365028     -0.000269345    -0.000245945
                    -0.000131179     2.89751e-05          0.92616       -0.267436     -0.000315169      -0.0001816        0.0542533        0.237738
281756                -0.0384928       0.0154981     -0.000347174    -9.31417e-05        -0.650142       -0.756412     -0.000212992     5.89076e-05
                    -0.000402173     -8.7868e-05        0.0831517        0.230331     -0.000102725     -0.00018175          0.92613       -0.267955
                       -0.650245       -0.755846     -0.000114854    -0.000125506       -0.0209234       0.0365166      -0.00026953      -0.0002461
                    -0.000131213     2.89556e-05         0.926059       -0.267752     -0.000315264    -0.000181562        0.0544076         0.23774
281758                -0.0384976       0.0155147     -0.000347291    -9.29937e-05        -0.650351       -0.756232     -0.000212968     5.90477e-05
                    -0.000402284    -8.78048e-05         0.083181         0.23036     -0.000102784    -0.000181747         0.926029       -0.268271
                       -0.650453       -0.755666     -0.000114837    -0.000125474       -0.0209204       0.0365305     -0.000269716    -0.000246254
                    -0.000131245     2.89363e-05         0.925958       -0.268067     -0.000315358    -0.000181523         0.054562        0.237742
281760                -0.0385023       0.0155314     -0.000347408    -9.28456e-05        -0.650559       -0.756052     -0.000212943     5.91879e-05
                    -0.000402375    -8.76251e-05        0.0832103        0.230389     -0.000102844    -0.000181744         0.925927       -0.268586
                       -0.650661       -0.755486     -0.000114819    -0.000125442       -0.0209174       0.0365444     -0.000269903    -0.000246409
                    -0.000131269     2.89234e-05         0.925857       -0.268382     -0.000315453    -0.000181485        0.0547164        0.237744
281762                -0.0385071        0.015548     -0.000347525    -9.26974e-05        -0.650768       -0.755871     -0.000212918     5.93281e-05
                    -0.000402455    -8.74726e-05        0.0832396        0.230417     -0.000102904    -0.000181741         0.925826       -0.268902
                        -0.65087       -0.755305     -0.000114802     -0.00012541       -0.0209144       0.0365583     -0.000270089    -0.000246563
