! TOUCHSTONE file generated by CST MICROWAVE STUDIO
! Date and time: Wed Oct 15 17:34:58 2025
! Project name: Teste_Macro_Metasurface_Nanopilar.cst
! Parameters = {H=600; L_x=195; L_y=100; Lambda=1064; Max_L=200; Min_L=70; PathPara=1; Phi=0; Step_L=10; Theta=0; p=520; phaseX=180; phaseY=0}
! Header version: 2018
! Port assignment regex: !\s*Touchstone port\s*([0-9]+)\s*=\s*(CST MWS port|CST DS port)\s*([0-9]+|Zmin|Zmax)\s*\(\"(.*)\"\)(\s*mode\s*([0-9]+))?.*
! Touchstone port assignment:
! Touchstone port 1 = CST MWS port Zmax ("") mode 1
! Touchstone port 2 = CST MWS port Zmax ("") mode 2
! Touchstone port 3 = CST MWS port Zmin ("") mode 1
! Touchstone port 4 = CST MWS port Zmin ("") mode 2
! S-Parameters are not renormalized. Each port impedance will be approximated by the real part at minimum frequency. The values are described via the [Reference] keyword.
! Default impedance is overridden by [Reference]
[Version] 2.0
# GHz S RI R 376.73
[Number of Ports] 4
[Reference]
376.73 376.73 259.888 259.888 
[Number of Frequencies] 51
[Network Data]
281700                  0.200449       0.0601548      9.52489e-05    -5.59684e-05        -0.470709        0.847478      0.000144632     0.000257501
                     0.000144856     -0.00017345         0.366694       -0.374237     -5.35958e-05    -0.000520688         0.823622       -0.158127
                       -0.470539        0.847278     -3.92225e-05    -6.78809e-05         0.155709        0.137888       0.00020073     0.000104373
                     0.000127493     0.000274538         0.823613        -0.15863      0.000185663     0.000494452        -0.463135       -0.229759
281702                  0.200452       0.0601265      9.55663e-05    -5.53802e-05        -0.470379        0.847662      0.000144706     0.000257394
                     0.000144864    -0.000173069         0.366512       -0.374175     -5.39041e-05    -0.000520541         0.823655       -0.158542
                       -0.470211        0.847462      -3.8689e-05    -6.71592e-05         0.155794        0.137784      0.000200815     0.000104125
                     0.000127026      0.00027379         0.823646       -0.159045      0.000185895     0.000494307        -0.463166       -0.229312
281704                  0.200455       0.0600983       9.5887e-05    -5.47797e-05         -0.47005        0.847846       0.00014478     0.000257288
                     0.000144874    -0.000172688          0.36633       -0.374113     -5.42141e-05    -0.000520393         0.823688       -0.158957
                       -0.469883        0.847645      -3.8153e-05    -6.64124e-05         0.155878        0.137681      0.000200899     0.000103877
                     0.000126558     0.000273043          0.82368        -0.15946      0.000186127     0.000494162        -0.463196       -0.228865
281706                  0.200458         0.06007      9.62105e-05    -5.41666e-05         -0.46972        0.848029      0.000144854     0.000257181
                     0.000144885    -0.000172307         0.366147       -0.374051     -5.45258e-05    -0.000520243         0.823721       -0.159372
                       -0.469554        0.847828     -3.76154e-05    -6.56398e-05         0.155962        0.137577      0.000200983      0.00010363
                     0.000126091     0.000272297         0.823713       -0.159875      0.000186358     0.000494015        -0.463226       -0.228418
281708                  0.200461       0.0600417      9.65363e-05    -5.35408e-05        -0.469391        0.848212      0.000144927     0.000257075
                     0.000144899    -0.000171927         0.365965       -0.373989     -5.48392e-05    -0.000520093         0.823754       -0.159786
                       -0.469225        0.848012     -3.70767e-05    -6.48409e-05         0.156047        0.137473      0.000201067     0.000103383
                     0.000125624     0.000271552         0.823746       -0.160289       0.00018659     0.000493868        -0.463255       -0.227972
281710                  0.200464       0.0600135       9.6864e-05     -5.2902e-05        -0.469061        0.848396      0.000145001      0.00025697
                     0.000144914    -0.000171546         0.365784       -0.373927     -5.51543e-05    -0.000519941         0.823787       -0.160201
                       -0.468897        0.848195     -3.65377e-05    -6.40151e-05         0.156131        0.137369      0.000201149     0.000103137
                     0.000125156     0.000270807         0.823778       -0.160704      0.000186821     0.000493719        -0.463285       -0.227525
281712                  0.200467       0.0599852      9.71929e-05    -5.22499e-05        -0.468731        0.848579      0.000145074     0.000256865
                     0.000144931    -0.000171166         0.365602       -0.373864     -5.54711e-05    -0.000519788         0.823819       -0.160616
                       -0.468568        0.848377     -3.59993e-05     -6.3162e-05         0.156215        0.137265      0.000201231     0.000102892
                     0.000124687     0.000270064          0.82381       -0.161119      0.000187052      0.00049357        -0.463313       -0.227079
281714                   0.20047       0.0599569      9.75225e-05    -5.15845e-05        -0.468401        0.848762      0.000145146      0.00025676
                      0.00014495    -0.000170786          0.36542       -0.373802     -5.57897e-05    -0.000519634         0.823851        -0.16103
                       -0.468239         0.84856     -3.54622e-05    -6.22809e-05         0.156299        0.137161      0.000201313     0.000102647
                     0.000124218     0.000269321         0.823842       -0.161533      0.000187283      0.00049342        -0.463342       -0.226633
281716                  0.200473       0.0599287      9.78523e-05    -5.09054e-05        -0.468072        0.848945      0.000145219     0.000256655
                     0.000144971    -0.000170405         0.365238        -0.37374       -5.611e-05    -0.000519479         0.823883       -0.161445
                        -0.46791        0.848743     -3.49274e-05    -6.13714e-05         0.156384        0.137057      0.000201393     0.000102404
                     0.000123746      0.00026858         0.823874       -0.161948      0.000187514     0.000493269         -0.46337       -0.226188
281718                  0.200476       0.0599004      9.81817e-05    -5.02127e-05        -0.467742        0.849127      0.000145291     0.000256551
                     0.000144995    -0.000170026         0.365057       -0.373677      -5.6432e-05    -0.000519323         0.823915       -0.161859
                       -0.467581        0.848925     -3.43959e-05     -6.0433e-05         0.156468        0.136953      0.000201474     0.000102161
                     0.000123272      0.00026784         0.823905       -0.162363      0.000187744     0.000493117        -0.463398       -0.225742
281720                  0.200479       0.0598721      9.85099e-05    -4.95062e-05        -0.467412         0.84931      0.000145363     0.000256447
                      0.00014502    -0.000169646         0.364876       -0.373615     -5.67558e-05    -0.000519165         0.823946       -0.162274
                       -0.467252        0.849107     -3.38686e-05    -5.94652e-05         0.156551        0.136848      0.000201553     0.000101919
                     0.000122796     0.000267101         0.823936       -0.162778      0.000187975     0.000492964        -0.463425       -0.225297
281722                  0.200482       0.0598439      9.88365e-05    -4.87857e-05        -0.467081        0.849492      0.000145434     0.000256343
                     0.000145049    -0.000169267         0.364694       -0.373553     -5.70814e-05    -0.000519007         0.823977       -0.162688
                       -0.466923         0.84929     -3.33465e-05    -5.84676e-05         0.156635        0.136744      0.000201632     0.000101678
                     0.000122317     0.000266363         0.823966       -0.163192      0.000188205     0.000492811        -0.463452       -0.224851
281724                  0.200485       0.0598156      9.91607e-05    -4.80513e-05        -0.466751        0.849675      0.000145505      0.00025624
                     0.000145079    -0.000168888         0.364513        -0.37349     -5.74087e-05    -0.000518847         0.824008       -0.163102
                       -0.466593        0.849472     -3.28309e-05    -5.74397e-05         0.156719         0.13664      0.000201711     0.000101439
                     0.000121834     0.000265627         0.823997       -0.163607      0.000188436     0.000492657        -0.463478       -0.224406
281726                  0.200488       0.0597873      9.94818e-05    -4.73028e-05        -0.466421        0.849857      0.000145576     0.000256138
                     0.000145113    -0.000168509         0.364332       -0.373427     -5.77378e-05    -0.000518687         0.824039       -0.163517
                       -0.466264        0.849654     -3.23228e-05    -5.63813e-05         0.156803        0.136535      0.000201789     0.000101201
                     0.000121348     0.000264892         0.824026       -0.164022      0.000188666     0.000492502        -0.463505       -0.223962
281728                  0.200491        0.059759      9.97991e-05    -4.65404e-05        -0.466091        0.850039      0.000145646     0.000256036
                     0.000145149    -0.000168131         0.364152       -0.373365     -5.80687e-05    -0.000518525         0.824069       -0.163931
                       -0.465935        0.849836     -3.18234e-05    -5.52919e-05         0.156886        0.136431      0.000201866     0.000100964
                     0.000120857     0.000264157         0.824056       -0.164436      0.000188896     0.000492347         -0.46353       -0.223517
281730                  0.200494       0.0597308      0.000100112     -4.5764e-05         -0.46576        0.850221      0.000145716     0.000255934
                     0.000145188    -0.000167753         0.363971       -0.373302     -5.84014e-05    -0.000518362         0.824099       -0.164345
                       -0.465605        0.850017     -3.13341e-05    -5.41712e-05          0.15697        0.136326      0.000201943     0.000100728
                     0.000120362     0.000263424         0.824085       -0.164851      0.000189126     0.000492191        -0.463556       -0.223072
281732                  0.200497       0.0597025      0.000100419    -4.49736e-05         -0.46543        0.850403      0.000145786     0.000255833
                      0.00014523    -0.000167375          0.36379       -0.373239     -5.87358e-05    -0.000518198         0.824129       -0.164759
                       -0.465276        0.850199     -3.08561e-05     -5.3019e-05         0.157053        0.136222       0.00020202     0.000100495
                     0.000119863     0.000262691         0.824114       -0.165266      0.000189356     0.000492034        -0.463581       -0.222628
281734                    0.2005       0.0596742      0.000100721    -4.41695e-05        -0.465099        0.850585      0.000145855     0.000255733
                     0.000145275    -0.000166998          0.36361       -0.373177     -5.90721e-05    -0.000518033         0.824158       -0.165174
                       -0.464946         0.85038     -3.03908e-05     -5.1835e-05         0.157137        0.136117      0.000202096     0.000100263
                     0.000119359     0.000261959         0.824143       -0.165681      0.000189586     0.000491877        -0.463605       -0.222184
281736                  0.200503        0.059646      0.000101015    -4.33516e-05        -0.464769        0.850766      0.000145924     0.000255634
                     0.000145324    -0.000166621         0.363429       -0.373114     -5.94102e-05    -0.000517867         0.824187       -0.165588
                       -0.464616        0.850562     -2.99396e-05     -5.0619e-05          0.15722        0.136013      0.000202172     0.000100033
                      0.00011885     0.000261227         0.824171       -0.166095      0.000189815     0.000491719         -0.46363       -0.221739
281738                  0.200506       0.0596177      0.000101302    -4.25202e-05        -0.464438        0.850948      0.000145992     0.000255535
                     0.000145376    -0.000166246         0.363249       -0.373051     -5.97501e-05    -0.000517699         0.824216       -0.166002
                       -0.464287        0.850743      -2.9504e-05     -4.9371e-05         0.157304        0.135908      0.000202247     9.98059e-05
                     0.000118336     0.000260496         0.824199        -0.16651      0.000190045     0.000491561        -0.463654       -0.221296
281740                  0.200509       0.0595894      0.000101581    -4.16755e-05        -0.464107        0.851129      0.000146059     0.000255438
                     0.000145431     -0.00016587         0.363069       -0.372988     -6.00918e-05    -0.000517531         0.824244       -0.166416
                       -0.463957        0.850924     -2.90855e-05    -4.80909e-05         0.157387        0.135803      0.000202322     9.95808e-05
                     0.000117818     0.000259766         0.824227       -0.166925      0.000190274     0.000491402        -0.463677       -0.220852
281742                  0.200511       0.0595612       0.00010185    -4.08178e-05        -0.463776         0.85131      0.000146126     0.000255341
                      0.00014549    -0.000165496         0.362889       -0.372925     -6.04353e-05    -0.000517362         0.824272       -0.166831
                       -0.463627        0.851105     -2.86856e-05    -4.67786e-05          0.15747        0.135698      0.000202397     9.93583e-05
                     0.000117295     0.000259037         0.824254        -0.16734      0.000190503     0.000491243          -0.4637       -0.220408
281744                  0.200514       0.0595329      0.000102108    -3.99472e-05        -0.463446        0.851492      0.000146192     0.000255245
                     0.000145554    -0.000165123         0.362709       -0.372862     -6.07806e-05    -0.000517191           0.8243       -0.167245
                       -0.463297        0.851285      -2.8306e-05    -4.54342e-05         0.157553        0.135593      0.000202472     9.91388e-05
                     0.000116769     0.000258308         0.824281       -0.167754      0.000190732     0.000491083        -0.463723       -0.219965
281746                  0.200517       0.0595046      0.000102356    -3.90641e-05        -0.463115        0.851673      0.000146258      0.00025515
                     0.000145621     -0.00016475         0.362529       -0.372799     -6.11277e-05     -0.00051702         0.824327       -0.167659
                       -0.462967        0.851466     -2.79482e-05    -4.40577e-05         0.157636        0.135488      0.000202547     9.89223e-05
                     0.000116238     0.000257582         0.824308       -0.168169      0.000190961     0.000490924        -0.463745       -0.219521
281748                   0.20052       0.0594764      0.000102592    -3.81688e-05        -0.462784        0.851853      0.000146323     0.000255057
                     0.000145692    -0.000164379          0.36235       -0.372736     -6.14766e-05    -0.000516847         0.824354       -0.168073
                       -0.462637        0.851647      -2.7614e-05    -4.26494e-05         0.157719        0.135383      0.000202622     9.87092e-05
                     0.000115703     0.000256857         0.824334       -0.168584       0.00019119     0.000490763        -0.463767       -0.219078
281750                  0.200523       0.0594481      0.000102814    -3.72618e-05        -0.462452        0.852034      0.000146387     0.000254965
                     0.000145768    -0.000164009          0.36217       -0.372673     -6.18273e-05    -0.000516673         0.824381       -0.168487
                       -0.462306        0.851827     -2.73051e-05    -4.12095e-05         0.157802        0.135278      0.000202698     9.84996e-05
                     0.000115164     0.000256134          0.82436       -0.168999      0.000191418     0.000490603        -0.463789       -0.218635
281752                  0.200526       0.0594198      0.000103023    -3.63434e-05        -0.462121        0.852215       0.00014645     0.000254873
                     0.000145848    -0.000163641         0.361991       -0.372609     -6.21799e-05    -0.000516499         0.824408       -0.168902
                       -0.461976        0.852007     -2.70231e-05    -3.97383e-05         0.157884        0.135173      0.000202773     9.82937e-05
                     0.000114621     0.000255415         0.824385       -0.169414      0.000191647     0.000490442         -0.46381       -0.218192
281754                  0.200529       0.0593915      0.000103217    -3.54141e-05         -0.46179        0.852395      0.000146513     0.000254783
                     0.000145933    -0.000163274         0.361811       -0.372546     -6.25342e-05    -0.000516323         0.824434       -0.169316
                       -0.461646        0.852187     -2.67698e-05    -3.82362e-05         0.157967        0.135068      0.000202849     9.80914e-05
                     0.000114075     0.000254699         0.824411       -0.169829      0.000191875     0.000490282        -0.463831       -0.217749
281756                  0.200531       0.0593633      0.000103396    -3.44744e-05        -0.461459        0.852576      0.000146575     0.000254695
                     0.000146023    -0.000162909         0.361632       -0.372483     -6.28903e-05    -0.000516146          0.82446        -0.16973
                       -0.461315        0.852367     -2.65471e-05    -3.67036e-05          0.15805        0.134963      0.000202924     9.78923e-05
                     0.000113525     0.000253987         0.824436       -0.170244      0.000192102     0.000490121        -0.463851       -0.217306
281758                  0.200534        0.059335      0.000103558    -3.35247e-05        -0.461127        0.852756      0.000146637     0.000254606
                     0.000146118    -0.000162547         0.361453       -0.372419     -6.32481e-05    -0.000515968         0.824486       -0.170144
                       -0.460985        0.852547     -2.63565e-05     -3.5141e-05         0.158132        0.134857      0.000202999     9.76955e-05
                     0.000112972      0.00025328          0.82446       -0.170659       0.00019233      0.00048996        -0.463872       -0.216864
281760                  0.200537       0.0593067      0.000103703    -3.25657e-05        -0.460796        0.852936      0.000146699     0.000254518
                     0.000146218    -0.000162187         0.361274       -0.372356     -6.36077e-05    -0.000515789         0.824511       -0.170558
                       -0.460654        0.852727     -2.62001e-05    -3.35491e-05         0.158215        0.134752      0.000203073      9.7499e-05
                     0.000112415     0.000252577         0.824485       -0.171074      0.000192557     0.000489799        -0.463891       -0.216422
281762                   0.20054       0.0592785      0.000103829    -3.15978e-05        -0.460464        0.853116      0.000146761     0.000254429
                     0.000146323    -0.000161829         0.361095       -0.372293     -6.39691e-05    -0.000515609         0.824537       -0.170972
                       -0.460323        0.852906     -2.60794e-05    -3.19284e-05         0.158297        0.134647      0.000203142     9.72986e-05
