! TOUCHSTONE file generated by CST MICROWAVE STUDIO
! Date and time: Wed Oct 15 17:34:15 2025
! Project name: Teste_Macro_Metasurface_Nanopilar.cst
! Parameters = {H=600; L_x=180; L_y=165; Lambda=1064; Max_L=200; Min_L=70; PathPara=1; Phi=0; Step_L=10; Theta=0; p=520; phaseX=180; phaseY=0}
! Header version: 2018
! Port assignment regex: !\s*Touchstone port\s*([0-9]+)\s*=\s*(CST MWS port|CST DS port)\s*([0-9]+|Zmin|Zmax)\s*\(\"(.*)\"\)(\s*mode\s*([0-9]+))?.*
! Touchstone port assignment:
! Touchstone port 1 = CST MWS port Zmax ("") mode 1
! Touchstone port 2 = CST MWS port Zmax ("") mode 2
! Touchstone port 3 = CST MWS port Zmin ("") mode 1
! Touchstone port 4 = CST MWS port Zmin ("") mode 2
! S-Parameters are not renormalized. Each port impedance will be approximated by the real part at minimum frequency. The values are described via the [Reference] keyword.
! Default impedance is overridden by [Reference]
[Version] 2.0
# GHz S RI R 376.73
[Number of Ports] 4
[Reference]
376.73 376.73 259.888 259.888 
[Number of Frequencies] 51
[Network Data]
281700                  0.179715       0.0513574      0.000150961    -0.000367062         0.462027       -0.862746       0.00038356     0.000275021
                     0.000158023    -0.000372096         0.209679       0.0774367       0.00042159     8.22819e-05         0.327483       -0.914403
                        0.462189       -0.862498      0.000303386      9.2945e-05         0.141025         0.11982     -0.000214536     0.000556357
                     0.000270824     0.000325045         0.327321       -0.913586     -0.000272469     0.000558148          0.20965       0.0713596
281702                  0.179716       0.0513567      0.000150874    -0.000367038         0.461776        -0.86288      0.000383685     0.000274919
                     0.000157931    -0.000372172          0.20969       0.0774389      0.000421731     8.23365e-05         0.327219       -0.914495
                        0.461937       -0.862633      0.000303706     9.27926e-05         0.141096         0.11974     -0.000214404     0.000556473
                     0.000271052     0.000325087         0.327058       -0.913677     -0.000272324      0.00055847         0.209701       0.0712451
281704                  0.179718        0.051356      0.000150788    -0.000367015         0.461524       -0.863015      0.000383809     0.000274817
                     0.000157839    -0.000372249         0.209702       0.0774411      0.000421873     8.23906e-05         0.326956       -0.914586
                        0.461685       -0.862767      0.000304026     9.26398e-05         0.141165         0.11966     -0.000214272     0.000556589
                     0.000271279     0.000325129         0.326794       -0.913769      -0.00027218     0.000558792         0.209753       0.0711305
281706                  0.179719       0.0513553      0.000150701    -0.000366992         0.461272       -0.863149      0.000383933     0.000274715
                     0.000157746    -0.000372325         0.209714       0.0774433      0.000422016     8.24443e-05         0.326693       -0.914678
                        0.461434       -0.862902      0.000304346     9.24868e-05         0.141235         0.11958      -0.00021414     0.000556705
                     0.000271507     0.000325171         0.326531        -0.91386     -0.000272037     0.000559116         0.209804       0.0710159
281708                  0.179721       0.0513546      0.000150615    -0.000366969          0.46102       -0.863283      0.000384057     0.000274612
                     0.000157654    -0.000372402         0.209725       0.0774454       0.00042216     8.24975e-05         0.326429       -0.914769
                        0.461182       -0.863036      0.000304666     9.23335e-05         0.141305        0.119499     -0.000214008      0.00055682
                     0.000271735     0.000325212         0.326267       -0.913952     -0.000271893     0.000559441         0.209856       0.0709013
281710                  0.179722       0.0513539      0.000150528    -0.000366947         0.460768       -0.863417       0.00038418     0.000274509
                     0.000157562    -0.000372478         0.209737       0.0774476      0.000422304     8.25502e-05         0.326166        -0.91486
                         0.46093        -0.86317      0.000304986     9.21799e-05         0.141375        0.119419     -0.000213876     0.000556936
                     0.000271962     0.000325252         0.326003       -0.914043      -0.00027175     0.000559767         0.209907       0.0707866
281712                  0.179724       0.0513532      0.000150442    -0.000366925         0.460517       -0.863552      0.000384303     0.000274406
                     0.000157469    -0.000372555         0.209748       0.0774498       0.00042245     8.26024e-05         0.325902       -0.914951
                        0.460678       -0.863304      0.000305306     9.20261e-05         0.141445        0.119339     -0.000213744     0.000557051
                      0.00027219     0.000325292          0.32574       -0.914134     -0.000271607     0.000560095         0.209958       0.0706719
281714                  0.179725       0.0513525      0.000150356    -0.000366903         0.460265       -0.863686      0.000384426     0.000274303
                     0.000157377    -0.000372632          0.20976       0.0774519      0.000422596     8.26541e-05         0.325639       -0.915042
                        0.460426       -0.863438      0.000305626     9.18719e-05         0.141515        0.119259     -0.000213613     0.000557167
                     0.000272418     0.000325332         0.325476       -0.914226     -0.000271465     0.000560424         0.210009       0.0705571
281716                  0.179727       0.0513518      0.000150269    -0.000366882         0.460013       -0.863819      0.000384548     0.000274199
                     0.000157285    -0.000372709         0.209772       0.0774541      0.000422743     8.27052e-05         0.325375       -0.915133
                        0.460174       -0.863572      0.000305946     9.17175e-05         0.141584        0.119178     -0.000213481     0.000557281
                     0.000272645     0.000325371         0.325213       -0.914317     -0.000271323     0.000560754          0.21006       0.0704424
281718                  0.179728        0.051351      0.000150183     -0.00036686         0.459761       -0.863953      0.000384671     0.000274095
                     0.000157192    -0.000372785         0.209783       0.0774563       0.00042289     8.27557e-05         0.325112       -0.915224
                        0.459922       -0.863706      0.000306265     9.15628e-05         0.141654        0.119098     -0.000213349     0.000557396
                     0.000272873      0.00032541         0.324949       -0.914408     -0.000271183     0.000561085         0.210111       0.0703276
281720                  0.179729       0.0513503      0.000150097    -0.000366839         0.459509       -0.864087      0.000384793      0.00027399
                       0.0001571    -0.000372862         0.209795       0.0774584      0.000423039     8.28055e-05         0.324848       -0.915315
                         0.45967        -0.86384      0.000306585     9.14079e-05         0.141723        0.119018     -0.000213217     0.000557511
                     0.000273101     0.000325449         0.324685       -0.914499     -0.000271043     0.000561417         0.210162       0.0702127
281722                  0.179731       0.0513496      0.000150011    -0.000366819         0.459257       -0.864221      0.000384915     0.000273885
                     0.000157007    -0.000372939         0.209806       0.0774605      0.000423188     8.28545e-05         0.324585       -0.915406
                        0.459418       -0.863974      0.000306904     9.12526e-05         0.141793        0.118937     -0.000213086     0.000557625
                     0.000273328     0.000325487         0.324422       -0.914589     -0.000270903      0.00056175         0.210213       0.0700979
281724                  0.179732       0.0513488      0.000149925    -0.000366798         0.459005       -0.864355      0.000385036      0.00027378
                     0.000156914    -0.000373016         0.209818       0.0774627      0.000423338     8.29025e-05         0.324321       -0.915496
                        0.459166       -0.864107      0.000307224     9.10971e-05         0.141862        0.118857     -0.000212955     0.000557739
                     0.000273556     0.000325524         0.324158        -0.91468     -0.000270765     0.000562085         0.210264        0.069983
281726                  0.179734       0.0513481      0.000149839    -0.000366778         0.458753       -0.864488      0.000385158     0.000273675
                     0.000156822    -0.000373093          0.20983       0.0774648      0.000423488      8.2949e-05         0.324058       -0.915587
                        0.458914       -0.864241      0.000307543     9.09414e-05         0.141932        0.118776     -0.000212824     0.000557853
                     0.000273783     0.000325561         0.323894       -0.914771     -0.000270628      0.00056242         0.210315       0.0698681
281728                  0.179735       0.0513473      0.000149752    -0.000366758         0.458501       -0.864622      0.000385279      0.00027357
                     0.000156729     -0.00037317         0.209841        0.077467      0.000423638     8.29933e-05         0.323794       -0.915677
                        0.458662       -0.864374      0.000307862     9.07853e-05         0.142001        0.118696     -0.000212694     0.000557968
                     0.000274011     0.000325598          0.32363       -0.914862     -0.000270491     0.000562757         0.210365       0.0697531
281730                  0.179737       0.0513465      0.000149666    -0.000366738         0.458248       -0.864755        0.0003854     0.000273464
                     0.000156636    -0.000373247         0.209853       0.0774691      0.000423791     8.30334e-05          0.32353       -0.915768
                         0.45841       -0.864508      0.000308181      9.0629e-05          0.14207        0.118615     -0.000212564     0.000558082
                     0.000274238     0.000325634         0.323367       -0.914952     -0.000270356     0.000563095         0.210416       0.0696381
281732                  0.179738       0.0513458       0.00014958    -0.000366719         0.457996       -0.864889       0.00038552     0.000273358
                     0.000156543    -0.000373325         0.209864       0.0774712       0.00042395     8.30675e-05         0.323267       -0.915858
                        0.458157       -0.864641        0.0003085     9.04724e-05          0.14214        0.118534     -0.000212434     0.000558196
                     0.000274466     0.000325669         0.323103       -0.915043     -0.000270222     0.000563434         0.210466       0.0695231
281734                   0.17974        0.051345      0.000149494      -0.0003667         0.457744       -0.865022      0.000385641     0.000273251
                      0.00015645    -0.000373402         0.209876       0.0774734      0.000424126     8.31061e-05         0.323003       -0.915948
                        0.457905       -0.864775      0.000308819     9.03156e-05         0.142209        0.118454     -0.000212304      0.00055831
                     0.000274693     0.000325705         0.322839       -0.915133     -0.000270089     0.000563774         0.210517        0.069408
281736                  0.179741       0.0513442      0.000149409    -0.000366681         0.457492       -0.865155      0.000385761     0.000273144
                     0.000156358    -0.000373479         0.209888       0.0774755      0.000424301      8.3167e-05         0.322739       -0.916038
                        0.457653       -0.864908      0.000309137     9.01585e-05         0.142278        0.118373     -0.000212174     0.000558425
                      0.00027492      0.00032574         0.322575       -0.915224     -0.000269957     0.000564116         0.210567       0.0692929
281738                  0.179742       0.0513435      0.000149323    -0.000366662         0.457239       -0.865288      0.000385881     0.000273038
                     0.000156265    -0.000373556         0.209899       0.0774776      0.000424458      8.3228e-05         0.322475       -0.916129
                          0.4574       -0.865041      0.000309456     9.00011e-05         0.142347        0.118292     -0.000212045     0.000558539
                     0.000275147     0.000325774         0.322311       -0.915314     -0.000269826     0.000564458         0.210618       0.0691778
281740                  0.179744       0.0513427      0.000149237    -0.000366644         0.456987       -0.865421      0.000386001      0.00027293
                     0.000156172    -0.000373634         0.209911       0.0774797      0.000424612      8.3281e-05         0.322212       -0.916219
                        0.457148       -0.865174      0.000309774     8.98434e-05         0.142416        0.118211     -0.000211916     0.000558653
                     0.000275375     0.000325808         0.322047       -0.915404     -0.000269697     0.000564801         0.210668       0.0690626
281742                  0.179745       0.0513419      0.000149151    -0.000366626         0.456734       -0.865554      0.000386121     0.000272823
                     0.000156079    -0.000373711         0.209922       0.0774818      0.000424767     8.33294e-05         0.321948       -0.916309
                        0.456895       -0.865307      0.000310093     8.96855e-05         0.142485         0.11813     -0.000211786     0.000558768
                     0.000275602     0.000325841         0.321783       -0.915494     -0.000269568     0.000565146         0.210718       0.0689475
281744                  0.179747       0.0513411      0.000149065    -0.000366608         0.456482       -0.865687       0.00038624     0.000272715
                     0.000155986    -0.000373789         0.209934       0.0774839      0.000424924     8.33757e-05         0.321684       -0.916398
                        0.456643        -0.86544      0.000310411     8.95274e-05         0.142554        0.118049     -0.000211657     0.000558882
                     0.000275829     0.000325875         0.321519       -0.915584     -0.000269441     0.000565491         0.210768       0.0688322
281746                  0.179748       0.0513403      0.000148979    -0.000366591          0.45623        -0.86582      0.000386359     0.000272607
                     0.000155892    -0.000373866         0.209946        0.077486      0.000425083     8.34206e-05          0.32142       -0.916488
                         0.45639       -0.865573      0.000310729     8.93689e-05         0.142623        0.117968     -0.000211528     0.000558997
                     0.000276056     0.000325907         0.321255       -0.915674     -0.000269315     0.000565838         0.210818        0.068717
281748                  0.179749       0.0513395      0.000148894    -0.000366574         0.455977       -0.865953      0.000386478     0.000272499
                     0.000155799    -0.000373944         0.209957       0.0774882      0.000425243     8.34646e-05         0.321156       -0.916578
                        0.456138       -0.865706      0.000311048     8.92103e-05         0.142692        0.117887     -0.000211399     0.000559111
                     0.000276282      0.00032594         0.320991       -0.915764      -0.00026919     0.000566185         0.210868       0.0686017
281750                  0.179751       0.0513387      0.000148808    -0.000366557         0.455725       -0.866086      0.000386597      0.00027239
                     0.000155706    -0.000374021         0.209969       0.0774902      0.000425405     8.35078e-05         0.320892       -0.916668
                        0.455885       -0.865839      0.000311366     8.90513e-05         0.142761        0.117806     -0.000211271     0.000559226
                     0.000276509     0.000325971         0.320727       -0.915854     -0.000269067     0.000566533         0.210918       0.0684864
281752                  0.179752       0.0513379      0.000148722     -0.00036654         0.455472       -0.866218      0.000386715     0.000272281
                     0.000155613    -0.000374099          0.20998       0.0774923      0.000425567     8.35504e-05         0.320629       -0.916757
                        0.455632       -0.865971      0.000311683     8.88921e-05         0.142829        0.117725     -0.000211142      0.00055934
                     0.000276736     0.000326003         0.320463       -0.915944     -0.000268944     0.000566883         0.210968       0.0683711
281754                  0.179754       0.0513371      0.000148637    -0.000366523         0.455219       -0.866351      0.000386833     0.000272172
                      0.00015552    -0.000374177         0.209992       0.0774944       0.00042573     8.35924e-05         0.320365       -0.916847
                         0.45538       -0.866104      0.000312001     8.87327e-05         0.142898        0.117644     -0.000211014     0.000559455
                     0.000276962     0.000326034         0.320199       -0.916033     -0.000268823     0.000567233         0.211018       0.0682557
281756                  0.179755       0.0513362      0.000148551    -0.000366507         0.454967       -0.866483      0.000386951     0.000272062
                     0.000155426    -0.000374255         0.210004       0.0774965      0.000425895     8.36337e-05         0.320101       -0.916936
                        0.455127       -0.866236      0.000312319      8.8573e-05         0.142967        0.117563     -0.000210885     0.000559569
                     0.000277189     0.000326064         0.319935       -0.916123     -0.000268702     0.000567585         0.211068       0.0681403
281758                  0.179756       0.0513354      0.000148465    -0.000366491         0.454714       -0.866616      0.000387069     0.000271953
                     0.000155333    -0.000374333         0.210015       0.0774986       0.00042606     8.36745e-05         0.319837       -0.917025
                        0.454874       -0.866369      0.000312636      8.8413e-05         0.143035        0.117482     -0.000210757     0.000559683
                     0.000277415     0.000326094         0.319671       -0.916212     -0.000268582     0.000567937         0.211117       0.0680248
281760                  0.179758       0.0513346       0.00014838    -0.000366475         0.454461       -0.866748      0.000387187     0.000271843
                      0.00015524     -0.00037441         0.210027       0.0775007      0.000426227     8.37147e-05         0.319573       -0.917115
                        0.454621       -0.866501      0.000312954     8.82528e-05         0.143104        0.117401     -0.000210629     0.000559797
                     0.000277641     0.000326124         0.319407       -0.916302     -0.000268463     0.000568291         0.211167       0.0679094
281762                  0.179759       0.0513337      0.000148294     -0.00036646         0.454208        -0.86688      0.000387304     0.000271732
                     0.000155146    -0.000374488         0.210038       0.0775028      0.000426394     8.37544e-05         0.319309       -0.917204
                        0.454369       -0.866634      0.000313271     8.80923e-05         0.143172        0.117319     -0.000210501     0.000559911
