! TOUCHSTONE file generated by CST MICROWAVE STUDIO
! Date and time: Wed Oct 15 17:34:47 2025
! Project name: Teste_Macro_Metasurface_Nanopilar.cst
! Parameters = {H=600; L_x=190; L_y=145; Lambda=1064; Max_L=200; Min_L=70; PathPara=1; Phi=0; Step_L=10; Theta=0; p=520; phaseX=180; phaseY=0}
! Header version: 2018
! Port assignment regex: !\s*Touchstone port\s*([0-9]+)\s*=\s*(CST MWS port|CST DS port)\s*([0-9]+|Zmin|Zmax)\s*\(\"(.*)\"\)(\s*mode\s*([0-9]+))?.*
! Touchstone port assignment:
! Touchstone port 1 = CST MWS port Zmax ("") mode 1
! Touchstone port 2 = CST MWS port Zmax ("") mode 2
! Touchstone port 3 = CST MWS port Zmin ("") mode 1
! Touchstone port 4 = CST MWS port Zmin ("") mode 2
! S-Parameters are not renormalized. Each port impedance will be approximated by the real part at minimum frequency. The values are described via the [Reference] keyword.
! Default impedance is overridden by [Reference]
[Version] 2.0
# GHz S RI R 376.73
[Number of Ports] 4
[Reference]
376.73 376.73 259.888 259.888 
[Number of Frequencies] 51
[Network Data]
281700                  0.172474      -0.0022088     -0.000416119      0.00040747         0.758911       -0.621025     -0.000751089    -0.000696736
                    -0.000444484      0.00046932         0.205114       0.0675016     -0.000750181     -0.00052569         0.350506       -0.907623
                        0.758603       -0.621057     -0.000689946    -0.000442209       -0.0357391        0.164086      0.000567459    -0.000679729
                    -0.000615985    -0.000626719         0.350631        -0.90734      0.000615883    -0.000708289         0.195599       0.0848763
281702                  0.172468     -0.00218814     -0.000416084     0.000407592          0.75872       -0.621261     -0.000751319    -0.000696609
                    -0.000444435     0.000469111          0.20513       0.0675108     -0.000750451    -0.000525406          0.35024       -0.907721
                        0.758411       -0.621294     -0.000690011    -0.000442067       -0.0356158        0.164109       0.00056726    -0.000679991
                    -0.000616366    -0.000626107         0.350365       -0.907439      0.000615682    -0.000708849         0.195667       0.0847668
281704                  0.172463     -0.00216749     -0.000416049     0.000407714         0.758528       -0.621497     -0.000751549    -0.000696482
                    -0.000444385     0.000468902         0.205146         0.06752      -0.00075072    -0.000525122         0.349974       -0.907819
                         0.75822       -0.621531     -0.000690077    -0.000441925       -0.0354926        0.164132      0.000567061    -0.000680253
                    -0.000616749    -0.000625495         0.350098       -0.907538       0.00061548    -0.000709407         0.195735       0.0846573
281706                  0.172458     -0.00214686     -0.000416014     0.000407835         0.758336       -0.621733     -0.000751779    -0.000696354
                    -0.000444334     0.000468693         0.205162       0.0675293     -0.000750989    -0.000524838         0.349708       -0.907917
                        0.758028       -0.621768     -0.000690143    -0.000441784       -0.0353694        0.164155      0.000566861    -0.000680516
                    -0.000617133    -0.000624882         0.349832       -0.907637      0.000615278    -0.000709964         0.195803       0.0845477
281708                  0.172453     -0.00212624     -0.000415978     0.000407957         0.758145        -0.62197     -0.000752009    -0.000696226
                    -0.000444283     0.000468485         0.205179       0.0675385     -0.000751258    -0.000524555         0.349442       -0.908015
                        0.757837       -0.622005     -0.000690209    -0.000441643       -0.0352462        0.164177      0.000566662    -0.000680779
                    -0.000617519     -0.00062427         0.349566       -0.907735      0.000615077    -0.000710521         0.195871       0.0844381
281710                  0.172448     -0.00210563     -0.000415943     0.000408079         0.757953       -0.622206      -0.00075224    -0.000696098
                     -0.00044423     0.000468276         0.205195       0.0675477     -0.000751526    -0.000524271         0.349176       -0.908113
                        0.757645       -0.622242     -0.000690275    -0.000441502       -0.0351231          0.1642      0.000566463    -0.000681042
                    -0.000617906    -0.000623659         0.349299       -0.907834      0.000614875    -0.000711076         0.195938       0.0843284
281712                  0.172442     -0.00208504     -0.000415907     0.000408201         0.757761       -0.622442      -0.00075247     -0.00069597
                    -0.000444177     0.000468068         0.205211       0.0675569     -0.000751794    -0.000523988          0.34891       -0.908211
                        0.757454       -0.622478     -0.000690342    -0.000441361       -0.0349999        0.164222      0.000566264    -0.000681305
                    -0.000618295    -0.000623047         0.349033       -0.907932      0.000614673     -0.00071163         0.196006       0.0842186
281714                  0.172437     -0.00206446     -0.000415871     0.000408323         0.757569       -0.622677       -0.0007527    -0.000695841
                    -0.000444123      0.00046786         0.205228       0.0675662     -0.000752062    -0.000523706         0.348644       -0.908309
                        0.757262       -0.622715     -0.000690409    -0.000441221       -0.0348767        0.164245      0.000566064    -0.000681569
                    -0.000618685    -0.000622436         0.348766       -0.908031      0.000614471    -0.000712183         0.196074       0.0841089
281716                  0.172432     -0.00204389     -0.000415835     0.000408446         0.757377       -0.622913     -0.000752931    -0.000695712
                    -0.000444068     0.000467652         0.205244       0.0675754      -0.00075233    -0.000523423         0.348378       -0.908407
                         0.75707       -0.622951     -0.000690477    -0.000441081       -0.0347535        0.164267      0.000565865    -0.000681832
                    -0.000619077    -0.000621824           0.3485       -0.908129      0.000614269    -0.000712735         0.196141       0.0839991
281718                  0.172427     -0.00202334     -0.000415799     0.000408568         0.757185       -0.623149     -0.000753161    -0.000695582
                    -0.000444012     0.000467445          0.20526       0.0675846     -0.000752597    -0.000523141         0.348111       -0.908504
                        0.756878       -0.623188     -0.000690545    -0.000440941       -0.0346304        0.164289      0.000565665    -0.000682096
                    -0.000619471    -0.000621213         0.348233       -0.908227      0.000614068    -0.000713286         0.196208       0.0838892
281720                  0.172422      -0.0020028     -0.000415763     0.000408691         0.756993       -0.623385     -0.000753392    -0.000695452
                    -0.000443955     0.000467237         0.205276       0.0675938     -0.000752864     -0.00052286         0.347845       -0.908602
                        0.756686       -0.623424     -0.000690613    -0.000440801       -0.0345072        0.164311      0.000565466     -0.00068236
                    -0.000619866    -0.000620602         0.347967       -0.908326      0.000613866    -0.000713835         0.196276       0.0837793
281722                  0.172416     -0.00198228     -0.000415727     0.000408813         0.756801        -0.62362     -0.000753622    -0.000695322
                    -0.000443897      0.00046703         0.205293        0.067603      -0.00075313    -0.000522578         0.347579       -0.908699
                        0.756494        -0.62366     -0.000690682    -0.000440662        -0.034384        0.164333      0.000565266    -0.000682625
                    -0.000620262    -0.000619991           0.3477       -0.908424      0.000613664    -0.000714383         0.196343       0.0836694
281724                  0.172411     -0.00196176     -0.000415691     0.000408936         0.756609       -0.623856     -0.000753853    -0.000695191
                    -0.000443838     0.000466823         0.205309       0.0676121     -0.000753397    -0.000522298         0.347313       -0.908797
                        0.756302       -0.623896     -0.000690751    -0.000440523       -0.0342609        0.164355      0.000565066    -0.000682889
                     -0.00062066    -0.000619381         0.347433       -0.908522      0.000613463     -0.00071493          0.19641       0.0835594
281726                  0.172406     -0.00194127     -0.000415654     0.000409059         0.756416       -0.624091     -0.000754084     -0.00069506
                    -0.000443779     0.000466616         0.205325       0.0676213     -0.000753663    -0.000522017         0.347047       -0.908894
                         0.75611       -0.624132      -0.00069082    -0.000440385       -0.0341378        0.164377      0.000564867    -0.000683154
                     -0.00062106    -0.000618771         0.347167        -0.90862      0.000613261    -0.000715476         0.196478       0.0834493
281728                  0.172401     -0.00192078     -0.000415618     0.000409182         0.756224       -0.624327     -0.000754315    -0.000694929
                    -0.000443718      0.00046641         0.205342       0.0676305     -0.000753928    -0.000521737          0.34678       -0.908991
                        0.755918       -0.624368      -0.00069089    -0.000440246       -0.0340146        0.164399      0.000564667    -0.000683419
                    -0.000621461    -0.000618161           0.3469       -0.908717      0.000613059     -0.00071602         0.196545       0.0833393
281730                  0.172396     -0.00190031     -0.000415581     0.000409305         0.756031       -0.624562     -0.000754545    -0.000694797
                    -0.000443657     0.000466203         0.205358       0.0676397     -0.000754193    -0.000521457         0.346514       -0.909088
                        0.755726       -0.624604      -0.00069096    -0.000440108       -0.0338915        0.164421      0.000564467    -0.000683684
                    -0.000621863    -0.000617551         0.346634       -0.908815      0.000612858    -0.000716562         0.196612       0.0832291
281732                  0.172391     -0.00187985     -0.000415545     0.000409428         0.755839       -0.624797     -0.000754776    -0.000694665
                    -0.000443595     0.000465997         0.205374       0.0676489     -0.000754458    -0.000521178         0.346248       -0.909185
                        0.755533        -0.62484      -0.00069103    -0.000439971       -0.0337684        0.164442      0.000564267    -0.000683949
                    -0.000622267    -0.000616941         0.346367       -0.908913      0.000612656    -0.000717104         0.196679        0.083119
281734                  0.172386     -0.00185941     -0.000415508     0.000409551         0.755646       -0.625032     -0.000755007    -0.000694533
                    -0.000443532     0.000465791          0.20539        0.067658     -0.000754722    -0.000520899         0.345982       -0.909282
                        0.755341       -0.625076     -0.000691101    -0.000439833       -0.0336453        0.164464      0.000564067    -0.000684215
                    -0.000622673    -0.000616332           0.3461        -0.90901      0.000612455    -0.000717643         0.196746       0.0830088
281736                  0.172381     -0.00183898     -0.000415471     0.000409674         0.755454       -0.625267     -0.000755238      -0.0006944
                    -0.000443468     0.000465586         0.205407       0.0676672     -0.000754986    -0.000520621         0.345715       -0.909379
                        0.755149       -0.625312     -0.000691172    -0.000439696       -0.0335221        0.164485      0.000563867    -0.000684481
                     -0.00062308    -0.000615723         0.345833       -0.909108      0.000612253    -0.000718182         0.196813       0.0828985
281738                  0.172375     -0.00181856     -0.000415434     0.000409798         0.755261       -0.625502     -0.000755469    -0.000694267
                    -0.000443403      0.00046538         0.205423       0.0676763      -0.00075525    -0.000520343         0.345449       -0.909476
                        0.754956       -0.625547     -0.000691243    -0.000439559        -0.033399        0.164506      0.000563667    -0.000684747
                    -0.000623489    -0.000615114         0.345567       -0.909205      0.000612052    -0.000718718         0.196879       0.0827882
281740                   0.17237     -0.00179816     -0.000415397     0.000409921         0.755068       -0.625737     -0.000755701    -0.000694134
                    -0.000443337     0.000465175         0.205439       0.0676855     -0.000755513    -0.000520065         0.345182       -0.909573
                        0.754764       -0.625783     -0.000691315    -0.000439423       -0.0332759        0.164528      0.000563467    -0.000685013
                    -0.000623899    -0.000614506           0.3453       -0.909303       0.00061185    -0.000719254         0.196946       0.0826779
281742                  0.172365     -0.00177777      -0.00041536     0.000410045         0.754875       -0.625972     -0.000755932       -0.000694
                     -0.00044327      0.00046497         0.205456       0.0676946     -0.000755775    -0.000519788         0.344916       -0.909669
                        0.754571       -0.626018     -0.000691387    -0.000439287       -0.0331529        0.164549      0.000563267    -0.000685279
                    -0.000624311    -0.000613898         0.345033         -0.9094      0.000611649    -0.000719788         0.197013       0.0825675
281744                   0.17236     -0.00175739     -0.000415322     0.000410169         0.754683       -0.626207     -0.000756163    -0.000693866
                    -0.000443202     0.000464766         0.205472       0.0677038     -0.000756038    -0.000519512          0.34465       -0.909766
                        0.754378       -0.626254      -0.00069146    -0.000439151       -0.0330298         0.16457      0.000563067    -0.000685545
                    -0.000624724     -0.00061329         0.344766       -0.909497      0.000611448     -0.00072032         0.197079       0.0824571
281746                  0.172355     -0.00173703     -0.000415285     0.000410292          0.75449       -0.626442     -0.000756394    -0.000693731
                    -0.000443134     0.000464561         0.205488       0.0677129     -0.000756299    -0.000519236         0.344383       -0.909862
                        0.754186       -0.626489     -0.000691533    -0.000439015       -0.0329067        0.164591      0.000562867    -0.000685812
                    -0.000625139    -0.000612683         0.344499       -0.909594      0.000611246    -0.000720851         0.197146       0.0823466
281748                   0.17235     -0.00171668     -0.000415247     0.000410416         0.754297       -0.626676     -0.000756626    -0.000693596
                    -0.000443064     0.000464357         0.205505        0.067722     -0.000756561     -0.00051896         0.344117       -0.909959
                        0.753993       -0.626725     -0.000691606     -0.00043888       -0.0327836        0.164612      0.000562666    -0.000686079
                    -0.000625555    -0.000612075         0.344232       -0.909691      0.000611045     -0.00072138         0.197212       0.0822361
281750                  0.172345     -0.00169635     -0.000415209      0.00041054         0.754103       -0.626911     -0.000756857    -0.000693461
                    -0.000442994     0.000464153         0.205521       0.0677312     -0.000756822    -0.000518685          0.34385       -0.910055
                          0.7538        -0.62696      -0.00069168    -0.000438744       -0.0326606        0.164632      0.000562466    -0.000686346
                    -0.000625973    -0.000611469         0.343965       -0.909788      0.000610844    -0.000721908         0.197279       0.0821255
281752                   0.17234     -0.00167603     -0.000415172     0.000410664          0.75391       -0.627146     -0.000757088    -0.000693326
                    -0.000442922      0.00046395         0.205537       0.0677403     -0.000757082     -0.00051841         0.343584       -0.910151
                        0.753607       -0.627195     -0.000691754     -0.00043861       -0.0325375        0.164653      0.000562266    -0.000686613
                    -0.000626392    -0.000610862         0.343698       -0.909885      0.000610643    -0.000722434         0.197345       0.0820149
281754                  0.172335     -0.00165572     -0.000415134     0.000410789         0.753717        -0.62738      -0.00075732     -0.00069319
                     -0.00044285     0.000463747         0.205553       0.0677494     -0.000757342    -0.000518136         0.343317       -0.910247
                        0.753414        -0.62743     -0.000691828    -0.000438475       -0.0324145        0.164674      0.000562065    -0.000686881
                    -0.000626813    -0.000610256         0.343431       -0.909982      0.000610441    -0.000722958         0.197411       0.0819043
281756                   0.17233     -0.00163542     -0.000415096     0.000410913         0.753524       -0.627614     -0.000757552    -0.000693054
                    -0.000442777     0.000463543          0.20557       0.0677585     -0.000757602    -0.000517863         0.343051       -0.910343
                        0.753221       -0.627665     -0.000691903    -0.000438341       -0.0322914        0.164694      0.000561865    -0.000687148
                    -0.000627235     -0.00060965         0.343164       -0.910079       0.00061024    -0.000723482         0.197478       0.0817936
281758                  0.172325     -0.00161514     -0.000415058     0.000411037          0.75333       -0.627849     -0.000757783    -0.000692917
                    -0.000442703      0.00046334         0.205586       0.0677676     -0.000757861    -0.000517589         0.342784       -0.910439
                        0.753028         -0.6279     -0.000691978    -0.000438207       -0.0321684        0.164715      0.000561664    -0.000687416
                    -0.000627659    -0.000609045         0.342897       -0.910175      0.000610039    -0.000724003         0.197544       0.0816828
281760                   0.17232     -0.00159487     -0.000415019     0.000411162         0.753137       -0.628083     -0.000758015     -0.00069278
                    -0.000442628     0.000463137         0.205602       0.0677767     -0.000758119    -0.000517316         0.342517       -0.910535
                        0.752834       -0.628135     -0.000692053    -0.000438074       -0.0320454        0.164735      0.000561464    -0.000687684
                    -0.000628084     -0.00060844          0.34263       -0.910272      0.000609837    -0.000724523          0.19761       0.0815721
281762                  0.172315     -0.00157462     -0.000414981     0.000411287         0.752944       -0.628317     -0.000758246    -0.000692643
                    -0.000442552     0.000462934         0.205619       0.0677858     -0.000758378    -0.000517044         0.342251       -0.910631
                        0.752641       -0.628369     -0.000692129     -0.00043794       -0.0319223        0.164755      0.000561263    -0.000687952
