! TOUCHSTONE file generated by CST MICROWAVE STUDIO
! Date and time: Wed Oct 15 17:30:01 2025
! Project name: Teste_Macro_Metasurface_Nanopilar.cst
! Parameters = {H=600; L_x=105; L_y=195; Lambda=1064; Max_L=200; Min_L=70; PathPara=1; Phi=0; Step_L=10; Theta=0; p=520; phaseX=180; phaseY=0}
! Header version: 2018
! Port assignment regex: !\s*Touchstone port\s*([0-9]+)\s*=\s*(CST MWS port|CST DS port)\s*([0-9]+|Zmin|Zmax)\s*\(\"(.*)\"\)(\s*mode\s*([0-9]+))?.*
! Touchstone port assignment:
! Touchstone port 1 = CST MWS port Zmax ("") mode 1
! Touchstone port 2 = CST MWS port Zmax ("") mode 2
! Touchstone port 3 = CST MWS port Zmin ("") mode 1
! Touchstone port 4 = CST MWS port Zmin ("") mode 2
! S-Parameters are not renormalized. Each port impedance will be approximated by the real part at minimum frequency. The values are described via the [Reference] keyword.
! Default impedance is overridden by [Reference]
[Version] 2.0
# GHz S RI R 376.73
[Number of Ports] 4
[Reference]
376.73 376.73 259.888 259.888 
[Number of Frequencies] 51
[Network Data]
281700                  0.218843       -0.256334      3.16217e-05    -2.55857e-06         0.828114       -0.430659     -0.000197727     1.37823e-05
                    -7.19505e-05     6.62997e-05         0.142766       -0.013555      4.69335e-05     0.000112057         0.226432        0.954588
                          0.8277       -0.430481     -9.28963e-05     0.000103938        -0.330033       0.0196763      0.000197897     0.000130961
                    -7.18012e-05     9.76193e-05          0.22658        0.954761       0.00011316     3.90864e-06         0.132237      -0.0495036
281702                  0.218771       -0.256261      3.16561e-05    -2.85931e-06         0.827981       -0.430998     -0.000197606     1.41138e-05
                    -7.18694e-05     6.63558e-05         0.142745      -0.0135599      4.68814e-05     0.000112072         0.226805        0.954503
                        0.827567       -0.430821      -9.2917e-05      0.00010441        -0.329916       0.0199207      0.000197773     0.000130473
                    -7.18351e-05     9.78318e-05         0.226953        0.954676       0.00011308     3.70739e-06         0.132182      -0.0495931
281704                  0.218698       -0.256188      3.16896e-05    -3.16019e-06         0.827848       -0.431337     -0.000197483     1.44462e-05
                    -7.17883e-05     6.64117e-05         0.142724      -0.0135647      4.68292e-05     0.000112088         0.227178        0.954417
                        0.827434        -0.43116     -9.29365e-05     0.000104882        -0.329798        0.020165      0.000197647     0.000129984
                     -7.1869e-05     9.80441e-05         0.227325         0.95459      0.000112999     3.50639e-06         0.132126      -0.0496825
281706                  0.218626       -0.256114      3.17222e-05    -3.46119e-06         0.827714       -0.431677     -0.000197359     1.47795e-05
                    -7.17072e-05     6.64673e-05         0.142703      -0.0135696      4.67769e-05     0.000112104         0.227551        0.954331
                        0.827301         -0.4315     -9.29546e-05     0.000105354         -0.32968       0.0204091      0.000197519     0.000129494
                    -7.19029e-05     9.82563e-05         0.227698        0.954503      0.000112919     3.30566e-06          0.13207      -0.0497718
281708                  0.218554       -0.256041      3.17539e-05    -3.76231e-06         0.827581       -0.432016     -0.000197232     1.51138e-05
                    -7.16263e-05     6.65226e-05         0.142682      -0.0135744      4.67245e-05      0.00011212         0.227924        0.954245
                        0.827167       -0.431839     -9.29714e-05     0.000105825        -0.329562        0.020653       0.00019739     0.000129003
                    -7.19369e-05     9.84682e-05         0.228071        0.954417      0.000112838     3.10519e-06         0.132015      -0.0498611
281710                  0.218481       -0.255968      3.17847e-05    -4.06355e-06         0.827447       -0.432355     -0.000197103      1.5449e-05
                    -7.15454e-05     6.65776e-05         0.142661      -0.0135792      4.66721e-05     0.000112136         0.228297        0.954159
                        0.827034       -0.432178      -9.2987e-05     0.000106297        -0.329444       0.0208968      0.000197259      0.00012851
                     -7.1971e-05       9.868e-05         0.228443        0.954331      0.000112757     2.90498e-06         0.131959      -0.0499504
281712                  0.218409       -0.255895      3.18146e-05    -4.36489e-06         0.827313       -0.432694     -0.000196973     1.57851e-05
                    -7.14646e-05     6.66324e-05          0.14264       -0.013584      4.66195e-05     0.000112153          0.22867        0.954073
                          0.8269       -0.432518     -9.30012e-05     0.000106768        -0.329326       0.0211404      0.000197127     0.000128016
                    -7.20051e-05     9.88915e-05         0.228816        0.954244      0.000112675     2.70503e-06         0.131903      -0.0500396
281714                  0.218337       -0.255821      3.18436e-05    -4.66635e-06          0.82718       -0.433033      -0.00019684     1.61221e-05
                    -7.13838e-05     6.66868e-05         0.142619      -0.0135889      4.65669e-05     0.000112169         0.229043        0.953987
                        0.826766       -0.432857     -9.30141e-05      0.00010724        -0.329208       0.0213838      0.000196993     0.000127521
                    -7.20392e-05     9.91029e-05         0.229189        0.954157      0.000112594     2.50535e-06         0.131847      -0.0501287
281716                  0.218265       -0.255748      3.18718e-05     -4.9679e-06         0.827046       -0.433372     -0.000196706       1.646e-05
                    -7.13031e-05      6.6741e-05         0.142598      -0.0135937      4.65142e-05     0.000112186         0.229415          0.9539
                        0.826632       -0.433196     -9.30258e-05      0.00010771        -0.329089       0.0216271      0.000196857     0.000127025
                    -7.20734e-05     9.93141e-05         0.229561        0.954071      0.000112512     2.30593e-06         0.131791      -0.0502178
281718                  0.218193       -0.255675       3.1899e-05    -5.26956e-06         0.826911        -0.43371      -0.00019657     1.67987e-05
                    -7.12225e-05     6.67949e-05         0.142577      -0.0135985      4.64615e-05     0.000112203         0.229788        0.953813
                        0.826498       -0.433535     -9.30361e-05     0.000108181        -0.328971       0.0218702       0.00019672     0.000126527
                    -7.21076e-05     9.95251e-05         0.229934        0.953984       0.00011243     2.10678e-06         0.131735      -0.0503069
281720                  0.218121       -0.255602      3.19254e-05     -5.5713e-06         0.826777       -0.434049     -0.000196432     1.71384e-05
                    -7.11419e-05     6.68485e-05         0.142556      -0.0136032      4.64086e-05      0.00011222         0.230161        0.953727
                        0.826364       -0.433874     -9.30451e-05     0.000108652        -0.328852       0.0221131      0.000196581     0.000126029
                    -7.21419e-05     9.97359e-05         0.230306        0.953896      0.000112348     1.90789e-06         0.131679      -0.0503959
281722                  0.218049       -0.255528      3.19508e-05    -5.87314e-06         0.826643       -0.434388     -0.000196292     1.74789e-05
                    -7.10614e-05     6.69018e-05         0.142535       -0.013608      4.63557e-05     0.000112237         0.230534         0.95364
                        0.826229       -0.434212     -9.30529e-05     0.000109122        -0.328733       0.0223559      0.000196441     0.000125529
                    -7.21763e-05     9.99465e-05         0.230679        0.953809      0.000112266     1.70927e-06         0.131622      -0.0504848
281724                  0.217977       -0.255455      3.19754e-05    -6.17505e-06         0.826508       -0.434726      -0.00019615     1.78202e-05
                     -7.0981e-05     6.69549e-05         0.142514      -0.0136128      4.63027e-05     0.000112254         0.230906        0.953553
                        0.826095       -0.434551     -9.30593e-05     0.000109592        -0.328614       0.0225985        0.0001963     0.000125029
                    -7.22106e-05     0.000100157         0.231051        0.953722      0.000112184     1.51092e-06         0.131566      -0.0505737
281726                  0.217905       -0.255382       3.1999e-05    -6.47705e-06         0.826373       -0.435064     -0.000196006     1.81624e-05
                    -7.09007e-05     6.70076e-05         0.142493      -0.0136176      4.62496e-05     0.000112271         0.231279        0.953465
                         0.82596        -0.43489     -9.30644e-05     0.000110062        -0.328495       0.0228409      0.000196156     0.000124527
                    -7.22451e-05     0.000100367         0.231423        0.953634      0.000112101     1.31284e-06          0.13151      -0.0506625
281728                  0.217834       -0.255309      3.20218e-05    -6.77912e-06         0.826238       -0.435403     -0.000195861     1.85054e-05
                    -7.08204e-05     6.70601e-05         0.142472      -0.0136223      4.61965e-05     0.000112289         0.231652        0.953378
                        0.825825       -0.435228     -9.30682e-05     0.000110532        -0.328376       0.0230832      0.000196012     0.000124024
                    -7.22796e-05     0.000100577         0.231796        0.953546      0.000112019     1.11503e-06         0.131453      -0.0507513
281730                  0.217762       -0.255236      3.20437e-05    -7.08126e-06         0.826103       -0.435741     -0.000195713     1.88492e-05
                    -7.07402e-05     6.71123e-05         0.142451       -0.013627      4.61433e-05     0.000112307         0.232024         0.95329
                         0.82569       -0.435567     -9.30707e-05     0.000111001        -0.328256       0.0233253      0.000195866      0.00012352
                    -7.23142e-05     0.000100787         0.232168        0.953458      0.000111936      9.1749e-07         0.131397      -0.0508401
281732                   0.21769       -0.255162      3.20647e-05    -7.38346e-06         0.825968       -0.436079     -0.000195564     1.91938e-05
                      -7.066e-05     6.71641e-05          0.14243      -0.0136318        4.609e-05     0.000112325         0.232397        0.953203
                        0.825555       -0.435905     -9.30719e-05      0.00011147        -0.328137       0.0235672      0.000195718     0.000123016
                    -7.23488e-05     0.000100996          0.23254         0.95337      0.000111853     7.20222e-07          0.13134      -0.0509288
281734                  0.217619       -0.255089      3.20848e-05    -7.68572e-06         0.825833       -0.436417     -0.000195414     1.95392e-05
                    -7.05799e-05     6.72157e-05         0.142409      -0.0136365      4.60366e-05     0.000112343         0.232769        0.953115
                        0.825419       -0.436243     -9.30718e-05     0.000111939        -0.328017        0.023809      0.000195569      0.00012251
                    -7.23834e-05     0.000101206         0.232912        0.953282      0.000111769     5.23229e-07         0.131284      -0.0510174
281736                  0.217547       -0.255016       3.2104e-05    -7.98804e-06         0.825697       -0.436755     -0.000195261     1.98854e-05
                    -7.04999e-05      6.7267e-05         0.142388      -0.0136412      4.59831e-05     0.000112361         0.233142        0.953027
                        0.825284       -0.436581     -9.30704e-05     0.000112408        -0.327897       0.0240506      0.000195418     0.000122003
                    -7.24182e-05     0.000101415         0.233285        0.953194      0.000111686     3.26511e-07         0.131227       -0.051106
281738                  0.217476       -0.254943      3.21223e-05    -8.29041e-06         0.825562       -0.437093     -0.000195107     2.02323e-05
                      -7.042e-05      6.7318e-05         0.142367      -0.0136459      4.59296e-05     0.000112379         0.233514        0.952939
                        0.825148       -0.436919     -9.30677e-05     0.000112876        -0.327777        0.024292      0.000195266     0.000121495
                     -7.2453e-05     0.000101624         0.233657        0.953105      0.000111602     1.30069e-07         0.131171      -0.0511946
281740                  0.217404        -0.25487      3.21397e-05    -8.59282e-06         0.825426       -0.437431      -0.00019495       2.058e-05
                    -7.03401e-05     6.73687e-05         0.142347      -0.0136506       4.5876e-05     0.000112398         0.233887         0.95285
                        0.825013       -0.437257     -9.30636e-05     0.000113344        -0.327657       0.0245333      0.000195113     0.000120986
                    -7.24878e-05     0.000101833         0.234029        0.953017      0.000111519     -6.6093e-08         0.131114      -0.0512831
281742                  0.217333       -0.254797      3.21563e-05    -8.89527e-06          0.82529       -0.437768     -0.000194793     2.09284e-05
                    -7.02603e-05     6.74191e-05         0.142326      -0.0136553      4.58223e-05     0.000112417         0.234259        0.952762
                        0.824877       -0.437595     -9.30583e-05     0.000113812        -0.327537       0.0247744      0.000194958     0.000120477
                    -7.25227e-05     0.000102041         0.234401        0.952928      0.000111435    -2.61974e-07         0.131057      -0.0513715
281744                  0.217261       -0.254724      3.21719e-05    -9.19776e-06         0.825154       -0.438106     -0.000194633     2.12775e-05
                    -7.01806e-05     6.74692e-05         0.142305        -0.01366      4.57686e-05     0.000112436         0.234631        0.952673
                        0.824741       -0.437933     -9.30516e-05      0.00011428        -0.327417       0.0250153      0.000194802     0.000119966
                    -7.25577e-05      0.00010225         0.234773        0.952839      0.000111351    -4.57572e-07            0.131      -0.0514599
281746                   0.21719        -0.25465      3.21867e-05    -9.50028e-06         0.825018       -0.438443     -0.000194472     2.16273e-05
                    -7.01009e-05      6.7519e-05         0.142284      -0.0136647      4.57147e-05     0.000112455         0.235004        0.952585
                        0.824604       -0.438271     -9.30436e-05     0.000114747        -0.327296       0.0252561      0.000194645     0.000119454
                    -7.25927e-05     0.000102458         0.235145         0.95275      0.000111266    -6.52882e-07         0.130943      -0.0515482
281748                  0.217119       -0.254577      3.22006e-05    -9.80283e-06         0.824882       -0.438781     -0.000194309     2.19778e-05
                    -7.00213e-05     6.75685e-05         0.142263      -0.0136694      4.56608e-05     0.000112474         0.235376        0.952496
                        0.824468       -0.438609     -9.30343e-05     0.000115214        -0.327176       0.0254967      0.000194486     0.000118942
                    -7.26278e-05     0.000102666         0.235517        0.952661      0.000111182      -8.479e-07         0.130886      -0.0516365
281750                  0.217048       -0.254504      3.22136e-05    -1.01054e-05         0.824745       -0.439118     -0.000194144      2.2329e-05
                    -6.99417e-05     6.76176e-05         0.142242       -0.013674      4.56069e-05     0.000112493         0.235748        0.952407
                        0.824332       -0.438946     -9.30238e-05      0.00011568        -0.327055       0.0257371      0.000194325     0.000118429
                     -7.2663e-05     0.000102874         0.235889        0.952572      0.000111097    -1.04262e-06         0.130829      -0.0517248
281752                  0.216976       -0.254431      3.22257e-05     -1.0408e-05         0.824608       -0.439455     -0.000193978     2.26809e-05
                    -6.98623e-05     6.76665e-05         0.142221      -0.0136787      4.55528e-05     0.000112513          0.23612        0.952318
                        0.824195       -0.439284     -9.30118e-05     0.000116147        -0.326934       0.0259774      0.000194164     0.000117915
                    -7.26982e-05     0.000103081         0.236261        0.952482      0.000111013    -1.23704e-06         0.130772       -0.051813
281754                  0.216905       -0.254358      3.22369e-05    -1.07106e-05         0.824472       -0.439792      -0.00019381     2.30334e-05
                    -6.97829e-05     6.77151e-05           0.1422      -0.0136833      4.54986e-05     0.000112533         0.236492        0.952228
                        0.824058       -0.439621     -9.29986e-05     0.000116613        -0.326813       0.0262175      0.000194001       0.0001174
                    -7.27335e-05     0.000103288         0.236632        0.952393      0.000110928    -1.43114e-06         0.130715      -0.0519011
281756                  0.216834       -0.254285      3.22472e-05    -1.10132e-05         0.824335       -0.440129      -0.00019364     2.33865e-05
                    -6.97036e-05     6.77633e-05         0.142179       -0.013688      4.54444e-05     0.000112553         0.236865        0.952139
                        0.823921       -0.439958     -9.29841e-05     0.000117078        -0.326692       0.0264575      0.000193837     0.000116884
                    -7.27689e-05     0.000103495         0.237004        0.952303      0.000110843     -1.6249e-06         0.130657      -0.0519892
281758                  0.216763       -0.254212      3.22567e-05    -1.13157e-05         0.824198       -0.440466     -0.000193469     2.37402e-05
                    -6.96243e-05     6.78113e-05         0.142158      -0.0136926      4.53901e-05     0.000112573         0.237237        0.952049
                        0.823784       -0.440295     -9.29682e-05     0.000117544         -0.32657       0.0266973      0.000193671     0.000116368
                    -7.28043e-05     0.000103702         0.237376        0.952213      0.000110758    -1.81831e-06           0.1306      -0.0520772
281760                  0.216692       -0.254139      3.22652e-05    -1.16183e-05         0.824061       -0.440803     -0.000193296     2.40945e-05
                    -6.95451e-05     6.78589e-05         0.142137      -0.0136972      4.53356e-05     0.000112594         0.237609         0.95196
                        0.823647       -0.440632     -9.29511e-05     0.000118009        -0.326449       0.0269369      0.000193504      0.00011585
                    -7.28398e-05     0.000103909         0.237748        0.952123      0.000110673    -2.01133e-06         0.130543      -0.0521652
281762                  0.216621       -0.254066      3.22729e-05    -1.19209e-05         0.823923        -0.44114     -0.000193121     2.44494e-05
                    -6.94661e-05     6.79062e-05         0.142116      -0.0137018       4.5281e-05     0.000112615         0.237981         0.95187
                         0.82351       -0.440969     -9.29326e-05     0.000118473        -0.326327       0.0271763      0.000193336     0.000115332
