! TOUCHSTONE file generated by CST MICROWAVE STUDIO
! Date and time: Wed Oct 15 17:28:03 2025
! Project name: Teste_Macro_Metasurface_Nanopilar.cst
! Parameters = {H=600; L_x=75; L_y=80; Lambda=1064; Max_L=200; Min_L=70; PathPara=1; Phi=0; Step_L=10; Theta=0; p=520; phaseX=180; phaseY=0}
! Header version: 2018
! Port assignment regex: !\s*Touchstone port\s*([0-9]+)\s*=\s*(CST MWS port|CST DS port)\s*([0-9]+|Zmin|Zmax)\s*\(\"(.*)\"\)(\s*mode\s*([0-9]+))?.*
! Touchstone port assignment:
! Touchstone port 1 = CST MWS port Zmax ("") mode 1
! Touchstone port 2 = CST MWS port Zmax ("") mode 2
! Touchstone port 3 = CST MWS port Zmin ("") mode 1
! Touchstone port 4 = CST MWS port Zmin ("") mode 2
! S-Parameters are not renormalized. Each port impedance will be approximated by the real part at minimum frequency. The values are described via the [Reference] keyword.
! Default impedance is overridden by [Reference]
[Version] 2.0
# GHz S RI R 376.73
[Number of Ports] 4
[Reference]
376.73 376.73 259.888 259.888 
[Number of Frequencies] 51
[Network Data]
281700                 0.0488282       -0.124673     -0.000277372     6.01039e-05         0.137521       -0.981199      0.000185339    -3.10097e-05
                    -0.000264157     1.95348e-06        0.0549418       -0.128177      0.000139324     8.04431e-05         0.174635       -0.974477
                        0.137795       -0.981337      0.000201052     7.69114e-05        0.0125769        0.133313     -3.32852e-05    -0.000543196
                     0.000181078    -0.000166517         0.174543       -0.974343     -0.000296964    -0.000157919        0.0069798        0.139296
281702                 0.0488162       -0.124675     -0.000277376     6.02286e-05         0.137288       -0.981232      0.000185326      -3.104e-05
                    -0.000264128     2.02874e-06          0.05493       -0.128179      0.000139343     8.03958e-05         0.174404       -0.974519
                        0.137562        -0.98137      0.000201063      7.6862e-05        0.0126284        0.133306     -3.31791e-05      -0.0005433
                     0.000181055    -0.000166627         0.174312       -0.974384     -0.000297032     -0.00015792       0.00703378         0.13929
281704                 0.0488043       -0.124677      -0.00027738     6.03532e-05         0.137054       -0.981265      0.000185313    -3.10706e-05
                    -0.000264099     2.10403e-06        0.0549181       -0.128182      0.000139362     8.03485e-05         0.174173       -0.974561
                        0.137328       -0.981403      0.000201073     7.68125e-05        0.0126798        0.133298     -3.30767e-05    -0.000543403
                     0.000181032    -0.000166736         0.174082       -0.974426     -0.000297101    -0.000157921       0.00708776        0.139285
281706                 0.0487924       -0.124679     -0.000277383     6.04778e-05         0.136821       -0.981298      0.000185301    -3.11015e-05
                    -0.000264069     2.17936e-06        0.0549063       -0.128184      0.000139381     8.03013e-05         0.173943       -0.974602
                        0.137094       -0.981436      0.000201084      7.6763e-05        0.0127312        0.133291     -3.29781e-05    -0.000543504
                     0.000181009    -0.000166846         0.173851       -0.974467     -0.000297169    -0.000157922       0.00714173         0.13928
281708                 0.0487805       -0.124681     -0.000277387     6.06023e-05         0.136587       -0.981331      0.000185288    -3.11327e-05
                     -0.00026404     2.25473e-06        0.0548944       -0.128187        0.0001394      8.0254e-05         0.173712       -0.974643
                        0.136861       -0.981469      0.000201094     7.67135e-05        0.0127826        0.133283     -3.28833e-05    -0.000543602
                     0.000180986    -0.000166956          0.17362       -0.974509     -0.000297238    -0.000157923        0.0071957        0.139275
281710                 0.0487686       -0.124683      -0.00027739     6.07269e-05         0.136354       -0.981364      0.000185275    -3.11642e-05
                    -0.000264011     2.33014e-06        0.0548826       -0.128189      0.000139419     8.02066e-05         0.173481       -0.974685
                        0.136627       -0.981502      0.000201105     7.66639e-05         0.012834        0.133275     -3.27924e-05    -0.000543699
                     0.000180963    -0.000167065         0.173389        -0.97455     -0.000297307    -0.000157925       0.00724967         0.13927
281712                 0.0487566       -0.124684     -0.000277393     6.08514e-05         0.136121       -0.981397      0.000185262    -3.11961e-05
                    -0.000263981     2.40558e-06        0.0548707       -0.128192      0.000139439     8.01593e-05         0.173251       -0.974726
                        0.136393       -0.981535      0.000201115     7.66144e-05        0.0128854        0.133268     -3.27053e-05    -0.000543794
                      0.00018094    -0.000167175         0.173159       -0.974591     -0.000297375    -0.000157926       0.00730364        0.139265
281714                 0.0487447       -0.124686     -0.000277397      6.0976e-05         0.135887       -0.981429      0.000185248    -3.12283e-05
                    -0.000263952     2.48105e-06        0.0548589       -0.128194      0.000139458     8.01119e-05          0.17302       -0.974767
                         0.13616       -0.981567      0.000201125     7.65648e-05        0.0129368         0.13326      -3.2622e-05    -0.000543886
                     0.000180917    -0.000167285         0.172928       -0.974633     -0.000297444    -0.000157928        0.0073576         0.13926
281716                 0.0487328       -0.124688       -0.0002774     6.11005e-05         0.135654       -0.981462      0.000185235    -3.12608e-05
                    -0.000263922     2.55656e-06         0.054847       -0.128197      0.000139477     8.00645e-05         0.172789       -0.974809
                        0.135926         -0.9816      0.000201136     7.65152e-05        0.0129882        0.133253     -3.25427e-05    -0.000543977
                     0.000180894    -0.000167395         0.172697       -0.974674     -0.000297513    -0.000157929       0.00741155        0.139254
281718                 0.0487209        -0.12469     -0.000277403      6.1225e-05          0.13542       -0.981495      0.000185222    -3.12936e-05
                    -0.000263892      2.6321e-06        0.0548352       -0.128199      0.000139496     8.00171e-05         0.172559        -0.97485
                        0.135692       -0.981633      0.000201146     7.64655e-05        0.0130396        0.133245     -3.24674e-05    -0.000544065
                     0.000180871    -0.000167505         0.172466       -0.974715     -0.000297581    -0.000157931       0.00746551        0.139249
281720                 0.0487089       -0.124692     -0.000277406     6.13494e-05         0.135187       -0.981527      0.000185208    -3.13268e-05
                    -0.000263862     2.70768e-06        0.0548233       -0.128202      0.000139515     7.99697e-05         0.172328       -0.974891
                        0.135459       -0.981665      0.000201156     7.64158e-05         0.013091        0.133237      -3.2396e-05    -0.000544151
                     0.000180848    -0.000167615         0.172236       -0.974756      -0.00029765    -0.000157933       0.00751946        0.139244
281722                  0.048697       -0.124694     -0.000277409     6.14739e-05         0.134953        -0.98156      0.000185194    -3.13603e-05
                    -0.000263832     2.78328e-06        0.0548115       -0.128204      0.000139533     7.99222e-05         0.172097       -0.974932
                        0.135225       -0.981698      0.000201167     7.63661e-05        0.0131424         0.13323     -3.23286e-05    -0.000544235
                     0.000180825    -0.000167725         0.172005       -0.974797     -0.000297719    -0.000157935       0.00757341        0.139238
281724                 0.0486851       -0.124695     -0.000277412     6.15983e-05          0.13472       -0.981592      0.000185181    -3.13941e-05
                    -0.000263802     2.85891e-06        0.0547996       -0.128207      0.000139552     7.98747e-05         0.171866       -0.974973
                        0.134991        -0.98173      0.000201177     7.63164e-05        0.0131938        0.133222     -3.22653e-05    -0.000544317
                     0.000180802    -0.000167835         0.171774       -0.974838     -0.000297787    -0.000157936       0.00762736        0.139233
281726                 0.0486732       -0.124697     -0.000277415     6.17227e-05         0.134486       -0.981624      0.000185167    -3.14283e-05
                    -0.000263772     2.93457e-06        0.0547878       -0.128209      0.000139571     7.98272e-05         0.171636       -0.975014
                        0.134758       -0.981762      0.000201187     7.62666e-05        0.0132452        0.133214      -3.2206e-05    -0.000544397
                     0.000180779    -0.000167945         0.171543       -0.974879     -0.000297856    -0.000157938        0.0076813        0.139228
281728                 0.0486612       -0.124699     -0.000277418     6.18471e-05         0.134253       -0.981657      0.000185153    -3.14628e-05
                    -0.000263742     3.01025e-06        0.0547759       -0.128212       0.00013959     7.97797e-05         0.171405       -0.975055
                        0.134524       -0.981795      0.000201198     7.62168e-05        0.0132966        0.133206     -3.21508e-05    -0.000544474
                     0.000180757    -0.000168055         0.171312        -0.97492     -0.000297925    -0.000157941       0.00773524        0.139222
281730                 0.0486493       -0.124701     -0.000277421     6.19715e-05         0.134019       -0.981689      0.000185139    -3.14977e-05
                    -0.000263711     3.08595e-06        0.0547641       -0.128214      0.000139609     7.97322e-05         0.171174       -0.975096
                         0.13429       -0.981827      0.000201208      7.6167e-05        0.0133479        0.133199     -3.20998e-05    -0.000544549
                     0.000180734    -0.000168165         0.171082       -0.974961     -0.000297994    -0.000157943       0.00778918        0.139217
281732                 0.0486374       -0.124703     -0.000277424     6.20959e-05         0.133786       -0.981721      0.000185125     -3.1533e-05
                    -0.000263681     3.16165e-06        0.0547522       -0.128217      0.000139628     7.96846e-05         0.170943       -0.975137
                        0.134056       -0.981859      0.000201218     7.61172e-05        0.0133993        0.133191     -3.20529e-05    -0.000544622
                     0.000180711    -0.000168275         0.170851       -0.975001     -0.000298062    -0.000157945       0.00784311        0.139212
281734                 0.0486255       -0.124705     -0.000277426     6.22202e-05         0.133552       -0.981753       0.00018511    -3.15685e-05
                     -0.00026365     3.23734e-06        0.0547404       -0.128219      0.000139646      7.9637e-05         0.170713       -0.975177
                        0.133823       -0.981892      0.000201229     7.60673e-05        0.0134507        0.133183     -3.20102e-05    -0.000544693
                     0.000180688    -0.000168386          0.17062       -0.975042     -0.000298131    -0.000157947       0.00789704        0.139206
281736                 0.0486135       -0.124706     -0.000277429     6.23445e-05         0.133319       -0.981785      0.000185096    -3.16045e-05
                     -0.00026362     3.31301e-06        0.0547285       -0.128222      0.000139665     7.95894e-05         0.170482       -0.975218
                        0.133589       -0.981924      0.000201239     7.60174e-05         0.013502        0.133175     -3.19717e-05    -0.000544761
                     0.000180665    -0.000168496         0.170389       -0.975083       -0.0002982     -0.00015795       0.00795097        0.139201
281738                 0.0486016       -0.124708     -0.000277431     6.24688e-05         0.133085       -0.981817      0.000185081    -3.16408e-05
                    -0.000263589     3.38858e-06        0.0547167       -0.128224      0.000139684     7.95418e-05         0.170251       -0.975259
                        0.133355       -0.981956      0.000201249     7.59675e-05        0.0135534        0.133167     -3.19374e-05    -0.000544827
                     0.000180642    -0.000168607         0.170158       -0.975123     -0.000298269    -0.000157952       0.00800489        0.139195
281740                 0.0485897        -0.12471     -0.000277434     6.25931e-05         0.132852       -0.981849      0.000185067    -3.16775e-05
                    -0.000263558     3.46396e-06        0.0547048       -0.128227      0.000139703     7.94942e-05          0.17002       -0.975299
                        0.133121       -0.981988      0.000201259     7.59175e-05        0.0136047         0.13316     -3.19074e-05    -0.000544891
                     0.000180619    -0.000168717         0.169927       -0.975164     -0.000298338    -0.000157955       0.00805881         0.13919
281742                 0.0485778       -0.124712     -0.000277436     6.27174e-05         0.132618       -0.981881      0.000185052    -3.17145e-05
                    -0.000263527     3.53878e-06         0.054693       -0.128229      0.000139721     7.94465e-05         0.169789        -0.97534
                        0.132887        -0.98202      0.000201269     7.58675e-05        0.0136561        0.133152     -3.18817e-05    -0.000544952
                     0.000180597    -0.000168829         0.169697       -0.975204     -0.000298407    -0.000157958       0.00811273        0.139184
281744                 0.0485658       -0.124714     -0.000277439     6.28416e-05         0.132385       -0.981913      0.000185037    -3.17519e-05
                    -0.000263496     3.61133e-06        0.0546811       -0.128232       0.00013974     7.93988e-05         0.169559        -0.97538
                        0.132654       -0.982052       0.00020128     7.58175e-05        0.0137074        0.133144     -3.18603e-05    -0.000545011
                     0.000180574    -0.000168943         0.169466       -0.975245     -0.000298475     -0.00015796       0.00816665        0.139179
281746                 0.0485539       -0.124716     -0.000277441     6.29659e-05         0.132151       -0.981945      0.000185022    -3.17897e-05
                    -0.000263499     3.46961e-06        0.0546693       -0.128234      0.000139758     7.93511e-05         0.169328       -0.975421
                         0.13242       -0.982083       0.00020129     7.57674e-05        0.0137587        0.133136     -3.18432e-05    -0.000545067
                     0.000180552    -0.000169303         0.169235       -0.975285     -0.000298544    -0.000157963       0.00822056        0.139173
281748                  0.048542       -0.124717     -0.000277443     6.30901e-05         0.131918       -0.981976      0.000185007    -3.18279e-05
                    -0.000263433     3.77819e-06        0.0546574       -0.128237      0.000139777     7.93034e-05         0.169097       -0.975461
                        0.132186       -0.982115        0.0002013     7.57174e-05        0.0138101        0.133128     -3.18306e-05    -0.000545121
                     0.000180528    -0.000169148         0.169004       -0.975326     -0.000298613    -0.000157966       0.00827447        0.139168
281750                 0.0485301       -0.124719     -0.000277445     6.32143e-05         0.131684       -0.982008      0.000184991    -3.18664e-05
                    -0.000263402     3.85049e-06        0.0546456       -0.128239      0.000139796     7.92556e-05         0.168866       -0.975501
                        0.131952       -0.982147       0.00020131     7.56673e-05        0.0138614         0.13312     -3.18223e-05    -0.000545173
                     0.000180506    -0.000169263         0.168773       -0.975366     -0.000298682    -0.000157969       0.00832837        0.139162
281752                 0.0485181       -0.124721     -0.000277448     6.33384e-05          0.13145        -0.98204      0.000184976    -3.19053e-05
                     -0.00026337     3.92542e-06        0.0546337       -0.128242      0.000139814     7.92079e-05         0.168635       -0.975541
                        0.131718       -0.982179       0.00020132     7.56172e-05        0.0139127        0.133112     -3.18184e-05    -0.000545222
                     0.000180483    -0.000169374         0.168542       -0.975406     -0.000298751    -0.000157972       0.00838227        0.139157
281754                 0.0485062       -0.124723      -0.00027745     6.34626e-05         0.131217       -0.982071      0.000184961    -3.19446e-05
                    -0.000263339     4.00101e-06        0.0546219       -0.128244      0.000139833     7.91601e-05         0.168404       -0.975582
                        0.131485        -0.98221       0.00020133     7.55671e-05         0.013964        0.133104      -3.1819e-05    -0.000545268
                      0.00018046    -0.000169486         0.168311       -0.975446      -0.00029882    -0.000157976       0.00843617        0.139151
281756                 0.0484943       -0.124725     -0.000277452     6.35867e-05         0.130983       -0.982103      0.000184945    -3.19843e-05
                    -0.000263307     4.07689e-06          0.05461       -0.128247      0.000139851     7.91123e-05         0.168173       -0.975622
                        0.131251       -0.982242       0.00020134     7.55172e-05        0.0140154        0.133096     -3.18241e-05    -0.000545312
                     0.000180437    -0.000169597          0.16808       -0.975486     -0.000298889    -0.000157979       0.00849007        0.139145
281758                 0.0484823       -0.124727     -0.000277453     6.37111e-05          0.13075       -0.982134      0.000184929    -3.20244e-05
                    -0.000263275     4.15292e-06        0.0545981       -0.128249       0.00013987     7.90644e-05         0.167942       -0.975662
                        0.131017       -0.982273       0.00020135     7.54686e-05        0.0140667        0.133088     -3.18337e-05    -0.000545354
                     0.000180415    -0.000169707         0.167849       -0.975526     -0.000298958    -0.000157982       0.00854396         0.13914
281760                 0.0484704       -0.124728     -0.000277456     6.38348e-05         0.130516       -0.982166      0.000184913    -3.20648e-05
                    -0.000263243     4.22906e-06        0.0545863       -0.128252      0.000139888     7.90166e-05         0.167711       -0.975702
                        0.130783       -0.982305      0.000201362     7.54142e-05         0.014118         0.13308     -3.18478e-05    -0.000545392
                     0.000180392    -0.000169818         0.167618       -0.975566     -0.000299027    -0.000157986       0.00859785        0.139134
281762                 0.0484585        -0.12473     -0.000277458      6.3959e-05         0.130282       -0.982197      0.000184897    -3.21057e-05
                    -0.000263211     4.30528e-06        0.0545744       -0.128254      0.000139906     7.89687e-05          0.16748       -0.975742
                        0.130549       -0.982336      0.000201371     7.53648e-05        0.0141693        0.133072     -3.18665e-05    -0.000545429
