! TOUCHSTONE file generated by CST MICROWAVE STUDIO
! Date and time: Wed Oct 15 17:33:43 2025
! Project name: Teste_Macro_Metasurface_Nanopilar.cst
! Parameters = {H=600; L_x=170; L_y=185; Lambda=1064; Max_L=200; Min_L=70; PathPara=1; Phi=0; Step_L=10; Theta=0; p=520; phaseX=180; phaseY=0}
! Header version: 2018
! Port assignment regex: !\s*Touchstone port\s*([0-9]+)\s*=\s*(CST MWS port|CST DS port)\s*([0-9]+|Zmin|Zmax)\s*\(\"(.*)\"\)(\s*mode\s*([0-9]+))?.*
! Touchstone port assignment:
! Touchstone port 1 = CST MWS port Zmax ("") mode 1
! Touchstone port 2 = CST MWS port Zmax ("") mode 2
! Touchstone port 3 = CST MWS port Zmin ("") mode 1
! Touchstone port 4 = CST MWS port Zmin ("") mode 2
! S-Parameters are not renormalized. Each port impedance will be approximated by the real part at minimum frequency. The values are described via the [Reference] keyword.
! Default impedance is overridden by [Reference]
[Version] 2.0
# GHz S RI R 376.73
[Number of Ports] 4
[Reference]
376.73 376.73 259.888 259.888 
[Number of Frequencies] 51
[Network Data]
281700                  0.220632       0.0832592     -5.49893e-05    -0.000154595         0.198455       -0.947457      0.000294698    -2.45802e-06
                      -6.204e-06    -0.000269706        0.0622174     -0.00962016      0.000513097     1.80745e-05         0.210646       -0.961203
                        0.198434       -0.947641      0.000307606    -0.000160932         0.233667       0.0115563     -5.46123e-05     0.000453043
                      0.00033831     0.000132438          0.21079       -0.961355     -0.000246611      0.00043133          0.04991       0.0544016
281702                   0.22064       0.0832557     -5.52386e-05    -0.000154403         0.198178       -0.947513      0.000294959    -2.97083e-06
                    -6.22797e-06    -0.000269679        0.0620071     -0.00967894      0.000513213     1.78236e-05          0.21016       -0.961297
                        0.198157       -0.947698      0.000307871    -0.000161134          0.23368       0.0114265     -5.44137e-05     0.000453773
                     0.000338272     0.000132247         0.210304        -0.96145     -0.000246465     0.000431417        0.0497404       0.0543627
281704                  0.220647       0.0832523     -5.54874e-05    -0.000154212         0.197901       -0.947569      0.000295222    -3.48286e-06
                    -6.25182e-06     -0.00026965        0.0617963     -0.00973771      0.000513328     1.75713e-05         0.209674       -0.961392
                         0.19788       -0.947754      0.000308144     -0.00016133         0.233692       0.0112966     -5.42191e-05     0.000454505
                     0.000338233     0.000132053         0.209818       -0.961545     -0.000246318     0.000431502        0.0495704        0.054324
281706                  0.220655       0.0832488     -5.57357e-05    -0.000154023         0.197623       -0.947625      0.000295487    -3.99405e-06
                    -6.27555e-06    -0.000269621        0.0615851     -0.00979649      0.000513444     1.73176e-05         0.209187       -0.961486
                        0.197603       -0.947811      0.000308426     -0.00016152         0.233704       0.0111667     -5.40284e-05     0.000455239
                     0.000338195     0.000131859         0.209332        -0.96164     -0.000246169     0.000431588        0.0493998       0.0542857
281708                  0.220663       0.0832453     -5.59837e-05    -0.000153836         0.197346       -0.947682      0.000295754    -4.50436e-06
                    -6.29917e-06    -0.000269591        0.0613733     -0.00985528      0.000513559     1.70625e-05           0.2087        -0.96158
                        0.197326       -0.947867      0.000308716    -0.000161704         0.233717       0.0110368     -5.38419e-05     0.000455976
                     0.000338157     0.000131662         0.208845       -0.961734     -0.000246018     0.000431672        0.0492288       0.0542476
281710                  0.220671       0.0832418     -5.62313e-05     -0.00015365         0.197069       -0.947738      0.000296023    -5.01373e-06
                    -6.32268e-06    -0.000269559        0.0611609     -0.00991406      0.000513674     1.68059e-05         0.208212       -0.961674
                        0.197049       -0.947923      0.000309015    -0.000161881         0.233729       0.0109069     -5.36594e-05     0.000456715
                     0.000338118     0.000131465         0.208358       -0.961828     -0.000245866     0.000431757        0.0490573       0.0542098
281712                  0.220678       0.0832383     -5.64787e-05    -0.000153466         0.196792       -0.947794      0.000296294     -5.5221e-06
                    -6.34608e-06    -0.000269527        0.0609481     -0.00997284      0.000513788     1.65479e-05         0.207724       -0.961768
                        0.196772        -0.94798      0.000309321    -0.000162053         0.233741        0.010777     -5.34811e-05     0.000457456
                     0.000338079     0.000131266          0.20787       -0.961922     -0.000245712      0.00043184        0.0488853       0.0541723
281714                  0.220686       0.0832349      -5.6726e-05    -0.000153284         0.196514       -0.947849      0.000296568    -6.02942e-06
                    -6.36937e-06    -0.000269494        0.0607347      -0.0100316      0.000513903     1.62885e-05         0.207236       -0.961861
                        0.196494       -0.948036      0.000309634    -0.000162219         0.233753       0.0106471     -5.33072e-05       0.0004582
                      0.00033804     0.000131065         0.207381       -0.962016     -0.000245556     0.000431924        0.0487128       0.0541351
281716                  0.220694       0.0832314     -5.69731e-05    -0.000153103         0.196237       -0.947905      0.000296843    -6.53563e-06
                    -6.39255e-06     -0.00026946        0.0605208      -0.0100904      0.000514017     1.60277e-05         0.206746       -0.961954
                        0.196217       -0.948092      0.000309954    -0.000162378         0.233765       0.0105172     -5.31375e-05     0.000458945
                     0.000338001     0.000130864         0.206892        -0.96211     -0.000245399     0.000432006        0.0485398       0.0540981
281718                  0.220701       0.0832279     -5.72202e-05    -0.000152924          0.19596       -0.947961      0.000297121    -7.04067e-06
                    -6.41563e-06    -0.000269425        0.0603064      -0.0101492      0.000514131     1.57653e-05         0.206256       -0.962047
                         0.19594       -0.948148       0.00031028    -0.000162532         0.233776       0.0103872     -5.29723e-05     0.000459692
                     0.000337962      0.00013066         0.206403       -0.962203      -0.00024524     0.000432088        0.0483663       0.0540615
281720                  0.220709       0.0832244     -5.74674e-05    -0.000152746         0.195682       -0.948017        0.0002974     -7.5445e-06
                    -6.43861e-06    -0.000269389        0.0600914       -0.010208      0.000514245     1.55015e-05         0.205766        -0.96214
                        0.195663       -0.948203      0.000310613     -0.00016268         0.233788       0.0102573     -5.28115e-05     0.000460441
                     0.000337923     0.000130456         0.205913       -0.962296      -0.00024508     0.000432169        0.0481923       0.0540252
281722                  0.220717       0.0832209     -5.77146e-05     -0.00015257         0.195405       -0.948072      0.000297682    -8.04703e-06
                    -6.46148e-06    -0.000269352         0.059876      -0.0102668      0.000514359     1.52361e-05         0.205275       -0.962232
                        0.195386       -0.948259      0.000310953    -0.000162822           0.2338       0.0101273     -5.26552e-05     0.000461193
                     0.000337883      0.00013025         0.205422       -0.962389     -0.000244917      0.00043225        0.0480177       0.0539891
281724                  0.220724       0.0832174      -5.7962e-05    -0.000152395         0.195128       -0.948128      0.000297966    -8.54823e-06
                    -6.48426e-06    -0.000269315          0.05966      -0.0103255      0.000514472     1.49693e-05         0.204784       -0.962324
                        0.195108       -0.948315      0.000311297    -0.000162958         0.233812      0.00999735     -5.25036e-05     0.000461945
                     0.000337844     0.000130043         0.204931       -0.962481     -0.000244753      0.00043233        0.0478427       0.0539533
281726                  0.220732       0.0832138     -5.82097e-05    -0.000152222          0.19485       -0.948183      0.000298252    -9.04802e-06
                    -6.50693e-06    -0.000269276        0.0594434      -0.0103843      0.000514586      1.4701e-05         0.204292       -0.962416
                        0.194831       -0.948371      0.000311648    -0.000163089         0.233823      0.00986737     -5.23567e-05       0.0004627
                     0.000337804     0.000129834         0.204439       -0.962574     -0.000244587     0.000432409        0.0476672       0.0539179
281728                   0.22074       0.0832103     -5.84577e-05    -0.000152051         0.194573       -0.948238       0.00029854    -9.54634e-06
                    -6.52952e-06    -0.000269237        0.0592263      -0.0104431      0.000514699     1.44311e-05         0.203799       -0.962508
                        0.194554       -0.948426      0.000312004    -0.000163213         0.233835      0.00973739     -5.22145e-05     0.000463456
                     0.000337765     0.000129624         0.203947       -0.962666     -0.000244419     0.000432488        0.0474912       0.0538827
281730                  0.220748       0.0832068     -5.87061e-05    -0.000151881         0.194296       -0.948293      0.000298831    -1.00431e-05
                      -6.552e-06    -0.000269197        0.0590087      -0.0105019      0.000514812     1.41596e-05         0.203306       -0.962599
                        0.194276       -0.948482      0.000312365    -0.000163333         0.233846      0.00960739     -5.20771e-05     0.000464214
                     0.000337726     0.000129413         0.203454       -0.962758     -0.000244249     0.000432565        0.0473147       0.0538478
281732                  0.220755       0.0832033      -5.8955e-05    -0.000151713         0.194018       -0.948349      0.000299123    -1.05383e-05
                    -6.57439e-06    -0.000269156        0.0587906      -0.0105606      0.000514925     1.38867e-05         0.202813       -0.962691
                        0.193999       -0.948537       0.00031273    -0.000163446         0.233857      0.00947739     -5.19446e-05     0.000464974
                     0.000337686       0.0001292         0.202961       -0.962849     -0.000244077     0.000432642        0.0471377       0.0538133
281734                  0.220763       0.0831998     -5.92045e-05    -0.000151546         0.193741       -0.948404      0.000299418    -1.10319e-05
                    -6.59669e-06    -0.000269114        0.0585719      -0.0106194      0.000515038     1.36121e-05         0.202319       -0.962782
                        0.193722       -0.948592      0.000313101    -0.000163555         0.233868      0.00934737      -5.1817e-05     0.000465735
                     0.000337647     0.000128987         0.202467       -0.962941     -0.000243903     0.000432718        0.0469602        0.053779
281736                  0.220771       0.0831962     -5.94546e-05     -0.00015138         0.193463       -0.948459      0.000299715    -1.15237e-05
                     -6.6189e-06    -0.000269072        0.0583527      -0.0106782      0.000515151      1.3336e-05         0.201824       -0.962872
                        0.193444       -0.948648      0.000313476    -0.000163657          0.23388      0.00921735     -5.16945e-05     0.000466497
                     0.000337607     0.000128772         0.201973       -0.963032     -0.000243727     0.000432793        0.0467821       0.0537451
281738                  0.220778       0.0831927     -5.97053e-05    -0.000151216         0.193186       -0.948514      0.000300015    -1.20137e-05
                    -6.64102e-06    -0.000269028        0.0581329      -0.0107369      0.000515264     1.30583e-05         0.201329       -0.962963
                        0.193167       -0.948703      0.000313855    -0.000163755         0.233891      0.00908732      -5.1577e-05     0.000467261
                     0.000337568     0.000128555         0.201478       -0.963123     -0.000243549     0.000432868        0.0466036       0.0537114
281740                  0.220786       0.0831892     -5.99569e-05    -0.000151054         0.192908       -0.948568      0.000300316    -1.25018e-05
                    -6.66305e-06    -0.000268984        0.0579126      -0.0107956      0.000515377      1.2779e-05         0.200833       -0.963053
                         0.19289       -0.948758      0.000314238    -0.000163847         0.233902      0.00895728     -5.14647e-05     0.000468026
                     0.000337528     0.000128338         0.200983       -0.963213     -0.000243369     0.000432941        0.0464245       0.0536781
281742                  0.220794       0.0831856     -6.02093e-05    -0.000150893         0.192631       -0.948623       0.00030062     -1.2988e-05
                    -6.68499e-06    -0.000268939        0.0576917      -0.0108544       0.00051549     1.24981e-05         0.200337       -0.963143
                        0.192612       -0.948813      0.000314625    -0.000163934         0.233913      0.00882723     -5.13576e-05     0.000468792
                     0.000337489     0.000128119         0.200487       -0.963303     -0.000243186     0.000433013         0.046245        0.053645
281744                  0.220801       0.0831821     -6.04627e-05    -0.000150733         0.192353       -0.948678      0.000300925    -1.34723e-05
                    -6.70685e-06    -0.000268893        0.0574703      -0.0109131      0.000515603     1.22155e-05          0.19984       -0.963232
                        0.192335       -0.948868      0.000315016    -0.000164016         0.233923      0.00869717     -5.12557e-05      0.00046956
                     0.000337449     0.000127899          0.19999       -0.963394     -0.000243002     0.000433085        0.0460649       0.0536123
281746                  0.220809       0.0831785     -6.07171e-05    -0.000150575         0.192076       -0.948732      0.000301233    -1.39544e-05
                    -6.72861e-06    -0.000268847        0.0572483      -0.0109718      0.000515716     1.19313e-05         0.199343       -0.963322
                        0.192057       -0.948923       0.00031541    -0.000164093         0.233934       0.0085671     -5.11592e-05     0.000470328
                      0.00033741     0.000127678         0.199493       -0.963483     -0.000242815     0.000433155        0.0458843       0.0535799
281748                  0.220817        0.083175     -6.09726e-05    -0.000150418         0.191798       -0.948787      0.000301543    -1.44344e-05
                     -6.7503e-06      -0.0002688        0.0570258      -0.0110306      0.000515829     1.16455e-05         0.198845       -0.963411
                         0.19178       -0.948977      0.000315808    -0.000164165         0.233945      0.00843703     -5.10681e-05     0.000471097
                     0.000337371     0.000127456         0.198996       -0.963573     -0.000242626     0.000433225        0.0457032       0.0535478
281750                  0.220824       0.0831714     -6.12292e-05    -0.000150262          0.19152       -0.948841      0.000301856    -1.49122e-05
                    -6.77189e-06    -0.000268752        0.0568027      -0.0110893      0.000515942     1.13581e-05         0.198346         -0.9635
                        0.191502       -0.949032       0.00031621    -0.000164232         0.233955      0.00830694     -5.09825e-05     0.000471867
                     0.000337332     0.000127232         0.198497       -0.963662     -0.000242435     0.000433293        0.0455215        0.053516
281752                  0.220832       0.0831679     -6.14871e-05    -0.000150108         0.191243       -0.948896       0.00030217    -1.53877e-05
                    -6.79341e-06    -0.000268703        0.0565791       -0.011148      0.000516055     1.10689e-05         0.197847       -0.963588
                        0.191225       -0.949087      0.000316614    -0.000164295         0.233966      0.00817685     -5.09023e-05     0.000472638
                     0.000337293     0.000127007         0.197999       -0.963751     -0.000242241      0.00043336        0.0453394       0.0534845
281754                  0.220839       0.0831643     -6.17464e-05    -0.000149955         0.190965        -0.94895      0.000302487    -1.58608e-05
                    -6.81483e-06    -0.000268653        0.0563549      -0.0112067      0.000516168     1.07781e-05         0.197348       -0.963677
                        0.190947       -0.949141      0.000317022    -0.000164352         0.233976      0.00804675     -5.08278e-05     0.000473409
                     0.000337254     0.000126782         0.197499        -0.96384     -0.000242045     0.000433426        0.0451567       0.0534533
281756                  0.220847       0.0831608     -6.20071e-05    -0.000149802         0.190688       -0.949004      0.000302806    -1.63315e-05
                    -6.83618e-06    -0.000268603        0.0561302      -0.0112653      0.000516281     1.04856e-05         0.196847       -0.963765
                         0.19067       -0.949196      0.000317432    -0.000164405         0.233987      0.00791663      -5.0759e-05     0.000474181
                     0.000337215     0.000126555            0.197       -0.963929     -0.000241846     0.000433491        0.0449736       0.0534225
281758                  0.220855       0.0831572     -6.22692e-05    -0.000149651          0.19041       -0.949058      0.000303127    -1.67996e-05
                    -6.85744e-06    -0.000268552        0.0559049       -0.011324      0.000516395     1.01914e-05         0.196347       -0.963853
                        0.190392        -0.94925      0.000317845    -0.000164453         0.233997      0.00778651     -5.06959e-05     0.000474954
                     0.000337176     0.000126327         0.196499       -0.964017     -0.000241646     0.000433554        0.0447899        0.053392
281760                  0.220862       0.0831536      -6.2533e-05    -0.000149501         0.190132       -0.949112      0.000303451    -1.72652e-05
                    -6.87862e-06      -0.0002685         0.055679      -0.0113826      0.000516508     9.89551e-06         0.195845        -0.96394
                        0.190115       -0.949304      0.000318261    -0.000164497         0.234007      0.00765638     -5.06387e-05     0.000475726
                     0.000337137     0.000126097         0.195998       -0.964105     -0.000241442     0.000433616        0.0446056       0.0533618
281762                   0.22087       0.0831501     -6.27985e-05    -0.000149352         0.189855       -0.949166      0.000303777     -1.7728e-05
                    -6.89971e-06    -0.000268448        0.0554526      -0.0114413      0.000516622     9.59788e-06         0.195343       -0.964027
                        0.189837       -0.949358      0.000318679    -0.000164536         0.234017      0.00752625     -5.05876e-05     0.000476499
