! TOUCHSTONE file generated by CST MICROWAVE STUDIO
! Date and time: Wed Oct 15 17:32:41 2025
! Project name: Teste_Macro_Metasurface_Nanopilar.cst
! Parameters = {H=600; L_x=155; L_y=100; Lambda=1064; Max_L=200; Min_L=70; PathPara=1; Phi=0; Step_L=10; Theta=0; p=520; phaseX=180; phaseY=0}
! Header version: 2018
! Port assignment regex: !\s*Touchstone port\s*([0-9]+)\s*=\s*(CST MWS port|CST DS port)\s*([0-9]+|Zmin|Zmax)\s*\(\"(.*)\"\)(\s*mode\s*([0-9]+))?.*
! Touchstone port assignment:
! Touchstone port 1 = CST MWS port Zmax ("") mode 1
! Touchstone port 2 = CST MWS port Zmax ("") mode 2
! Touchstone port 3 = CST MWS port Zmin ("") mode 1
! Touchstone port 4 = CST MWS port Zmin ("") mode 2
! S-Parameters are not renormalized. Each port impedance will be approximated by the real part at minimum frequency. The values are described via the [Reference] keyword.
! Default impedance is overridden by [Reference]
[Version] 2.0
# GHz S RI R 376.73
[Number of Ports] 4
[Reference]
376.73 376.73 259.888 259.888 
[Number of Frequencies] 51
[Network Data]
281700                  0.109787        0.123859      0.000591884    -4.10255e-05        -0.967075        0.158115     -0.000689482      0.00010919
                      0.00058302    -1.96486e-05         0.072499        0.170668     -0.000553094     2.83725e-05         0.971163       -0.109826
                       -0.966944        0.158023     -0.000627749     7.46937e-05       -0.0632956        0.152386      0.000594062    -0.000188894
                    -0.000717051     0.000124405         0.971383       -0.110272        0.0005804    -0.000190985       -0.0312677         0.18232
281702                  0.109812        0.123857      0.000591892    -4.11404e-05        -0.967016        0.158458     -0.000689439     0.000109481
                     0.000583063    -1.97287e-05        0.0725203        0.170685     -0.000553167     2.85403e-05         0.971123       -0.110148
                       -0.966885        0.158366     -0.000627803     7.48686e-05       -0.0632127        0.152437       0.00059395    -0.000189167
                    -0.000716976     0.000124744         0.971342       -0.110593      0.000580296      -0.0001912       -0.0311638        0.182361
281704                  0.109838        0.123854        0.0005919    -4.12552e-05        -0.966957        0.158801     -0.000689396     0.000109772
                     0.000583106     -1.9809e-05        0.0725416        0.170701     -0.000553239     2.87084e-05         0.971082       -0.110469
                       -0.966826        0.158709     -0.000627857     7.50434e-05       -0.0631297        0.152488      0.000593837    -0.000189439
                    -0.000716901     0.000125082         0.971301       -0.110915       0.00058019    -0.000191414       -0.0310598        0.182402
281706                  0.109864        0.123852      0.000591908    -4.13701e-05        -0.966897        0.159143     -0.000689353     0.000110062
                     0.000583149    -1.98895e-05        0.0725628        0.170718     -0.000553312     2.88771e-05         0.971041        -0.11079
                       -0.966766        0.159052     -0.000627911     7.52183e-05       -0.0630467        0.152539      0.000593724    -0.000189712
                    -0.000716825     0.000125421          0.97126       -0.111237      0.000580083    -0.000191627       -0.0309558        0.182444
281708                  0.109889        0.123849      0.000591916     -4.1485e-05        -0.966837        0.159486      -0.00068931     0.000110353
                     0.000583192    -1.99701e-05        0.0725841        0.170735     -0.000553385     2.90463e-05            0.971       -0.111112
                       -0.966706        0.159395     -0.000627965     7.53932e-05       -0.0629637         0.15259      0.000593611    -0.000189985
                     -0.00071675     0.000125759         0.971219       -0.111558      0.000579976     -0.00019184       -0.0308517        0.182485
281710                  0.109915        0.123847      0.000591924    -4.15999e-05        -0.966778        0.159829     -0.000689267     0.000110643
                     0.000583235    -2.00509e-05        0.0726053        0.170751     -0.000553457     2.92161e-05         0.970959       -0.111433
                       -0.966647        0.159738     -0.000628019     7.55681e-05       -0.0628806         0.15264      0.000593498    -0.000190257
                    -0.000716674     0.000126097         0.971178        -0.11188      0.000579867    -0.000192051       -0.0307476        0.182526
281712                  0.109941        0.123845      0.000591932    -4.17148e-05        -0.966718        0.160172     -0.000689224     0.000110934
                     0.000583278    -2.01317e-05        0.0726266        0.170768      -0.00055353     2.93865e-05         0.970918       -0.111754
                       -0.966587        0.160081     -0.000628073      7.5743e-05       -0.0627975        0.152691      0.000593384     -0.00019053
                    -0.000716599     0.000126435         0.971137       -0.112202      0.000579759    -0.000192262       -0.0306435        0.182568
281714                  0.109967        0.123842       0.00059194    -4.18296e-05        -0.966658        0.160514     -0.000689181     0.000111224
                     0.000583322    -2.02128e-05        0.0726478        0.170785     -0.000553604     2.95572e-05         0.970876       -0.112076
                       -0.966527        0.160423     -0.000628126     7.59179e-05       -0.0627144        0.152741      0.000593271    -0.000190802
                    -0.000716523     0.000126773         0.971096       -0.112523       0.00057965    -0.000192472       -0.0305393        0.182609
281716                  0.109992         0.12384      0.000591948    -4.19445e-05        -0.966598        0.160857     -0.000689138     0.000111515
                     0.000583365     -2.0294e-05        0.0726691        0.170801     -0.000553678     2.97282e-05         0.970835       -0.112397
                       -0.966466        0.160766      -0.00062818     7.60929e-05       -0.0626312        0.152792      0.000593158    -0.000191075
                    -0.000716447     0.000127111         0.971054       -0.112845      0.000579541    -0.000192682       -0.0304351         0.18265
281718                  0.110018        0.123837      0.000591956    -4.20593e-05        -0.966537          0.1612     -0.000689094     0.000111805
                     0.000583408    -2.03754e-05        0.0726904        0.170818     -0.000553752     2.98993e-05         0.970793       -0.112718
                       -0.966406        0.161109     -0.000628234     7.62679e-05        -0.062548        0.152842      0.000593044    -0.000191347
                    -0.000716371     0.000127448         0.971013       -0.113166      0.000579432    -0.000192891       -0.0303308        0.182691
281720                  0.110044        0.123835      0.000591964    -4.21742e-05        -0.966477        0.161543     -0.000689051     0.000112095
                     0.000583451    -2.04571e-05        0.0727116        0.170835     -0.000553827     3.00703e-05         0.970752       -0.113039
                       -0.966346        0.161452     -0.000628287     7.64429e-05       -0.0624647        0.152893       0.00059293    -0.000191619
                    -0.000716295     0.000127786         0.970971       -0.113488      0.000579324      -0.0001931       -0.0302265        0.182732
281722                  0.110069        0.123832      0.000591972    -4.22891e-05        -0.966417        0.161885     -0.000689007     0.000112386
                     0.000583494    -2.05393e-05        0.0727329        0.170851     -0.000553902     3.02411e-05          0.97071        -0.11336
                       -0.966285        0.161795     -0.000628341     7.66179e-05       -0.0623814        0.152943      0.000592817    -0.000191892
                    -0.000716219     0.000128123         0.970929       -0.113809      0.000579215    -0.000193309       -0.0301222        0.182773
281724                  0.110095         0.12383       0.00059198    -4.24039e-05        -0.966356        0.162228     -0.000688964     0.000112676
                     0.000583536    -2.06215e-05        0.0727542        0.170868     -0.000553977     3.04117e-05         0.970668       -0.113682
                       -0.966225        0.162137     -0.000628394     7.67929e-05       -0.0622981        0.152993      0.000592703    -0.000192164
                    -0.000716143     0.000128461         0.970888       -0.114131      0.000579106    -0.000193517       -0.0300178        0.182814
281726                  0.110121        0.123827      0.000591988    -4.25187e-05        -0.966295         0.16257      -0.00068892     0.000112966
                     0.000583578     -2.0702e-05        0.0727754        0.170884     -0.000554053      3.0582e-05         0.970626       -0.114003
                       -0.966164         0.16248     -0.000628447      7.6968e-05       -0.0622147        0.153044      0.000592589    -0.000192436
                    -0.000716066     0.000128797         0.970846       -0.114452      0.000578997    -0.000193726       -0.0299134        0.182855
281728                  0.110147        0.123825      0.000591996    -4.26336e-05        -0.966234        0.162913     -0.000688876     0.000113257
                     0.000583621    -2.07824e-05        0.0727967        0.170901     -0.000554128     3.07522e-05         0.970584       -0.114324
                       -0.966103        0.162823     -0.000628501      7.7143e-05       -0.0621313        0.153094      0.000592475    -0.000192708
                     -0.00071599     0.000129134         0.970803       -0.114774      0.000578889    -0.000193934       -0.0298089        0.182895
281730                  0.110172        0.123822      0.000592004    -4.27484e-05        -0.966173        0.163256     -0.000688832     0.000113547
                     0.000583665    -2.08635e-05         0.072818        0.170918     -0.000554203     3.09222e-05         0.970542       -0.114645
                       -0.966042        0.163165     -0.000628554     7.73181e-05       -0.0620478        0.153144      0.000592361     -0.00019298
                    -0.000715914     0.000129469         0.970761       -0.115095       0.00057878    -0.000194143       -0.0297044        0.182936
281732                  0.110198        0.123819      0.000592012    -4.28633e-05        -0.966112        0.163598     -0.000688788     0.000113837
                     0.000583708    -2.09449e-05        0.0728392        0.170934     -0.000554277     3.10922e-05           0.9705       -0.114966
                       -0.965981        0.163508     -0.000628607     7.74932e-05       -0.0619643        0.153194      0.000592246    -0.000193252
                    -0.000715854       0.0001298         0.970719       -0.115416      0.000578672    -0.000194352       -0.0295999        0.182977
281734                  0.110224        0.123817       0.00059202    -4.29781e-05        -0.966051        0.163941     -0.000688744     0.000114127
                     0.000583752    -2.10265e-05        0.0728605        0.170951     -0.000554352     3.12622e-05         0.970457       -0.115287
                       -0.965919        0.163851      -0.00062866     7.76684e-05       -0.0618808        0.153244      0.000592132    -0.000193524
                    -0.000715759     0.000130152         0.970677       -0.115738      0.000578563     -0.00019456       -0.0294953        0.183017
281736                   0.11025        0.123814      0.000592028    -4.30929e-05         -0.96599        0.164283       -0.0006887     0.000114417
                     0.000583795    -2.11083e-05        0.0728818        0.170968     -0.000554426     3.14321e-05         0.970415       -0.115609
                       -0.965858        0.164193     -0.000628713     7.78435e-05       -0.0617972        0.153294      0.000592018    -0.000193796
                    -0.000715682     0.000130486         0.970634       -0.116059      0.000578455    -0.000194769       -0.0293907        0.183058
281738                  0.110275        0.123812      0.000592037    -4.32077e-05        -0.965928        0.164626     -0.000688656     0.000114707
                     0.000583839    -2.11901e-05        0.0729031        0.170984       -0.0005545     3.16022e-05         0.970372        -0.11593
                       -0.965797        0.164536     -0.000628766     7.80187e-05       -0.0617136        0.153344      0.000591903    -0.000194068
                    -0.000715605     0.000130822         0.970591       -0.116381      0.000578346    -0.000194978       -0.0292861        0.183098
281740                  0.110301        0.123809      0.000592045    -4.33226e-05        -0.965867        0.164969     -0.000688611     0.000114997
                     0.000583882     -2.1272e-05        0.0729243        0.171001     -0.000554574     3.17722e-05         0.970329       -0.116251
                       -0.965735        0.164879     -0.000628819     7.81939e-05       -0.0616299        0.153394      0.000591788     -0.00019434
                    -0.000715528     0.000131158         0.970549       -0.116702      0.000578238    -0.000195188       -0.0291814        0.183139
281742                  0.110327        0.123807      0.000592053    -4.34374e-05        -0.965805        0.165311     -0.000688567     0.000115287
                     0.000583926     -2.1354e-05        0.0729456        0.171018     -0.000554648     3.19424e-05         0.970287       -0.116572
                       -0.965673        0.165221     -0.000628872     7.83691e-05       -0.0615462        0.153444      0.000591674    -0.000194612
                    -0.000715451     0.000131495         0.970506       -0.117023      0.000578129    -0.000195397       -0.0290766        0.183179
281744                  0.110352        0.123804      0.000592061    -4.35522e-05        -0.965743        0.165654     -0.000688522     0.000115577
                     0.000583969    -2.14361e-05        0.0729669        0.171034     -0.000554721     3.21127e-05         0.970244       -0.116893
                       -0.965611        0.165564     -0.000628925     7.85443e-05       -0.0614625        0.153494      0.000591559    -0.000194884
                    -0.000715373     0.000131831         0.970463       -0.117345      0.000578021    -0.000195607       -0.0289719        0.183219
281746                  0.110378        0.123801      0.000592069     -4.3667e-05        -0.965681        0.165996     -0.000688478     0.000115867
                     0.000584013    -2.15181e-05        0.0729882        0.171051     -0.000554794     3.22831e-05         0.970201       -0.117214
                       -0.965549        0.165907     -0.000628977     7.87195e-05       -0.0613787        0.153544      0.000591444    -0.000195155
                    -0.000715296     0.000132167          0.97042       -0.117666      0.000577912    -0.000195816       -0.0288671        0.183259
281748                  0.110404        0.123799      0.000592077    -4.37818e-05        -0.965619        0.166339     -0.000688433     0.000116157
                     0.000584056    -2.16003e-05        0.0730095        0.171068     -0.000554867     3.24535e-05         0.970158       -0.117535
                       -0.965487        0.166249      -0.00062903     7.88948e-05       -0.0612949        0.153593      0.000591329    -0.000195427
                    -0.000715218     0.000132503         0.970377       -0.117987      0.000577804    -0.000196026       -0.0287622          0.1833
281750                   0.11043        0.123796      0.000592086    -4.38966e-05        -0.965557        0.166681     -0.000688388     0.000116447
                       0.0005841    -2.16825e-05        0.0730307        0.171084      -0.00055494     3.26241e-05         0.970114       -0.117856
                       -0.965425        0.166592     -0.000629083     7.90701e-05        -0.061211        0.153643      0.000591213    -0.000195699
                     -0.00071514     0.000132839         0.970334       -0.118308      0.000577696    -0.000196236       -0.0286573         0.18334
281752                  0.110455        0.123794      0.000592094    -4.40114e-05        -0.965495        0.167023     -0.000688343     0.000116737
                     0.000584143    -2.17647e-05         0.073052        0.171101     -0.000555012     3.27947e-05         0.970071       -0.118177
                       -0.965363        0.166934     -0.000629135     7.92454e-05       -0.0611272        0.153693      0.000591098     -0.00019597
                    -0.000715062     0.000133175          0.97029        -0.11863      0.000577587    -0.000196446       -0.0285524         0.18338
281754                  0.110481        0.123791      0.000592102    -4.41262e-05        -0.965432        0.167366     -0.000688299     0.000117027
                     0.000584187     -2.1847e-05        0.0730733        0.171118     -0.000555084     3.29655e-05         0.970027       -0.118498
                         -0.9653        0.167277     -0.000629188     7.94207e-05       -0.0610432        0.153742      0.000590982    -0.000196242
                    -0.000714984     0.000133511         0.970247       -0.118951      0.000577479    -0.000196656       -0.0284474         0.18342
281756                  0.110507        0.123788       0.00059211     -4.4241e-05         -0.96537        0.167708     -0.000688255     0.000117317
                      0.00058423    -2.19294e-05        0.0730946        0.171134     -0.000555156     3.31363e-05         0.969984       -0.118819
                       -0.965237        0.167619      -0.00062924      7.9596e-05       -0.0609592        0.153792      0.000590866    -0.000196514
                    -0.000714906     0.000133847         0.970203       -0.119272       0.00057737    -0.000196866       -0.0283424         0.18346
281758                  0.110533        0.123786      0.000592119    -4.43558e-05        -0.965307        0.168051     -0.000688231     0.000117612
                     0.000584273    -2.20117e-05        0.0731159        0.171151     -0.000555228     3.33072e-05          0.96994        -0.11914
                       -0.965175        0.167962     -0.000629292     7.97713e-05       -0.0608752        0.153841      0.000590754    -0.000196844
                    -0.000714828     0.000134182         0.970159       -0.119593      0.000577262    -0.000197077       -0.0282373          0.1835
281760                  0.110558        0.123783      0.000592126    -4.44703e-05        -0.965244        0.168393     -0.000688158     0.000117896
                     0.000584317    -2.20942e-05        0.0731372        0.171168     -0.000555299     3.34781e-05         0.969896        -0.11946
                       -0.965112        0.168304     -0.000629344     7.99462e-05       -0.0607912        0.153891       0.00059064    -0.000197055
                     -0.00071475     0.000134518         0.970116       -0.119914      0.000577154    -0.000197287       -0.0281323        0.183539
281762                  0.110584         0.12378      0.000592135    -4.45858e-05        -0.965181        0.168735     -0.000688114     0.000118186
                      0.00058436    -2.21766e-05        0.0731585        0.171184     -0.000555371     3.36491e-05         0.969853       -0.119781
                       -0.965049        0.168647     -0.000629398     8.01226e-05       -0.0607071         0.15394      0.000590523    -0.000197326
