! TOUCHSTONE file generated by CST MICROWAVE STUDIO
! Date and time: Tue Oct 14 07:25:00 2025
! Project name: Teste_Macro_Metasurface_Nanopilar.cst
! Parameters = {H=600; L_x=70; L_y=175; Lambda=1064; Max_L=200; Min_L=70; PathPara=1; Phi=0; Step_L=10; Theta=0; p=520; phaseX=180; phaseY=0}
! Header version: 2018
! Port assignment regex: !\s*Touchstone port\s*([0-9]+)\s*=\s*(CST MWS port|CST DS port)\s*([0-9]+|Zmin|Zmax)\s*\(\"(.*)\"\)(\s*mode\s*([0-9]+))?.*
! Touchstone port assignment:
! Touchstone port 1 = CST MWS port Zmax ("") mode 1
! Touchstone port 2 = CST MWS port Zmax ("") mode 2
! Touchstone port 3 = CST MWS port Zmin ("") mode 1
! Touchstone port 4 = CST MWS port Zmin ("") mode 2
! S-Parameters are not renormalized. Each port impedance will be approximated by the real part at minimum frequency. The values are described via the [Reference] keyword.
! Default impedance is overridden by [Reference]
[Version] 2.0
# GHz S RI R 376.73
[Number of Ports] 4
[Reference]
376.73 376.73 259.814 259.814 
[Number of Frequencies] 51
[Network Data]
281700                 0.0670772      -0.0903536      -0.00027381    -6.21716e-05        -0.574825        0.800954     -6.42055e-05    -3.41659e-05
                    -0.000191742     4.59255e-06       -0.0119076       0.0971265     -7.01803e-05     0.000174365         0.988889       -0.106891
                       -0.574837        0.800997     -9.60853e-05     0.000151401       -0.0641704       0.0948699     -0.000156809     0.000179692
                    -6.99132e-05    -7.66531e-05         0.989017       -0.106893     -0.000207394     0.000258153        0.0324098       0.0924531
281702                 0.0670374       -0.090411      -0.00027377    -6.21297e-05        -0.574428        0.801236     -6.42427e-05    -3.41023e-05
                    -0.000191776      4.6334e-06       -0.0118718       0.0971262     -7.00148e-05     0.000174606          0.98885       -0.107254
                        -0.57444        0.801279     -9.59431e-05     0.000151376       -0.0641445       0.0949136     -0.000156754     0.000179817
                    -6.99173e-05    -7.66435e-05         0.988979       -0.107256     -0.000207196     0.000258394        0.0324426       0.0924367
281704                 0.0669976      -0.0904685     -0.000273729     -6.2088e-05        -0.574031        0.801518     -6.42797e-05    -3.40386e-05
                     -0.00019181     4.67426e-06       -0.0118361       0.0971259     -6.98486e-05     0.000174848         0.988811       -0.107617
                       -0.574043        0.801561      -9.5801e-05     0.000151351       -0.0641187       0.0949574       -0.0001567     0.000179943
                    -6.99214e-05    -7.66338e-05          0.98894       -0.107619     -0.000206998     0.000258635        0.0324754       0.0924203
281706                 0.0669577      -0.0905258     -0.000273688    -6.20464e-05        -0.573634        0.801799     -6.43165e-05     -3.3975e-05
                    -0.000191843     4.71515e-06       -0.0118003       0.0971256     -6.96818e-05     0.000175089         0.988772        -0.10798
                       -0.573646        0.801842      -9.5659e-05     0.000151326       -0.0640927       0.0950012     -0.000156644     0.000180068
                    -6.99255e-05     -7.6624e-05         0.988901       -0.107982     -0.000206799     0.000258876        0.0325082       0.0924039
281708                 0.0669179      -0.0905832     -0.000273647    -6.20048e-05        -0.573237         0.80208     -6.43533e-05    -3.39114e-05
                    -0.000191877     4.75606e-06       -0.0117646       0.0971252     -6.95144e-05     0.000175331         0.988733       -0.108343
                       -0.573248        0.802124      -9.5517e-05     0.000151301       -0.0640668       0.0950449     -0.000156589     0.000180193
                    -6.99295e-05    -7.66141e-05         0.988862       -0.108345       -0.0002066     0.000259117         0.032541       0.0923874
281710                  0.066878      -0.0906406     -0.000273606    -6.19635e-05         -0.57284        0.802361     -6.43899e-05    -3.38477e-05
                    -0.000191911     4.79699e-06       -0.0117288       0.0971249     -6.93463e-05     0.000175573         0.988693       -0.108706
                       -0.572851        0.802405     -9.53752e-05     0.000151275       -0.0640408       0.0950887     -0.000156534     0.000180318
                    -6.99336e-05    -7.66042e-05         0.988822       -0.108708       -0.0002064     0.000259359        0.0325738        0.092371
281712                  0.066838      -0.0906979     -0.000273565    -6.19222e-05        -0.572442        0.802642     -6.44263e-05    -3.37841e-05
                    -0.000191945     4.83794e-06       -0.0116931       0.0971245     -6.91776e-05     0.000175815         0.988654       -0.109069
                       -0.572453        0.802686     -9.52334e-05      0.00015125       -0.0640148       0.0951325     -0.000156478     0.000180444
                    -6.99376e-05    -7.65942e-05         0.988783        -0.10907       -0.0002062       0.0002596        0.0326066       0.0923545
281714                 0.0667981      -0.0907552     -0.000273525    -6.18811e-05        -0.572044        0.802923     -6.44627e-05    -3.37206e-05
                    -0.000191979     4.87892e-06       -0.0116573       0.0971241     -6.90082e-05     0.000176057         0.988614       -0.109432
                       -0.572055        0.802966     -9.50916e-05     0.000151224       -0.0639887       0.0951763     -0.000156422     0.000180569
                    -6.99417e-05    -7.65841e-05         0.988744       -0.109433     -0.000205999     0.000259841        0.0326394        0.092338
281716                 0.0667581      -0.0908125     -0.000273484      -6.184e-05        -0.571647        0.803203     -6.44989e-05     -3.3657e-05
                    -0.000192013     4.91992e-06       -0.0116216       0.0971237     -6.88383e-05     0.000176299         0.988574       -0.109795
                       -0.571657        0.803247       -9.495e-05     0.000151198       -0.0639626       0.0952201     -0.000156366     0.000180694
                    -6.99457e-05    -7.65739e-05         0.988704       -0.109796     -0.000205798     0.000260082        0.0326722       0.0923216
281718                  0.066718      -0.0908698     -0.000273443    -6.17991e-05        -0.571249        0.803484      -6.4535e-05    -3.35934e-05
                    -0.000192047     4.96093e-06       -0.0115859       0.0971233     -6.86676e-05     0.000176541         0.988535       -0.110158
                       -0.571259        0.803527     -9.48084e-05     0.000151173       -0.0639365       0.0952638      -0.00015631     0.000180819
                    -6.99497e-05    -7.65637e-05         0.988664       -0.110159     -0.000205596     0.000260324        0.0327049       0.0923051
281720                  0.066678       -0.090927     -0.000273402    -6.17584e-05        -0.570851        0.803764      -6.4571e-05    -3.35299e-05
                    -0.000192081     5.00197e-06       -0.0115501       0.0971229     -6.84964e-05     0.000176784         0.988495        -0.11052
                        -0.57086        0.803807     -9.46668e-05     0.000151147       -0.0639104       0.0953076     -0.000156253     0.000180944
                    -6.99537e-05    -7.65534e-05         0.988624       -0.110522     -0.000205394     0.000260565        0.0327377       0.0922886
281722                 0.0666379      -0.0909843     -0.000273362    -6.17177e-05        -0.570453        0.804044     -6.46069e-05    -3.34665e-05
                    -0.000192116     5.04303e-06       -0.0115144       0.0971225     -6.83245e-05     0.000177026         0.988454       -0.110883
                       -0.570462        0.804087     -9.45254e-05     0.000151121       -0.0638842       0.0953514     -0.000156197     0.000181069
                    -6.99577e-05     -7.6543e-05         0.988584       -0.110884     -0.000205191     0.000260806        0.0327704        0.092272
281724                 0.0665978      -0.0910415     -0.000273321    -6.16772e-05        -0.570054        0.804323     -6.46427e-05     -3.3403e-05
                     -0.00019215     5.08411e-06       -0.0114786        0.097122     -6.81519e-05     0.000177269         0.988414       -0.111246
                       -0.570063        0.804367      -9.4384e-05     0.000151095        -0.063858       0.0953953      -0.00015614     0.000181194
                    -6.99616e-05    -7.65325e-05         0.988544       -0.111247     -0.000204988     0.000261048        0.0328032       0.0922555
281726                 0.0665576      -0.0910987      -0.00027328    -6.16368e-05        -0.569656        0.804603     -6.46784e-05    -3.33396e-05
                    -0.000192184      5.1252e-06       -0.0114429       0.0971216     -6.79787e-05     0.000177511         0.988374       -0.111609
                       -0.569665        0.804646     -9.42426e-05     0.000151069       -0.0638318       0.0954391     -0.000156083     0.000181319
                    -6.99656e-05     -7.6522e-05         0.988504        -0.11161     -0.000204785     0.000261289        0.0328359        0.092239
281728                 0.0665174      -0.0911559      -0.00027324    -6.15966e-05        -0.569257        0.804882     -6.47141e-05    -3.32762e-05
                    -0.000192218     5.16631e-06       -0.0114072       0.0971211     -6.78049e-05     0.000177754         0.988333       -0.111972
                       -0.569266        0.804925     -9.41014e-05     0.000151043       -0.0638055       0.0954829     -0.000156025     0.000181443
                    -6.99695e-05    -7.65114e-05         0.988464       -0.111973      -0.00020458     0.000261531        0.0328686       0.0922224
281730                 0.0664772       -0.091213     -0.000273199    -6.15565e-05        -0.568859        0.805161     -6.47496e-05    -3.32129e-05
                    -0.000192252     5.20742e-06       -0.0113714       0.0971206     -6.76304e-05     0.000177997         0.988292       -0.112335
                       -0.568867        0.805204     -9.39601e-05     0.000151016       -0.0637792       0.0955267     -0.000155968     0.000181568
                    -6.99734e-05    -7.65007e-05         0.988423       -0.112335     -0.000204376     0.000261772        0.0329013       0.0922059
281732                  0.066437      -0.0912702     -0.000273158    -6.15165e-05         -0.56846         0.80544     -6.47851e-05    -3.31496e-05
                    -0.000192286     5.24854e-06       -0.0113357       0.0971201     -6.74552e-05      0.00017824         0.988252       -0.112697
                       -0.568468        0.805483      -9.3819e-05      0.00015099       -0.0637529       0.0955705      -0.00015591     0.000181692
                    -6.99774e-05    -7.64899e-05         0.988382       -0.112698     -0.000204171     0.000262014        0.0329341       0.0921893
281734                 0.0663967      -0.0913273     -0.000273117    -6.14766e-05        -0.568061        0.805719     -6.48205e-05    -3.30863e-05
                     -0.00019232     5.28964e-06          -0.0113       0.0971196     -6.72794e-05     0.000178484         0.988211        -0.11306
                       -0.568068        0.805762     -9.36779e-05     0.000150963       -0.0637265       0.0956144     -0.000155852     0.000181817
                    -6.99813e-05    -7.64791e-05         0.988342       -0.113061     -0.000203965     0.000262255        0.0329667       0.0921727
281736                 0.0663564      -0.0913844     -0.000273076    -6.14369e-05        -0.567662        0.805997     -6.48559e-05    -3.30231e-05
                    -0.000192354      5.3307e-06       -0.0112642       0.0971191      -6.7103e-05     0.000178727          0.98817       -0.113423
                       -0.567669         0.80604     -9.35368e-05     0.000150937       -0.0637001       0.0956582     -0.000155794     0.000181941
                    -6.99852e-05    -7.64682e-05         0.988301       -0.113423     -0.000203759     0.000262497        0.0329994       0.0921561
281738                 0.0663161      -0.0914415     -0.000273036    -6.13972e-05        -0.567262        0.806275     -6.48912e-05    -3.29599e-05
                    -0.000192388     5.37168e-06       -0.0112285       0.0971186     -6.69259e-05     0.000178971         0.988128       -0.113786
                        -0.56727        0.806319     -9.33958e-05      0.00015091       -0.0636737        0.095702     -0.000155736     0.000182065
                     -6.9989e-05    -7.64572e-05          0.98826       -0.113786     -0.000203552     0.000262738        0.0330321       0.0921395
281740                 0.0662757      -0.0914986     -0.000272995    -6.13578e-05        -0.566863        0.806553     -6.49265e-05    -3.28968e-05
                    -0.000192422     5.41244e-06       -0.0111928        0.097118     -6.67482e-05     0.000179214         0.988087       -0.114148
                        -0.56687        0.806597     -9.32549e-05     0.000150884       -0.0636472       0.0957459     -0.000155678     0.000182189
                    -6.99929e-05    -7.64461e-05         0.988218       -0.114149     -0.000203345      0.00026298        0.0330648       0.0921229
281742                 0.0662353      -0.0915556     -0.000272954    -6.13184e-05        -0.566464        0.806831     -6.49617e-05    -3.28337e-05
                    -0.000192455     5.45254e-06       -0.0111571       0.0971174     -6.65698e-05     0.000179458         0.988046       -0.114511
                        -0.56647        0.806875      -9.3114e-05     0.000150857       -0.0636208       0.0957897     -0.000155619     0.000182312
                    -6.99967e-05    -7.64349e-05         0.988177       -0.114511     -0.000203138     0.000263222        0.0330975       0.0921062
281744                 0.0661949      -0.0916126     -0.000272913    -6.12791e-05        -0.566064        0.807109     -6.49969e-05    -3.27707e-05
                    -0.000192483     5.48889e-06       -0.0111213       0.0971169     -6.63908e-05     0.000179702         0.988004       -0.114874
                        -0.56607        0.807152     -9.29731e-05      0.00015083       -0.0635942       0.0958336     -0.000155561     0.000182436
                    -7.00005e-05    -7.64235e-05         0.988136       -0.114874      -0.00020293     0.000263463        0.0331301       0.0920896
281746                 0.0661544      -0.0916697     -0.000272872      -6.124e-05        -0.565664        0.807386      -6.5032e-05    -3.27077e-05
                    -0.000192551     5.55514e-06       -0.0110856       0.0971163     -6.62112e-05     0.000179946         0.987962       -0.115236
                        -0.56567         0.80743     -9.28323e-05     0.000150803       -0.0635677       0.0958774     -0.000155502     0.000182559
                     -7.0005e-05    -7.64133e-05         0.988094       -0.115236     -0.000202721     0.000263705        0.0331628        0.092073
281748                 0.0661139      -0.0917266     -0.000272831     -6.1201e-05        -0.565264        0.807664      -6.5067e-05    -3.26448e-05
                    -0.000192567     5.58427e-06       -0.0110499       0.0971157     -6.60312e-05      0.00018019          0.98792       -0.115599
                        -0.56527        0.807707     -9.26915e-05     0.000150776       -0.0635411       0.0959213     -0.000155443     0.000182682
                    -7.00083e-05    -7.64014e-05         0.988052       -0.115599     -0.000202512     0.000263946        0.0331954       0.0920563
281750                 0.0660734      -0.0917836     -0.000272789    -6.11622e-05        -0.564864        0.807941      -6.5102e-05    -3.25819e-05
                      -0.0001926     5.62396e-06       -0.0110142       0.0971151      -6.5851e-05     0.000180434         0.987878       -0.115962
                        -0.56487        0.807984     -9.25508e-05     0.000150749       -0.0635145       0.0959652     -0.000155384     0.000182805
                    -7.00121e-05    -7.63899e-05          0.98801       -0.115962     -0.000202303     0.000264188         0.033228       0.0920396
281752                 0.0660328      -0.0918406     -0.000272748    -6.11235e-05        -0.564464        0.808218     -6.51367e-05    -3.25192e-05
                    -0.000192633     5.66473e-06       -0.0109785       0.0971144     -6.56758e-05     0.000180679         0.987836       -0.116324
                       -0.564469        0.808261     -9.24102e-05     0.000150722       -0.0634878        0.096009     -0.000155324     0.000182928
                    -7.00159e-05    -7.63784e-05         0.987968       -0.116324     -0.000202094     0.000264429        0.0332607       0.0920229
281754                 0.0659922      -0.0918975     -0.000272705    -6.10849e-05        -0.564064        0.808494     -6.51713e-05    -3.24565e-05
                    -0.000192667     5.70587e-06       -0.0109427       0.0971138     -6.54797e-05     0.000180921         0.987794       -0.116687
                       -0.564069        0.808538     -9.22696e-05     0.000150695       -0.0634612       0.0960529     -0.000155264     0.000183051
                    -7.00197e-05    -7.63668e-05         0.987926       -0.116687     -0.000201881     0.000264672        0.0332933       0.0920062
281756                 0.0659516      -0.0919544     -0.000272657    -6.10376e-05        -0.563663        0.808771     -6.52052e-05    -3.23939e-05
                    -0.000192701     5.74717e-06        -0.010907       0.0971132     -6.52995e-05     0.000181166         0.987752       -0.117049
                       -0.563668        0.808814     -9.21256e-05     0.000150671       -0.0634345       0.0960968     -0.000155204     0.000183174
                    -7.00234e-05    -7.63551e-05         0.987884       -0.117049      -0.00020167     0.000264914        0.0333259       0.0919895
281758                  0.065911      -0.0920113     -0.000272628     -6.1005e-05        -0.563263        0.809047     -6.52382e-05    -3.23312e-05
                    -0.000192736     5.78858e-06       -0.0108713       0.0971125     -6.51164e-05     0.000181411         0.987709       -0.117412
                       -0.563267         0.80909     -9.19881e-05      0.00015064       -0.0634077       0.0961407     -0.000155143     0.000183298
                    -7.00272e-05    -7.63434e-05         0.987841       -0.117412     -0.000201459     0.000265155        0.0333585       0.0919728
281760                 0.0658703      -0.0920682     -0.000272585     -6.0968e-05        -0.562862        0.809323     -6.52692e-05     -3.2267e-05
                     -0.00019277     5.83007e-06       -0.0108356       0.0971118     -6.49322e-05     0.000181656         0.987666       -0.117775
                       -0.562866        0.809366     -9.18477e-05     0.000150613        -0.063381       0.0961846     -0.000155082     0.000183424
                    -7.00309e-05    -7.63315e-05         0.987799       -0.117774     -0.000201247     0.000265397        0.0333911       0.0919561
281762                 0.0658296       -0.092125     -0.000272544      -6.093e-05        -0.562461        0.809599     -6.53003e-05    -3.21974e-05
                    -0.000192805     5.87161e-06       -0.0107999       0.0971111     -6.47472e-05       0.0001819         0.987623       -0.118137
                       -0.562465        0.809642     -9.17072e-05     0.000150585       -0.0633542       0.0962284     -0.000155022     0.000183551
