! TOUCHSTONE file generated by CST MICROWAVE STUDIO
! Date and time: Tue Oct 14 07:25:43 2025
! Project name: Teste_Macro_Metasurface_Nanopilar.cst
! Parameters = {H=600; L_x=85; L_y=75; Lambda=1064; Max_L=200; Min_L=70; PathPara=1; Phi=0; Step_L=10; Theta=0; p=520; phaseX=180; phaseY=0}
! Header version: 2018
! Port assignment regex: !\s*Touchstone port\s*([0-9]+)\s*=\s*(CST MWS port|CST DS port)\s*([0-9]+|Zmin|Zmax)\s*\(\"(.*)\"\)(\s*mode\s*([0-9]+))?.*
! Touchstone port assignment:
! Touchstone port 1 = CST MWS port Zmax ("") mode 1
! Touchstone port 2 = CST MWS port Zmax ("") mode 2
! Touchstone port 3 = CST MWS port Zmin ("") mode 1
! Touchstone port 4 = CST MWS port Zmin ("") mode 2
! S-Parameters are not renormalized. Each port impedance will be approximated by the real part at minimum frequency. The values are described via the [Reference] keyword.
! Default impedance is overridden by [Reference]
[Version] 2.0
# GHz S RI R 376.73
[Number of Ports] 4
[Reference]
376.73 376.73 259.814 259.814 
[Number of Frequencies] 51
[Network Data]
281700                -0.0505482         0.12588     -6.46499e-05    -0.000257312          0.97847        0.153167     -0.000124427     0.000136315
                     1.05595e-05    -0.000132963       -0.0381494        0.116743      0.000119847     0.000387607         0.989553       0.0704666
                        0.978449        0.153342      8.37844e-05     0.000237222       0.00954168        0.135343     -8.08404e-05    -0.000187091
                    -6.95289e-05     0.000262351         0.989284        0.070217     -0.000122992    -9.76299e-05        0.0211624        0.121015
281702                 -0.050505        0.125894     -6.46763e-05    -0.000257456         0.978525        0.152814     -0.000124365     0.000136235
                      1.0546e-05     -0.00013307       -0.0381085        0.116753      0.000119972     0.000387417         0.989579       0.0701079
                        0.978504         0.15299      8.39184e-05     0.000237245        0.0095937        0.135336     -8.07737e-05     -0.00018714
                    -6.94373e-05     0.000262376          0.98931       0.0698584     -0.000123023    -9.77493e-05        0.0212084        0.121003
281704                -0.0504618        0.125908     -6.47027e-05      -0.0002576          0.97858        0.152462     -0.000124302     0.000136154
                     1.05325e-05    -0.000133176       -0.0380677        0.116762      0.000120097     0.000387228         0.989604       0.0697491
                         0.97856        0.152638      8.40526e-05     0.000237269       0.00964572        0.135329     -8.07068e-05    -0.000187188
                    -6.93457e-05       0.0002624         0.989335       0.0694997     -0.000123055    -9.78687e-05        0.0212544        0.120992
281706                -0.0504186        0.125922      -6.4729e-05    -0.000257745         0.978636         0.15211      -0.00012424     0.000136074
                     1.05189e-05    -0.000133283       -0.0380268        0.116771      0.000120222     0.000387038          0.98963       0.0693904
                        0.978615        0.152286      8.41868e-05     0.000237292       0.00969773        0.135322     -8.06398e-05    -0.000187237
                    -6.92541e-05     0.000262424         0.989361       0.0691411     -0.000123087    -9.79881e-05        0.0213004         0.12098
281708                -0.0503754        0.125936     -6.47553e-05    -0.000257891         0.978691        0.151757     -0.000124178     0.000135994
                     1.05052e-05    -0.000133389       -0.0379859        0.116781      0.000120347     0.000386848         0.989656       0.0690316
                         0.97867        0.151934      8.43211e-05     0.000237315       0.00974974        0.135315     -8.05726e-05    -0.000187286
                    -6.91625e-05     0.000262449         0.989386       0.0687824     -0.000123118    -9.81076e-05        0.0213463        0.120968
281710                -0.0503322         0.12595     -6.47815e-05    -0.000258036         0.978746        0.151405     -0.000124116     0.000135914
                     1.04915e-05    -0.000133496       -0.0379451         0.11679      0.000120472     0.000386657         0.989681       0.0686728
                        0.978725        0.151582      8.44554e-05     0.000237338       0.00980174        0.135308     -8.05052e-05    -0.000187334
                    -6.90709e-05     0.000262473         0.989411       0.0684237      -0.00012315    -9.82271e-05        0.0213923        0.120956
281712                 -0.050289        0.125964     -6.48077e-05    -0.000258182         0.978801        0.151053     -0.000124053     0.000135834
                     1.04777e-05    -0.000133602       -0.0379042        0.116799      0.000120596     0.000386467         0.989706        0.068314
                         0.97878        0.151229      8.45897e-05      0.00023736       0.00985374        0.135302     -8.04375e-05    -0.000187383
                    -6.89794e-05     0.000262497         0.989436        0.068065     -0.000123182    -9.83465e-05        0.0214383        0.120944
281714                -0.0502458        0.125978     -6.48338e-05    -0.000258329         0.978855          0.1507     -0.000123991     0.000135754
                     1.04638e-05    -0.000133708       -0.0378633        0.116808      0.000120721     0.000386276         0.989731       0.0679552
                        0.978835        0.150877      8.47242e-05     0.000237383       0.00990574        0.135295     -8.03695e-05    -0.000187431
                    -6.88878e-05     0.000262521         0.989461       0.0677063     -0.000123214     -9.8466e-05        0.0214842        0.120932
281716                -0.0502025        0.125992     -6.48598e-05    -0.000258476          0.97891        0.150348     -0.000123929     0.000135675
                     1.04499e-05    -0.000133814       -0.0378225        0.116818      0.000120845     0.000386085         0.989756       0.0675964
                         0.97889        0.150525      8.48586e-05     0.000237405       0.00995773        0.135288     -8.03011e-05    -0.000187479
                    -6.87963e-05     0.000262545         0.989486       0.0673476     -0.000123246    -9.85855e-05        0.0215302         0.12092
281718                -0.0501593        0.126006     -6.48858e-05    -0.000258623         0.978964        0.149995     -0.000123868     0.000135595
                      1.0436e-05     -0.00013392       -0.0377816        0.116827       0.00012097     0.000385894         0.989781       0.0672375
                        0.978944        0.150173      8.49931e-05     0.000237428        0.0100097        0.135281     -8.02325e-05    -0.000187526
                    -6.87047e-05     0.000262569         0.989511       0.0669888     -0.000123278     -9.8705e-05        0.0215761        0.120908
281720                -0.0501161        0.126019     -6.49118e-05    -0.000258771         0.979019        0.149643     -0.000123806     0.000135516
                     1.04221e-05    -0.000134026       -0.0377407        0.116836      0.000121094     0.000385703         0.989806       0.0668787
                        0.978999        0.149821      8.51277e-05      0.00023745        0.0100617        0.135274     -8.01636e-05    -0.000187573
                    -6.86132e-05     0.000262593         0.989536       0.0666301      -0.00012331    -9.88245e-05        0.0216221        0.120896
281722                -0.0500728        0.126033     -6.49377e-05    -0.000258919         0.979073         0.14929     -0.000123744     0.000135436
                     1.04081e-05    -0.000134131       -0.0376999        0.116845      0.000121218     0.000385512         0.989831       0.0665198
                        0.979053        0.149468      8.52622e-05     0.000237472        0.0101137        0.135267     -8.00949e-05    -0.000187619
                    -6.85217e-05     0.000262617          0.98956       0.0662714     -0.000123342    -9.89438e-05         0.021668        0.120884
281724                -0.0500296        0.126047     -6.49635e-05    -0.000259067         0.979127        0.148938     -0.000123683     0.000135357
                     1.03942e-05    -0.000134237        -0.037659        0.116854      0.000121342     0.000385321         0.989855        0.066161
                        0.979107        0.149116      8.53969e-05     0.000237493        0.0101657         0.13526     -8.00267e-05    -0.000187664
                    -6.84302e-05     0.000262641         0.989584       0.0659126     -0.000123376     -9.9063e-05        0.0217139        0.120872
281726                -0.0499863        0.126061     -6.49894e-05    -0.000259216         0.979181        0.148585     -0.000123621     0.000135278
                     1.03802e-05    -0.000134342       -0.0376181        0.116864      0.000121467      0.00038513         0.989879       0.0658021
                        0.979161        0.148764      8.55315e-05     0.000237515        0.0102176        0.135253     -7.99597e-05    -0.000187709
                    -6.83387e-05     0.000262665         0.989609       0.0655538      -0.00012341    -9.91816e-05        0.0217598        0.120859
281728                -0.0499431        0.126075     -6.50152e-05    -0.000259366         0.979235        0.148233      -0.00012356     0.000135199
                     1.03662e-05    -0.000134448       -0.0375772        0.116873      0.000121593     0.000384941         0.989904       0.0654432
                        0.979215        0.148412      8.56662e-05     0.000237537        0.0102696        0.135246     -7.98939e-05    -0.000187753
                    -6.82473e-05     0.000262688         0.989633       0.0651951     -0.000123449    -9.92985e-05        0.0218058        0.120847
281730                -0.0498998        0.126088     -6.50409e-05    -0.000259515         0.979288        0.147881     -0.000123498     0.000135121
                     1.03522e-05    -0.000134553       -0.0375363        0.116882       0.00012174     0.000384774         0.989928       0.0650844
                        0.979269        0.148059      8.58009e-05     0.000237558        0.0103216        0.135239      -7.9829e-05    -0.000187799
                    -6.81558e-05     0.000262712         0.989657       0.0648363     -0.000123544    -9.93871e-05        0.0218517        0.120835
281732                -0.0498566        0.126102     -6.50667e-05    -0.000259665         0.979342        0.147527     -0.000123437     0.000135042
                     1.03383e-05    -0.000134658       -0.0374955        0.116891      0.000121825     0.000384536         0.989952       0.0647255
                        0.979322        0.147707      8.59356e-05     0.000237579        0.0103735        0.135231     -7.97643e-05    -0.000187845
                    -6.80644e-05     0.000262735         0.989681       0.0644775     -0.000123465    -9.95541e-05        0.0218976        0.120823
281734                -0.0498133        0.126116     -6.50924e-05    -0.000259816         0.979396        0.147175     -0.000123376     0.000134964
                     1.03243e-05    -0.000134763       -0.0374546          0.1169      0.000121953      0.00038435         0.989976       0.0643666
                        0.979376        0.147354      8.60703e-05       0.0002376        0.0104255        0.135224     -7.96994e-05    -0.000187892
                     -6.7973e-05     0.000262759         0.989704       0.0641187     -0.000123514    -9.96688e-05        0.0219435        0.120811
281736                -0.0497701        0.126129     -6.51181e-05    -0.000259967         0.979449        0.146822     -0.000123316     0.000134885
                     1.03104e-05    -0.000134868       -0.0374137        0.116909      0.000122078     0.000384159         0.989999       0.0640076
                        0.979429        0.147002      8.62051e-05     0.000237621        0.0104774        0.135217      -7.9634e-05     -0.00018794
                    -6.78816e-05     0.000262782         0.989728       0.0637599      -0.00012355    -9.97872e-05        0.0219893        0.120799
281738                -0.0497268        0.126143     -6.51438e-05    -0.000260118         0.979502         0.14647     -0.000123255     0.000134807
                     1.02964e-05    -0.000134973       -0.0373728        0.116918      0.000122202     0.000383967         0.990023       0.0636487
                        0.979482         0.14665        8.634e-05     0.000237642        0.0105294         0.13521     -7.95683e-05    -0.000187988
                    -6.77903e-05     0.000262805         0.989751       0.0634011     -0.000123584    -9.99064e-05        0.0220352        0.120786
281740                -0.0496835        0.126157     -6.51694e-05     -0.00026027         0.979555        0.146117     -0.000123194      0.00013473
                     1.02826e-05    -0.000135078       -0.0373319        0.116927      0.000122325     0.000383774         0.990046       0.0632898
                        0.979535        0.146297      8.64749e-05     0.000237663        0.0105813        0.135203     -7.95021e-05    -0.000188036
                    -6.76989e-05     0.000262828         0.989775       0.0630422     -0.000123616    -0.000100026        0.0220811        0.120774
281742                -0.0496403         0.12617     -6.51951e-05    -0.000260422         0.979608        0.145764     -0.000123134     0.000134652
                     1.02687e-05    -0.000135183        -0.037291        0.116936      0.000122448      0.00038358          0.99007       0.0629308
                        0.979588        0.145945      8.66099e-05     0.000237684        0.0106333        0.135196     -7.94355e-05    -0.000188085
                    -6.76076e-05     0.000262851         0.989798       0.0626834     -0.000123649    -0.000100146         0.022127        0.120762
281744                 -0.049597        0.126184     -6.52208e-05    -0.000260575         0.979661        0.145411     -0.000123074     0.000134576
                     1.02549e-05    -0.000135287       -0.0372501        0.116945      0.000122571     0.000383387         0.990093       0.0625719
                        0.979641        0.145592       8.6745e-05     0.000237705        0.0106852        0.135188     -7.93687e-05    -0.000188133
                    -6.75164e-05     0.000262874         0.989821       0.0623245     -0.000123681    -0.000100266        0.0221728         0.12075
281746                -0.0495537        0.126198     -6.52466e-05    -0.000260728         0.979714        0.145059     -0.000123015       0.0001345
                     1.02411e-05    -0.000135392       -0.0372092        0.116954      0.000122694     0.000383193         0.990116       0.0622129
                        0.979694         0.14524      8.68804e-05     0.000237726        0.0107372        0.135181     -7.93015e-05    -0.000188181
                    -6.74251e-05     0.000262897         0.989844       0.0619657     -0.000123713    -0.000100385        0.0222187        0.120737
281748                -0.0495104        0.126211     -6.52727e-05    -0.000260882         0.979766        0.144706     -0.000122955     0.000134427
                     1.02274e-05    -0.000135497       -0.0371683        0.116963      0.000122816     0.000382998         0.990139        0.061854
                        0.979747        0.144887       8.7016e-05     0.000237747        0.0107891        0.135174     -7.92341e-05    -0.000188229
                    -6.73339e-05      0.00026292         0.989866       0.0616068     -0.000123744    -0.000100505        0.0222645        0.120725
281750                -0.0494671        0.126225     -6.52999e-05    -0.000261037         0.979819        0.144353     -0.000122893     0.000134358
                     1.02138e-05    -0.000135601       -0.0371274        0.116972      0.000122939     0.000382804         0.990161        0.061495
                        0.979799        0.144535      8.71502e-05     0.000237771         0.010841        0.135167     -7.91663e-05    -0.000188277
                    -6.72428e-05     0.000262943         0.989889       0.0612479     -0.000123776    -0.000100625        0.0223104        0.120713
281752                -0.0494238        0.126239     -6.53186e-05    -0.000261192         0.979871           0.144     -0.000122817     0.000134288
                     1.02003e-05    -0.000135706       -0.0370865        0.116981      0.000123061     0.000382609         0.990184        0.061136
                        0.979852        0.144182      8.72807e-05     0.000237791        0.0108929        0.135159     -7.90981e-05    -0.000188326
                    -6.71517e-05     0.000262966         0.989912       0.0608891     -0.000123808    -0.000100746        0.0223562        0.120701
281754                -0.0493805        0.126252     -6.53464e-05    -0.000261344         0.979923        0.143648     -0.000122745     0.000134197
                     1.01871e-05     -0.00013581       -0.0370456         0.11699      0.000123183     0.000382414         0.990207        0.060777
                        0.979904         0.14383      8.74155e-05     0.000237808        0.0109449        0.135152     -7.90292e-05    -0.000188374
                    -6.70608e-05     0.000262989         0.989934       0.0605302     -0.000123839    -0.000100866        0.0224021        0.120688
281756                -0.0493372        0.126266     -6.53725e-05    -0.000261499         0.979975        0.143295     -0.000122688     0.000134111
                     1.01748e-05    -0.000135914       -0.0370047        0.116999      0.000123305     0.000382219         0.990229       0.0604173
                        0.979956        0.143477      8.75511e-05     0.000237828        0.0109968        0.135145     -7.89585e-05    -0.000188423
                    -6.69705e-05     0.000263013         0.989956       0.0601713     -0.000123871    -0.000100986        0.0224479        0.120676
281758                -0.0492939        0.126279     -6.53984e-05    -0.000261655         0.980027        0.142942     -0.000122632     0.000134031
                     1.01892e-05    -0.000136059       -0.0369638        0.117008      0.000123427     0.000382024         0.990251        0.060059
                        0.980008        0.143125      8.76866e-05     0.000237847        0.0110487        0.135137     -7.88827e-05     -0.00018847
                    -6.68864e-05     0.000263005         0.989978       0.0598124     -0.000123902    -0.000101106        0.0224937        0.120663
281760                -0.0492506        0.126293     -6.54241e-05    -0.000261811         0.980079        0.142589     -0.000122575     0.000133954
                     1.01426e-05    -0.000136124       -0.0369229        0.117017      0.000123548     0.000381828         0.990273          0.0597
                         0.98006        0.142772       8.7822e-05     0.000237867        0.0111006         0.13513     -7.88046e-05    -0.000188494
                    -6.67863e-05     0.000263051             0.99       0.0594535     -0.000123934    -0.000101226        0.0225395        0.120651
281762                -0.0492073        0.126306     -6.54497e-05    -0.000261967          0.98013        0.142236     -0.000122516     0.000133878
                     1.01304e-05    -0.000136228       -0.0368819        0.117026       0.00012367     0.000381632         0.990295       0.0593409
                        0.980112        0.142419      8.79573e-05     0.000237887        0.0111525        0.135123     -7.87655e-05    -0.000188539
