! TOUCHSTONE file generated by CST MICROWAVE STUDIO
! Date and time: Tue Oct 14 07:26:56 2025
! Project name: Teste_Macro_Metasurface_Nanopilar.cst
! Parameters = {H=600; L_x=100; L_y=195; Lambda=1064; Max_L=200; Min_L=70; PathPara=1; Phi=0; Step_L=10; Theta=0; p=520; phaseX=180; phaseY=0}
! Header version: 2018
! Port assignment regex: !\s*Touchstone port\s*([0-9]+)\s*=\s*(CST MWS port|CST DS port)\s*([0-9]+|Zmin|Zmax)\s*\(\"(.*)\"\)(\s*mode\s*([0-9]+))?.*
! Touchstone port assignment:
! Touchstone port 1 = CST MWS port Zmax ("") mode 1
! Touchstone port 2 = CST MWS port Zmax ("") mode 2
! Touchstone port 3 = CST MWS port Zmin ("") mode 1
! Touchstone port 4 = CST MWS port Zmin ("") mode 2
! S-Parameters are not renormalized. Each port impedance will be approximated by the real part at minimum frequency. The values are described via the [Reference] keyword.
! Default impedance is overridden by [Reference]
[Version] 2.0
# GHz S RI R 376.73
[Number of Ports] 4
[Reference]
376.73 376.73 259.814 259.814 
[Number of Frequencies] 51
[Network Data]
281700                 -0.369535        0.366411     -0.000132908    -2.64859e-05         0.165358        0.824533     -0.000138426    -0.000415478
                    -0.000134508     3.24946e-05        -0.202035      -0.0622759     -4.49935e-05    -0.000191835        -0.847709       -0.468376
                        0.165579        0.824267     -0.000155659    -0.000122865        -0.466747       -0.213576      0.000273843    -0.000498509
                     0.000141844     -0.00033309         -0.84842       -0.468093      0.000207364     -0.00013035          0.15909        0.137222
281702                 -0.369265        0.366441      -0.00013285    -2.64714e-05         0.165875        0.824541     -0.000138498    -0.000415485
                    -0.000134246     3.21307e-05        -0.202053      -0.0621976     -4.51059e-05    -0.000191593        -0.847951       -0.467943
                        0.166097        0.824275     -0.000155709    -0.000122706        -0.466764        -0.21313      0.000273706    -0.000497871
                      0.00014128    -0.000333052         -0.84866       -0.467659       0.00020697    -0.000130527         0.159174        0.137116
281704                 -0.368995         0.36647     -0.000132791    -2.64571e-05         0.166391        0.824549     -0.000138561    -0.000415483
                    -0.000133984     3.17655e-05        -0.202072      -0.0621192     -4.52177e-05     -0.00019135        -0.848193        -0.46751
                        0.166615        0.824283     -0.000155758    -0.000122548        -0.466781       -0.212684      0.000273569     -0.00049721
                     0.000140715    -0.000333012          -0.8489       -0.467225      0.000206576    -0.000130703         0.159258         0.13701
281706                 -0.368725          0.3665     -0.000132733    -2.64431e-05         0.166908        0.824556     -0.000138615    -0.000415473
                    -0.000133723      3.1399e-05         -0.20209      -0.0620409      -4.5329e-05    -0.000191109        -0.848435       -0.467077
                        0.167133         0.82429     -0.000155808    -0.000122389        -0.466798       -0.212238      0.000273432    -0.000496524
                      0.00014015    -0.000332972         -0.84914       -0.466791       0.00020618    -0.000130878         0.159341        0.136904
281708                 -0.368456        0.366529     -0.000132675    -2.64294e-05         0.167424        0.824563     -0.000138658    -0.000415454
                    -0.000133461     3.10315e-05        -0.202109      -0.0619625     -4.54399e-05    -0.000190867        -0.848676       -0.466644
                        0.167651        0.824296     -0.000155857     -0.00012223        -0.466814       -0.211792      0.000273296    -0.000495813
                     0.000139585    -0.000332931        -0.849379       -0.466356      0.000205784    -0.000131052         0.159425        0.136798
281710                 -0.368187        0.366558     -0.000132618     -2.6416e-05          0.16794        0.824569     -0.000138689    -0.000415427
                      -0.0001332     3.06629e-05        -0.202127      -0.0618841     -4.55502e-05    -0.000190626        -0.848917        -0.46621
                        0.168168        0.824303     -0.000155907    -0.000122072         -0.46683       -0.211347      0.000273161    -0.000495077
                      0.00013902    -0.000332889        -0.849619       -0.465922      0.000205387    -0.000131225         0.159509        0.136692
281712                 -0.367918        0.366587     -0.000132561    -2.64028e-05         0.168457        0.824575     -0.000138704     -0.00041539
                    -0.000132938     3.02933e-05        -0.202146      -0.0618057     -4.56601e-05    -0.000190386        -0.849158       -0.465777
                        0.168686        0.824309     -0.000155956    -0.000121913        -0.466846       -0.210901      0.000273025    -0.000494316
                     0.000138455    -0.000332846        -0.849858       -0.465487      0.000204989    -0.000131398         0.159592        0.136586
281714                 -0.367649        0.366616     -0.000132504    -2.63899e-05         0.168973         0.82458     -0.000138696    -0.000415324
                    -0.000132677     2.99228e-05        -0.202164      -0.0617274     -4.57695e-05    -0.000190146        -0.849399       -0.465343
                        0.169204        0.824314     -0.000156005    -0.000121755        -0.466861       -0.210456       0.00027289     -0.00049353
                      0.00013789    -0.000332802        -0.850097       -0.465052       0.00020459     -0.00013157         0.159675         0.13648
281716                  -0.36738        0.366645     -0.000132448    -2.63774e-05         0.169489        0.824586     -0.000138721    -0.000415217
                    -0.000132416     2.95515e-05        -0.202182       -0.061649     -4.58785e-05    -0.000189907         -0.84964       -0.464909
                        0.169722         0.82432     -0.000156054    -0.000121597        -0.466875       -0.210011      0.000272755    -0.000492718
                     0.000137324    -0.000332757        -0.850336       -0.464617      0.000204189    -0.000131741         0.159759        0.136374
281718                 -0.367111        0.366673     -0.000132392     -2.6365e-05         0.170005         0.82459     -0.000138756     -0.00041515
                    -0.000132154     2.91795e-05          -0.2022      -0.0615706      -4.5987e-05    -0.000189668         -0.84988       -0.464475
                         0.17024        0.824324     -0.000156103    -0.000121439         -0.46689       -0.209566       0.00027262    -0.000491881
                     0.000136759    -0.000332711        -0.850574       -0.464182      0.000203788    -0.000131911         0.159842        0.136268
281720                 -0.366842        0.366702     -0.000132336     -2.6353e-05         0.170522        0.824595      -0.00013876    -0.000415081
                    -0.000131893     2.88068e-05        -0.202219      -0.0614922     -4.60951e-05    -0.000189429         -0.85012       -0.464041
                        0.170757        0.824329     -0.000156152    -0.000121281        -0.466904       -0.209122      0.000272485    -0.000491019
                     0.000136193    -0.000332664        -0.850812       -0.463747      0.000203386     -0.00013208         0.159925        0.136162
281722                 -0.366574         0.36673     -0.000132281    -2.63412e-05         0.171038        0.824599     -0.000138747    -0.000414999
                    -0.000131631     2.84335e-05        -0.202237      -0.0614138     -4.62028e-05    -0.000189191         -0.85036       -0.463607
                        0.171275        0.824333       -0.0001562    -0.000121123        -0.466917       -0.208677       0.00027235    -0.000490131
                     0.000135627    -0.000332616         -0.85105       -0.463312      0.000202982    -0.000132248         0.160008        0.136055
281724                 -0.366305        0.366758     -0.000132226    -2.63297e-05         0.171554        0.824602     -0.000138724    -0.000414905
                    -0.000131369     2.80597e-05        -0.202255      -0.0613353     -4.63101e-05    -0.000188954          -0.8506       -0.463172
                        0.171793        0.824336     -0.000156249    -0.000120965        -0.466931       -0.208233      0.000272214    -0.000489217
                     0.000135061    -0.000332567        -0.851288       -0.462876      0.000202578    -0.000132415         0.160091        0.135949
281726                 -0.366037        0.366786     -0.000132172    -2.63184e-05          0.17207        0.824605     -0.000138691      -0.0004148
                    -0.000131107     2.76855e-05        -0.202273      -0.0612569      -4.6417e-05    -0.000188717         -0.85084       -0.462738
                         0.17231         0.82434     -0.000156298    -0.000120807        -0.466943       -0.207789      0.000272079    -0.000488278
                     0.000134495    -0.000332518        -0.851526       -0.462441      0.000202172    -0.000132581         0.160174        0.135842
281728                 -0.365769        0.366814     -0.000132118    -2.63074e-05         0.172586        0.824608     -0.000138649    -0.000414684
                    -0.000130845     2.73109e-05        -0.202291      -0.0611785     -4.65236e-05     -0.00018848         -0.85108       -0.462303
                        0.172828        0.824343     -0.000156346     -0.00012065        -0.466956       -0.207345      0.000271942    -0.000487313
                     0.000133928    -0.000332467        -0.851763       -0.462005      0.000201765    -0.000132746         0.160257        0.135736
281730                 -0.365501        0.366841     -0.000132064    -2.62966e-05         0.173102        0.824611     -0.000138598    -0.000414557
                    -0.000130583     2.69359e-05        -0.202309      -0.0611001     -4.66298e-05    -0.000188245        -0.851319       -0.461868
                        0.173345        0.824345     -0.000156395    -0.000120492        -0.466968       -0.206901      0.000271806    -0.000486322
                     0.000133362    -0.000332415           -0.852       -0.461569      0.000201357    -0.000132911          0.16034        0.135629
281732                 -0.365233        0.366869      -0.00013201    -2.62861e-05         0.173618        0.824613     -0.000138538     -0.00041442
                     -0.00013032     2.65608e-05        -0.202327      -0.0610216     -4.67358e-05    -0.000188009        -0.851558       -0.461433
                        0.173863        0.824347     -0.000156443    -0.000120335         -0.46698       -0.206457      0.000271668    -0.000485305
                     0.000132795    -0.000332363        -0.852237       -0.461133      0.000200948    -0.000133074         0.160422        0.135523
281734                 -0.364965        0.366896     -0.000131957    -2.62758e-05         0.174134        0.824614     -0.000138469    -0.000414272
                    -0.000130057     2.61854e-05        -0.202345      -0.0609432     -4.68414e-05    -0.000187775        -0.851797       -0.460998
                         0.17438        0.824349     -0.000156491    -0.000120178        -0.466991       -0.206014      0.000271531    -0.000484263
                     0.000132229    -0.000332309        -0.852474       -0.460697      0.000200538    -0.000133236         0.160505        0.135416
281736                 -0.364697        0.366923     -0.000131905    -2.62658e-05          0.17465        0.824615     -0.000138391    -0.000414114
                    -0.000129794     2.58099e-05        -0.202363      -0.0608647     -4.69468e-05     -0.00018754        -0.852036       -0.460563
                        0.174898         0.82435      -0.00015654     -0.00012002        -0.467002       -0.205571      0.000271392    -0.000483194
                     0.000131662    -0.000332254        -0.852711       -0.460261      0.000200126    -0.000133397         0.160587        0.135309
281738                  -0.36443         0.36695     -0.000131852     -2.6256e-05         0.175166        0.824616     -0.000138304    -0.000413946
                    -0.000129531     2.54344e-05        -0.202381      -0.0607863     -4.70519e-05    -0.000187307        -0.852275       -0.460127
                        0.175415        0.824351     -0.000156588    -0.000119863        -0.467013       -0.205128      0.000271253      -0.0004821
                     0.000131095    -0.000332199        -0.852947       -0.459824      0.000199713    -0.000133557          0.16067        0.135203
281740                 -0.364162        0.366977       -0.0001318    -2.62464e-05         0.175681        0.824617     -0.000138209    -0.000413767
                    -0.000129267     2.50589e-05        -0.202399      -0.0607078     -4.71569e-05    -0.000187074        -0.852513       -0.459692
                        0.175933        0.824351     -0.000156636    -0.000119706        -0.467023       -0.204685      0.000271113    -0.000480979
                     0.000130528    -0.000332142        -0.853183       -0.459388      0.000199298    -0.000133716         0.160752        0.135096
281742                 -0.363895        0.367004     -0.000131749     -2.6237e-05         0.176197        0.824617     -0.000138104    -0.000413577
                    -0.000129003     2.46834e-05        -0.202417      -0.0606294     -4.72617e-05    -0.000186842        -0.852751       -0.459256
                         0.17645        0.824351     -0.000156684    -0.000119549        -0.467033       -0.204242      0.000270972    -0.000479833
                      0.00012996    -0.000332085        -0.853419       -0.458951      0.000198883    -0.000133874         0.160835        0.134989
281744                 -0.363628         0.36703     -0.000131697    -2.62278e-05         0.176713        0.824616     -0.000137991    -0.000413377
                    -0.000128739     2.43081e-05        -0.202434      -0.0605509     -4.73664e-05    -0.000186611        -0.852989        -0.45882
                        0.176967        0.824351     -0.000156732    -0.000119392        -0.467043         -0.2038       0.00027083    -0.000478661
                     0.000129393    -0.000332026        -0.853655       -0.458515      0.000198466     -0.00013403         0.160917        0.134882
281746                 -0.363361        0.367056     -0.000131647    -2.62188e-05         0.177229        0.824616     -0.000137868    -0.000413167
                    -0.000128474     2.39329e-05        -0.202452      -0.0604724      -4.7471e-05     -0.00018638        -0.853227       -0.458384
                        0.177484         0.82435     -0.000156781    -0.000119235        -0.467052       -0.203357      0.000270688    -0.000477463
                     0.000128825    -0.000331967         -0.85389       -0.458078      0.000198047    -0.000134186         0.160999        0.134775
281748                 -0.363094        0.367083     -0.000131596    -2.62099e-05         0.177744        0.824615     -0.000137737    -0.000412945
                    -0.000128209      2.3558e-05         -0.20247       -0.060394     -4.75757e-05    -0.000186151        -0.853465       -0.457948
                        0.178002        0.824349     -0.000156829    -0.000119078         -0.46706       -0.202915      0.000270544     -0.00047624
                     0.000128257    -0.000331906        -0.854125       -0.457641      0.000197627     -0.00013434         0.161081        0.134668
281750                 -0.362827        0.367109     -0.000131546    -2.62011e-05          0.17826        0.824613     -0.000137597    -0.000412713
                    -0.000127944     2.31834e-05        -0.202488      -0.0603155     -4.76807e-05    -0.000185923        -0.853703       -0.457511
                        0.178519        0.824348     -0.000156877    -0.000118921        -0.467069       -0.202473        0.0002704     -0.00047499
                     0.000127689    -0.000331845         -0.85436       -0.457204      0.000197205    -0.000134493         0.161163        0.134561
281752                 -0.362561        0.367134     -0.000131496    -2.61923e-05         0.178776        0.824611     -0.000137449    -0.000412471
                    -0.000127678     2.28092e-05        -0.202505       -0.060237      -4.7786e-05    -0.000185696         -0.85394       -0.457075
                        0.179036        0.824346     -0.000156926    -0.000118764        -0.467077       -0.202031      0.000270254    -0.000473715
                     0.000127121    -0.000331783        -0.854595       -0.456767      0.000196782    -0.000134644         0.161245        0.134454
281754                 -0.362294         0.36716     -0.000131447    -2.61833e-05         0.179291        0.824609     -0.000137292    -0.000412217
                    -0.000127412     2.24354e-05        -0.202523      -0.0601585     -4.78921e-05    -0.000185471        -0.854177       -0.456638
                        0.179553        0.824344     -0.000156976    -0.000118605        -0.467085        -0.20159      0.000270107    -0.000472415
                     0.000126553    -0.000331719        -0.854829        -0.45633      0.000196357    -0.000134794         0.161327        0.134346
281756                 -0.362028        0.367186     -0.000131398    -2.61734e-05         0.179807        0.824606     -0.000137126    -0.000411952
                    -0.000127145     2.20622e-05         -0.20254        -0.06008     -4.79996e-05    -0.000185247        -0.854414       -0.456202
                         0.18007        0.824341     -0.000157028    -0.000118444        -0.467092       -0.201148      0.000269959    -0.000471089
                     0.000125985    -0.000331655        -0.855064       -0.455892       0.00019593    -0.000134942         0.161409        0.134239
281758                 -0.361762        0.367211      -0.00013135    -2.61607e-05         0.180322        0.824603     -0.000136951    -0.000411677
                    -0.000126878     2.16895e-05        -0.202558      -0.0600015     -4.81096e-05    -0.000185026        -0.854651       -0.455765
                        0.180587        0.824338     -0.000157095    -0.000118271        -0.467099       -0.200707       0.00026981    -0.000469737
                     0.000125416     -0.00033159        -0.855298       -0.455455      0.000195502    -0.000135089          0.16149        0.134132
281760                 -0.361496        0.367236     -0.000131317    -2.61414e-05         0.180838          0.8246     -0.000136768     -0.00041139
                    -0.000126611     2.13175e-05        -0.202575       -0.059923     -4.82244e-05    -0.000184808        -0.854888       -0.455328
                        0.181104        0.824335     -0.000157073    -0.000118257        -0.467105       -0.200266       0.00026966     -0.00046836
                     0.000124848    -0.000331525        -0.855532       -0.455017      0.000195071    -0.000135233         0.161572        0.134024
281762                  -0.36123        0.367261     -0.000131276    -2.61661e-05         0.181353        0.824596     -0.000136576    -0.000411093
                    -0.000126343     2.09462e-05        -0.202593      -0.0598445     -4.83477e-05    -0.000184591        -0.855124        -0.45489
                        0.181621        0.824331     -0.000157144    -0.000118014        -0.467112       -0.199825      0.000269508    -0.000466958
