! TOUCHSTONE file generated by CST MICROWAVE STUDIO
! Date and time: Tue Oct 14 07:29:23 2025
! Project name: Teste_Macro_Metasurface_Nanopilar.cst
! Parameters = {H=600; L_x=140; L_y=165; Lambda=1064; Max_L=200; Min_L=70; PathPara=1; Phi=0; Step_L=10; Theta=0; p=520; phaseX=180; phaseY=0}
! Header version: 2018
! Port assignment regex: !\s*Touchstone port\s*([0-9]+)\s*=\s*(CST MWS port|CST DS port)\s*([0-9]+|Zmin|Zmax)\s*\(\"(.*)\"\)(\s*mode\s*([0-9]+))?.*
! Touchstone port assignment:
! Touchstone port 1 = CST MWS port Zmax ("") mode 1
! Touchstone port 2 = CST MWS port Zmax ("") mode 2
! Touchstone port 3 = CST MWS port Zmin ("") mode 1
! Touchstone port 4 = CST MWS port Zmin ("") mode 2
! S-Parameters are not renormalized. Each port impedance will be approximated by the real part at minimum frequency. The values are described via the [Reference] keyword.
! Default impedance is overridden by [Reference]
[Version] 2.0
# GHz S RI R 376.73
[Number of Ports] 4
[Reference]
376.73 376.73 259.814 259.814 
[Number of Frequencies] 51
[Network Data]
281700                   -0.1816       0.0727391      0.000304654     0.000139356         0.575547        0.787154      2.63097e-05       0.0008831
                     0.000184865     0.000115654         -0.37446       -0.481669     -0.000605194     0.000467889         0.667638        0.362642
                        0.575744        0.786939     -0.000536545     0.000538272        -0.122722        0.143631      -0.00087564     0.000640723
                    -0.000269824     0.000588481         0.667693        0.362916     -0.000622377     2.18473e-05         0.593197      -0.0169986
281702                 -0.181565       0.0727407      0.000305277     0.000139512         0.575909        0.786899      2.71563e-05     0.000884033
                      0.00018516     0.000115722        -0.375135       -0.481783     -0.000605283     0.000468753         0.667605        0.361724
                        0.576106        0.786683     -0.000536404     0.000539287        -0.122581        0.143713     -0.000876241     0.000642139
                    -0.000269485     0.000589065          0.66766        0.361999     -0.000623389     2.24002e-05         0.593652      -0.0179314
281704                  -0.18153       0.0727423      0.000305906     0.000139674         0.576271        0.786643      2.80066e-05     0.000884965
                     0.000185456     0.000115791        -0.375812       -0.481897     -0.000605386     0.000469619          0.66757        0.360805
                        0.576469        0.786427     -0.000536262     0.000540301        -0.122439        0.143794     -0.000876838     0.000643556
                    -0.000269144      0.00058965         0.667626        0.361081      -0.00062441      2.2944e-05         0.594107      -0.0188666
281706                 -0.181495       0.0727438      0.000306544     0.000139844         0.576633        0.786387      2.88605e-05     0.000885897
                     0.000185751      0.00011586         -0.37649       -0.482009     -0.000605503     0.000470489         0.667533        0.359885
                        0.576831         0.78617     -0.000536121     0.000541313        -0.122297        0.143875     -0.000877432     0.000644973
                    -0.000268804     0.000590234         0.667589        0.360162     -0.000625441     2.34782e-05         0.594561      -0.0198042
281708                  -0.18146       0.0727454      0.000307191     0.000140022         0.576995        0.786132       2.9718e-05     0.000886829
                     0.000186048      0.00011593        -0.377169       -0.482121     -0.000605636     0.000471362         0.667494        0.358964
                        0.577193        0.785914     -0.000535982     0.000542324        -0.122155        0.143956     -0.000878022      0.00064639
                    -0.000268462     0.000590819          0.66755        0.359242     -0.000626482     2.40026e-05         0.595014      -0.0207442
281710                 -0.181425        0.072747      0.000307852     0.000140208         0.577356        0.785876      3.05792e-05      0.00088776
                     0.000186344     0.000115999         -0.37785       -0.482232     -0.000605785     0.000472239         0.667453        0.358042
                        0.577555        0.785657     -0.000535845     0.000543331        -0.122013        0.144036     -0.000878609     0.000647809
                    -0.000268121     0.000591404          0.66751        0.358322     -0.000627535     2.45167e-05         0.595466      -0.0216867
281712                  -0.18139       0.0727486       0.00030853     0.000140401         0.577718        0.785619       3.1444e-05      0.00088869
                     0.000186641     0.000116069        -0.378533       -0.482342     -0.000605951     0.000473122          0.66741         0.35712
                        0.577917          0.7854     -0.000535712     0.000544335        -0.121871        0.144117     -0.000879192      0.00064923
                    -0.000267778     0.000591989         0.667467          0.3574       -0.0006286     2.50201e-05         0.595917      -0.0226315
281714                 -0.181356       0.0727502      0.000309231       0.0001406         0.578079        0.785363      3.23125e-05      0.00088962
                     0.000186938     0.000116139        -0.379217       -0.482452     -0.000606133      0.00047401         0.667365        0.356196
                        0.578279        0.785143     -0.000535585     0.000545334        -0.121729        0.144198     -0.000879771     0.000650652
                    -0.000267436     0.000592574         0.667422        0.356478     -0.000629679     2.55127e-05         0.596367      -0.0235788
281716                 -0.181321       0.0727518      0.000309958     0.000140801          0.57844        0.785107      3.31848e-05      0.00089055
                     0.000187236     0.000116209        -0.379902       -0.482561     -0.000606334     0.000474905         0.667318        0.355272
                        0.578641        0.784886     -0.000535468     0.000546324        -0.121587        0.144278     -0.000880347     0.000652077
                    -0.000267092     0.000593159         0.667375        0.355555     -0.000630773      2.5994e-05         0.596817      -0.0245285
281718                 -0.181286       0.0727534      0.000310718     0.000140996         0.578801         0.78485      3.40607e-05     0.000891479
                     0.000187533     0.000116279        -0.380589       -0.482669     -0.000606554     0.000475808         0.667269        0.354347
                        0.579002        0.784628     -0.000535366     0.000547305        -0.121445        0.144358     -0.000880919     0.000653503
                    -0.000266749     0.000593744         0.667326         0.35463     -0.000631883     2.64639e-05         0.597265      -0.0254807
281720                 -0.181251        0.072755      0.000311513     0.000141174         0.579162        0.784593      3.49404e-05     0.000892407
                     0.000187831     0.000116349        -0.381277       -0.482776     -0.000606793      0.00047672         0.667218        0.353421
                        0.579363        0.784371      -0.00053529      0.00054827        -0.121303        0.144438     -0.000881488     0.000654933
                    -0.000266405     0.000594329         0.667275        0.353706      -0.00063301     2.69222e-05         0.597713      -0.0264353
281722                 -0.181216       0.0727566       0.00031234     0.000141322         0.579523        0.784336      3.58239e-05     0.000893335
                     0.000188129      0.00011642        -0.381967       -0.482882     -0.000607053     0.000477642         0.667165        0.352494
                        0.579724        0.784113     -0.000535256     0.000549214        -0.121161        0.144518     -0.000882053     0.000656365
                    -0.000266061     0.000594914         0.667222         0.35278     -0.000634156     2.73688e-05          0.59816      -0.0273924
281724                 -0.181181       0.0727583       0.00031319     0.000141426         0.579883        0.784079      3.67112e-05     0.000894263
                     0.000188427     0.000116491        -0.382659       -0.482988     -0.000607334     0.000478575          0.66711        0.351566
                        0.580085        0.783855     -0.000535299     0.000550125        -0.121019        0.144598     -0.000882615       0.0006578
                    -0.000265717     0.000595499         0.667166        0.351853     -0.000635324     2.78037e-05         0.598606       -0.028352
281726                 -0.181147       0.0727599      0.000314044     0.000141477         0.580244        0.783822      3.76023e-05     0.000895189
                     0.000188726     0.000116562        -0.383351       -0.483093     -0.000607636     0.000479521         0.667053        0.350637
                        0.580446        0.783597       -0.0005355     0.000550996        -0.120877        0.144678     -0.000883173     0.000659238
                    -0.000265372     0.000596084         0.667109        0.350926     -0.000636514      2.8227e-05         0.599051       -0.029314
281728                 -0.181112       0.0727615      0.000314882     0.000141477         0.580604        0.783564      3.84972e-05     0.000896115
                     0.000189024     0.000116633        -0.384046       -0.483197     -0.000607961     0.000480483         0.666994        0.349707
                        0.580807        0.783339     -0.000536075     0.000551851        -0.120735        0.144758     -0.000883728      0.00066068
                    -0.000265028     0.000596669         0.667049        0.349997     -0.000637729     2.86391e-05         0.599495      -0.0302784
281730                 -0.181077       0.0727632      0.000315686     0.000141436         0.580964        0.783307       3.9396e-05      0.00089704
                     0.000189322     0.000116704        -0.384742         -0.4833     -0.000608309     0.000481462         0.666933        0.348777
                        0.581168        0.783081     -0.000537698     0.000553158        -0.120593        0.144837      -0.00088428     0.000662125
                    -0.000264683     0.000597253         0.666988        0.349068     -0.000638971     2.90403e-05         0.599938      -0.0312454
281732                 -0.181043       0.0727649      0.000316447     0.000141375         0.581324        0.783049      4.02988e-05     0.000897965
                      0.00018962     0.000116776        -0.385439       -0.483403     -0.000608681      0.00048246         0.666869        0.347845
                        0.581528        0.782822     -0.000539219     0.000558797        -0.120451        0.144917     -0.000884829     0.000663574
                    -0.000264338     0.000597837         0.666924        0.348138     -0.000640242     2.94316e-05          0.60038      -0.0322149
281734                 -0.181008       0.0727665      0.000317165     0.000141311         0.581684        0.782791      4.12055e-05     0.000898889
                     0.000189918     0.000116848        -0.386138       -0.483504     -0.000609076      0.00048348         0.666804        0.346913
                        0.581888        0.782563     -0.000533612     0.000560904        -0.120309        0.144996     -0.000885375     0.000665026
                    -0.000263993     0.000598421         0.666858        0.347207     -0.000641546     2.98139e-05         0.600821      -0.0331868
281736                 -0.180974       0.0727682      0.000317848     0.000141258         0.582044        0.782533      4.21162e-05     0.000899812
                     0.000190216      0.00011692        -0.386838       -0.483605     -0.000609495     0.000484526         0.666737        0.345979
                        0.582249        0.782305      -0.00053235     0.000559975        -0.120166        0.145075     -0.000885918     0.000666483
                    -0.000263648     0.000599005          0.66679        0.346275     -0.000642885     3.01887e-05         0.601261      -0.0341612
281738                 -0.180939       0.0727699      0.000318507     0.000141222         0.582404        0.782275      4.30311e-05     0.000900734
                     0.000190514     0.000116992         -0.38754       -0.483705     -0.000609939     0.000485601         0.666667        0.345045
                        0.582609        0.782046     -0.000532124     0.000560113        -0.120024        0.145154     -0.000886458     0.000667943
                    -0.000263304     0.000599588         0.666719        0.345342     -0.000644263     3.05581e-05         0.601701      -0.0351382
281740                 -0.180904       0.0727716       0.00031915     0.000141207         0.582763        0.782017      4.39501e-05     0.000901655
                     0.000190811     0.000117065        -0.388244       -0.483805     -0.000610405     0.000486708         0.666596         0.34411
                        0.582968        0.781787     -0.000532003     0.000560699        -0.119882        0.145233     -0.000886995     0.000669408
                    -0.000262959      0.00060017         0.666647        0.344408     -0.000645682     3.09248e-05         0.602139      -0.0361177
281742                  -0.18087       0.0727733      0.000319786     0.000141212         0.583122        0.781758      4.48735e-05     0.000902576
                     0.000191108     0.000117137        -0.388949       -0.483903     -0.000610894     0.000487854         0.666522        0.343174
                        0.583328        0.781527     -0.000531877     0.000561478         -0.11974        0.145312     -0.000887529     0.000670877
                    -0.000262614     0.000600752         0.666572        0.343473     -0.000647148     3.12924e-05         0.602576      -0.0370996
281744                 -0.180836        0.072775       0.00032042     0.000141235         0.583481        0.781499      4.58013e-05     0.000903496
                     0.000191405      0.00011721        -0.389655       -0.484001     -0.000611404     0.000489043         0.666446        0.342237
                        0.583688        0.781268     -0.000531733     0.000562354        -0.119598         0.14539     -0.000888061      0.00067235
                     -0.00026227     0.000601334         0.666496        0.342538     -0.000648663     3.16657e-05         0.603012      -0.0380841
281746                 -0.180801       0.0727767      0.000321056     0.000141273          0.58384        0.781241      4.67339e-05     0.000904415
                     0.000191701     0.000117283        -0.390363       -0.484097     -0.000611931     0.000490281         0.666369          0.3413
                        0.584047        0.781008     -0.000531572     0.000563286        -0.119455        0.145469      -0.00088859     0.000673828
                    -0.000261926     0.000601914         0.666417        0.341601     -0.000650231      3.2051e-05         0.603448      -0.0390712
281748                 -0.180767       0.0727784      0.000321695     0.000141323         0.584199        0.780982      4.76713e-05     0.000905334
                     0.000191996     0.000117356        -0.391073       -0.484193      -0.00061247     0.000491577         0.666289        0.340361
                        0.584406        0.780749     -0.000531398     0.000564252        -0.119313        0.145547     -0.000889117     0.000675311
                    -0.000261582     0.000602494         0.666336        0.340664     -0.000651858     3.24566e-05         0.603882      -0.0400607
281750                 -0.180732       0.0727801       0.00032234     0.000141384         0.584558        0.780723      4.86143e-05     0.000906253
                     0.000192291      0.00011743        -0.391784       -0.484289     -0.000613016     0.000492939         0.666206        0.339421
                        0.584766        0.780489     -0.000531214     0.000565241        -0.119171        0.145626     -0.000889642       0.0006768
                    -0.000261238     0.000603073         0.666253        0.339725     -0.000653545     3.28932e-05         0.604315      -0.0410528
281752                 -0.180698       0.0727818      0.000322991     0.000141452         0.584916        0.780464      4.95632e-05     0.000907171
                     0.000192585     0.000117503        -0.392497       -0.484383     -0.000613557     0.000494376         0.666122        0.338481
                        0.585125        0.780229      -0.00053102     0.000566246        -0.119028        0.145704     -0.000890164     0.000678293
                    -0.000260895      0.00060365         0.666168        0.338786     -0.000655296     3.33751e-05         0.604748      -0.0420475
281754                 -0.180664       0.0727836      0.000323649     0.000141528         0.585274        0.780204      5.05194e-05      0.00090809
                     0.000192878     0.000117576        -0.393211       -0.484476      -0.00061408     0.000495897         0.666036         0.33754
                        0.585484        0.779969     -0.000530819     0.000567263        -0.118886        0.145782     -0.000890685     0.000679793
                    -0.000260552     0.000604226         0.666081        0.337846     -0.000657111     3.39208e-05         0.605179      -0.0430446
281756                 -0.180629       0.0727853      0.000324313     0.000141609         0.585633        0.779945      5.14847e-05     0.000909011
                      0.00019317      0.00011765        -0.393927       -0.484569     -0.000614563     0.000497514         0.665947        0.336598
                        0.585842        0.779708     -0.000530611     0.000568289        -0.118744         0.14586     -0.000891204       0.0006813
                     -0.00026021     0.000604801         0.665991        0.336904     -0.000658985     3.45545e-05         0.605609      -0.0440443
281758                 -0.180595       0.0727871      0.000324984     0.000141695         0.585991        0.779685      5.24627e-05     0.000909935
                      0.00019346     0.000117723        -0.394644       -0.484661     -0.000614975     0.000499235         0.665857        0.335655
                        0.586201        0.779448     -0.000530398     0.000569323        -0.118601        0.145938     -0.000891722     0.000682814
                    -0.000259868     0.000605374           0.6659        0.335962     -0.000660907     3.53067e-05         0.606038      -0.0450466
281760                 -0.180561       0.0727888      0.000325662     0.000141785         0.586349        0.779426      5.34613e-05      0.00091087
                     0.000193749     0.000117795        -0.395364       -0.484752     -0.000615273     0.000501061         0.665764        0.334711
                        0.586559        0.779187     -0.000530179     0.000570362        -0.118459        0.146015     -0.000892238      0.00068434
                    -0.000259526     0.000605944         0.665806        0.335019     -0.000662854     3.62151e-05         0.606466      -0.0460513
281762                 -0.180527       0.0727906      0.000326347     0.000141879         0.586706        0.779166      5.45017e-05     0.000911835
                     0.000194036     0.000117867        -0.396084       -0.484842     -0.000615398     0.000502982         0.665669        0.333766
                        0.586918        0.778926     -0.000529956     0.000571405        -0.118317        0.146093     -0.000892755     0.000685881
