! TOUCHSTONE file generated by CST MICROWAVE STUDIO
! Date and time: Tue Oct 14 07:29:03 2025
! Project name: Teste_Macro_Metasurface_Nanopilar.cst
! Parameters = {H=600; L_x=135; L_y=160; Lambda=1064; Max_L=200; Min_L=70; PathPara=1; Phi=0; Step_L=10; Theta=0; p=520; phaseX=180; phaseY=0}
! Header version: 2018
! Port assignment regex: !\s*Touchstone port\s*([0-9]+)\s*=\s*(CST MWS port|CST DS port)\s*([0-9]+|Zmin|Zmax)\s*\(\"(.*)\"\)(\s*mode\s*([0-9]+))?.*
! Touchstone port assignment:
! Touchstone port 1 = CST MWS port Zmax ("") mode 1
! Touchstone port 2 = CST MWS port Zmax ("") mode 2
! Touchstone port 3 = CST MWS port Zmin ("") mode 1
! Touchstone port 4 = CST MWS port Zmin ("") mode 2
! S-Parameters are not renormalized. Each port impedance will be approximated by the real part at minimum frequency. The values are described via the [Reference] keyword.
! Default impedance is overridden by [Reference]
[Version] 2.0
# GHz S RI R 376.73
[Number of Ports] 4
[Reference]
376.73 376.73 259.814 259.814 
[Number of Frequencies] 51
[Network Data]
281700                  -0.30773        0.247329     -0.000328848     0.000350211         0.228103        0.874906     -0.000252844     -0.00020428
                    -0.000280047        0.000362        -0.121099        -0.18609     -8.62084e-05     0.000149201         0.422521        0.873752
                        0.227615        0.875185     -7.59999e-05     5.99725e-05        -0.372361       -0.089233     -0.000153409      7.6496e-06
                    -0.000264692    -0.000135661         0.421627        0.874114     -0.000421025    -0.000180673        0.0717801        0.207868
281702                 -0.307479        0.247284     -0.000328933     0.000350293         0.228704        0.874861     -0.000252374    -0.000204115
                    -0.000279809     0.000361904        -0.121164       -0.186096     -8.58645e-05     0.000149175         0.422918         0.87355
                        0.228217        0.875141     -7.57455e-05      5.9939e-05         -0.37224      -0.0887932     -0.000153015     8.30006e-06
                    -0.000264552    -0.000135362         0.422022        0.873912     -0.000421159    -0.000180174        0.0719366        0.207856
281704                 -0.307228        0.247238     -0.000329017     0.000350375         0.229304        0.874816     -0.000251906     -0.00020395
                    -0.000279571     0.000361808        -0.121229       -0.186102     -8.55229e-05     0.000149149         0.423314        0.873348
                        0.228819        0.875096     -7.54914e-05     5.99062e-05        -0.372119      -0.0883538     -0.000152415     8.75678e-06
                    -0.000264411    -0.000135065         0.422417         0.87371     -0.000421293    -0.000179672        0.0720931        0.207844
281706                 -0.306978        0.247193     -0.000329101     0.000350457         0.229905         0.87477     -0.000251439    -0.000203785
                    -0.000279334     0.000361713        -0.121294       -0.186108     -8.51836e-05     0.000149124          0.42371        0.873146
                         0.22942         0.87505     -7.52375e-05     5.98741e-05        -0.371998       -0.087915     -0.000151434     9.44164e-06
                    -0.000264271    -0.000134769         0.422812        0.873507     -0.000421425    -0.000179168        0.0722497        0.207831
281708                 -0.306728        0.247147     -0.000329184      0.00035054         0.230505        0.874724     -0.000250972     -0.00020362
                    -0.000279097     0.000361618        -0.121359       -0.186115     -8.48465e-05     0.000149099         0.424106        0.872943
                        0.230021        0.875004     -7.49838e-05     5.98428e-05        -0.371876      -0.0874766     -0.000150632     1.04883e-05
                    -0.000264131    -0.000134475         0.423207        0.873304     -0.000421556    -0.000178661        0.0724063        0.207819
281710                 -0.306478        0.247101     -0.000329266     0.000350622         0.231105        0.874677     -0.000250507    -0.000203455
                    -0.000278861     0.000361523        -0.121424       -0.186121     -8.45113e-05     0.000149074         0.424503        0.872741
                        0.230622        0.874957     -7.47305e-05     5.98123e-05        -0.371754      -0.0870388     -0.000150053     1.14962e-05
                     -0.00026399    -0.000134182         0.423602        0.873101     -0.000421686    -0.000178152         0.072563        0.207806
281712                 -0.306229        0.247055     -0.000329347     0.000350705         0.231705         0.87463     -0.000250043    -0.000203291
                    -0.000278625     0.000361428        -0.121489       -0.186127     -8.41781e-05      0.00014905         0.424899        0.872538
                        0.231222         0.87491     -7.44774e-05     5.97825e-05        -0.371631      -0.0866014     -0.000149532     1.24119e-05
                     -0.00026385     -0.00013389         0.423997        0.872898     -0.000421814     -0.00017764        0.0727197        0.207793
281714                  -0.30598        0.247009     -0.000329427     0.000350787         0.232305        0.874582      -0.00024958    -0.000203128
                    -0.000278389     0.000361334        -0.121554       -0.186133     -8.38468e-05     0.000149026         0.425294        0.872335
                        0.231821        0.874862     -7.42245e-05     5.97535e-05        -0.371508      -0.0861645     -0.000149015     1.32688e-05
                     -0.00026371      -0.0001336         0.424392        0.872694     -0.000421942    -0.000177127        0.0728764         0.20778
281716                 -0.305731        0.246963     -0.000329507      0.00035087         0.232904        0.874534     -0.000249118    -0.000202966
                    -0.000278154      0.00036124        -0.121619        -0.18614     -8.35172e-05     0.000149002          0.42569        0.872132
                         0.23242        0.874813     -7.39719e-05     5.97252e-05        -0.371385      -0.0857281     -0.000148492      1.4089e-05
                     -0.00026357    -0.000133312         0.424786        0.872491     -0.000422068    -0.000176611        0.0730332        0.207767
281718                 -0.305483        0.246916     -0.000329585     0.000350953         0.233503        0.874485     -0.000248658    -0.000202804
                    -0.000277919     0.000361146        -0.121684       -0.186146     -8.31893e-05     0.000148978         0.426086        0.871929
                        0.233019        0.874764     -7.37195e-05     5.96977e-05        -0.371262      -0.0852922     -0.000147959     1.48837e-05
                     -0.00026343    -0.000133025         0.425181        0.872287     -0.000422192    -0.000176093          0.07319        0.207754
281720                 -0.305235         0.24687     -0.000329663     0.000351035         0.234102        0.874436     -0.000248201    -0.000202644
                    -0.000277685     0.000361052        -0.121749       -0.186152     -8.28629e-05     0.000148955         0.426482        0.871726
                        0.233618        0.874715     -7.34674e-05     5.96709e-05        -0.371138      -0.0848567     -0.000147418     1.56586e-05
                     -0.00026329     -0.00013274         0.425576        0.872083     -0.000422315    -0.000175573        0.0733469        0.207741
281722                 -0.304987        0.246824      -0.00032974     0.000351118         0.234701        0.874386     -0.000247745    -0.000202485
                    -0.000277452     0.000360959        -0.121814       -0.186158     -8.25381e-05     0.000148932         0.426877        0.871522
                        0.234216        0.874665     -7.32155e-05     5.96449e-05        -0.371014      -0.0844218      -0.00014687      1.6417e-05
                     -0.00026315    -0.000132456          0.42597        0.871878     -0.000422437    -0.000175052        0.0735038        0.207728
281724                 -0.304739        0.246777     -0.000329816     0.000351201         0.235299        0.874335     -0.000247292    -0.000202327
                    -0.000277218     0.000360866        -0.121879       -0.186165     -8.22147e-05     0.000148909         0.427273        0.871318
                        0.234814        0.874615     -7.29639e-05     5.96196e-05         -0.37089      -0.0839874     -0.000146315     1.71607e-05
                    -0.000263011    -0.000132175         0.426364        0.871674     -0.000422557    -0.000174529        0.0736607        0.207714
281726                 -0.304492        0.246731     -0.000329891     0.000351284         0.235897        0.874285     -0.000246841    -0.000202171
                    -0.000276986     0.000360773        -0.121944       -0.186171     -8.18927e-05     0.000148887         0.427668        0.871115
                        0.235412        0.874564     -7.27125e-05      5.9595e-05        -0.370765      -0.0835534     -0.000145754     1.78909e-05
                    -0.000262872    -0.000131895         0.426759        0.871469     -0.000422676    -0.000174004        0.0738177        0.207701
281728                 -0.304245        0.246684     -0.000329965     0.000351367         0.236495        0.874233     -0.000246394    -0.000202016
                    -0.000276754     0.000360681        -0.122009       -0.186177      -8.1572e-05     0.000148864         0.428063         0.87091
                         0.23601        0.874512     -7.24613e-05     5.95712e-05         -0.37064      -0.0831199     -0.000145188     1.86084e-05
                    -0.000262733    -0.000131617         0.427153        0.871264     -0.000422793    -0.000173477        0.0739747        0.207687
281730                 -0.303999        0.246637     -0.000330039      0.00035145         0.237093        0.874181     -0.000245949    -0.000201862
                    -0.000276522      0.00036059        -0.122074       -0.186183     -8.12526e-05     0.000148842         0.428458        0.870706
                        0.236607        0.874461     -7.22104e-05     5.95481e-05        -0.370515      -0.0826869     -0.000144618     1.93137e-05
                    -0.000262594    -0.000131342         0.427547        0.871059     -0.000422908    -0.000172949        0.0741317        0.207674
281732                 -0.303752         0.24659     -0.000330111     0.000351533          0.23769        0.874129     -0.000245508    -0.000201711
                    -0.000276291     0.000360498         -0.12214        -0.18619     -8.09344e-05      0.00014882         0.428853        0.870502
                        0.237204        0.874408     -7.19597e-05     5.95258e-05        -0.370389      -0.0822544     -0.000144042     2.00072e-05
                    -0.000262456    -0.000131068         0.427941        0.870854     -0.000423022     -0.00017242        0.0742888         0.20766
281734                 -0.303506        0.246543     -0.000330183     0.000351616         0.238287        0.874076     -0.000245071    -0.000201561
                     -0.00027606     0.000360408        -0.122205       -0.186196     -8.06173e-05     0.000148798         0.429248        0.870297
                        0.237802        0.874355     -7.17092e-05     5.95042e-05        -0.370264      -0.0818224     -0.000143463     2.06891e-05
                    -0.000262318    -0.000130797         0.428335        0.870649     -0.000423134    -0.000171889        0.0744459        0.207646
281736                 -0.303261        0.246496     -0.000330254       0.0003517         0.238884        0.874022     -0.000244637    -0.000201412
                    -0.000275831     0.000360317         -0.12227       -0.186202     -8.03013e-05     0.000148776         0.429643        0.870092
                        0.238399        0.874302      -7.1459e-05     5.94833e-05        -0.370137      -0.0813908     -0.000142881     2.13597e-05
                    -0.000262181    -0.000130528         0.428729        0.870443     -0.000423245    -0.000171357        0.0746031        0.207632
281738                 -0.303015        0.246449     -0.000330324     0.000351783         0.239481        0.873968     -0.000244207    -0.000201266
                    -0.000275601     0.000360228        -0.122335       -0.186208     -7.99863e-05     0.000148754         0.430038        0.869887
                        0.238996        0.874248     -7.12089e-05     5.94632e-05        -0.370011      -0.0809597     -0.000142295     2.20191e-05
                    -0.000262044    -0.000130261         0.429123        0.870237     -0.000423354    -0.000170823        0.0747603        0.207618
281740                  -0.30277        0.246402     -0.000330393     0.000351866         0.240077        0.873914     -0.000243781    -0.000201121
                    -0.000275373     0.000360139        -0.122401       -0.186214     -7.96724e-05     0.000148732         0.430433        0.869682
                        0.239592        0.874193     -7.09591e-05     5.94438e-05        -0.369884      -0.0805292     -0.000141706     2.26676e-05
                    -0.000261907    -0.000129997         0.429517        0.870031     -0.000423461    -0.000170288        0.0749175        0.207604
281742                 -0.302525        0.246355     -0.000330462      0.00035195         0.240674        0.873858     -0.000243359    -0.000200978
                    -0.000275145     0.000360051        -0.122466       -0.186221     -7.93594e-05      0.00014871         0.430827        0.869476
                        0.240189        0.874138     -7.07095e-05     5.94251e-05        -0.369757      -0.0800991     -0.000141114     2.33052e-05
                    -0.000261771    -0.000129736          0.42991        0.869825     -0.000423567    -0.000169753        0.0750748        0.207589
281744                 -0.302281        0.246307     -0.000330529     0.000352033          0.24127        0.873803     -0.000242941    -0.000200837
                    -0.000274918     0.000359963        -0.122531       -0.186227     -7.90472e-05     0.000148688         0.431222        0.869271
                        0.240786        0.874082     -7.04601e-05     5.94072e-05         -0.36963      -0.0796695      -0.00014052     2.39321e-05
                    -0.000261636    -0.000129477         0.430304        0.869619     -0.000423671    -0.000169216        0.0752321        0.207575
281746                 -0.302037         0.24626     -0.000330596     0.000352117         0.241865        0.873747     -0.000242527    -0.000200698
                    -0.000274691     0.000359876        -0.122597       -0.186233      -7.8736e-05     0.000148666         0.431616        0.869065
                        0.241382        0.874026      -7.0211e-05       5.939e-05        -0.369502      -0.0792403     -0.000139923     2.45484e-05
                    -0.000261501    -0.000129221         0.430698        0.869412     -0.000423773    -0.000168678        0.0753894         0.20756
281748                 -0.301793        0.246212     -0.000330661       0.0003522         0.242461         0.87369     -0.000242117    -0.000200561
                    -0.000274465      0.00035979        -0.122662       -0.186239     -7.84255e-05     0.000148644         0.432011        0.868859
                        0.241979         0.87397      -6.9962e-05     5.93735e-05        -0.369374      -0.0788117     -0.000139325     2.51541e-05
                    -0.000261367    -0.000128969         0.431091        0.869205     -0.000423874    -0.000168139        0.0755468        0.207546
281750                  -0.30155        0.246165     -0.000330726     0.000352284         0.243056        0.873633      -0.00024171    -0.000200427
                     -0.00027424     0.000359705        -0.122727       -0.186246     -7.81157e-05     0.000148622         0.432405        0.868653
                        0.242575        0.873912     -6.97132e-05     5.93577e-05        -0.369246      -0.0783835     -0.000138724     2.57494e-05
                    -0.000261234    -0.000128719         0.431484        0.868998     -0.000423973    -0.000167599        0.0757042        0.207531
281752                 -0.301306        0.246117      -0.00033079     0.000352368         0.243651        0.873576     -0.000241307    -0.000200294
                    -0.000274016     0.000359621        -0.122793       -0.186252     -7.78065e-05       0.0001486         0.432799        0.868446
                        0.243171        0.873854     -6.94646e-05     5.93427e-05        -0.369117      -0.0779558     -0.000138122     2.63343e-05
                    -0.000261101    -0.000128473         0.431878        0.868791      -0.00042407    -0.000167059        0.0758617        0.207516
281754                 -0.301063        0.246069     -0.000330853     0.000352451         0.244246        0.873517     -0.000240906    -0.000200163
                    -0.000273792     0.000359537        -0.122858       -0.186258     -7.74979e-05     0.000148577         0.433193         0.86824
                        0.243767        0.873796     -6.92162e-05     5.93284e-05        -0.368988      -0.0775286     -0.000137519      2.6909e-05
                    -0.000260969    -0.000128229         0.432271        0.868584     -0.000424165    -0.000166518        0.0760191        0.207501
281756                 -0.300821        0.246022     -0.000330915     0.000352535         0.244841        0.873459     -0.000240509    -0.000200035
                     -0.00027357     0.000359454        -0.122924       -0.186264     -7.71896e-05     0.000148554         0.433587        0.868033
                        0.244363        0.873737      -6.8968e-05     5.93148e-05        -0.368859      -0.0771019     -0.000136915     2.74734e-05
                    -0.000260837    -0.000127988         0.432664        0.868376     -0.000424259    -0.000165977        0.0761767        0.207486
281758                 -0.300578        0.245974     -0.000330977     0.000352619         0.245435          0.8734     -0.000240114    -0.000199909
                    -0.000273347     0.000359372        -0.122989       -0.186271     -7.68815e-05     0.000148531         0.433981        0.867826
                        0.244958        0.873678     -6.87199e-05     5.93019e-05         -0.36873      -0.0766756     -0.000136309     2.80278e-05
                    -0.000260706    -0.000127749         0.433057        0.868168     -0.000424351    -0.000165436        0.0763342        0.207471
281760                 -0.300336        0.245926     -0.000331037     0.000352703         0.246029         0.87334     -0.000239722    -0.000199785
                    -0.000273126      0.00035929        -0.123055       -0.186277      -7.6573e-05     0.000148507         0.434375        0.867619
                        0.245553        0.873618     -6.84719e-05     5.92898e-05          -0.3686      -0.0762499     -0.000135703     2.85721e-05
                    -0.000260574     -0.00012751          0.43345         0.86796      -0.00042444    -0.000164895        0.0764918        0.207456
281762                 -0.300095        0.245878     -0.000331096     0.000352787         0.246623         0.87328     -0.000239331    -0.000199663
                    -0.000272904     0.000359206         -0.12312       -0.186283     -7.62634e-05     0.000148482         0.434769        0.867411
                        0.246147        0.873558     -6.82239e-05     5.92785e-05         -0.36847      -0.0758246     -0.000135097     2.91064e-05
