! TOUCHSTONE file generated by CST MICROWAVE STUDIO
! Date and time: Tue Oct 14 07:25:11 2025
! Project name: Teste_Macro_Metasurface_Nanopilar.cst
! Parameters = {H=600; L_x=75; L_y=115; Lambda=1064; Max_L=200; Min_L=70; PathPara=1; Phi=0; Step_L=10; Theta=0; p=520; phaseX=180; phaseY=0}
! Header version: 2018
! Port assignment regex: !\s*Touchstone port\s*([0-9]+)\s*=\s*(CST MWS port|CST DS port)\s*([0-9]+|Zmin|Zmax)\s*\(\"(.*)\"\)(\s*mode\s*([0-9]+))?.*
! Touchstone port assignment:
! Touchstone port 1 = CST MWS port Zmax ("") mode 1
! Touchstone port 2 = CST MWS port Zmax ("") mode 2
! Touchstone port 3 = CST MWS port Zmin ("") mode 1
! Touchstone port 4 = CST MWS port Zmin ("") mode 2
! S-Parameters are not renormalized. Each port impedance will be approximated by the real part at minimum frequency. The values are described via the [Reference] keyword.
! Default impedance is overridden by [Reference]
[Version] 2.0
# GHz S RI R 376.73
[Number of Ports] 4
[Reference]
376.73 376.73 259.814 259.814 
[Number of Frequencies] 51
[Network Data]
281700                -0.0220971      -0.0132276       0.00025687     0.000564075         0.766507       -0.637996     -1.97086e-05     0.000121123
                     0.000433944     0.000695377       -0.0300112         0.11555     -0.000260374     4.01356e-05         0.992047       0.0262709
                        0.765684       -0.638606     -8.24495e-05     1.38022e-05      -0.00934932      -0.0233632      0.000140109     0.000593673
                     8.24832e-05      9.2311e-06         0.992177       0.0258216      7.51734e-07     0.000699715        0.0238242        0.117047
281702                -0.0221006      -0.0132333       0.00025705     0.000564072          0.76625       -0.638304      -1.9669e-05     0.000121134
                     0.000434167     0.000695289       -0.0299704        0.115557     -0.000260083     4.02215e-05         0.992057       0.0259102
                        0.765427       -0.638914     -8.24272e-05     1.39202e-05       -0.0093735      -0.0233602      0.000140471     0.000593614
                     8.25137e-05     9.14555e-06         0.992187       0.0254608      1.12277e-06     0.000699836        0.0238682        0.117034
281704                 -0.022104       -0.013239      0.000257229     0.000564068         0.765993       -0.638612     -1.96293e-05     0.000121145
                      0.00043439     0.000695201       -0.0299296        0.115564     -0.000259793     4.03071e-05         0.992066       0.0255495
                        0.765169       -0.639222     -8.24047e-05     1.40382e-05      -0.00939768      -0.0233572      0.000140832     0.000593556
                      8.2544e-05     9.06004e-06         0.992196          0.0251      1.49396e-06     0.000699957        0.0239122        0.117022
281706                -0.0221075      -0.0132447      0.000257408     0.000564065         0.765735        -0.63892     -1.95895e-05     0.000121156
                     0.000434613     0.000695113       -0.0298889        0.115571     -0.000259504     4.03925e-05         0.992076       0.0251888
                        0.764911        -0.63953     -8.23822e-05     1.41562e-05      -0.00942186      -0.0233542      0.000141193     0.000593497
                     8.25743e-05     8.97458e-06         0.992206       0.0247392       1.8653e-06     0.000700078        0.0239562        0.117009
281708                 -0.022111      -0.0132504      0.000257588     0.000564061         0.765478       -0.639227     -1.95496e-05     0.000121166
                     0.000434835     0.000695026       -0.0298481        0.115578     -0.000259214     4.04776e-05         0.992085       0.0248281
                        0.764652       -0.639838     -8.23596e-05      1.4274e-05      -0.00944603      -0.0233511      0.000141554     0.000593439
                     8.26045e-05     8.88917e-06         0.992215       0.0243784       2.2368e-06     0.000700198        0.0240002        0.116997
281710                -0.0221144      -0.0132562      0.000257767     0.000564057          0.76522       -0.639535     -1.95095e-05     0.000121177
                     0.000435058     0.000694938       -0.0298073        0.115585     -0.000258926     4.05624e-05         0.992094       0.0244674
                        0.764394       -0.640145     -8.23369e-05     1.43919e-05      -0.00947021       -0.023348      0.000141914     0.000593381
                     8.26346e-05     8.80382e-06         0.992224       0.0240176      2.60845e-06     0.000700319        0.0240442        0.116984
281712                -0.0221179      -0.0132619      0.000257946     0.000564054         0.764962       -0.639843     -1.94693e-05     0.000121187
                      0.00043528      0.00069485       -0.0297665        0.115592     -0.000258637      4.0647e-05         0.992104       0.0241066
                        0.764136       -0.640453     -8.23141e-05     1.45096e-05      -0.00949439      -0.0233449      0.000142275     0.000593323
                     8.26646e-05     8.71851e-06         0.992233       0.0236567      2.98025e-06      0.00070044        0.0240882        0.116972
281714                -0.0221214      -0.0132676      0.000258126      0.00056405         0.764705        -0.64015      -1.9429e-05     0.000121197
                     0.000435502     0.000694763       -0.0297257        0.115599     -0.000258349     4.07312e-05         0.992113       0.0237459
                        0.763877       -0.640761     -8.22912e-05     1.46273e-05      -0.00951856      -0.0233418      0.000142635     0.000593265
                     8.26945e-05     8.63326e-06         0.992242       0.0232959      3.35221e-06      0.00070056        0.0241321        0.116959
281716                -0.0221249      -0.0132733      0.000258305     0.000564046         0.764446       -0.640458     -1.93885e-05     0.000121207
                     0.000435724     0.000694675       -0.0296849        0.115606      -0.00025806     4.08153e-05         0.992121       0.0233852
                        0.763618       -0.641068     -8.22681e-05      1.4745e-05      -0.00954274      -0.0233387      0.000142996     0.000593207
                     8.27243e-05     8.54807e-06         0.992251       0.0229351      3.72433e-06     0.000700681        0.0241761        0.116947
281718                -0.0221284       -0.013279      0.000258484     0.000564042         0.764188       -0.640765     -1.93479e-05     0.000121217
                     0.000435946     0.000694588       -0.0296441        0.115613     -0.000257773      4.0899e-05          0.99213       0.0230245
                         0.76336       -0.641375      -8.2245e-05     1.48626e-05      -0.00956691      -0.0233356      0.000143356      0.00059315
                      8.2754e-05     8.46293e-06          0.99226       0.0225742       4.0966e-06     0.000700801        0.0242201        0.116934
281720                 -0.022132      -0.0132847      0.000258664     0.000564039          0.76393       -0.641072     -1.93072e-05     0.000121227
                     0.000436167     0.000694501       -0.0296033         0.11562     -0.000257485     4.09825e-05         0.992139       0.0226637
                        0.763101       -0.641683     -8.22218e-05     1.49801e-05      -0.00959109      -0.0233324      0.000143716     0.000593092
                     8.27837e-05     8.37786e-06         0.992268       0.0222134      4.46902e-06     0.000700921         0.024264        0.116922
281722                -0.0221355      -0.0132905      0.000258843     0.000564035         0.763672       -0.641379     -1.92663e-05     0.000121236
                     0.000436389     0.000694414       -0.0295625        0.115627     -0.000257198     4.10657e-05         0.992147        0.022303
                        0.762842        -0.64199     -8.21984e-05     1.50976e-05      -0.00961526      -0.0233292      0.000144076     0.000593034
                     8.28132e-05     8.29284e-06         0.992277       0.0218526      4.84161e-06     0.000701042         0.024308        0.116909
281724                 -0.022139      -0.0132962      0.000259022     0.000564031         0.763413       -0.641686     -1.92253e-05     0.000121246
                      0.00043661     0.000694327       -0.0295217        0.115634     -0.000256911     4.11487e-05         0.992155       0.0219423
                        0.762582       -0.642297      -8.2175e-05     1.52151e-05      -0.00963944       -0.023326      0.000144436     0.000592977
                     8.28427e-05     8.20788e-06         0.992285       0.0214917      5.21435e-06     0.000701162        0.0243519        0.116897
281726                -0.0221426      -0.0133019      0.000259202     0.000564027         0.763154       -0.641993     -1.91842e-05     0.000121255
                     0.000436831      0.00069424       -0.0294809         0.11564     -0.000256624     4.12314e-05         0.992164       0.0215815
                        0.762323       -0.642604     -8.21515e-05     1.53324e-05      -0.00966361      -0.0233228      0.000144795      0.00059292
                     8.28721e-05     8.12299e-06         0.992293       0.0211309      5.58724e-06     0.000701282        0.0243959        0.116884
281728                -0.0221461      -0.0133076      0.000259381     0.000564023         0.762896         -0.6423      -1.9143e-05     0.000121264
                     0.000437052     0.000694154       -0.0294401        0.115647     -0.000256338     4.13138e-05         0.992172       0.0212208
                        0.762064       -0.642911     -8.21278e-05     1.54498e-05      -0.00968778      -0.0233196      0.000145155     0.000592862
                     8.29013e-05     8.03816e-06         0.992301         0.02077       5.9603e-06     0.000701402        0.0244398        0.116871
281730                -0.0221496      -0.0133133       0.00025956     0.000564019         0.762637       -0.642607     -1.91017e-05     0.000121273
                     0.000437272     0.000694067       -0.0293993        0.115654     -0.000256051     4.13959e-05          0.99218         0.02086
                        0.761804       -0.643217     -8.21041e-05      1.5567e-05      -0.00971196      -0.0233163      0.000145514     0.000592805
                     8.29305e-05      7.9534e-06         0.992309       0.0204092      6.33352e-06     0.000701521        0.0244837        0.116859
281732                -0.0221532       -0.013319       0.00025974     0.000564015         0.762378       -0.642913     -1.90602e-05     0.000121282
                     0.000437493      0.00069398       -0.0293584        0.115661     -0.000255765     4.14778e-05         0.992187       0.0204993
                        0.761544       -0.643524     -8.20802e-05     1.56842e-05      -0.00973613      -0.0233131      0.000145874     0.000592748
                     8.29596e-05      7.8687e-06         0.992317       0.0200483       6.7069e-06     0.000701641        0.0245276        0.116846
281734                -0.0221568      -0.0133247      0.000259919      0.00056401         0.762119        -0.64322     -1.90186e-05     0.000121291
                     0.000437713     0.000693894       -0.0293176        0.115668     -0.000255479     4.15594e-05         0.992195       0.0201385
                        0.761285        -0.64383     -8.20562e-05     1.58014e-05       -0.0097603      -0.0233098      0.000146233     0.000592691
                     8.29886e-05     7.78407e-06         0.992325       0.0196874      7.08043e-06     0.000701761        0.0245716        0.116833
281736                -0.0221603      -0.0133304      0.000260098     0.000564006         0.761859       -0.643526     -1.89769e-05     0.000121299
                     0.000437933     0.000693808       -0.0292768        0.115675     -0.000255192     4.16405e-05         0.992203       0.0197778
                        0.761025       -0.644137     -8.20322e-05     1.59185e-05      -0.00978447      -0.0233065      0.000146592     0.000592634
                     8.30175e-05     7.69952e-06         0.992332       0.0193266      7.45413e-06      0.00070188        0.0246155         0.11682
281738                -0.0221639      -0.0133362      0.000260278     0.000564002           0.7616       -0.643832      -1.8935e-05     0.000121307
                     0.000438152     0.000693721        -0.029236        0.115681     -0.000254906     4.17213e-05          0.99221        0.019417
                        0.760765       -0.644443      -8.2008e-05     1.60355e-05      -0.00980865      -0.0233032      0.000146951     0.000592577
                     8.30462e-05     7.61503e-06         0.992339       0.0189657        7.828e-06        0.000702        0.0246594        0.116808
281740                -0.0221675      -0.0133419      0.000260457     0.000563998          0.76134       -0.644138     -1.88931e-05     0.000121316
                     0.000438372     0.000693635       -0.0291952        0.115688     -0.000254619     4.18015e-05         0.992217       0.0190562
                        0.760504       -0.644749     -8.19837e-05     1.61525e-05      -0.00983282      -0.0232998      0.000147309     0.000592521
                     8.30749e-05     7.53061e-06         0.992347       0.0186048      8.20204e-06     0.000702119        0.0247033        0.116795
281742                -0.0221711      -0.0133476      0.000260636     0.000563993         0.761081       -0.644444      -1.8851e-05     0.000121324
                     0.000438591     0.000693549       -0.0291544        0.115695     -0.000254331     4.18807e-05         0.992225       0.0186955
                        0.760244       -0.645055     -8.19593e-05     1.62694e-05      -0.00985699      -0.0232965      0.000147668     0.000592464
                     8.31035e-05     7.44627e-06         0.992354       0.0182439      8.57626e-06     0.000702238        0.0247472        0.116782
281744                -0.0221747      -0.0133533      0.000260816     0.000563989         0.760821        -0.64475     -1.88088e-05     0.000121332
                      0.00043881     0.000693463       -0.0291135        0.115702      -0.00025404     4.19577e-05         0.992232       0.0183347
                        0.759984       -0.645361     -8.19348e-05     1.63863e-05      -0.00988116      -0.0232931      0.000148027     0.000592408
                      8.3132e-05       7.362e-06         0.992361       0.0178831      8.95068e-06     0.000702357         0.024791        0.116769
281746                -0.0221783       -0.013359      0.000260995     0.000563985         0.760561       -0.645056     -1.87665e-05     0.000121339
                     0.000439029     0.000693378       -0.0290727        0.115708     -0.000253739     4.20254e-05         0.992238       0.0179739
                        0.759723       -0.645667     -8.19102e-05     1.65031e-05      -0.00990533      -0.0232897      0.000148385     0.000592351
                     8.31604e-05     7.27781e-06         0.992368       0.0175222      9.32541e-06     0.000702475        0.0248349        0.116757
281748                -0.0221819      -0.0133647      0.000261174      0.00056398         0.760301       -0.645363     -1.87241e-05     0.000121347
                     0.000439247     0.000693292       -0.0290319        0.115715     -0.000253516     4.19193e-05         0.992245       0.0176131
                        0.759462       -0.645973     -8.18855e-05     1.66198e-05       -0.0099295      -0.0232863      0.000148743     0.000592295
                     8.31886e-05      7.1937e-06         0.992374       0.0171613      9.70159e-06     0.000702591        0.0248788        0.116744
281750                -0.0221855      -0.0133704      0.000261354     0.000563976         0.760041       -0.645668     -1.86815e-05     0.000121354
                     0.000439466     0.000693206       -0.0289911        0.115722     -0.000253255     4.22152e-05         0.992252       0.0172524
                        0.759202       -0.646279     -8.18606e-05     1.67365e-05      -0.00995366      -0.0232829      0.000149101     0.000592239
                     8.32168e-05     7.10966e-06         0.992381       0.0168004      1.00735e-05      0.00070272        0.0249227        0.116731
281752                -0.0221891      -0.0133761      0.000261533     0.000563971          0.75978       -0.645973     -1.86389e-05     0.000121361
                     0.000439684     0.000693121       -0.0289503        0.115729     -0.000252947     4.22943e-05         0.992258       0.0168916
                        0.758941       -0.646584     -8.18357e-05     1.68531e-05      -0.00997783      -0.0232795      0.000149459     0.000592182
                     8.32449e-05     7.02571e-06         0.992387       0.0164395      1.04489e-05     0.000702835        0.0249665        0.116718
281754                -0.0221927      -0.0133818      0.000261712     0.000563966          0.75952       -0.646279     -1.85961e-05     0.000121368
                     0.000439902     0.000693035       -0.0289094        0.115735     -0.000252655     4.23724e-05         0.992265       0.0165308
                         0.75868        -0.64689     -8.18106e-05     1.69697e-05        -0.010002       -0.023276      0.000149817     0.000592126
                     8.32728e-05     6.94183e-06         0.992394       0.0160786      1.08242e-05     0.000702953        0.0250104        0.116705
281756                -0.0221964      -0.0133875      0.000261892     0.000563962         0.759259       -0.646584     -1.85532e-05     0.000121375
                     0.000440119      0.00069295       -0.0288686        0.115742     -0.000252367     4.24509e-05         0.992271         0.01617
                        0.758418       -0.647195     -8.17854e-05     1.70862e-05       -0.0100262      -0.0232725      0.000150175      0.00059207
                     8.33007e-05     6.85804e-06           0.9924       0.0157177      1.11995e-05     0.000703071        0.0250542        0.116692
281758                   -0.0222      -0.0133932      0.000262071     0.000563957         0.758999       -0.646889     -1.85102e-05     0.000121382
                     0.000440337     0.000692864       -0.0288278        0.115749     -0.000252081     4.25294e-05         0.992277       0.0158092
                        0.758157         -0.6475       -8.176e-05     1.72027e-05       -0.0100503       -0.023269      0.000150533     0.000592015
                     8.33284e-05     6.77433e-06         0.992406       0.0153568       1.1575e-05     0.000703189         0.025098         0.11668
281760                -0.0222037      -0.0133989       0.00026225     0.000563951         0.758738       -0.647194     -1.84671e-05     0.000121389
                     0.000440554     0.000692779       -0.0287869        0.115755     -0.000251796     4.26079e-05         0.992283       0.0154484
                        0.757896       -0.647806     -8.17344e-05     1.73191e-05       -0.0100745      -0.0232655       0.00015089     0.000591959
                      8.3356e-05     6.69071e-06         0.992412       0.0149959      1.19507e-05     0.000703307        0.0251419        0.116667
281762                -0.0222073      -0.0134046       0.00026243     0.000563946         0.758477       -0.647499     -1.84244e-05     0.000121396
                      0.00044077     0.000692694       -0.0287461        0.115762     -0.000251512     4.26862e-05         0.992289       0.0150876
                        0.757634       -0.648111     -8.17085e-05     1.74354e-05       -0.0100987       -0.023262      0.000151248     0.000591904
