! TOUCHSTONE file generated by CST MICROWAVE STUDIO
! Date and time: Tue Oct 14 07:28:47 2025
! Project name: Teste_Macro_Metasurface_Nanopilar.cst
! Parameters = {H=600; L_x=130; L_y=180; Lambda=1064; Max_L=200; Min_L=70; PathPara=1; Phi=0; Step_L=10; Theta=0; p=520; phaseX=180; phaseY=0}
! Header version: 2018
! Port assignment regex: !\s*Touchstone port\s*([0-9]+)\s*=\s*(CST MWS port|CST DS port)\s*([0-9]+|Zmin|Zmax)\s*\(\"(.*)\"\)(\s*mode\s*([0-9]+))?.*
! Touchstone port assignment:
! Touchstone port 1 = CST MWS port Zmax ("") mode 1
! Touchstone port 2 = CST MWS port Zmax ("") mode 2
! Touchstone port 3 = CST MWS port Zmin ("") mode 1
! Touchstone port 4 = CST MWS port Zmin ("") mode 2
! S-Parameters are not renormalized. Each port impedance will be approximated by the real part at minimum frequency. The values are described via the [Reference] keyword.
! Default impedance is overridden by [Reference]
[Version] 2.0
# GHz S RI R 376.73
[Number of Ports] 4
[Reference]
376.73 376.73 259.814 259.814 
[Number of Frequencies] 51
[Network Data]
281700                 -0.165728       0.0457191     -0.000402485     0.000124482          0.70862        0.677547     -0.000497738     0.000422811
                    -0.000407891      0.00016415        -0.122243       -0.194519      -0.00055782    -3.64421e-05           0.4193        0.872781
                        0.709032        0.677719     -0.000562181     6.19112e-05       -0.0381226        0.161827     -0.000376493     0.000412052
                    -0.000439152     0.000363805         0.419168        0.872726     -0.000350128     0.000414712        0.0770324        0.214027
281702                 -0.165713       0.0457278     -0.000402397     0.000124505         0.708917         0.67724     -0.000497856     0.000423217
                    -0.000407963     0.000164508        -0.122311       -0.194527     -0.000557988    -3.65353e-05         0.419697        0.872578
                        0.709329        0.677412     -0.000562236     6.24889e-05       -0.0379889        0.161847     -0.000376687     0.000411941
                    -0.000439232     0.000364104         0.419567        0.872522     -0.000350065     0.000415263        0.0771951        0.214013
281704                 -0.165698       0.0457365     -0.000402316     0.000124527         0.709214        0.676933     -0.000497973     0.000423624
                    -0.000408035     0.000164865        -0.122379       -0.194535     -0.000558156     -3.6628e-05         0.420094        0.872375
                        0.709626        0.677105     -0.000562286     6.30736e-05       -0.0378552        0.161866     -0.000376884     0.000411829
                    -0.000439311     0.000364403         0.419965        0.872319         -0.00035     0.000415815        0.0773578        0.213998
281706                 -0.165683       0.0457452     -0.000402244      0.00012455         0.709511        0.676626     -0.000498088     0.000424031
                    -0.000408108     0.000165222        -0.122447       -0.194542     -0.000558323    -3.67203e-05         0.420491        0.872171
                        0.709923        0.676797     -0.000562327     6.36676e-05       -0.0377215        0.161886     -0.000377083     0.000411719
                    -0.000439389     0.000364703         0.420364        0.872116     -0.000349935     0.000416368        0.0775206        0.213983
281708                 -0.165668       0.0457539     -0.000402184     0.000124573         0.709807        0.676319     -0.000498201     0.000424438
                     -0.00040818     0.000165578        -0.122515        -0.19455     -0.000558491    -3.68122e-05         0.420888        0.871968
                         0.71022        0.676489     -0.000562357     6.42742e-05       -0.0375878        0.161905     -0.000377285     0.000411609
                    -0.000439465     0.000365002         0.420762        0.871912     -0.000349869     0.000416922        0.0776834        0.213969
281710                 -0.165653       0.0457626     -0.000402139     0.000124598         0.710104        0.676011     -0.000498313     0.000424847
                    -0.000408253     0.000165933        -0.122584       -0.194558     -0.000558659    -3.69035e-05         0.421284        0.871764
                        0.710516        0.676181     -0.000562368     6.48979e-05       -0.0374541        0.161925     -0.000377489       0.0004115
                    -0.000439541     0.000365301          0.42116        0.871708     -0.000349802     0.000417476        0.0778463        0.213954
281712                 -0.165638       0.0457713     -0.000402112     0.000124627           0.7104        0.675704     -0.000498424     0.000425255
                    -0.000408326     0.000166288        -0.122652       -0.194566     -0.000558826    -3.69944e-05         0.421681         0.87156
                        0.710813        0.675873     -0.000562343     6.55453e-05       -0.0373205        0.161944     -0.000377695     0.000411391
                    -0.000439615       0.0003656         0.421558        0.871504     -0.000349735     0.000418031        0.0780092        0.213939
281714                 -0.165623         0.04578     -0.000402111     0.000124663         0.710696        0.675396     -0.000498532     0.000425665
                    -0.000408399     0.000166641         -0.12272       -0.194574     -0.000558993    -3.70848e-05         0.422077        0.871356
                        0.711109        0.675565     -0.000562248      6.6222e-05       -0.0371868        0.161963     -0.000377903     0.000411283
                    -0.000439689     0.000365897         0.421955        0.871299     -0.000349666     0.000418587        0.0781721        0.213923
281716                 -0.165608       0.0457888     -0.000402144     0.000124715         0.710993        0.675088     -0.000498639     0.000426074
                    -0.000408472     0.000166994        -0.122788       -0.194582      -0.00055916    -3.71746e-05         0.422474        0.871151
                        0.711405        0.675257     -0.000561997     6.69104e-05       -0.0370531        0.161982     -0.000378114     0.000411176
                    -0.000439763     0.000366192         0.422353        0.871095     -0.000349597     0.000419144        0.0783351        0.213908
281718                 -0.165593       0.0457975     -0.000402223     0.000124793         0.711288         0.67478     -0.000498745     0.000426485
                    -0.000408546     0.000167345        -0.122857       -0.194589     -0.000559327    -3.72638e-05          0.42287        0.870947
                        0.711701        0.674949      -0.00056142     6.74234e-05       -0.0369195        0.162001     -0.000378327     0.000411069
                    -0.000439838     0.000366486          0.42275         0.87089     -0.000349527     0.000419701        0.0784981        0.213893
281720                 -0.165578       0.0458062     -0.000402363     0.000124927         0.711584        0.674472     -0.000498848     0.000426896
                    -0.000408619     0.000167696        -0.122925       -0.194597     -0.000559494    -3.73525e-05         0.423267        0.870742
                        0.711997         0.67464     -0.000560813     6.70506e-05       -0.0367858         0.16202     -0.000378542     0.000410964
                    -0.000439914      0.00036678         0.423148        0.870685     -0.000349456     0.000420259        0.0786612        0.213877
281722                 -0.165563        0.045815     -0.000402577      0.00012517          0.71188        0.674164      -0.00049895     0.000427307
                    -0.000408693     0.000168046        -0.122993       -0.194605     -0.000559661    -3.74406e-05         0.423663        0.870537
                        0.712292        0.674332      -0.00056157     6.65638e-05       -0.0366522        0.162039      -0.00037876     0.000410859
                    -0.000439991     0.000367073         0.423545         0.87048     -0.000349385     0.000420817        0.0788243        0.213862
281724                 -0.165548       0.0458237     -0.000402844      0.00012563         0.712175        0.673855     -0.000499051     0.000427719
                    -0.000408767     0.000168394        -0.123062       -0.194613     -0.000559828     -3.7528e-05         0.424059        0.870332
                        0.712588        0.674023     -0.000562401     6.71479e-05       -0.0365185        0.162058     -0.000378979     0.000410755
                    -0.000440069     0.000367366         0.423942        0.870274     -0.000349313     0.000421377        0.0789874        0.213846
281726                 -0.165534       0.0458325     -0.000403007     0.000126468         0.712471        0.673547      -0.00049915     0.000428131
                     -0.00040884     0.000168742         -0.12313        -0.19462     -0.000559994    -3.76148e-05         0.424455        0.870126
                        0.712883        0.673714     -0.000562793     6.79387e-05       -0.0363849        0.162076     -0.000379201     0.000410651
                    -0.000440149      0.00036766         0.424338        0.870068     -0.000349239     0.000421937        0.0791506         0.21383
281728                 -0.165519       0.0458412     -0.000402614     0.000127663         0.712766        0.673238     -0.000499247     0.000428545
                    -0.000408914     0.000169089        -0.123199       -0.194628     -0.000560161    -3.77009e-05         0.424851        0.869921
                        0.713179        0.673405     -0.000562992     6.86849e-05       -0.0362512        0.162095     -0.000379425     0.000410549
                    -0.000440229     0.000367955         0.424735        0.869862     -0.000349165     0.000422497        0.0793138        0.213814
281730                 -0.165504         0.04585     -0.000401357     0.000128505         0.713061         0.67293     -0.000499343     0.000428958
                    -0.000408988     0.000169435        -0.123267       -0.194636     -0.000560327    -3.77863e-05         0.425247        0.869715
                        0.713474        0.673096     -0.000563115     6.93815e-05       -0.0361176        0.162113     -0.000379652     0.000410447
                     -0.00044031     0.000368251         0.425131        0.869656      -0.00034909     0.000423058        0.0794771        0.213798
281732                 -0.165489       0.0458588     -0.000399992     0.000128393         0.713356        0.672621     -0.000499436     0.000429372
                    -0.000409061      0.00016978        -0.123336       -0.194644     -0.000560493     -3.7871e-05         0.425643        0.869509
                        0.713769        0.672787     -0.000563203     7.00452e-05        -0.035984        0.162131      -0.00037988     0.000410347
                    -0.000440391     0.000368548         0.425528        0.869449     -0.000349014      0.00042362        0.0796404        0.213782
281734                 -0.165474       0.0458676     -0.000399174     0.000127823          0.71365        0.672312     -0.000499529     0.000429787
                    -0.000409135     0.000170123        -0.123404       -0.194651     -0.000560659    -3.79549e-05         0.426039        0.869303
                        0.714063        0.672477     -0.000563274     7.06887e-05       -0.0358504         0.16215     -0.000380111     0.000410247
                    -0.000440472     0.000368846         0.425924        0.869242     -0.000348938     0.000424182        0.0798037        0.213766
281736                 -0.165459       0.0458763     -0.000398786     0.000127283         0.713945        0.672003     -0.000499619     0.000430202
                    -0.000409208     0.000170466        -0.123473       -0.194659     -0.000560825     -3.8038e-05         0.426435        0.869096
                        0.714358        0.672168     -0.000563333     7.13203e-05       -0.0357167        0.162168     -0.000380343     0.000410149
                    -0.000440553     0.000369145         0.426319        0.869035      -0.00034886     0.000424744        0.0799671        0.213749
281738                 -0.165445       0.0458851       -0.0003986     0.000126884         0.714239        0.671693     -0.000499708     0.000430618
                     -0.00040928     0.000170807        -0.123541       -0.194667      -0.00056099    -3.81203e-05          0.42683         0.86889
                        0.714653        0.671858     -0.000563383     7.19452e-05       -0.0355831        0.162186     -0.000380578     0.000410051
                    -0.000440634     0.000369445         0.426713        0.868826     -0.000348781     0.000425305        0.0801305        0.213733
281740                  -0.16543       0.0458939     -0.000398495     0.000126602         0.714534        0.671384     -0.000499795     0.000431034
                     -0.00040935     0.000171146        -0.123609       -0.194674     -0.000561156    -3.82017e-05         0.427226        0.868683
                        0.714947        0.671549     -0.000563425     7.25673e-05       -0.0354496        0.162204     -0.000380815     0.000409955
                    -0.000440715     0.000369745         0.427106        0.868619       -0.0003487     0.000425863         0.080294        0.213716
281742                 -0.165415       0.0459027     -0.000398421     0.000126404         0.714828        0.671075     -0.000499881     0.000431451
                    -0.000409417     0.000171482        -0.123678       -0.194682     -0.000561321    -3.82822e-05         0.427621        0.868476
                        0.715241        0.671239     -0.000563458      7.3189e-05        -0.035316        0.162222     -0.000381054     0.000409859
                    -0.000440795     0.000370046         0.427497        0.868414     -0.000348623     0.000426412        0.0804575          0.2137
281744                   -0.1654       0.0459115     -0.000398358     0.000126262         0.715122        0.670765     -0.000499965     0.000431868
                    -0.000409471     0.000171812        -0.123746        -0.19469     -0.000561487    -3.83618e-05         0.428017        0.868269
                        0.715535        0.670929     -0.000563479     7.38117e-05       -0.0351824        0.162239     -0.000381296     0.000409765
                    -0.000440876     0.000370348          0.42789        0.868212     -0.000348585     0.000426958         0.080621        0.213683
281746                 -0.165386       0.0459203     -0.000398297     0.000126158         0.715416        0.670455     -0.000500047     0.000432286
                    -0.000409355     0.000172104        -0.123815       -0.194697     -0.000561652    -3.84404e-05         0.428412        0.868062
                        0.715829        0.670619     -0.000563485     7.44353e-05       -0.0350488        0.162257     -0.000381539     0.000409672
                    -0.000440956      0.00037065         0.428288        0.868009     -0.000348523     0.000427577        0.0807846        0.213666
281748                 -0.165371       0.0459291     -0.000398239     0.000126081          0.71571        0.670145     -0.000500127     0.000432705
                    -0.000409736     0.000172553        -0.123883       -0.194705     -0.000561817    -3.85181e-05         0.428807        0.867854
                        0.716123        0.670308     -0.000563472     7.50576e-05       -0.0349152        0.162275     -0.000381784      0.00040958
                    -0.000441035     0.000370953         0.428687        0.867803     -0.000348424      0.00042816        0.0809482        0.213649
281750                 -0.165356        0.045938     -0.000398182     0.000126023         0.716003        0.669836     -0.000500206     0.000433124
                     -0.00040977     0.000172863        -0.123952       -0.194713     -0.000561983    -3.85949e-05         0.429203        0.867646
                        0.716417        0.669998     -0.000563434     7.56725e-05       -0.0347816        0.162292     -0.000382032     0.000409489
                    -0.000441115     0.000371256         0.429084        0.867596     -0.000348333      0.00042873        0.0811119        0.213632
281752                 -0.165341       0.0459468     -0.000398128     0.000125981         0.716297        0.669525     -0.000500283     0.000433544
                    -0.000409833     0.000173191         -0.12402       -0.194721     -0.000562148     -3.8671e-05         0.429598        0.867438
                         0.71671        0.669688     -0.000563369     7.62693e-05        -0.034648        0.162309     -0.000382282       0.0004094
                    -0.000441194      0.00037156         0.429481        0.867388     -0.000348246       0.0004293        0.0812756        0.213615
281754                 -0.165327       0.0459556     -0.000398082     0.000125953          0.71659        0.669215     -0.000500358     0.000433964
                    -0.000409902     0.000173522        -0.124089       -0.194729     -0.000562314    -3.87472e-05         0.429993         0.86723
                        0.717003        0.669377     -0.000563281     7.68329e-05       -0.0345145        0.162327     -0.000382534     0.000409311
                    -0.000441273     0.000371864         0.429877         0.86718      -0.00034816      0.00042987        0.0814393        0.213597
281756                 -0.165312       0.0459644     -0.000398045      0.00012594         0.716883        0.668905     -0.000500432     0.000434385
                    -0.000409973     0.000173854        -0.124158       -0.194737     -0.000562477    -3.88233e-05         0.430388        0.867022
                        0.717296        0.669066     -0.000563186       7.735e-05       -0.0343809        0.162344     -0.000382789     0.000409225
                    -0.000441352     0.000372169         0.430273        0.866971     -0.000348075     0.000430442        0.0816031         0.21358
281758                 -0.165297       0.0459733     -0.000398021     0.000125947         0.717176        0.668594     -0.000500503     0.000434807
                    -0.000410044     0.000174184        -0.124227       -0.194745     -0.000562639    -3.88967e-05         0.430783        0.866813
                         0.71759        0.668756     -0.000563109     7.78189e-05       -0.0342474        0.162361     -0.000383048     0.000409139
                     -0.00044143     0.000372474         0.430668        0.866763      -0.00034799     0.000431014        0.0817669        0.213562
281760                 -0.165283       0.0459821      -0.00039801     0.000125983         0.717469        0.668284     -0.000500588     0.000435236
                    -0.000410116     0.000174514        -0.124296       -0.194753       -0.0005628    -3.89668e-05         0.431178        0.866604
                        0.717882        0.668445     -0.000563072     7.82552e-05       -0.0341138        0.162378     -0.000383315     0.000409053
                    -0.000441508      0.00037278         0.431063        0.866554     -0.000347904     0.000431587        0.0819307        0.213545
281762                 -0.165268       0.0459909     -0.000398005     0.000126064         0.717762        0.667973     -0.000500646      0.00043565
                    -0.000410188     0.000174843        -0.124365        -0.19476     -0.000562963    -3.90352e-05         0.431572        0.866395
                        0.718175        0.668134     -0.000563082     7.86843e-05       -0.0339803        0.162395     -0.000383579     0.000408932
