! TOUCHSTONE file generated by CST MICROWAVE STUDIO
! Date and time: Tue Oct 14 07:31:33 2025
! Project name: Teste_Macro_Metasurface_Nanopilar.cst
! Parameters = {H=600; L_x=175; L_y=145; Lambda=1064; Max_L=200; Min_L=70; PathPara=1; Phi=0; Step_L=10; Theta=0; p=520; phaseX=180; phaseY=0}
! Header version: 2018
! Port assignment regex: !\s*Touchstone port\s*([0-9]+)\s*=\s*(CST MWS port|CST DS port)\s*([0-9]+|Zmin|Zmax)\s*\(\"(.*)\"\)(\s*mode\s*([0-9]+))?.*
! Touchstone port assignment:
! Touchstone port 1 = CST MWS port Zmax ("") mode 1
! Touchstone port 2 = CST MWS port Zmax ("") mode 2
! Touchstone port 3 = CST MWS port Zmin ("") mode 1
! Touchstone port 4 = CST MWS port Zmin ("") mode 2
! S-Parameters are not renormalized. Each port impedance will be approximated by the real part at minimum frequency. The values are described via the [Reference] keyword.
! Default impedance is overridden by [Reference]
[Version] 2.0
# GHz S RI R 376.73
[Number of Ports] 4
[Reference]
376.73 376.73 259.814 259.814 
[Number of Frequencies] 51
[Network Data]
281700                 -0.199994       0.0809312      0.000212927     0.000321382         0.458009        0.853854      -0.00030806     0.000308632
                        0.000236      0.00033007        -0.170972       -0.012962     -0.000414971     0.000215688         0.787616        0.585593
                        0.458308        0.853744     -0.000323563     0.000267556        -0.174176        0.111748     -0.000467701    -0.000241751
                    -0.000214069     0.000276975         0.787589        0.585308      -0.00042564    -0.000323005        0.0611312        0.155975
281702                 -0.199933       0.0809176      0.000213088      0.00033953         0.458438        0.853643     -0.000308136     0.000308755
                     0.000236257     0.000330113        -0.170981        -0.01294     -0.000414986     0.000216013          0.78786        0.585262
                        0.458736        0.853533     -0.000324005     0.000266176         -0.17402        0.111885     -0.000468282     -0.00024165
                    -0.000214117      0.00027713         0.787795        0.584953     -0.000426182    -0.000322732        0.0612438        0.155939
281704                 -0.199873        0.080904      0.000210686      0.00034792         0.458866        0.853432     -0.000308211     0.000308879
                     0.000236513     0.000330158        -0.170989      -0.0129176     -0.000415001     0.000216338         0.788105         0.58493
                        0.459163        0.853322      -0.00032409     0.000265242        -0.173864        0.112022     -0.000468862    -0.000241548
                    -0.000214166     0.000277285         0.788016        0.584607     -0.000426723    -0.000322458        0.0613564        0.155902
281706                 -0.199813       0.0808904      0.000209828     0.000349938         0.459294        0.853221     -0.000308286     0.000309004
                     0.000236767     0.000330203        -0.170998      -0.0128948     -0.000415016     0.000216661         0.788348        0.584599
                         0.45959        0.853111     -0.000324087      0.00026536        -0.173708        0.112159     -0.000469442    -0.000241445
                    -0.000214216     0.000277439         0.788253        0.584272     -0.000427265    -0.000322185         0.061469        0.155866
281708                 -0.199753       0.0808768      0.000211706     0.000345072         0.459721        0.853009      -0.00030836     0.000309128
                     0.000237021     0.000330248        -0.171006      -0.0128714     -0.000415032     0.000216984         0.788592        0.584267
                        0.460017        0.852899     -0.000323961     0.000266847        -0.173551        0.112295     -0.000470021    -0.000241342
                    -0.000214267     0.000277594         0.788513        0.583951     -0.000427807    -0.000321913        0.0615815        0.155829
281710                 -0.199694       0.0808633      0.000213902     0.000322647         0.460149        0.852797     -0.000308433     0.000309252
                     0.000237272     0.000330294        -0.171013      -0.0128471     -0.000415047     0.000217307         0.788836        0.583935
                        0.460444        0.852688     -0.000323171     0.000269292        -0.173395        0.112432     -0.000470601    -0.000241237
                    -0.000214319     0.000277748         0.788812        0.583654     -0.000428349    -0.000321641         0.061694        0.155792
281712                 -0.199634       0.0808497      0.000142474     0.000282647         0.460576        0.852585     -0.000308506     0.000309377
                     0.000237523     0.000330341        -0.171019      -0.0128215     -0.000415062     0.000217628          0.78908        0.583603
                        0.460871        0.852476     -0.000321594     0.000271622        -0.173239        0.112568      -0.00047118    -0.000241132
                    -0.000214371     0.000277903         0.789196        0.583407     -0.000428891    -0.000321369        0.0618065        0.155756
281714                 -0.199574       0.0808362      0.000129491     0.000366909         0.461004        0.852373     -0.000308579     0.000309501
                     0.000237773     0.000330388        -0.171021       -0.012794     -0.000415077     0.000217949         0.789323        0.583271
                        0.461297        0.852264     -0.000319837     0.000273236        -0.173083        0.112704      -0.00047176    -0.000241026
                    -0.000214424     0.000278057         0.789873          0.5833     -0.000429433    -0.000321097        0.0619189        0.155719
281716                 -0.199514       0.0808227      0.000152757     0.000378788         0.461431        0.852161      -0.00030865     0.000309626
                     0.000238021     0.000330436        -0.171011      -0.0127691     -0.000415092      0.00021827         0.789566        0.582939
                        0.461724        0.852051     -0.000318372     0.000274266        -0.172926         0.11284     -0.000472339    -0.000240919
                    -0.000214478     0.000278212          0.79436        0.583312     -0.000429976    -0.000320825        0.0620313        0.155682
281718                 -0.199455       0.0808092      0.000162287     0.000379959         0.461858        0.851948     -0.000308722     0.000309751
                     0.000238269     0.000330485        -0.170999      -0.0127753     -0.000415108      0.00021859         0.789809        0.582607
                         0.46215        0.851839     -0.000317283     0.000274991         -0.17277        0.112975     -0.000472917    -0.000240811
                    -0.000214533     0.000278366         0.787966        0.580634     -0.000430518    -0.000320554        0.0621437        0.155645
281720                 -0.199395       0.0807957      0.000167018     0.000379911         0.462284        0.851736     -0.000308792     0.000309876
                     0.000238515     0.000330534         -0.17103      -0.0127755     -0.000415123     0.000218909         0.790052        0.582275
                        0.462576        0.851626     -0.000316498      0.00027558        -0.172613        0.113111     -0.000473496    -0.000240702
                    -0.000214588     0.000278521         0.788898        0.581119     -0.000431061    -0.000320283         0.062256        0.155608
281722                 -0.199336       0.0807823      0.000169789     0.000379717         0.462711        0.851523     -0.000308862     0.000310001
                     0.000238761     0.000330583        -0.171054      -0.0127504     -0.000415138     0.000219228         0.790295        0.581942
                        0.463001        0.851413     -0.000315927     0.000276114        -0.172457        0.113246     -0.000474074    -0.000240593
                    -0.000214644     0.000278676         0.789344        0.580981     -0.000431603    -0.000320011        0.0623684        0.155571
281724                 -0.199277       0.0807688      0.000171618     0.000379542         0.463137         0.85131     -0.000308931     0.000310126
                     0.000239005     0.000330633        -0.171068      -0.0127236     -0.000415154     0.000219546         0.790538         0.58161
                        0.463427          0.8512     -0.000315504     0.000276625        -0.172301        0.113381     -0.000474652    -0.000240482
                      -0.0002147     0.000278831         0.789678        0.580731     -0.000432146     -0.00031974        0.0624807        0.155534
281726                 -0.199217       0.0807554      0.000172942     0.000379409         0.463564        0.851096        -0.000309     0.000310252
                     0.000239249     0.000330684        -0.171079       -0.012698     -0.000415169     0.000219863          0.79078        0.581277
                        0.463852        0.850987     -0.000315183     0.000277126        -0.172144        0.113516      -0.00047523    -0.000240371
                    -0.000214757     0.000278985         0.789969        0.580442     -0.000432689    -0.000319469        0.0625929        0.155497
281728                 -0.199158        0.080742      0.000173974     0.000379311          0.46399        0.850883     -0.000309068     0.000310377
                     0.000239492     0.000330735        -0.171089      -0.0126733     -0.000415185      0.00022018         0.791023        0.580945
                        0.464278        0.850773     -0.000314932     0.000277625        -0.171988        0.113651     -0.000475808    -0.000240259
                    -0.000214815      0.00027914          0.79024        0.580136     -0.000433232    -0.000319199        0.0627052         0.15546
281730                 -0.199099       0.0807286      0.000174827     0.000379242         0.464416        0.850669     -0.000309136     0.000310503
                     0.000239735     0.000330786        -0.171098      -0.0126491     -0.000415201     0.000220497         0.791265        0.580612
                        0.464703         0.85056     -0.000314732     0.000278123        -0.171831        0.113785     -0.000476385    -0.000240146
                    -0.000214873     0.000279296           0.7905         0.57982     -0.000433775    -0.000318928        0.0628174        0.155422
281732                  -0.19904       0.0807152      0.000175568     0.000379194         0.464841        0.850455     -0.000309202     0.000310629
                     0.000239976     0.000330838        -0.171107      -0.0126253     -0.000415216     0.000220813         0.791507        0.580279
                        0.465128        0.850346     -0.000314568      0.00027862        -0.171675         0.11392     -0.000476962    -0.000240032
                    -0.000214931     0.000279451         0.790753        0.579498     -0.000434318    -0.000318657        0.0629296        0.155385
281734                 -0.198981       0.0807019      0.000176234     0.000379162         0.465267        0.850241     -0.000309269     0.000310755
                     0.000240217     0.000330891        -0.171116      -0.0126017     -0.000415232     0.000221128         0.791749        0.579946
                        0.465553        0.850132     -0.000314431     0.000279116        -0.171518        0.114054     -0.000477539    -0.000239917
                    -0.000214991     0.000279606         0.791002        0.579173     -0.000434862    -0.000318386        0.0630417        0.155347
281736                 -0.198922       0.0806886      0.000176851     0.000379141         0.465692        0.850027     -0.000309334     0.000310881
                     0.000240457     0.000330944        -0.171125      -0.0125783     -0.000415248     0.000221443         0.791991        0.579613
                        0.465977        0.849918     -0.000314314     0.000279613        -0.171361        0.114188     -0.000478115    -0.000239802
                     -0.00021505     0.000279762         0.791249        0.578846     -0.000435405    -0.000318115        0.0631538         0.15531
281738                 -0.198863       0.0806752      0.000177435      0.00037913         0.466117        0.849812     -0.000309399     0.000311007
                     0.000240697     0.000330997        -0.171133      -0.0125549     -0.000415264     0.000221758         0.792233         0.57928
                        0.466402        0.849703     -0.000314211     0.000280109        -0.171205        0.114322     -0.000478692    -0.000239685
                     -0.00021511     0.000279918         0.791493        0.578517     -0.000435949    -0.000317844        0.0632659        0.155272
281740                 -0.198804       0.0806619      0.000177996     0.000379125         0.466542        0.849598     -0.000309464     0.000311133
                     0.000240935     0.000331051        -0.171142      -0.0125316      -0.00041528     0.000222072         0.792474        0.578947
                        0.466826        0.849488      -0.00031412     0.000280606        -0.171048        0.114455     -0.000479268    -0.000239568
                    -0.000215171     0.000280074         0.791737        0.578187     -0.000436492    -0.000317573         0.063378        0.155235
281742                 -0.198745       0.0806487      0.000178542     0.000379126         0.466967        0.849383     -0.000309528      0.00031126
                     0.000241174     0.000331105         -0.17115      -0.0125083     -0.000415296     0.000222385         0.792715        0.578613
                         0.46725        0.849274     -0.000314038     0.000281101        -0.170891        0.114589     -0.000479844     -0.00023945
                    -0.000215232      0.00028023         0.791979        0.577857     -0.000437036    -0.000317301          0.06349        0.155197
281744                 -0.198687       0.0806354      0.000179077     0.000379131         0.467392        0.849168     -0.000309591     0.000311387
                     0.000241411      0.00033116        -0.171159      -0.0124851     -0.000415312     0.000222698         0.792957         0.57828
                        0.467674        0.849059     -0.000313962     0.000281597        -0.170735        0.114722     -0.000480419    -0.000239331
                    -0.000215294     0.000280386         0.792221        0.577526     -0.000437579     -0.00031703         0.063602        0.155159
281746                 -0.198628       0.0806222      0.000179606     0.000379139         0.467816        0.848952     -0.000309653     0.000311513
                     0.000241648     0.000331216        -0.171167      -0.0124618     -0.000415328     0.000223011         0.793198        0.577946
                        0.468098        0.848843     -0.000313891     0.000282093        -0.170578        0.114855     -0.000480995    -0.000239211
                    -0.000215356     0.000280543         0.792462        0.577194     -0.000438123    -0.000316758         0.063714        0.155121
281748                  -0.19857       0.0806089      0.000180131     0.000379149         0.468241        0.848737     -0.000309715      0.00031164
                     0.000241885     0.000331271        -0.171176      -0.0124386     -0.000415345     0.000223323         0.793439        0.577613
                        0.468521        0.848628     -0.000313825     0.000282588        -0.170421        0.114988      -0.00048157     -0.00023909
                    -0.000215418     0.000280699         0.792702        0.576862     -0.000438666    -0.000316487         0.063826        0.155083
281750                 -0.198511       0.0805957      0.000180653      0.00037916         0.468665        0.848521     -0.000309776     0.000311767
                      0.00024212     0.000331327        -0.171184      -0.0124154     -0.000415361     0.000223635          0.79368        0.577279
                        0.468945        0.848412     -0.000313761     0.000283083        -0.170265        0.115121     -0.000482144    -0.000238968
                    -0.000215481     0.000280856         0.792943         0.57653      -0.00043921    -0.000316215        0.0639379        0.155045
281752                 -0.198453       0.0805825      0.000181174     0.000379174         0.469089        0.848305     -0.000309837     0.000311894
                     0.000242355     0.000331384        -0.171192      -0.0123921     -0.000415378     0.000223947          0.79392        0.576945
                        0.469368        0.848196       -0.0003137     0.000283577        -0.170108        0.115253     -0.000482719    -0.000238845
                    -0.000215545     0.000281013         0.793183        0.576198     -0.000439754    -0.000315943        0.0640498        0.155007
281754                 -0.198394       0.0805694      0.000181694     0.000379188         0.469513        0.848089     -0.000309897     0.000312021
                      0.00024259     0.000331441        -0.171201      -0.0123689     -0.000415394     0.000224258         0.794161        0.576611
                        0.469791         0.84798     -0.000313641     0.000284072        -0.169951        0.115386     -0.000483293    -0.000238721
                    -0.000215609      0.00028117         0.793423        0.575866     -0.000440298     -0.00031567        0.0641617        0.154969
281756                 -0.198336       0.0805562      0.000182216     0.000379202         0.469936        0.847873     -0.000309956     0.000312148
                     0.000242823     0.000331499        -0.171209      -0.0123457     -0.000415411     0.000224568         0.794401        0.576277
                        0.470214        0.847764     -0.000313583     0.000284567        -0.169794        0.115518     -0.000483868    -0.000238595
                    -0.000215673     0.000281328         0.793663        0.575533     -0.000440841    -0.000315398        0.0642735         0.15493
281758                 -0.198278       0.0805431      0.000182738     0.000379217          0.47036        0.847656     -0.000310012     0.000312273
                     0.000243053     0.000331557        -0.171218      -0.0123224     -0.000415428     0.000224879         0.794641        0.575943
                        0.470636        0.847548     -0.000313525     0.000285061        -0.169637         0.11565     -0.000484443    -0.000238464
                    -0.000215739     0.000281484         0.793902        0.575201     -0.000441385    -0.000315125        0.0643853        0.154892
281760                  -0.19822       0.0805299      0.000183262     0.000379232         0.470783         0.84744     -0.000310118     0.000312422
                      0.00024328     0.000331616        -0.171226      -0.0122991     -0.000415444     0.000225189          0.79488        0.575609
                        0.471059        0.847331     -0.000313469     0.000285556         -0.16948        0.115782     -0.000484853    -0.000238386
                    -0.000215803     0.000281637         0.794142        0.574868     -0.000441929    -0.000314851         0.064497        0.154854
281762                 -0.198162       0.0805168      0.000183787     0.000379247         0.471206        0.847223     -0.000310137     0.000312538
                     0.000243494     0.000331669        -0.171235      -0.0122759     -0.000415461     0.000225499         0.795121        0.575274
                        0.471481        0.847114     -0.000313413      0.00028605        -0.169323        0.115913     -0.000485581    -0.000238234
