! TOUCHSTONE file generated by CST MICROWAVE STUDIO
! Date and time: Tue Oct 14 07:25:30 2025
! Project name: Teste_Macro_Metasurface_Nanopilar.cst
! Parameters = {H=600; L_x=80; L_y=120; Lambda=1064; Max_L=200; Min_L=70; PathPara=1; Phi=0; Step_L=10; Theta=0; p=520; phaseX=180; phaseY=0}
! Header version: 2018
! Port assignment regex: !\s*Touchstone port\s*([0-9]+)\s*=\s*(CST MWS port|CST DS port)\s*([0-9]+|Zmin|Zmax)\s*\(\"(.*)\"\)(\s*mode\s*([0-9]+))?.*
! Touchstone port assignment:
! Touchstone port 1 = CST MWS port Zmax ("") mode 1
! Touchstone port 2 = CST MWS port Zmax ("") mode 2
! Touchstone port 3 = CST MWS port Zmin ("") mode 1
! Touchstone port 4 = CST MWS port Zmin ("") mode 2
! S-Parameters are not renormalized. Each port impedance will be approximated by the real part at minimum frequency. The values are described via the [Reference] keyword.
! Default impedance is overridden by [Reference]
[Version] 2.0
# GHz S RI R 376.73
[Number of Ports] 4
[Reference]
376.73 376.73 259.814 259.814 
[Number of Frequencies] 51
[Network Data]
281700                -0.0895599      -0.0547014      0.000374031     0.000234538          0.43328       -0.890563      0.000115676     0.000491453
                     0.000411403     0.000192523       -0.0102408       0.0944076      0.000209305     0.000494816         0.989466       -0.101823
                         0.43316       -0.890547       0.00020879     0.000356745       -0.0982188      -0.0355176     -9.18247e-05     0.000462873
                     0.000239797     0.000441644         0.989738        -0.10179     -1.91136e-05     0.000604165        0.0291129       0.0905079
281702                -0.0895861      -0.0546826      0.000374374     0.000234449         0.432892        -0.89075      0.000116029     0.000491432
                     0.000411625     0.000192564       -0.0102061       0.0944057      0.000209418     0.000494949         0.989429       -0.102188
                        0.432772       -0.890733      0.000209009     0.000356651       -0.0982515      -0.0354643     -9.14684e-05     0.000463126
                      0.00023993     0.000441693         0.989701       -0.102155     -1.90022e-05     0.000604598        0.0291453       0.0904916
281704                -0.0896122      -0.0546639      0.000374718     0.000234359         0.432504       -0.890936      0.000116382      0.00049141
                     0.000411847     0.000192605       -0.0101714       0.0944038      0.000209532     0.000495082         0.989392       -0.102553
                        0.432384       -0.890919      0.000209228     0.000356556       -0.0982841       -0.035411     -9.11122e-05      0.00046338
                     0.000240063     0.000441741         0.989663        -0.10252     -1.88904e-05     0.000605031        0.0291776       0.0904753
281706                -0.0896383      -0.0546451      0.000375061     0.000234269         0.432115       -0.891123      0.000116735     0.000491389
                     0.000412069     0.000192646       -0.0101366        0.094402      0.000209645     0.000495215         0.989355       -0.102918
                        0.431996       -0.891106      0.000209447     0.000356462       -0.0983166      -0.0353576     -9.07562e-05     0.000463634
                     0.000240196     0.000441789         0.989626       -0.102885      -1.8778e-05     0.000605464        0.0292099       0.0904591
281708                -0.0896644      -0.0546263      0.000375404     0.000234179         0.431727       -0.891309      0.000117088     0.000491367
                     0.000412291     0.000192686       -0.0101019       0.0944001      0.000209759     0.000495347         0.989317       -0.103282
                        0.431607       -0.891292      0.000209665     0.000356367       -0.0983492      -0.0353042     -9.04003e-05     0.000463887
                     0.000240329     0.000441837         0.989589        -0.10325     -1.86651e-05     0.000605897        0.0292422       0.0904427
281710                -0.0896906      -0.0546074      0.000375748     0.000234089         0.431339       -0.891496      0.000117441     0.000491345
                     0.000412513     0.000192725       -0.0100671       0.0943982      0.000209873      0.00049548          0.98928       -0.103647
                        0.431219       -0.891478      0.000209884     0.000356272       -0.0983817      -0.0352508     -9.00445e-05      0.00046414
                     0.000240462     0.000441885         0.989551       -0.103615     -1.85516e-05     0.000606329        0.0292745       0.0904264
281712                -0.0897167      -0.0545886       0.00037609     0.000233999          0.43095       -0.891682      0.000117794     0.000491323
                     0.000412735     0.000192764       -0.0100324       0.0943963      0.000209988     0.000495612         0.989242       -0.104012
                         0.43083       -0.891663      0.000210102     0.000356177       -0.0984142      -0.0351973     -8.96888e-05     0.000464393
                     0.000240595     0.000441933         0.989513       -0.103979     -1.84377e-05     0.000606762        0.0293068       0.0904101
281714                -0.0897428      -0.0545697      0.000376433     0.000233908         0.430562       -0.891868      0.000118146       0.0004913
                     0.000412958     0.000192803      -0.00999769       0.0943943      0.000210102     0.000495743         0.989204       -0.104377
                        0.430442       -0.891849       0.00021032     0.000356082       -0.0984466      -0.0351439     -8.93333e-05     0.000464646
                     0.000240728      0.00044198         0.989475       -0.104344     -1.83232e-05     0.000607194        0.0293391       0.0903938
281716                -0.0897689      -0.0545509      0.000376776     0.000233817         0.430173       -0.892053      0.000118499     0.000491278
                      0.00041318     0.000192841      -0.00996297       0.0943924      0.000210217     0.000495875         0.989167       -0.104741
                        0.430053       -0.892034      0.000210538     0.000355986        -0.098479      -0.0350904     -8.89779e-05     0.000464899
                     0.000240861     0.000442028         0.989437       -0.104709     -1.82082e-05     0.000607626        0.0293714       0.0903774
281718                 -0.089795       -0.054532      0.000377118     0.000233726         0.429784       -0.892239      0.000118851     0.000491255
                     0.000413403     0.000192878      -0.00992825       0.0943904      0.000210332     0.000496006         0.989129       -0.105106
                        0.429664       -0.892219      0.000210756     0.000355891       -0.0985114      -0.0350368     -8.86226e-05     0.000465151
                     0.000240994     0.000442075         0.989399       -0.105074     -1.80926e-05     0.000608058        0.0294036       0.0903611
281720                -0.0898212      -0.0545131       0.00037746     0.000233635         0.429395       -0.892424      0.000119204     0.000491232
                     0.000413626     0.000192915      -0.00989353       0.0943885      0.000210447     0.000496137          0.98909       -0.105471
                        0.429275       -0.892405      0.000210974     0.000355795       -0.0985438      -0.0349833     -8.82674e-05     0.000465403
                     0.000241127     0.000442122         0.989361       -0.105439     -1.79765e-05      0.00060849        0.0294359       0.0903447
281722                -0.0898473      -0.0544942      0.000377802     0.000233544         0.429006        -0.89261      0.000119556     0.000491209
                     0.000413849     0.000192952      -0.00985881       0.0943865      0.000210563     0.000496268         0.989052       -0.105836
                        0.428886       -0.892589      0.000211191       0.0003557       -0.0985761      -0.0349297     -8.79124e-05     0.000465655
                      0.00024126     0.000442168         0.989322       -0.105804     -1.78599e-05     0.000608921        0.0294681       0.0903283
281724                -0.0898734      -0.0544753      0.000378144     0.000233452         0.428617       -0.892795      0.000119908     0.000491186
                     0.000414072     0.000192988      -0.00982409       0.0943845      0.000210678     0.000496398         0.989014         -0.1062
                        0.428497       -0.892774      0.000211409     0.000355604       -0.0986084      -0.0348761     -8.75575e-05     0.000465907
                     0.000241393     0.000442215         0.989284       -0.106168     -1.77428e-05     0.000609353        0.0295004       0.0903119
281726                -0.0898995      -0.0544564      0.000378486     0.000233361         0.428228        -0.89298       0.00012026     0.000491162
                     0.000414295     0.000193024      -0.00978938       0.0943825      0.000210794     0.000496528         0.988975       -0.106565
                        0.428108       -0.892959      0.000211626     0.000355508       -0.0986407      -0.0348225     -8.72027e-05     0.000466159
                     0.000241526     0.000442261         0.989245       -0.106533     -1.76251e-05     0.000609784        0.0295326       0.0902955
281728                -0.0899256      -0.0544374      0.000378828     0.000233269         0.427839       -0.893164      0.000120612     0.000491138
                     0.000414518     0.000193059      -0.00975467       0.0943805       0.00021091     0.000496658         0.988937        -0.10693
                        0.427719       -0.893143      0.000211843     0.000355412       -0.0986729      -0.0347689     -8.68481e-05      0.00046641
                     0.000241659     0.000442307         0.989206       -0.106898     -1.75069e-05     0.000610216        0.0295648       0.0902791
281730                -0.0899517      -0.0544185      0.000379169     0.000233177         0.427449       -0.893349      0.000120963     0.000491114
                     0.000414741     0.000193094      -0.00971996       0.0943785      0.000211026     0.000496788         0.988898       -0.107294
                         0.42733       -0.893327       0.00021206     0.000355315       -0.0987052      -0.0347152     -8.64935e-05     0.000466661
                     0.000241792     0.000442352         0.989167       -0.107262     -1.73882e-05     0.000610647        0.0295971       0.0902627
281732                -0.0899778      -0.0543995       0.00037951     0.000233085          0.42706       -0.893534      0.000121315      0.00049109
                     0.000414965     0.000193128      -0.00968525       0.0943764      0.000211143     0.000496918         0.988859       -0.107659
                         0.42694       -0.893511      0.000212277     0.000355219       -0.0987373      -0.0346615     -8.61391e-05     0.000466912
                     0.000241925     0.000442398         0.989128       -0.107627     -1.72689e-05     0.000611078        0.0296293       0.0902463
281734                -0.0900039      -0.0543805      0.000379851     0.000232992         0.426671       -0.893718      0.000121666     0.000491066
                     0.000415188     0.000193162      -0.00965055       0.0943744      0.000211259     0.000497047          0.98882       -0.108024
                        0.426551       -0.893695      0.000212494     0.000355123       -0.0987695      -0.0346078     -8.57848e-05     0.000467163
                     0.000242059     0.000442443         0.989089       -0.107992     -1.71491e-05     0.000611509        0.0296615       0.0902298
281736                  -0.09003      -0.0543616      0.000380192       0.0002329         0.426281       -0.893902      0.000122018     0.000491042
                     0.000415412     0.000193196      -0.00961585       0.0943723      0.000211376     0.000497176         0.988781       -0.108388
                        0.426161       -0.893879       0.00021271     0.000355026       -0.0988016      -0.0345541     -8.54306e-05     0.000467414
                     0.000242192     0.000442488          0.98905       -0.108357     -1.70288e-05     0.000611939        0.0296937       0.0902133
281738                -0.0900561      -0.0543426      0.000380533     0.000232807         0.425891       -0.894086      0.000122369     0.000491017
                     0.000415636     0.000193228      -0.00958115       0.0943702      0.000211494     0.000497305         0.988741       -0.108753
                        0.425771       -0.894063      0.000212927      0.00035493       -0.0988337      -0.0345003     -8.50765e-05     0.000467664
                     0.000242325     0.000442533          0.98901       -0.108721     -1.69079e-05      0.00061237        0.0297258       0.0901969
281740                -0.0900822      -0.0543235      0.000380874     0.000232714         0.425502        -0.89427       0.00012272     0.000490992
                      0.00041586     0.000193261      -0.00954645       0.0943681      0.000211611     0.000497434         0.988702       -0.109117
                        0.425382       -0.894246      0.000213143     0.000354833       -0.0988658      -0.0344465     -8.47225e-05     0.000467915
                     0.000242459     0.000442577         0.988971       -0.109086     -1.67865e-05       0.0006128         0.029758       0.0901804
281742                -0.0901083      -0.0543045      0.000381214     0.000232621         0.425112       -0.894453      0.000123071     0.000490968
                     0.000416084     0.000193293      -0.00951176        0.094366      0.000211728     0.000497562         0.988662       -0.109482
                        0.424992       -0.894429      0.000213359     0.000354736       -0.0988978      -0.0343927     -8.43685e-05     0.000468165
                     0.000242592     0.000442622         0.988931       -0.109451     -1.66646e-05      0.00061323        0.0297902       0.0901639
281744                -0.0901344      -0.0542855      0.000381554     0.000232527         0.424722       -0.894637      0.000123423     0.000490943
                     0.000416308     0.000193324      -0.00947706       0.0943639      0.000211846      0.00049769         0.988622       -0.109847
                        0.424602       -0.894612      0.000213575     0.000354639       -0.0989298      -0.0343389     -8.40145e-05     0.000468415
                     0.000242725     0.000442666         0.988891       -0.109815     -1.65421e-05      0.00061366        0.0298223       0.0901474
281746                -0.0901605      -0.0542664      0.000381894     0.000232434         0.424332        -0.89482      0.000123775     0.000490918
                     0.000416532     0.000193355      -0.00944237       0.0943618      0.000211964     0.000497818         0.988582       -0.110211
                        0.424212       -0.894795       0.00021379     0.000354541       -0.0989618       -0.034285     -8.36597e-05     0.000468665
                     0.000242859      0.00044271         0.988851        -0.11018     -1.64191e-05      0.00061409        0.0298545       0.0901309
281748                -0.0901866      -0.0542473      0.000382233      0.00023234         0.423942       -0.895003       0.00012411     0.000490879
                     0.000416757     0.000193385      -0.00940768       0.0943596      0.000212083     0.000497946         0.988543       -0.110576
                        0.423822       -0.894978      0.000214005     0.000354443       -0.0989938      -0.0342311      -8.3322e-05     0.000468904
                     0.000242991     0.000442753         0.988811       -0.110544     -1.62956e-05      0.00061452        0.0298866       0.0901144
281750                -0.0902126      -0.0542283      0.000382582     0.000232246         0.423552       -0.895186      0.000124472     0.000490863
                     0.000416979     0.000193413        -0.009373       0.0943575      0.000212201     0.000498074         0.988502        -0.11094
                        0.423432        -0.89516      0.000214232     0.000354354       -0.0990257      -0.0341772     -8.29569e-05     0.000469161
                     0.000243121     0.000442796         0.988771       -0.110909     -1.61724e-05     0.000614951        0.0299188       0.0900978
281752                -0.0902387      -0.0542092      0.000382916     0.000232152         0.423161       -0.895369      0.000124823     0.000490838
                     0.000417212     0.000193449      -0.00933832       0.0943553       0.00021232       0.0004982         0.988462       -0.111305
                        0.423041       -0.895343       0.00021444     0.000354251       -0.0990576      -0.0341233     -8.26029e-05     0.000469411
                     0.000243267     0.000442836          0.98873       -0.111274     -1.60467e-05     0.000615379        0.0299509       0.0900813
281754                -0.0902648      -0.0541901      0.000383255     0.000232058         0.422771       -0.895551      0.000125174     0.000490812
                     0.000417434     0.000193477      -0.00930364       0.0943531      0.000212439     0.000498327         0.988422       -0.111669
                        0.422651       -0.895525      0.000214654     0.000354153       -0.0990894      -0.0340693     -8.22496e-05      0.00046966
                     0.000243397     0.000442881          0.98869       -0.111638     -1.59216e-05     0.000615808         0.029983       0.0900647
281756                -0.0902909       -0.054171      0.000383594     0.000231964         0.422381       -0.895734      0.000125524     0.000490786
                     0.000417659     0.000193505      -0.00926896       0.0943509      0.000212558     0.000498453         0.988381       -0.112034
                        0.422261       -0.895707      0.000214869     0.000354055       -0.0991213      -0.0340153     -8.18965e-05     0.000469909
                     0.000243531     0.000442924         0.988649       -0.112003     -1.57959e-05     0.000616237        0.0300151       0.0900481
281758                 -0.090317      -0.0541518      0.000383933     0.000231869          0.42199       -0.895916      0.000125874     0.000490759
                     0.000417884     0.000193533      -0.00923428       0.0943487      0.000212677      0.00049858          0.98834       -0.112398
                         0.42187       -0.895889      0.000215084     0.000353958       -0.0991531      -0.0339613     -8.15435e-05     0.000470157
                     0.000243664     0.000442967         0.988608       -0.112367     -1.56696e-05     0.000616666        0.0300472       0.0900316
281760                 -0.090343      -0.0541327      0.000384272     0.000231774           0.4216       -0.896098      0.000126224     0.000490733
                     0.000418109     0.000193561      -0.00919961       0.0943465      0.000212797     0.000498706         0.988299       -0.112763
                         0.42148       -0.896071      0.000215299      0.00035386       -0.0991848      -0.0339073     -8.11908e-05     0.000470405
                     0.000243799     0.000443009         0.988567       -0.112732     -1.55428e-05     0.000617095        0.0300793        0.090015
281762                -0.0903691      -0.0541135      0.000384611     0.000231679         0.421209        -0.89628      0.000126574     0.000490706
                     0.000418335     0.000193588      -0.00916494       0.0943443      0.000212917     0.000498832         0.988259       -0.113127
                        0.421089       -0.896252      0.000215514     0.000353762       -0.0992166      -0.0338532     -8.08381e-05     0.000470653
