! TOUCHSTONE file generated by CST MICROWAVE STUDIO
! Date and time: Tue Oct 14 07:33:09 2025
! Project name: Teste_Macro_Metasurface_Nanopilar.cst
! Parameters = {H=600; L_x=200; L_y=160; Lambda=1064; Max_L=200; Min_L=70; PathPara=1; Phi=0; Step_L=10; Theta=0; p=520; phaseX=180; phaseY=0}
! Header version: 2018
! Port assignment regex: !\s*Touchstone port\s*([0-9]+)\s*=\s*(CST MWS port|CST DS port)\s*([0-9]+|Zmin|Zmax)\s*\(\"(.*)\"\)(\s*mode\s*([0-9]+))?.*
! Touchstone port assignment:
! Touchstone port 1 = CST MWS port Zmax ("") mode 1
! Touchstone port 2 = CST MWS port Zmax ("") mode 2
! Touchstone port 3 = CST MWS port Zmin ("") mode 1
! Touchstone port 4 = CST MWS port Zmin ("") mode 2
! S-Parameters are not renormalized. Each port impedance will be approximated by the real part at minimum frequency. The values are described via the [Reference] keyword.
! Default impedance is overridden by [Reference]
[Version] 2.0
# GHz S RI R 376.73
[Number of Ports] 4
[Reference]
376.73 376.73 259.814 259.814 
[Number of Frequencies] 51
[Network Data]
281700                 -0.228604       -0.120286     -0.000388806    -0.000674807         0.835089        0.478666      0.000168076    -0.000801923
                     -0.00037837    -0.000719851        -0.278834       -0.105544     -0.000311619     -0.00102673         0.949872         0.04193
                        0.834959        0.479249      -0.00011595    -0.000860554         0.218299        0.135341       0.00079182    -0.000869894
                      0.00018896    -0.000702444         0.949854       0.0423499      0.000662508    -0.000842137         0.284721      -0.0818095
281702                 -0.228643       -0.120224     -0.000388831    -0.000674652         0.835283        0.478326      0.000167607    -0.000801923
                    -0.000378713    -0.000719795        -0.278879        -0.10547     -0.000311771     -0.00102678         0.949884       0.0415367
                        0.835153        0.478909     -0.000116236    -0.000860498         0.218376        0.135228      0.000791457    -0.000870304
                     0.000188556    -0.000702576         0.949867       0.0419571       0.00066203    -0.000842834         0.284692      -0.0819679
281704                 -0.228683       -0.120161     -0.000388858    -0.000674497         0.835477        0.477986      0.000167138    -0.000801923
                    -0.000379057     -0.00071974        -0.278923       -0.105396     -0.000311923     -0.00102683         0.949896       0.0411435
                        0.835346        0.478569     -0.000116523    -0.000860443         0.218452        0.135116      0.000791094    -0.000870714
                     0.000188152    -0.000702708         0.949879       0.0415643      0.000661556    -0.000843529         0.284663      -0.0821263
281706                 -0.228722       -0.120099     -0.000388887    -0.000674344          0.83567        0.477646       0.00016667    -0.000801922
                    -0.000379401    -0.000719684        -0.278968       -0.105322     -0.000312076     -0.00102687         0.949908       0.0407503
                         0.83554        0.478228     -0.000116812    -0.000860387         0.218529        0.135003       0.00079073    -0.000871123
                     0.000187747     -0.00070284         0.949892       0.0411716      0.000661086    -0.000844222         0.284633      -0.0822846
281708                 -0.228762       -0.120036     -0.000388918    -0.000674191         0.835863        0.477306      0.000166201    -0.000801921
                    -0.000379747    -0.000719627        -0.279013       -0.105248     -0.000312229     -0.00102692          0.94992        0.040357
                        0.835733        0.477888     -0.000117102    -0.000860331         0.218605        0.134891      0.000790366    -0.000871533
                     0.000187343    -0.000702971         0.949904       0.0407788       0.00066062    -0.000844914         0.284604       -0.082443
281710                 -0.228801       -0.119974      -0.00038895     -0.00067404         0.836056        0.476966      0.000165732     -0.00080192
                    -0.000380093    -0.000719571        -0.279058       -0.105174     -0.000312382     -0.00102696         0.949932       0.0399638
                        0.835926        0.477548     -0.000117393    -0.000860275         0.218681        0.134778      0.000790002    -0.000871943
                     0.000186939    -0.000703102         0.949917        0.040386      0.000660157    -0.000845603         0.284575      -0.0826014
281712                 -0.228841       -0.119911     -0.000388985     -0.00067389         0.836249        0.476625      0.000165264    -0.000801919
                    -0.000380439    -0.000719515        -0.279103         -0.1051     -0.000312536     -0.00102699         0.949944       0.0395706
                        0.836119        0.477207     -0.000117686    -0.000860219         0.218758        0.134666      0.000789637    -0.000872352
                     0.000186535    -0.000703232         0.949929       0.0399932      0.000659697    -0.000846291         0.284545      -0.0827597
281714                  -0.22888       -0.119849     -0.000389022    -0.000673742         0.836442        0.476285      0.000164795    -0.000801917
                    -0.000380786    -0.000719458        -0.279147       -0.105026      -0.00031269     -0.00102702         0.949955       0.0391773
                        0.836312        0.476867      -0.00011798    -0.000860163         0.218834        0.134553      0.000789273    -0.000872762
                      0.00018613    -0.000703363         0.949941       0.0396004      0.000659242    -0.000846977         0.284516       -0.082918
281716                  -0.22892       -0.119786     -0.000389061    -0.000673594         0.836635        0.475944      0.000164326    -0.000801916
                    -0.000381134    -0.000719401        -0.279192       -0.104952     -0.000312845     -0.00102705         0.949966       0.0387841
                        0.836504        0.476526     -0.000118275    -0.000860108          0.21891         0.13444      0.000788907    -0.000873171
                     0.000185726    -0.000703493         0.949952       0.0392076      0.000658789     -0.00084766         0.284486      -0.0830764
281718                 -0.228959       -0.119724     -0.000389102    -0.000673448         0.836828        0.475604      0.000163857    -0.000801914
                    -0.000381482    -0.000719344        -0.279237       -0.104878     -0.000313001     -0.00102708         0.949977       0.0383908
                        0.836697        0.476185     -0.000118571    -0.000860052         0.218986        0.134328      0.000788542     -0.00087358
                     0.000185322    -0.000703623         0.949964       0.0388148      0.000658341    -0.000848342         0.284456      -0.0832347
281720                 -0.228999       -0.119661     -0.000389145    -0.000673303          0.83702        0.475263      0.000163388    -0.000801912
                    -0.000381831    -0.000719286        -0.279281       -0.104804     -0.000313157      -0.0010271         0.949988       0.0379976
                        0.836889        0.475844     -0.000118869    -0.000859997         0.219063        0.134215      0.000788176    -0.000873989
                     0.000184918    -0.000703753         0.949975        0.038422      0.000657895    -0.000849022         0.284426       -0.083393
281722                 -0.229038       -0.119599      -0.00038919     -0.00067316         0.837212        0.474923       0.00016292     -0.00080191
                     -0.00038218    -0.000719229        -0.279326        -0.10473     -0.000313313     -0.00102712         0.949999       0.0376043
                        0.837082        0.475504     -0.000119168    -0.000859941         0.219139        0.134102       0.00078781    -0.000874399
                     0.000184514    -0.000703882         0.949987       0.0380292      0.000657453    -0.000849699         0.284396      -0.0835513
281724                 -0.229078       -0.119536     -0.000389237    -0.000673018         0.837404        0.474582      0.000162451    -0.000801908
                     -0.00038253    -0.000719171        -0.279371       -0.104656     -0.000313471     -0.00102713         0.950009        0.037211
                        0.837274        0.475163     -0.000119468    -0.000859886         0.219215        0.133989      0.000787444    -0.000874808
                      0.00018411    -0.000704011         0.949998       0.0376364      0.000657013    -0.000850375         0.284366      -0.0837096
281726                 -0.229117       -0.119474     -0.000389286    -0.000672877         0.837596        0.474241      0.000161982    -0.000801905
                     -0.00038288    -0.000719112        -0.279415       -0.104581     -0.000313628     -0.00102715          0.95002       0.0368178
                        0.837466        0.474822     -0.000119769    -0.000859831         0.219291        0.133877      0.000787077    -0.000875216
                     0.000183707     -0.00070414         0.950009       0.0372436      0.000656577    -0.000851049         0.284336      -0.0838678
281728                 -0.229157       -0.119411     -0.000389337    -0.000672738         0.837788          0.4739      0.000161513    -0.000801903
                     -0.00038323    -0.000719054         -0.27946       -0.104507     -0.000313787     -0.00102716          0.95003       0.0364245
                        0.837657        0.474481     -0.000120072    -0.000859776         0.219366        0.133764       0.00078671    -0.000875625
                     0.000183303    -0.000704269          0.95002       0.0368508      0.000656144     -0.00085172         0.284306      -0.0840261
281730                 -0.229196       -0.119348      -0.00038939    -0.000672601          0.83798        0.473559      0.000161044      -0.0008019
                    -0.000383581    -0.000718995        -0.279504       -0.104433     -0.000313947     -0.00102717          0.95004       0.0360313
                        0.837849        0.474139     -0.000120375    -0.000859722         0.219442        0.133651      0.000786343    -0.000876034
                     0.000182899    -0.000704397          0.95003        0.036458      0.000655714    -0.000852389         0.284276      -0.0841843
281732                 -0.229235       -0.119286     -0.000389445    -0.000672465         0.838171        0.473218      0.000160576    -0.000801897
                    -0.000383933    -0.000718936        -0.279549       -0.104359     -0.000314107     -0.00102717          0.95005        0.035638
                        0.838041        0.473798      -0.00012068    -0.000859668         0.219518        0.133538      0.000785975    -0.000876443
                     0.000182496    -0.000704526         0.950041       0.0360652      0.000655287    -0.000853057         0.284245      -0.0843426
281734                 -0.229275       -0.119223     -0.000389502     -0.00067233         0.838363        0.472877      0.000160107    -0.000801894
                    -0.000384284    -0.000718877        -0.279593       -0.104284     -0.000314268     -0.00102717          0.95006       0.0352447
                        0.838232        0.473457     -0.000120986    -0.000859614         0.219594        0.133425      0.000785607    -0.000876851
                     0.000182092    -0.000704654         0.950051       0.0356724      0.000654862    -0.000853722         0.284215      -0.0845008
281736                 -0.229314       -0.119161     -0.000389561    -0.000672198         0.838554        0.472536      0.000159638    -0.000801892
                    -0.000384636    -0.000718818        -0.279638        -0.10421     -0.000314429     -0.00102717         0.950069       0.0348514
                        0.838423        0.473116     -0.000121293     -0.00085956         0.219669        0.133312      0.000785239     -0.00087726
                     0.000181689    -0.000704782         0.950061       0.0352796      0.000654441    -0.000854385         0.284184       -0.084659
281738                 -0.229353       -0.119098     -0.000389622    -0.000672066         0.838745        0.472194      0.000159169    -0.000801889
                    -0.000384988    -0.000718758        -0.279682       -0.104136     -0.000314592     -0.00102717         0.950079       0.0344582
                        0.838614        0.472774     -0.000121601    -0.000859507         0.219745        0.133199      0.000784871    -0.000877668
                     0.000181285    -0.000704909         0.950071       0.0348868      0.000654022    -0.000855045         0.284154      -0.0848172
281740                 -0.229393       -0.119035     -0.000389686    -0.000671937         0.838936        0.471853        0.0001587    -0.000801886
                    -0.000385341    -0.000718698        -0.279727       -0.104062     -0.000314755     -0.00102716         0.950088       0.0340649
                        0.838805        0.472433     -0.000121911    -0.000859454         0.219821        0.133085      0.000784502    -0.000878077
                     0.000180882    -0.000705037         0.950081        0.034494      0.000653606    -0.000855704         0.284123      -0.0849754
281742                 -0.229432       -0.118973     -0.000389751    -0.000671809         0.839127        0.471511      0.000158232    -0.000801883
                    -0.000385694    -0.000718638        -0.279771       -0.103987     -0.000314919     -0.00102715         0.950097       0.0336716
                        0.838996        0.472091     -0.000122221    -0.000859401         0.219896        0.132972      0.000784133    -0.000878485
                     0.000180479    -0.000705164         0.950091       0.0341011      0.000653192     -0.00085636         0.284092      -0.0851336
281744                 -0.229471        -0.11891     -0.000389818    -0.000671683         0.839318         0.47117      0.000157762     -0.00080188
                    -0.000386047    -0.000718577        -0.279816       -0.103913     -0.000315084     -0.00102714         0.950106       0.0332783
                        0.839187        0.471749     -0.000122533    -0.000859349         0.219971        0.132859      0.000783763    -0.000878893
                     0.000180076    -0.000705291         0.950101       0.0337083      0.000652781    -0.000857015         0.284061      -0.0852918
281746                 -0.229511       -0.118847     -0.000389888    -0.000671559         0.839508        0.470828      0.000157293    -0.000801878
                    -0.000386401    -0.000718516         -0.27986       -0.103838      -0.00031525     -0.00102713         0.950115       0.0328851
                        0.839377        0.471408     -0.000122845    -0.000859297         0.220047        0.132746      0.000783393      -0.0008793
                     0.000179673    -0.000705418          0.95011       0.0333155      0.000652372    -0.000857667          0.28403      -0.0854499
281748                  -0.22955       -0.118785     -0.000389959    -0.000671436         0.839699        0.470487      0.000156823    -0.000801877
                    -0.000386755    -0.000718455        -0.279905       -0.103764     -0.000315417     -0.00102711         0.950124       0.0324918
                        0.839568        0.471066     -0.000123159    -0.000859245         0.220122        0.132632      0.000783021    -0.000879707
                      0.00017927    -0.000705544         0.950119       0.0329227      0.000651966    -0.000858317         0.283999      -0.0856081
281750                 -0.229589       -0.118722     -0.000390033    -0.000671316         0.839889        0.470145      0.000156354    -0.000801878
                    -0.000387109    -0.000718393        -0.279949        -0.10369     -0.000315584     -0.00102709         0.950132       0.0320985
                        0.839758        0.470724     -0.000123473    -0.000859194         0.220197        0.132519      0.000782644    -0.000880111
                     0.000178867    -0.000705671         0.950128       0.0325299      0.000651562    -0.000858964         0.283968      -0.0857662
281752                 -0.229628       -0.118659     -0.000390108    -0.000671197         0.840079        0.469803      0.000155887    -0.000801882
                    -0.000387463    -0.000718332        -0.279993       -0.103615     -0.000315753     -0.00102707          0.95014       0.0317052
                        0.839948        0.470382     -0.000123789    -0.000859143         0.220273        0.132406      0.000782256    -0.000880564
                     0.000178464    -0.000705797         0.950137        0.032137      0.000651161     -0.00085961         0.283936      -0.0859243
281754                 -0.229668       -0.118597     -0.000390186     -0.00067108         0.840269        0.469461      0.000155427    -0.000801887
                    -0.000387818     -0.00071827        -0.280038       -0.103541     -0.000315922     -0.00102705         0.950149       0.0313119
                        0.840138         0.47004     -0.000124106    -0.000859093         0.220348        0.132292      0.000781919     -0.00088095
                     0.000178061    -0.000705922         0.950146       0.0317442      0.000650761    -0.000860253         0.283905      -0.0860824
281756                 -0.229707       -0.118534     -0.000390265    -0.000670964         0.840459        0.469119      0.000154972    -0.000801885
                    -0.000388173    -0.000718207        -0.280082       -0.103466     -0.000316093     -0.00102702         0.950157       0.0309186
                        0.840328        0.469698     -0.000124423    -0.000859043         0.220423        0.132179      0.000781548    -0.000881352
                     0.000177658    -0.000706048         0.950155       0.0313514      0.000650364    -0.000860894         0.283873      -0.0862405
281758                 -0.229746       -0.118471     -0.000390347     -0.00067085         0.840649        0.468777      0.000154514    -0.000801876
                    -0.000388528    -0.000718145        -0.280126       -0.103392     -0.000316264       -0.001027         0.950164       0.0305253
                        0.840517        0.469356     -0.000124742    -0.000858993         0.220498        0.132065      0.000781177    -0.000881759
                     0.000177255    -0.000706173         0.950163       0.0309586       0.00064997    -0.000861532         0.283842      -0.0863986
281760                 -0.229785       -0.118409     -0.000390431    -0.000670738         0.840838        0.468435      0.000154051    -0.000801867
                    -0.000388883    -0.000718082         -0.28017       -0.103317     -0.000316436     -0.00102697         0.950172        0.030132
                        0.840707        0.469013     -0.000125062    -0.000858943         0.220573        0.131952      0.000780806    -0.000882166
                     0.000176851    -0.000706297         0.950172       0.0305657      0.000649577    -0.000862169          0.28381      -0.0865567
281762                 -0.229824       -0.118346     -0.000390517    -0.000670628         0.841028        0.468093      0.000153586    -0.000801858
                    -0.000389239    -0.000718019        -0.280215       -0.103243     -0.000316609     -0.00102694          0.95018       0.0297387
                        0.840896        0.468671     -0.000125383    -0.000858894         0.220648        0.131838      0.000780434    -0.000882573
