! TOUCHSTONE file generated by CST MICROWAVE STUDIO
! Date and time: Tue Oct 14 07:32:51 2025
! Project name: Teste_Macro_Metasurface_Nanopilar.cst
! Parameters = {H=600; L_x=195; L_y=170; Lambda=1064; Max_L=200; Min_L=70; PathPara=1; Phi=0; Step_L=10; Theta=0; p=520; phaseX=180; phaseY=0}
! Header version: 2018
! Port assignment regex: !\s*Touchstone port\s*([0-9]+)\s*=\s*(CST MWS port|CST DS port)\s*([0-9]+|Zmin|Zmax)\s*\(\"(.*)\"\)(\s*mode\s*([0-9]+))?.*
! Touchstone port assignment:
! Touchstone port 1 = CST MWS port Zmax ("") mode 1
! Touchstone port 2 = CST MWS port Zmax ("") mode 2
! Touchstone port 3 = CST MWS port Zmin ("") mode 1
! Touchstone port 4 = CST MWS port Zmin ("") mode 2
! S-Parameters are not renormalized. Each port impedance will be approximated by the real part at minimum frequency. The values are described via the [Reference] keyword.
! Default impedance is overridden by [Reference]
[Version] 2.0
# GHz S RI R 376.73
[Number of Ports] 4
[Reference]
376.73 376.73 259.814 259.814 
[Number of Frequencies] 51
[Network Data]
281700                 -0.267763       -0.144266       0.00026926     1.54274e-05         0.880535        0.354845      6.93828e-05    -6.61182e-05
                     0.000297671     -6.2813e-05        -0.252408      -0.0936943      0.000117729    -6.78429e-05         0.958898      0.00795453
                        0.880057        0.354877      0.000108271     -0.00011206         0.291691       0.0809075     -0.000267712    -0.000187674
                     9.48069e-05    -4.87583e-05          0.95877      0.00786145     -0.000226922    -0.000236097         0.251959      -0.0890428
281702                  -0.26781       -0.144188      0.000269176     1.56139e-05         0.880678        0.354485      7.40238e-05    -6.68148e-05
                     0.000297211    -6.24726e-05        -0.252434      -0.0936228      0.000117571    -6.81134e-05         0.958886      0.00753274
                        0.880202        0.354518      0.000109303    -0.000111347         0.291738       0.0807572     -0.000259581    -0.000168675
                     9.43913e-05    -4.88015e-05         0.958771      0.00745061     -0.000227099    -0.000235719         0.251908      -0.0891841
281704                 -0.267857        -0.14411      0.000269081      1.5808e-05         0.880822        0.354126      7.89104e-05    -6.72543e-05
                     0.000296751    -6.21352e-05        -0.252461      -0.0935513      0.000117421    -6.83804e-05         0.958875      0.00711128
                        0.880346        0.354158      0.000110047    -0.000110608         0.291784       0.0806068     -0.000251386     -0.00015252
                     9.39854e-05    -4.88482e-05         0.958772       0.0070401     -0.000227265    -0.000235372         0.251856      -0.0893254
281706                 -0.267904       -0.144032      0.000268974     1.60101e-05         0.880965        0.353766      8.40223e-05    -6.73957e-05
                     0.000296291    -6.18008e-05        -0.252487      -0.0934797      0.000117279    -6.86444e-05         0.958863      0.00669015
                        0.880489        0.353798      0.000110556      -0.0001099          0.29183       0.0804564     -0.000243367    -0.000138725
                     9.35894e-05     -4.8898e-05         0.958773       0.0066299     -0.000227423    -0.000235052         0.251805      -0.0894667
281708                  -0.26795       -0.143954      0.000268852     1.62201e-05         0.881109        0.353406      8.93303e-05    -6.71987e-05
                     0.000295832    -6.14696e-05        -0.252513      -0.0934082      0.000117143    -6.89055e-05         0.958851      0.00626937
                        0.880633        0.353438      0.000110878    -0.000109253         0.291877        0.080306     -0.000235665    -0.000126889
                     9.32036e-05    -4.89506e-05         0.958774      0.00621995     -0.000227576    -0.000234755         0.251753       -0.089608
281710                 -0.267997       -0.143875      0.000268712     1.64378e-05         0.881252        0.353045      9.47957e-05    -6.66259e-05
                     0.000295373    -6.11416e-05        -0.252539      -0.0933366      0.000117015     -6.9164e-05          0.95884      0.00584893
                        0.880776        0.353078      0.000111057    -0.000108683         0.291923       0.0801556     -0.000228357    -0.000116686
                     9.28284e-05    -4.90055e-05         0.958775      0.00581024     -0.000227727    -0.000234479         0.251702      -0.0897493
281712                 -0.268044       -0.143797       0.00026855     1.66625e-05         0.881395        0.352685       0.00010037    -6.56455e-05
                     0.000294914    -6.08169e-05        -0.252565       -0.093265      0.000116893    -6.94202e-05         0.958829      0.00542884
                         0.88092        0.352718      0.000111128    -0.000108192         0.291969       0.0800052     -0.000221479    -0.000107847
                     9.24641e-05    -4.90622e-05         0.958776      0.00540073     -0.000227876     -0.00023422          0.25165      -0.0898907
281714                 -0.268091       -0.143719      0.000268361     1.68925e-05         0.881538        0.352325      0.000105996    -6.42334e-05
                     0.000294455    -6.04958e-05        -0.252591      -0.0931934      0.000116777    -6.96741e-05         0.958818       0.0050091
                        0.881063        0.352358      0.000111118    -0.000107779         0.292015       0.0798547     -0.000215044    -0.000100156
                     9.21112e-05    -4.91202e-05         0.958777       0.0049914     -0.000228025    -0.000233978         0.251598       -0.090032
281716                 -0.268137       -0.143641       0.00026814     1.71252e-05          0.88168        0.351965       0.00011161    -6.23762e-05
                     0.000293996    -6.01783e-05        -0.252617      -0.0931218      0.000116668     -6.9926e-05         0.958807      0.00458972
                        0.881206        0.351997      0.000111048    -0.000107439         0.292061       0.0797043     -0.000209047    -9.34345e-05
                     9.17703e-05    -4.91787e-05         0.958778      0.00458222     -0.000228175    -0.000233749         0.251546      -0.0901734
281718                 -0.268184       -0.143563      0.000267881     1.73561e-05         0.881823        0.351604       0.00011714    -6.00731e-05
                     0.000293537    -5.98646e-05        -0.252642      -0.0930501      0.000116564    -7.01759e-05         0.958796       0.0041707
                        0.881349        0.351637      0.000110934    -0.000107165         0.292107       0.0795538     -0.000203475    -8.75361e-05
                     9.14421e-05    -4.92369e-05          0.95878      0.00417317     -0.000228326    -0.000233532         0.251495      -0.0903147
281720                 -0.268231       -0.143484      0.000267578     1.75786e-05         0.881965        0.351244      0.000122516    -5.73377e-05
                     0.000293078    -5.95551e-05        -0.252668      -0.0929785      0.000116467     -7.0424e-05         0.958786      0.00375204
                        0.881491        0.351276      0.000110787    -0.000106951         0.292153       0.0794033     -0.000198307    -8.23409e-05
                     9.11276e-05    -4.92938e-05         0.958781      0.00376422     -0.000228478    -0.000233327         0.251443      -0.0904561
281722                 -0.268278       -0.143406      0.000267224     1.77826e-05         0.882108        0.350884      0.000127668     -5.4198e-05
                     0.000292619    -5.92498e-05        -0.252694      -0.0929069      0.000116375    -7.06702e-05         0.958776      0.00333375
                        0.881634        0.350916      0.000110616    -0.000106791         0.292199       0.0792528     -0.000193522    -7.77493e-05
                     9.08281e-05    -4.93484e-05         0.958782      0.00335536     -0.000228631    -0.000233131         0.251391      -0.0905975
281724                 -0.268325       -0.143328      0.000266814      1.7954e-05          0.88225        0.350523      0.000132532    -5.06963e-05
                     0.000292159    -5.89493e-05         -0.25272      -0.0928353      0.000116288    -7.09147e-05         0.958766      0.00291582
                        0.881776        0.350555      0.000110428    -0.000106679         0.292244       0.0791023     -0.000189096    -7.36784e-05
                     9.05452e-05    -4.93995e-05         0.958783      0.00294658     -0.000228787    -0.000232944         0.251338      -0.0907389
281726                 -0.268372        -0.14325      0.000266345      1.8074e-05         0.882392        0.350162      0.000137053    -4.68859e-05
                     0.000291698     -5.8654e-05        -0.252745      -0.0927637      0.000116207    -7.11574e-05         0.958757      0.00249825
                        0.881918        0.350194      0.000110228    -0.000106611          0.29229       0.0789518     -0.000185004    -7.00585e-05
                     9.02812e-05    -4.94457e-05         0.958784      0.00253785     -0.000228944    -0.000232765         0.251286      -0.0908804
281728                 -0.268418       -0.143171      0.000265822     1.81187e-05         0.882533        0.349802       0.00014119    -4.28284e-05
                     0.000291237    -5.83644e-05         -0.25277      -0.0926923      0.000116131     -7.1398e-05         0.958747      0.00208103
                         0.88206        0.349833      0.000110019    -0.000106582         0.292335       0.0788013     -0.000181221    -6.68304e-05
                     9.00393e-05    -4.94857e-05         0.958785      0.00212916     -0.000229104    -0.000232594         0.251234      -0.0910218
281730                 -0.268465       -0.143093      0.000265257     1.80612e-05         0.882675        0.349441      0.000144917    -3.85873e-05
                     0.000290774    -5.80812e-05        -0.252796       -0.092621       0.00011606    -7.16364e-05         0.958738      0.00166416
                        0.882202        0.349472      0.000109803     -0.00010659         0.292381       0.0786507     -0.000177722    -6.39433e-05
                     8.98238e-05    -4.95182e-05         0.958786      0.00172049     -0.000229266     -0.00023243         0.251182      -0.0911632
281732                 -0.268512       -0.143015      0.000264677     1.78751e-05         0.882817         0.34908      0.000148224    -3.42217e-05
                     0.000290309    -5.78057e-05        -0.252822      -0.0925498      0.000115993    -7.18721e-05         0.958729      0.00124759
                        0.882344        0.349111      0.000109582    -0.000106632         0.292426       0.0785001     -0.000174478    -6.13521e-05
                     8.96407e-05    -4.95429e-05         0.958786      0.00131184      -0.00022943    -0.000232273         0.251129      -0.0913047
281734                 -0.268559       -0.142936      0.000264122     1.75413e-05         0.882958        0.348719       0.00015112     -2.9776e-05
                     0.000289842    -5.75393e-05        -0.252847      -0.0924787      0.000115931    -7.21042e-05         0.958721     0.000831301
                        0.882486         0.34875      0.000109359    -0.000106707         0.292472       0.0783495     -0.000171457    -5.90155e-05
                     8.94981e-05    -4.95606e-05         0.958787     0.000903182     -0.000229596    -0.000232123         0.251077      -0.0914461
281736                 -0.268606       -0.142858      0.000263643     1.70568e-05         0.883099        0.348358      0.000153629    -2.52661e-05
                     0.000289372    -5.72845e-05        -0.252873      -0.0924073      0.000115873    -7.23316e-05         0.958712     0.000415216
                        0.882627        0.348389      0.000109133    -0.000106815         0.292517        0.078199     -0.000168619     -5.6893e-05
                     8.94065e-05    -4.95753e-05         0.958788     0.000494511     -0.000229766    -0.000231981         0.251024      -0.0915876
281738                 -0.268653        -0.14278      0.000263296     1.64404e-05          0.88324        0.347997      0.000155792    -2.06535e-05
                     0.000288898    -5.70451e-05          -0.2529      -0.0923357      0.000115819    -7.25518e-05         0.958704    -7.88268e-07
                        0.882768        0.348027      0.000108906    -0.000106958         0.292562       0.0780483     -0.000165905    -5.49398e-05
                     8.93784e-05    -4.95968e-05         0.958788     8.58082e-05     -0.000229939    -0.000231848         0.250971       -0.091729
281740                   -0.2687       -0.142701      0.000263124     1.57332e-05         0.883381        0.347636      0.000157668    -1.57926e-05
                      0.00028842    -5.68278e-05        -0.252926      -0.0922639      0.000115768    -7.27608e-05         0.958695     -0.00041695
                        0.882909        0.347665      0.000108678    -0.000107141         0.292607       0.0778977     -0.000163222    -5.30981e-05
                     8.94259e-05    -4.96441e-05         0.958789    -0.000322945     -0.000230117    -0.000231726         0.250918      -0.0918704
281742                 -0.268747       -0.142623      0.000263155     1.49892e-05         0.883522        0.347275      0.000159328    -1.02935e-05
                     0.000287936    -5.66456e-05        -0.252951      -0.0921919      0.000115722    -7.29499e-05         0.958685    -0.000833776
                         0.88305        0.347303       0.00010845    -0.000107374         0.292652       0.0777471      -0.00016039    -5.12747e-05
                     8.95532e-05    -4.97484e-05         0.958789    -0.000731774     -0.000230301    -0.000231622         0.250865      -0.0920117
281744                 -0.268794       -0.142545      0.000263394     1.42621e-05         0.883663        0.346914      0.000160822    -3.08336e-06
                     0.000287453    -5.65254e-05        -0.252977      -0.0921199      0.000115683    -7.30988e-05         0.958674     -0.00125254
                        0.883191        0.346939      0.000108222    -0.000107673         0.292697       0.0775965     -0.000156986    -4.92767e-05
                     8.97455e-05    -4.99508e-05          0.95879     -0.00114072     -0.000230496    -0.000231547         0.250812      -0.0921528
281746                 -0.268842       -0.142467      0.000263834      1.3593e-05         0.883804        0.346553      0.000161756     9.55288e-06
                     0.000287008    -5.65259e-05        -0.253003      -0.0920479      0.000115664    -7.31464e-05         0.958656     -0.00167755
                        0.883329        0.346571      0.000107997    -0.000108074         0.292742       0.0774459     -0.000151693    -4.65578e-05
                     8.99569e-05    -5.02863e-05          0.95879     -0.00154982     -0.000230712    -0.000231532         0.250758      -0.0922933
281748                  -0.26889        -0.14239      0.000264478      1.3007e-05         0.883945        0.346191      0.000150839     4.93693e-05
                     0.000286803    -5.67231e-05        -0.253028      -0.0919758      0.000115829    -7.28191e-05         0.958605     -0.00213792
                        0.883406        0.346249      0.000107785    -0.000108657         0.292787       0.0772954     -0.000137028    -4.05337e-05
                     9.01165e-05     -5.0756e-05          0.95879     -0.00195919     -0.000230992      -0.0002317         0.250702      -0.0924306
281750                 -0.268935       -0.142314      0.000265361     1.25224e-05         0.884085        0.345824      6.78187e-05     -7.0724e-05
                     0.000287289    -5.65841e-05        -0.253054      -0.0919036      0.000118765    -7.43728e-05          0.95892     -0.00228654
                        0.883612        0.345876      0.000107627    -0.000109636         0.292831       0.0771455     -0.000266469    -0.000183125
                     9.01624e-05    -5.13116e-05          0.95879     -0.00236895     -0.000231721    -0.000233262         0.250656      -0.0925979
281752                  -0.26898       -0.142235      0.000266608      1.2189e-05         0.884223        0.345467      0.000140239    -4.61344e-05
                     0.000287198    -5.54595e-05         -0.25308      -0.0918309      0.000116115    -7.53376e-05         0.958728     -0.00283487
                        0.883754        0.345509      0.000107828    -0.000111824         0.292873       0.0769935     -0.000179424    -6.07438e-05
                      9.0078e-05    -5.18768e-05          0.95879     -0.00277932     -0.000230307    -0.000228681         0.250602      -0.0927263
281754                 -0.269026       -0.142156      0.000268527     1.22501e-05         0.884363        0.345106      0.000149169    -3.46126e-05
                     0.000286443    -5.48112e-05        -0.253106      -0.0917568      0.000115795    -7.52322e-05         0.958703     -0.00326406
                        0.883894        0.345145      0.000115814    -0.000119672          0.29292       0.0768419     -0.000170625    -5.52802e-05
                     8.98933e-05    -5.23895e-05         0.958789     -0.00319059     -0.000230983    -0.000229818         0.250548      -0.0928661
281756                 -0.269073       -0.142077      0.000271546     1.39473e-05         0.884503        0.344745      0.000151904    -3.00158e-05
                     0.000285765    -5.44944e-05        -0.253126      -0.0916822      0.000115696     -7.5333e-05         0.958692     -0.00368131
                        0.884034        0.344783      0.000111675    -9.96818e-05         0.292964       0.0766913     -0.000167427     -5.3398e-05
                     8.96571e-05    -5.28227e-05         0.958787     -0.00360277     -0.000231263    -0.000229959         0.250495      -0.0930072
281758                 -0.269119       -0.141999      0.000272154     2.05218e-05         0.884642        0.344383      0.000152873    -2.82239e-05
                     0.000285186    -5.42742e-05         -0.25315      -0.0916143      0.000115646    -7.55041e-05         0.958686     -0.00409451
                        0.884175        0.344421      0.000108013    -0.000103765         0.293009       0.0765406      -0.00016597    -5.25591e-05
                     8.94109e-05     -5.3178e-05         0.958783      -0.0040148     -0.000231485    -0.000229946         0.250441      -0.0931487
281760                 -0.269166        -0.14192      0.000265099     2.22587e-05         0.884782        0.344022      0.000153015    -2.79961e-05
                     0.000284667    -5.40893e-05        -0.253176      -0.0915437      0.000115617    -7.57068e-05         0.958683     -0.00450561
                        0.884314        0.344059      0.000107211    -0.000105243         0.293053       0.0763898     -0.000165389    -5.22449e-05
                     8.91807e-05    -5.34697e-05         0.958776      -0.0044246     -0.000231688     -0.00022988         0.250387      -0.0932903
281762                 -0.269213       -0.141842      0.000262754     1.90716e-05         0.884921         0.34366      0.000152625     -2.8831e-05
                     0.000284186     -5.3924e-05        -0.253202      -0.0914722      0.000115598    -7.59265e-05         0.958681     -0.00491531
                        0.884454        0.343698      0.000106783    -0.000106046         0.293098        0.076239     -0.000165388    -5.22875e-05
