! TOUCHSTONE file generated by CST MICROWAVE STUDIO
! Date and time: Tue Oct 14 07:30:47 2025
! Project name: Teste_Macro_Metasurface_Nanopilar.cst
! Parameters = {H=600; L_x=165; L_y=90; Lambda=1064; Max_L=200; Min_L=70; PathPara=1; Phi=0; Step_L=10; Theta=0; p=520; phaseX=180; phaseY=0}
! Header version: 2018
! Port assignment regex: !\s*Touchstone port\s*([0-9]+)\s*=\s*(CST MWS port|CST DS port)\s*([0-9]+|Zmin|Zmax)\s*\(\"(.*)\"\)(\s*mode\s*([0-9]+))?.*
! Touchstone port assignment:
! Touchstone port 1 = CST MWS port Zmax ("") mode 1
! Touchstone port 2 = CST MWS port Zmax ("") mode 2
! Touchstone port 3 = CST MWS port Zmin ("") mode 1
! Touchstone port 4 = CST MWS port Zmin ("") mode 2
! S-Parameters are not renormalized. Each port impedance will be approximated by the real part at minimum frequency. The values are described via the [Reference] keyword.
! Default impedance is overridden by [Reference]
[Version] 2.0
# GHz S RI R 376.73
[Number of Ports] 4
[Reference]
376.73 376.73 259.814 259.814 
[Number of Frequencies] 51
[Network Data]
281700                 0.0229492      -0.0638329     -0.000106443    -0.000220306         0.592367       -0.799296      7.58439e-05    -0.000528348
                    -0.000142659    -0.000323351       -0.0703376       -0.186625      0.000176076    -0.000442755         0.127908         0.96602
                        0.592272       -0.799166      8.87514e-05    -0.000448714        -0.053888        0.041463        0.0003332    -0.000213528
                     0.000106028    -0.000548516         0.127811         0.96608      0.000349481    -0.000199684       -0.0178531        0.198094
281702                 0.0229306      -0.0638583     -0.000106584    -0.000220325         0.592034       -0.799541      7.56084e-05    -0.000528436
                    -0.000142863    -0.000323361       -0.0704057       -0.186628      0.000175848    -0.000442797         0.128351        0.965956
                        0.591939       -0.799412      8.85527e-05    -0.000448853       -0.0538835       0.0414977      0.000333188    -0.000213747
                     0.000105801     -0.00054862         0.128254        0.966016      0.000349248    -0.000199898       -0.0177359        0.198131
281704                  0.022912      -0.0638837     -0.000106726    -0.000220345           0.5917       -0.799786       7.5373e-05    -0.000528523
                    -0.000143067    -0.000323372       -0.0704739       -0.186631      0.000175619    -0.000442839         0.128794        0.965892
                        0.591606       -0.799658      8.83538e-05    -0.000448992        -0.053879       0.0415324      0.000333176    -0.000213965
                     0.000105575    -0.000548725         0.128696        0.965952      0.000349015    -0.000200111       -0.0176188        0.198168
281706                 0.0228933      -0.0639091     -0.000106868    -0.000220364         0.591366       -0.800032      7.51376e-05    -0.000528611
                    -0.000143271    -0.000323382       -0.0705421       -0.186634      0.000175391    -0.000442882         0.129236        0.965827
                        0.591272       -0.799903      8.81548e-05    -0.000449131       -0.0538744       0.0415671      0.000333163    -0.000214183
                     0.000105348     -0.00054883         0.129139        0.965888      0.000348782    -0.000200324       -0.0175015        0.198205
281708                 0.0228746      -0.0639345     -0.000107009    -0.000220384         0.591032       -0.800277      7.49022e-05    -0.000528698
                    -0.000143475    -0.000323392       -0.0706102       -0.186637      0.000175163    -0.000442924         0.129679        0.965763
                        0.590938       -0.800148      8.79556e-05     -0.00044927       -0.0538698       0.0416019      0.000333151    -0.000214401
                      0.00010512    -0.000548934         0.129582        0.965824      0.000348549    -0.000200536       -0.0173843        0.198242
281710                  0.022856      -0.0639599     -0.000107151    -0.000220403         0.590698       -0.800522      7.46669e-05    -0.000528786
                    -0.000143679    -0.000323402       -0.0706784        -0.18664      0.000174934    -0.000442967         0.130121        0.965698
                        0.590605       -0.800393      8.77562e-05    -0.000449409       -0.0538652       0.0416366      0.000333138     -0.00021462
                     0.000104893    -0.000549039         0.130024        0.965759      0.000348316    -0.000200749       -0.0172669        0.198279
281712                 0.0228373      -0.0639853     -0.000107293    -0.000220423         0.590364       -0.800766      7.44316e-05    -0.000528873
                    -0.000143883    -0.000323412       -0.0707466       -0.186643      0.000174706    -0.000443009         0.130564        0.965632
                        0.590271       -0.800637      8.75568e-05    -0.000449548       -0.0538606       0.0416713      0.000333125    -0.000214838
                     0.000104666    -0.000549144         0.130467        0.965694      0.000348082    -0.000200961       -0.0171496        0.198316
281714                 0.0228186      -0.0640106     -0.000107435    -0.000220443          0.59003       -0.801011      7.41964e-05    -0.000528961
                    -0.000144088    -0.000323422       -0.0708148       -0.186646      0.000174477    -0.000443052         0.131006        0.965567
                        0.589937       -0.800882      8.73571e-05    -0.000449688       -0.0538559       0.0417061      0.000333111    -0.000215056
                     0.000104438    -0.000549248         0.130909        0.965629      0.000347849    -0.000201173       -0.0170322        0.198353
281716                 0.0227998       -0.064036     -0.000107577    -0.000220462         0.589696       -0.801255      7.39611e-05    -0.000529048
                    -0.000144292    -0.000323432        -0.070883       -0.186649      0.000174249    -0.000443094         0.131449        0.965501
                        0.589602       -0.801126      8.71574e-05    -0.000449827       -0.0538512       0.0417408      0.000333098    -0.000215275
                      0.00010421    -0.000549353         0.131352        0.965564      0.000347616    -0.000201385       -0.0169148        0.198389
281718                 0.0227811      -0.0640613      -0.00010772    -0.000220482         0.589361         -0.8015       7.3726e-05    -0.000529136
                    -0.000144497    -0.000323442       -0.0709512       -0.186652       0.00017402    -0.000443137         0.131891        0.965436
                        0.589268        -0.80137      8.69574e-05    -0.000449966       -0.0538466       0.0417756      0.000333084    -0.000215493
                     0.000103982    -0.000549458         0.131794        0.965499      0.000347382    -0.000201597       -0.0167973        0.198426
281720                 0.0227624      -0.0640867     -0.000107862    -0.000220502         0.589027       -0.801744      7.34908e-05    -0.000529223
                    -0.000144702    -0.000323452       -0.0710194       -0.186655      0.000173792     -0.00044318         0.132334         0.96537
                        0.588934       -0.801614      8.67574e-05    -0.000450105       -0.0538418       0.0418103       0.00033307    -0.000215711
                     0.000103754    -0.000549563         0.132237        0.965433      0.000347149    -0.000201809       -0.0166798        0.198463
281722                 0.0227436       -0.064112     -0.000108005    -0.000220521         0.588692       -0.801988      7.32557e-05    -0.000529311
                    -0.000144907    -0.000323462       -0.0710876       -0.186658      0.000173563    -0.000443223         0.132776        0.965303
                        0.588599       -0.801858      8.65572e-05    -0.000450244       -0.0538371       0.0418451      0.000333056    -0.000215929
                     0.000103526    -0.000549668         0.132679        0.965367      0.000346916     -0.00020202       -0.0165622        0.198499
281724                 0.0227248      -0.0641374     -0.000108147    -0.000220541         0.588357       -0.802232      7.30207e-05    -0.000529398
                    -0.000145112    -0.000323472       -0.0711558        -0.18666      0.000173335    -0.000443266         0.133218        0.965237
                        0.588264       -0.802102      8.63569e-05    -0.000450383       -0.0538323       0.0418798      0.000333041    -0.000216148
                     0.000103297    -0.000549773         0.133122        0.965302      0.000346682    -0.000202232       -0.0164446        0.198536
281726                  0.022706      -0.0641627      -0.00010829    -0.000220561         0.588022       -0.802476      7.27857e-05    -0.000529486
                    -0.000145317    -0.000323482       -0.0712241       -0.186663      0.000173106    -0.000443309         0.133661         0.96517
                        0.587929       -0.802345      8.61565e-05    -0.000450523       -0.0538276       0.0419146      0.000333027    -0.000216366
                     0.000103069    -0.000549879         0.133564        0.965235      0.000346448    -0.000202443        -0.016327        0.198572
281728                 0.0226872       -0.064188     -0.000108433    -0.000220581         0.587687       -0.802719      7.25507e-05    -0.000529573
                    -0.000145522    -0.000323492       -0.0712923       -0.186666      0.000172877    -0.000443352         0.134103        0.965104
                        0.587594       -0.802589      8.59559e-05    -0.000450662       -0.0538228       0.0419494      0.000333012    -0.000216584
                      0.00010284    -0.000549984         0.134006        0.965169      0.000346215    -0.000202654       -0.0162093        0.198609
281730                 0.0226684      -0.0642133     -0.000108576      -0.0002206         0.587352       -0.802963      7.23158e-05    -0.000529661
                    -0.000145728    -0.000323502       -0.0713606       -0.186669      0.000172649    -0.000443395         0.134545        0.965037
                        0.587259       -0.802832      8.57552e-05    -0.000450801        -0.053818       0.0419842      0.000332997    -0.000216803
                     0.000102611     -0.00055009         0.134448        0.965102      0.000345981    -0.000202865       -0.0160916        0.198645
281732                 0.0226496      -0.0642387     -0.000108719     -0.00022062         0.587017       -0.803206      7.20809e-05    -0.000529748
                    -0.000145934    -0.000323512       -0.0714288       -0.186672       0.00017242    -0.000443439         0.134987        0.964969
                        0.586924       -0.803075      8.55543e-05    -0.000450941       -0.0538131        0.042019      0.000332981    -0.000217021
                     0.000102382    -0.000550196         0.134891        0.965036      0.000345747    -0.000203076       -0.0159739        0.198681
281734                 0.0226307       -0.064264     -0.000108862     -0.00022064         0.586682        -0.80345      7.18461e-05    -0.000529836
                    -0.000146139    -0.000323522       -0.0714971       -0.186674      0.000172191    -0.000443482          0.13543        0.964902
                        0.586589       -0.803318      8.53534e-05     -0.00045108       -0.0538082       0.0420538      0.000332966    -0.000217239
                     0.000102153    -0.000550302         0.135333        0.964969      0.000345513    -0.000203287       -0.0158561        0.198717
281736                 0.0226119      -0.0642893     -0.000109005     -0.00022066         0.586347       -0.803693      7.16114e-05    -0.000529923
                    -0.000146345    -0.000323532       -0.0715654       -0.186677      0.000171962    -0.000443526         0.135872        0.964834
                        0.586254       -0.803561      8.51523e-05    -0.000451219       -0.0538034       0.0420886       0.00033295    -0.000217457
                     0.000101924    -0.000550409         0.135775        0.964901       0.00034528    -0.000203498       -0.0157383        0.198753
281738                  0.022593      -0.0643146     -0.000109148    -0.000220679         0.586011       -0.803936      7.13767e-05    -0.000530011
                    -0.000146552    -0.000323542       -0.0716336        -0.18668      0.000171733     -0.00044357         0.136314        0.964766
                        0.585918       -0.803804      8.49511e-05    -0.000451359       -0.0537985       0.0421234      0.000332934    -0.000217675
                     0.000101694    -0.000550515         0.136217        0.964834      0.000345046    -0.000203709       -0.0156204        0.198789
281740                 0.0225741      -0.0643399     -0.000109292    -0.000220699         0.585676       -0.804178      7.11422e-05    -0.000530098
                    -0.000146758    -0.000323552       -0.0717019       -0.186683      0.000171505    -0.000443614         0.136756        0.964698
                        0.585583       -0.804046      8.47498e-05    -0.000451498       -0.0537935       0.0421582      0.000332918    -0.000217893
                     0.000101464    -0.000550623         0.136659        0.964766      0.000344812     -0.00020392       -0.0155025        0.198825
281742                 0.0225552      -0.0643652     -0.000109435    -0.000220719          0.58534       -0.804421      7.09078e-05    -0.000530186
                    -0.000146964    -0.000323563       -0.0717702       -0.186685      0.000171275    -0.000443659         0.137198         0.96463
                        0.585247       -0.804289      8.45484e-05    -0.000451638       -0.0537886        0.042193      0.000332901    -0.000218111
                     0.000101235     -0.00055073         0.137101        0.964699      0.000344578    -0.000204131       -0.0153845        0.198861
281744                 0.0225363      -0.0643905     -0.000109579    -0.000220739         0.585004       -0.804664      7.06737e-05    -0.000530274
                    -0.000147171    -0.000323574       -0.0718385       -0.186688      0.000171046    -0.000443703          0.13764        0.964562
                        0.584911       -0.804531      8.43468e-05    -0.000451777       -0.0537836       0.0422279      0.000332885    -0.000218328
                     0.000101005    -0.000550838         0.137543        0.964631      0.000344344    -0.000204342       -0.0152666        0.198897
281746                 0.0225173      -0.0644158     -0.000109723    -0.000220759         0.584668       -0.804906      7.04405e-05    -0.000530361
                    -0.000147378    -0.000323584       -0.0719068        -0.18669      0.000170817    -0.000443748         0.138082        0.964493
                        0.584576       -0.804774      8.41452e-05    -0.000451917       -0.0537786       0.0422627      0.000332868    -0.000218544
                     0.000100774    -0.000550946         0.137985        0.964562       0.00034411    -0.000204553       -0.0151485        0.198933
281748                 0.0224984      -0.0644411     -0.000109866    -0.000220778         0.584332       -0.805148      7.02135e-05    -0.000530449
                    -0.000147584    -0.000323595       -0.0719752       -0.186693      0.000170588    -0.000443793         0.138524        0.964424
                         0.58424       -0.805016      8.39434e-05    -0.000452056       -0.0537736       0.0422975      0.000332852    -0.000218748
                     0.000100544    -0.000551054         0.138427        0.964494      0.000343876    -0.000204764       -0.0150305        0.198969
281750                 0.0224794      -0.0644664      -0.00011001    -0.000220798         0.583996       -0.805391      6.99584e-05    -0.000530535
                    -0.000147791    -0.000323606       -0.0720435       -0.186696      0.000170358    -0.000443838         0.138966        0.964355
                        0.583904       -0.805258      8.37415e-05    -0.000452196       -0.0537686       0.0423324      0.000332833    -0.000219003
                     0.000100313    -0.000551163         0.138869        0.964425      0.000343642    -0.000204975       -0.0149124        0.199004
281752                 0.0224604      -0.0644916     -0.000110154    -0.000220818          0.58366       -0.805633        6.973e-05    -0.000530623
                    -0.000147999    -0.000323618       -0.0721118       -0.186698      0.000170128    -0.000443884         0.139407        0.964286
                        0.583568         -0.8055      8.35395e-05    -0.000452336       -0.0537635       0.0423672      0.000332815     -0.00021921
                     0.000100083    -0.000551272         0.139311        0.964357      0.000343408    -0.000205186       -0.0147942         0.19904
281754                 0.0224414      -0.0645169     -0.000110299    -0.000220838         0.583324       -0.805875      6.94968e-05    -0.000530711
                    -0.000148206    -0.000323629       -0.0721802       -0.186701      0.000169899     -0.00044393         0.139849        0.964216
                        0.583232       -0.805742      8.33374e-05    -0.000452475       -0.0537585       0.0424021      0.000332797    -0.000219426
                     9.98521e-05    -0.000551381         0.139753        0.964287      0.000343174    -0.000205397        -0.014676        0.199075
281756                 0.0224224      -0.0645422     -0.000110443    -0.000220857         0.582987       -0.806116       6.9263e-05    -0.000530798
                    -0.000148413     -0.00032364       -0.0722485       -0.186703      0.000169669    -0.000443976         0.140291        0.964147
                        0.582896       -0.805984      8.31352e-05    -0.000452615       -0.0537534       0.0424369      0.000332779    -0.000219644
                     9.96213e-05    -0.000551491         0.140195        0.964218       0.00034294    -0.000205609       -0.0145578        0.199111
281758                 0.0224033      -0.0645674     -0.000110587    -0.000220877         0.582651       -0.806358      6.90289e-05    -0.000530886
                     -0.00014862    -0.000323651       -0.0723169       -0.186706      0.000169438    -0.000444022         0.140733        0.964077
                         0.58256       -0.806226      8.29328e-05    -0.000452755       -0.0537482       0.0424718      0.000332761    -0.000219861
                     9.93905e-05    -0.000551599         0.140637        0.964149      0.000342706    -0.000205821       -0.0144395        0.199146
281760                 0.0223843      -0.0645927     -0.000110732    -0.000220897         0.582314       -0.806599      6.87948e-05    -0.000530973
                    -0.000148828     -0.00032366       -0.0723853       -0.186708      0.000169208    -0.000444069         0.141174        0.964007
                        0.582223       -0.806466      8.27304e-05    -0.000452894       -0.0537431       0.0425067      0.000332743    -0.000220079
                     9.91598e-05    -0.000551707         0.141078        0.964079      0.000342471    -0.000206032       -0.0143212        0.199181
281762                 0.0223653      -0.0646179     -0.000110876    -0.000220917         0.581977       -0.806841      6.85606e-05    -0.000531061
                    -0.000149034    -0.000323668       -0.0724536       -0.186711      0.000168977    -0.000444116         0.141616        0.963936
                        0.581885       -0.806706      8.25278e-05    -0.000453034        -0.053738       0.0425416      0.000332724    -0.000220297
