! TOUCHSTONE file generated by CST MICROWAVE STUDIO
! Date and time: Tue Oct 14 07:25:21 2025
! Project name: Teste_Macro_Metasurface_Nanopilar.cst
! Parameters = {H=600; L_x=75; L_y=185; Lambda=1064; Max_L=200; Min_L=70; PathPara=1; Phi=0; Step_L=10; Theta=0; p=520; phaseX=180; phaseY=0}
! Header version: 2018
! Port assignment regex: !\s*Touchstone port\s*([0-9]+)\s*=\s*(CST MWS port|CST DS port)\s*([0-9]+|Zmin|Zmax)\s*\(\"(.*)\"\)(\s*mode\s*([0-9]+))?.*
! Touchstone port assignment:
! Touchstone port 1 = CST MWS port Zmax ("") mode 1
! Touchstone port 2 = CST MWS port Zmax ("") mode 2
! Touchstone port 3 = CST MWS port Zmin ("") mode 1
! Touchstone port 4 = CST MWS port Zmin ("") mode 2
! S-Parameters are not renormalized. Each port impedance will be approximated by the real part at minimum frequency. The values are described via the [Reference] keyword.
! Default impedance is overridden by [Reference]
[Version] 2.0
# GHz S RI R 376.73
[Number of Ports] 4
[Reference]
376.73 376.73 259.814 259.814 
[Number of Frequencies] 51
[Network Data]
281700                -0.0380814       -0.223062      0.000406604    -4.75619e-05         0.082403        0.964334      7.64508e-06     8.00552e-05
                     0.000379526     -0.00022192        0.0140176       0.0680628      0.000228678    -2.77139e-05         0.951258       -0.297116
                       0.0823916        0.963952      0.000198412    -8.73121e-05        0.0023999        0.225705       0.00010208    -0.000442031
                     6.31895e-05    -0.000130689          0.95142       -0.297389      0.000134256    -0.000483773        0.0271959       0.0642567
281702                -0.0381642       -0.223085      0.000406733    -4.76091e-05        0.0828615        0.964286       7.7024e-06     8.03419e-05
                     0.000379549    -0.000222192        0.0140457       0.0680523      0.000228631    -2.77568e-05         0.951147       -0.297473
                       0.0828493        0.963905      0.000198412    -8.73713e-05       0.00253772         0.22574       0.00010188    -0.000442009
                     6.31248e-05    -0.000130773         0.951309       -0.297746      0.000134012     -0.00048394         0.027215       0.0642438
281704                 -0.038247       -0.223108      0.000406863    -4.76562e-05          0.08332        0.964238      7.76064e-06     8.06287e-05
                     0.000379572    -0.000222464        0.0140738       0.0680419      0.000228585    -2.77994e-05         0.951036        -0.29783
                       0.0833069        0.963857      0.000198413    -8.74303e-05       0.00267558        0.225775      0.000101679    -0.000441987
                     6.30599e-05    -0.000130857         0.951197       -0.298102      0.000133767    -0.000484108         0.027234       0.0642309
281706                -0.0383298       -0.223132      0.000406993    -4.77033e-05        0.0837785         0.96419      7.81978e-06     8.09156e-05
                     0.000379596    -0.000222736        0.0141018       0.0680314      0.000228538    -2.78418e-05         0.950924       -0.298187
                       0.0837646         0.96381      0.000198413    -8.74891e-05       0.00281348         0.22581      0.000101478    -0.000441964
                     6.29948e-05    -0.000130942         0.951086       -0.298459      0.000133522    -0.000484275         0.027253        0.064218
281708                -0.0384127       -0.223155      0.000407123    -4.77503e-05        0.0842369        0.964142      7.87984e-06     8.12026e-05
                      0.00037962    -0.000223009        0.0141299       0.0680209       0.00022849     -2.7884e-05         0.950812       -0.298544
                       0.0842222        0.963762      0.000198413    -8.75478e-05       0.00295143        0.225844      0.000101277    -0.000441941
                     6.29295e-05    -0.000131027         0.950974       -0.298816      0.000133278    -0.000484442         0.027272        0.064205
281710                -0.0384955       -0.223178      0.000407253    -4.77973e-05        0.0846953        0.964093      7.94082e-06     8.14897e-05
                     0.000379643    -0.000223281        0.0141579       0.0680104      0.000228443     -2.7926e-05           0.9507       -0.298901
                       0.0846798        0.963713      0.000198414    -8.76063e-05       0.00308943        0.225879      0.000101076    -0.000441918
                     6.28639e-05    -0.000131112         0.950863       -0.299173      0.000133033    -0.000484609         0.027291       0.0641921
281712                -0.0385784       -0.223201      0.000407383    -4.78442e-05        0.0851537        0.964044       8.0027e-06      8.1777e-05
                     0.000379667    -0.000223555         0.014186       0.0679999      0.000228396    -2.79677e-05         0.950588       -0.299257
                       0.0851373        0.963665      0.000198414    -8.76647e-05       0.00322747        0.225913      0.000100875    -0.000441895
                     6.27982e-05    -0.000131197         0.950751       -0.299529      0.000132788    -0.000484776          0.02731       0.0641792
281714                -0.0386613       -0.223224      0.000407513    -4.78911e-05        0.0856121        0.963995       8.0655e-06     8.20644e-05
                     0.000379691    -0.000223828         0.014214       0.0679894      0.000228349    -2.80093e-05         0.950476       -0.299614
                       0.0855948        0.963616      0.000198414     -8.7723e-05       0.00336555        0.225948      0.000100674    -0.000441871
                     6.27322e-05    -0.000131282         0.950639       -0.299886      0.000132543    -0.000484943         0.027329       0.0641662
281716                -0.0387442       -0.223247      0.000407644    -4.79379e-05        0.0860704        0.963946      8.12921e-06     8.23519e-05
                     0.000379715    -0.000224102        0.0142421       0.0679789      0.000228301    -2.80506e-05         0.950364       -0.299971
                       0.0860524        0.963567      0.000198414    -8.77811e-05       0.00350369        0.225982      0.000100472    -0.000441847
                      6.2666e-05    -0.000131367         0.950527       -0.300243      0.000132298    -0.000485109         0.027348       0.0641533
281718                -0.0388271        -0.22327      0.000407775    -4.79847e-05        0.0865287        0.963897      8.19384e-06     8.26395e-05
                     0.000379739    -0.000224376        0.0142701       0.0679683      0.000228254    -2.80918e-05         0.950252       -0.300328
                       0.0865098        0.963518      0.000198414     -8.7839e-05       0.00364187        0.226016      0.000100271    -0.000441822
                     6.25996e-05    -0.000131452         0.950414       -0.300599      0.000132053    -0.000485276         0.027367       0.0641403
281720                  -0.03891       -0.223293      0.000407906    -4.80315e-05         0.086987        0.963847      8.25938e-06     8.29273e-05
                     0.000379764    -0.000224651        0.0142981       0.0679578      0.000228207    -2.81327e-05         0.950139       -0.300684
                       0.0869673        0.963469      0.000198414    -8.78968e-05       0.00378009         0.22605       0.00010007    -0.000441798
                      6.2533e-05    -0.000131537         0.950302       -0.300956      0.000131807    -0.000485442         0.027386       0.0641274
281722                 -0.038993       -0.223316      0.000408037    -4.80782e-05        0.0874453        0.963797      8.32583e-06     8.32152e-05
                     0.000379788    -0.000224926        0.0143262       0.0679472      0.000228159    -2.81734e-05         0.950027       -0.301041
                       0.0874247        0.963419      0.000198414    -8.79545e-05       0.00391836        0.226085      9.98682e-05    -0.000441773
                     6.24662e-05    -0.000131623          0.95019       -0.301312      0.000131562    -0.000485608        0.0274049       0.0641144
281724                 -0.039076       -0.223339      0.000408168    -4.81249e-05        0.0879035        0.963747       8.3932e-06     8.35032e-05
                     0.000379812    -0.000225201        0.0143542       0.0679367      0.000228111    -2.82139e-05         0.949914       -0.301397
                       0.0878821         0.96337      0.000198414    -8.80119e-05       0.00405668        0.226119      9.96666e-05    -0.000441747
                     6.23991e-05    -0.000131708         0.950077       -0.301669      0.000131317    -0.000485775        0.0274239       0.0641015
281726                 -0.039159       -0.223362        0.0004083    -4.81715e-05        0.0883617        0.963697      8.46148e-06     8.37913e-05
                     0.000379837    -0.000225477        0.0143822       0.0679261      0.000228064    -2.82542e-05         0.949801       -0.301754
                       0.0883395         0.96332      0.000198414    -8.80693e-05       0.00419504        0.226152       9.9465e-05    -0.000441722
                     6.23318e-05    -0.000131794         0.949964       -0.302025      0.000131071    -0.000485941        0.0274429       0.0640885
281728                 -0.039242       -0.223384      0.000408431    -4.82181e-05        0.0888199        0.963646      8.53068e-06     8.40796e-05
                     0.000379861    -0.000225753        0.0144102       0.0679155      0.000228016    -2.82943e-05         0.949688        -0.30211
                       0.0887968        0.963269      0.000198414    -8.81265e-05       0.00433344        0.226186      9.92633e-05    -0.000441696
                     6.22643e-05     -0.00013188         0.949851       -0.302382      0.000130826    -0.000486106        0.0274618       0.0640755
281730                 -0.039325       -0.223407      0.000408563    -4.82646e-05         0.089278        0.963595      8.60079e-06      8.4368e-05
                     0.000379886     -0.00022603        0.0144382       0.0679049      0.000227968    -2.83342e-05         0.949575       -0.302467
                       0.0892541        0.963219      0.000198414    -8.81836e-05        0.0044719         0.22622      9.90615e-05    -0.000441669
                     6.21966e-05    -0.000131966         0.949738       -0.302738       0.00013058    -0.000486272        0.0274808       0.0640625
281732                -0.0394081        -0.22343      0.000408695    -4.83111e-05        0.0897361        0.963544      8.67181e-06     8.46565e-05
                     0.000379911    -0.000226307        0.0144662       0.0678943       0.00022792    -2.83739e-05         0.949462       -0.302823
                       0.0897114        0.963168      0.000198414    -8.82404e-05       0.00461039        0.226254      9.88597e-05    -0.000441643
                     6.21286e-05    -0.000132051         0.949625       -0.303094      0.000130334    -0.000486438        0.0274997       0.0640496
281734                -0.0394912       -0.223453      0.000408827    -4.83576e-05        0.0901942        0.963493      8.74375e-06     8.49451e-05
                     0.000379936    -0.000226584        0.0144942       0.0678836      0.000227872    -2.84134e-05         0.949348       -0.303179
                       0.0901687        0.963117      0.000198414    -8.82972e-05       0.00474894        0.226287      9.86577e-05    -0.000441616
                     6.20604e-05    -0.000132138         0.949512        -0.30345      0.000130088    -0.000486603        0.0275186       0.0640366
281736                -0.0395743       -0.223476       0.00040896     -4.8404e-05        0.0906523        0.963442       8.8166e-06     8.52339e-05
                     0.000379961    -0.000226861        0.0145222        0.067873      0.000227824    -2.84526e-05         0.949235       -0.303536
                       0.0906259        0.963066      0.000198414    -8.83538e-05       0.00488752        0.226321      9.84557e-05    -0.000441589
                      6.1992e-05    -0.000132224         0.949398       -0.303807      0.000129842    -0.000486769        0.0275376       0.0640236
281738                -0.0396574       -0.223498      0.000409092    -4.84503e-05        0.0911103         0.96339      8.89037e-06     8.55228e-05
                     0.000379986    -0.000227139        0.0145502       0.0678624      0.000227776    -2.84916e-05         0.949121       -0.303892
                       0.0910831        0.963015      0.000198414    -8.84102e-05       0.00502616        0.226354      9.82536e-05    -0.000441561
                     6.19234e-05     -0.00013231         0.949285       -0.304163      0.000129596    -0.000486934        0.0275565       0.0640106
281740                -0.0397405       -0.223521      0.000409225    -4.84967e-05        0.0915683        0.963338      8.96505e-06     8.58119e-05
                     0.000380011    -0.000227418        0.0145782       0.0678517      0.000227728    -2.85304e-05         0.949007       -0.304248
                       0.0915403        0.962964      0.000198414    -8.84665e-05       0.00516484        0.226388      9.80514e-05    -0.000441533
                     6.18545e-05    -0.000132396         0.949171       -0.304519       0.00012935    -0.000487099        0.0275754       0.0639976
281742                -0.0398237       -0.223544      0.000409358     -4.8543e-05        0.0920263        0.963286      9.04064e-06     8.61011e-05
                     0.000380037    -0.000227696        0.0146062        0.067841       0.00022768    -2.85689e-05         0.948893       -0.304604
                       0.0919974        0.962912      0.000198414    -8.85227e-05       0.00530356        0.226421      9.78492e-05    -0.000441505
                     6.17855e-05    -0.000132483         0.949057       -0.304875      0.000129104    -0.000487264        0.0275943       0.0639846
281744                -0.0399069       -0.223566      0.000409492    -4.85892e-05        0.0924843        0.963234      9.11713e-06     8.63904e-05
                     0.000380062    -0.000227975        0.0146341       0.0678304      0.000227632    -2.86071e-05         0.948779       -0.304961
                       0.0924545         0.96286      0.000198414    -8.85787e-05       0.00544233        0.226454      9.76468e-05    -0.000441477
                     6.17162e-05    -0.000132569         0.948943       -0.305231      0.000128858    -0.000487429        0.0276132       0.0639716
281746                  -0.03999       -0.223589      0.000409625    -4.86354e-05        0.0929422        0.963181      9.19453e-06     8.66799e-05
                     0.000380088    -0.000228254        0.0146621       0.0678197      0.000227584    -2.86449e-05         0.948665       -0.305317
                       0.0929116        0.962808      0.000198414    -8.86345e-05       0.00558114        0.226487      9.74443e-05    -0.000441448
                     6.16468e-05    -0.000132656         0.948829       -0.305587      0.000128612    -0.000487594        0.0276321       0.0639586
281748                -0.0400733       -0.223612      0.000409759    -4.86815e-05        0.0934001        0.963129      9.27283e-06     8.69696e-05
                     0.000380113    -0.000228532        0.0146901        0.067809      0.000227535     -2.8682e-05          0.94855       -0.305673
                       0.0933687        0.962755      0.000198414    -8.86901e-05          0.00572         0.22652      9.72418e-05    -0.000441419
                     6.15773e-05    -0.000132742         0.948715       -0.305943      0.000128366    -0.000487759         0.027651       0.0639456
281750                -0.0401565       -0.223634      0.000409893    -4.87276e-05        0.0938579        0.963076      9.35203e-06     8.72594e-05
                     0.000380138    -0.000228809         0.014718       0.0677983      0.000227487    -2.87179e-05         0.948436       -0.306029
                       0.0938257        0.962703      0.000198414    -8.87456e-05       0.00585891        0.226553      9.70391e-05    -0.000441389
                     6.15081e-05    -0.000132829           0.9486       -0.306299      0.000128121    -0.000487924        0.0276699       0.0639325
281752                -0.0402397       -0.223657      0.000410029    -4.87736e-05        0.0943157        0.963022      9.43213e-06     8.75495e-05
                     0.000380162    -0.000229074         0.014746       0.0677875      0.000227438    -2.87492e-05         0.948321       -0.306385
                       0.0942827         0.96265      0.000198414    -8.88009e-05       0.00599786        0.226586      9.68363e-05     -0.00044136
                     6.14415e-05    -0.000132916         0.948486       -0.306655      0.000127877    -0.000488091        0.0276887       0.0639195
281754                -0.0403231       -0.223679      0.000410165    -4.88194e-05         0.094765        0.962964      9.51322e-06     8.78399e-05
                     0.000380201    -0.000229429        0.0147739       0.0677768      0.000227552    -2.83887e-05         0.948206       -0.306741
                       0.0947399        0.962597      0.000198415    -8.88558e-05       0.00613658        0.226618      9.66333e-05    -0.000441329
                     6.13533e-05    -0.000133003         0.948371       -0.307011      0.000128366     -0.00048881        0.0277076       0.0639065
281756                -0.0404063       -0.223702      0.000410313     -4.8864e-05        0.0952315        0.962916      9.59553e-06     8.81307e-05
                     0.000380221    -0.000229677        0.0148018        0.067766      0.000227345    -2.88519e-05         0.948092       -0.307096
                       0.0951967        0.962544      0.000198421     -8.8909e-05       0.00627588        0.226652        9.643e-05    -0.000441298
                     6.12908e-05     -0.00013309         0.948256       -0.307367      0.000127371    -0.000488409        0.0277265       0.0638935
281758                -0.0404896       -0.223724      0.000410409    -4.89155e-05        0.0956892        0.962862      9.67935e-06     8.84215e-05
                     0.000380246    -0.000229954        0.0148298       0.0677553      0.000227295    -2.88821e-05         0.947977       -0.307452
                       0.0956536         0.96249      0.000198402    -8.89697e-05       0.00641497        0.226684      9.62271e-05    -0.000441265
                      6.1221e-05    -0.000133178         0.948142       -0.307722      0.000127127    -0.000488576        0.0277453       0.0638804
281760                -0.0405729       -0.223747      0.000410556    -4.89593e-05        0.0961469        0.962808      9.76418e-06     8.87116e-05
                     0.000380272    -0.000230235        0.0148577       0.0677445      0.000227247     -2.8917e-05         0.947861       -0.307808
                       0.0961105        0.962437      0.000198408    -8.90226e-05        0.0065541        0.226717        9.603e-05    -0.000441236
                     6.11501e-05    -0.000133265         0.948026       -0.308078      0.000126881     -0.00048874        0.0277642       0.0638674
281762                -0.0406563       -0.223769      0.000410694    -4.90049e-05        0.0966046        0.962753      9.84945e-06     8.90016e-05
                     0.000380299    -0.000230517        0.0148856       0.0677337      0.000227198    -2.89529e-05         0.947746       -0.308164
                       0.0965674        0.962383      0.000198409    -8.90769e-05       0.00669327        0.226749      9.58253e-05    -0.000441207
