! TOUCHSTONE file generated by CST MICROWAVE STUDIO
! Date and time: Tue Oct 14 07:30:32 2025
! Project name: Teste_Macro_Metasurface_Nanopilar.cst
! Parameters = {H=600; L_x=160; L_y=115; Lambda=1064; Max_L=200; Min_L=70; PathPara=1; Phi=0; Step_L=10; Theta=0; p=520; phaseX=180; phaseY=0}
! Header version: 2018
! Port assignment regex: !\s*Touchstone port\s*([0-9]+)\s*=\s*(CST MWS port|CST DS port)\s*([0-9]+|Zmin|Zmax)\s*\(\"(.*)\"\)(\s*mode\s*([0-9]+))?.*
! Touchstone port assignment:
! Touchstone port 1 = CST MWS port Zmax ("") mode 1
! Touchstone port 2 = CST MWS port Zmax ("") mode 2
! Touchstone port 3 = CST MWS port Zmin ("") mode 1
! Touchstone port 4 = CST MWS port Zmin ("") mode 2
! S-Parameters are not renormalized. Each port impedance will be approximated by the real part at minimum frequency. The values are described via the [Reference] keyword.
! Default impedance is overridden by [Reference]
[Version] 2.0
# GHz S RI R 376.73
[Number of Ports] 4
[Reference]
376.73 376.73 259.814 259.814 
[Number of Frequencies] 51
[Network Data]
281700                -0.0573926      -0.0100984      0.000246044    -0.000473443        -0.748811        0.648704      0.000556503    -0.000192127
                     0.000363295    -0.000480425        -0.210345       -0.349865      0.000569307    -0.000164146         0.640845        0.638279
                       -0.749025        0.648237      0.000503553    -0.000282345      -0.00178769      -0.0554133      7.82142e-05     2.83189e-05
                     0.000622398     3.15537e-05         0.641689        0.638358      0.000380317     0.000250319         0.352059        0.197717
281702                -0.0573888      -0.0101048      0.000245795    -0.000473636        -0.748488        0.649077      0.000556628    -0.000192758
                     0.000363132    -0.000480991        -0.210528         -0.3499      0.000569193    -0.000164613         0.641151        0.637886
                       -0.748703        0.648611      0.000503202    -0.000282949      -0.00185073      -0.0554087      7.79779e-05     2.79499e-05
                     0.000622622     3.11413e-05         0.642007        0.637966       0.00038064     0.000250023         0.352318        0.197506
281704                -0.0573849      -0.0101113       0.00024556    -0.000473835        -0.748165        0.649451      0.000556726    -0.000193426
                     0.000362968    -0.000481557        -0.210711       -0.349935      0.000569078    -0.000165081         0.641457        0.637493
                        -0.74838        0.648984      0.000502876    -0.000283549      -0.00191376      -0.0554041      7.77367e-05     2.76002e-05
                     0.000622845     3.07287e-05         0.642324        0.637573      0.000380961     0.000249727         0.352576        0.197294
281706                -0.0573811      -0.0101178      0.000245341    -0.000474042        -0.747842        0.649824      0.000556849    -0.000194124
                     0.000362803    -0.000482124        -0.210894       -0.349971      0.000568962    -0.000165549         0.641762          0.6371
                       -0.748057        0.649357      0.000502579    -0.000284145      -0.00197678      -0.0553994       7.7437e-05      2.7257e-05
                     0.000623067     3.03159e-05         0.642641        0.637179      0.000381281      0.00024943         0.352835        0.197082
281708                -0.0573773      -0.0101242       0.00024514    -0.000474256        -0.747519        0.650197      0.000556994    -0.000194815
                     0.000362637     -0.00048269        -0.211077       -0.350006      0.000568846    -0.000166017         0.642068        0.636706
                       -0.747733         0.64973      0.000502314    -0.000284736      -0.00203979      -0.0553946      7.71488e-05      2.6832e-05
                     0.000623289     2.99029e-05         0.642957        0.636785      0.000381598     0.000249132         0.353093         0.19687
281710                -0.0573735      -0.0101307      0.000244957    -0.000474479        -0.747196         0.65057      0.000557143    -0.000195498
                      0.00036247    -0.000483257         -0.21126       -0.350041      0.000568729    -0.000166487         0.642373        0.636313
                        -0.74741        0.650103      0.000502085    -0.000285322       -0.0021028      -0.0553898      7.69052e-05     2.64262e-05
                      0.00062351     2.94896e-05         0.643273        0.636391      0.000381913     0.000248834         0.353352        0.196657
281712                -0.0573697      -0.0101372      0.000244796    -0.000474713        -0.746873        0.650942      0.000557292    -0.000196175
                     0.000362302    -0.000483824        -0.211444       -0.350075      0.000568611    -0.000166957         0.642677        0.635919
                       -0.747086        0.650475      0.000501897    -0.000285903       -0.0021658       -0.055385      7.66601e-05      2.6037e-05
                      0.00062373     2.90762e-05         0.643587        0.635995      0.000382226     0.000248535          0.35361        0.196444
281714                -0.0573659      -0.0101437      0.000244659    -0.000474958        -0.746549        0.651315      0.000557438     -0.00019685
                     0.000362133    -0.000484391        -0.211628        -0.35011      0.000568493    -0.000167427         0.642982        0.635525
                       -0.746763        0.650848      0.000501754    -0.000286477      -0.00222879      -0.0553801      7.64102e-05     2.56529e-05
                      0.00062395     2.86626e-05         0.643901        0.635599      0.000382538     0.000248235         0.353869        0.196231
281716                -0.0573622      -0.0101502      0.000244549    -0.000475216        -0.746225        0.651687      0.000557583    -0.000197524
                     0.000361963    -0.000484959        -0.211812       -0.350145      0.000568373    -0.000167898         0.643286         0.63513
                       -0.746439         0.65122      0.000501661    -0.000287044      -0.00229178      -0.0553751      7.61567e-05     2.52707e-05
                     0.000624169     2.82488e-05         0.644213        0.635202      0.000382847     0.000247935         0.354127        0.196018
281718                -0.0573584      -0.0101567      0.000244468     -0.00047549        -0.745901        0.652059      0.000557725    -0.000198198
                     0.000361793    -0.000485526        -0.211997        -0.35018      0.000568254     -0.00016837         0.643591        0.634736
                       -0.746115        0.651592      0.000501625    -0.000287603      -0.00235476      -0.0553701      7.59003e-05     2.48893e-05
                     0.000624388     2.78348e-05         0.644523        0.634804      0.000383155     0.000247634         0.354386        0.195804
281720                -0.0573547      -0.0101631      0.000244421    -0.000475781        -0.745577        0.652431      0.000557867    -0.000198871
                     0.000361621    -0.000486094        -0.212181       -0.350214      0.000568133    -0.000168843         0.643895        0.634341
                        -0.74579        0.651964      0.000501654    -0.000288153      -0.00241773       -0.055365      7.56415e-05     2.45082e-05
                     0.000624606     2.74206e-05         0.644832        0.634405       0.00038346     0.000247333         0.354644         0.19559
281722                 -0.057351      -0.0101696      0.000244412    -0.000476092        -0.745253        0.652803      0.000558007    -0.000199545
                     0.000361449    -0.000486662        -0.212366       -0.350249      0.000568012    -0.000169316         0.644198        0.633945
                       -0.745466        0.652336      0.000501755    -0.000288691       -0.0024807      -0.0553598      7.53804e-05     2.41273e-05
                     0.000624823     2.70061e-05         0.645136        0.634003      0.000383764     0.000247031         0.354902        0.195376
281724                -0.0573473      -0.0101761      0.000244445    -0.000476426        -0.744928        0.653175      0.000558145    -0.000200218
                     0.000361276    -0.000487229        -0.212551       -0.350283       0.00056789     -0.00016979         0.644502         0.63355
                       -0.745141        0.652708      0.000501937    -0.000289217      -0.00254365      -0.0553546      7.51173e-05     2.37465e-05
                     0.000625041     2.65915e-05         0.645432          0.6336      0.000384066     0.000246729         0.355161        0.195161
281726                -0.0573436      -0.0101826      0.000244524    -0.000476787        -0.744603        0.653546      0.000558283    -0.000200893
                     0.000361102    -0.000487798        -0.212736       -0.350318      0.000567767    -0.000170264         0.644805        0.633154
                       -0.744816        0.653079      0.000502209    -0.000289727       -0.0026066      -0.0553494      7.48522e-05     2.33658e-05
                     0.000625258     2.61766e-05         0.645713          0.6332      0.000384366     0.000246426         0.355419        0.194946
281728                -0.0573399      -0.0101891      0.000244655    -0.000477177        -0.744279        0.653918      0.000558419    -0.000201567
                     0.000360927    -0.000488366        -0.212921       -0.350352      0.000567644    -0.000170739         0.645108        0.632758
                       -0.744491         0.65345      0.000502583    -0.000290218      -0.00266955      -0.0553441      7.45853e-05     2.29851e-05
                     0.000625474     2.57615e-05          0.64597        0.632828      0.000384664     0.000246123         0.355677        0.194731
281730                -0.0573362      -0.0101957      0.000244842      -0.0004776        -0.743953        0.654289      0.000558554    -0.000202242
                     0.000360751    -0.000488934        -0.213107       -0.350386      0.000567519    -0.000171215         0.645411        0.632362
                       -0.744166        0.653821      0.000503068    -0.000290688      -0.00273248      -0.0553387      7.43166e-05     2.26044e-05
                      0.00062569      2.5346e-05         0.646265        0.632526       0.00038496     0.000245819         0.355935        0.194516
281732                -0.0573326      -0.0102022       0.00024509    -0.000478061        -0.743628         0.65466      0.000558688    -0.000202917
                     0.000360575    -0.000489502        -0.213293       -0.350421      0.000567395    -0.000171691         0.645714        0.631966
                       -0.743841        0.654192      0.000503671    -0.000291132      -0.00279541      -0.0553333       7.4046e-05     2.22237e-05
                     0.000625906     2.49303e-05         0.646649        0.632175      0.000385254     0.000245515         0.356194          0.1943
281734                 -0.057329      -0.0102087      0.000245398    -0.000478561        -0.743303         0.65503       0.00055882    -0.000203593
                     0.000360398    -0.000490071        -0.213479       -0.350455      0.000567269    -0.000172168         0.646016        0.631569
                       -0.743515        0.654563      0.000504394    -0.000291547      -0.00285833      -0.0553278      7.37738e-05     2.18431e-05
                     0.000626122     2.45143e-05         0.647004        0.631762      0.000385547      0.00024521         0.356452        0.194084
281736                -0.0573253      -0.0102152      0.000245762    -0.000479099        -0.742977        0.655401      0.000558952    -0.000204269
                     0.000360221     -0.00049064        -0.213665       -0.350489      0.000567143    -0.000172646         0.646318        0.631172
                        -0.74319        0.654934      0.000505231    -0.000291932      -0.00292124      -0.0553223      7.34998e-05     2.14625e-05
                     0.000626337     2.40979e-05          0.64733        0.631346      0.000385837     0.000244905          0.35671        0.193868
281738                -0.0573217      -0.0102217      0.000246168    -0.000479669        -0.742651        0.655772      0.000559082    -0.000204945
                     0.000360043    -0.000491208        -0.213851       -0.350524      0.000567016    -0.000173124          0.64662        0.630775
                       -0.742864        0.655304      0.000506152    -0.000292288      -0.00298415      -0.0553167      7.32241e-05     2.10819e-05
                     0.000626552     2.36812e-05         0.647644        0.630935      0.000386126       0.0002446         0.356968        0.193651
281740                -0.0573182      -0.0102283      0.000246579    -0.000480252        -0.742325        0.656142      0.000559212    -0.000205622
                     0.000359864    -0.000491777        -0.214037       -0.350558      0.000566888    -0.000173602         0.646922        0.630378
                       -0.742538        0.655674      0.000507088     -0.00029263      -0.00304705      -0.0553111      7.29467e-05     2.07013e-05
                     0.000626766     2.32642e-05         0.647951        0.630528      0.000386413     0.000244294         0.357226        0.193435
281742                -0.0573146      -0.0102348      0.000246924    -0.000480806        -0.741999        0.656512       0.00055934    -0.000206299
                     0.000359685    -0.000492346        -0.214223       -0.350592      0.000566759    -0.000174082         0.647224         0.62998
                       -0.742211        0.656044      0.000507902    -0.000292988      -0.00310994      -0.0553054      7.26677e-05     2.03207e-05
                      0.00062698     2.28467e-05         0.648254        0.630122      0.000386698     0.000243987         0.357484        0.193217
281744                 -0.057311      -0.0102413      0.000247073    -0.000481247        -0.741673        0.656882      0.000559468    -0.000206976
                     0.000359505    -0.000492916        -0.214409       -0.350627       0.00056663    -0.000174562         0.647525        0.629582
                       -0.741885        0.656414      0.000508334    -0.000293432      -0.00317282      -0.0552996       7.2387e-05     1.99402e-05
                     0.000627194     2.24289e-05         0.648552        0.629717      0.000386981     0.000243681         0.357742           0.193
281746                -0.0573075      -0.0102479        0.0002468    -0.000481432        -0.741346        0.657252      0.000559594    -0.000207654
                     0.000359325    -0.000493485        -0.214594       -0.350661        0.0005665    -0.000175042         0.647826        0.629184
                       -0.741559        0.656784      0.000507942    -0.000294075      -0.00323569      -0.0552938      7.21047e-05     1.95597e-05
                     0.000627408     2.20108e-05          0.64884        0.629312      0.000387262     0.000243373         0.358001        0.192782
281748                -0.0573039      -0.0102544      0.000245757    -0.000481146         -0.74102        0.657621       0.00055972    -0.000208333
                     0.000359145    -0.000494054        -0.214779       -0.350696      0.000566369    -0.000175523         0.648127        0.628786
                       -0.741232        0.657154      0.000506035    -0.000295066      -0.00329856      -0.0552879      7.18208e-05     1.91793e-05
                     0.000627621     2.15922e-05         0.649108          0.6289      0.000387542     0.000243066         0.358259        0.192564
281750                -0.0573004      -0.0102609      0.000243493     -0.00048015        -0.740693        0.657991      0.000559845    -0.000209011
                     0.000358964    -0.000494623        -0.214962       -0.350731      0.000566238    -0.000176005         0.648427        0.628387
                       -0.740905        0.657523      0.000501734    -0.000296473      -0.00336142       -0.055282      7.15352e-05     1.87989e-05
                     0.000627834     2.11732e-05         0.649303        0.628448      0.000387819     0.000242758         0.358517        0.192346
281752                -0.0572969      -0.0102675      0.000239634    -0.000478343        -0.740366         0.65836      0.000559968     -0.00020969
                     0.000358784    -0.000495192        -0.215142       -0.350768      0.000566105    -0.000176487         0.648728        0.627988
                       -0.740578        0.657892      0.000494344    -0.000298043      -0.00342427       -0.055276      7.12481e-05     1.84185e-05
                     0.000628047     2.07539e-05         0.650036        0.627172      0.000388095      0.00024245         0.358775        0.192127
281754                -0.0572934       -0.010274      0.000234252    -0.000475982        -0.740039        0.658729      0.000560091     -0.00021037
                     0.000358604     -0.00049576        -0.215315       -0.350815      0.000565972     -0.00017697         0.649028        0.627589
                       -0.740251        0.658261      0.000484146    -0.000299088      -0.00348711        -0.05527      7.09594e-05     1.80382e-05
                     0.000628259     2.03343e-05         0.650374        0.627673      0.000388369     0.000242141         0.359032        0.191908
281756                  -0.05729      -0.0102806      0.000228145    -0.000473653        -0.739711        0.659098      0.000560213    -0.000211049
                     0.000358426    -0.000496327        -0.215522       -0.350903      0.000565838    -0.000177454         0.649328         0.62719
                       -0.739923         0.65863      0.000472897    -0.000298976      -0.00354995      -0.0552639      7.06691e-05      1.7658e-05
                     0.000628471     1.99143e-05         0.650575        0.627307      0.000388641     0.000241832          0.35929        0.191689
281758                -0.0572865      -0.0102872      0.000222511    -0.000471868        -0.739384        0.659467      0.000560334    -0.000211729
                     0.000358252    -0.000496892        -0.215755       -0.350906      0.000565704    -0.000177938         0.649627         0.62679
                       -0.739595        0.658999       0.00046293    -0.000297878      -0.00361278      -0.0552578      7.03772e-05     1.72778e-05
                     0.000628683     1.94943e-05         0.650842        0.626912      0.000388911     0.000241522         0.359548         0.19147
281760                -0.0572831      -0.0102937      0.000218194     -0.00047076        -0.739056        0.659835      0.000560454    -0.000212409
                     0.000358092    -0.000497454        -0.215939       -0.350922      0.000565568    -0.000178422         0.649927         0.62639
                       -0.739268        0.659368        0.0004556    -0.000296581       -0.0036756      -0.0552516      7.00839e-05     1.68977e-05
                     0.000628896     1.90746e-05         0.651127        0.626513       0.00038918     0.000241212         0.359806         0.19125
281762                -0.0572796      -0.0103003      0.000215353    -0.000470192        -0.738728        0.660204      0.000560573     -0.00021309
                     0.000357985    -0.000498047        -0.216122        -0.35095      0.000565432    -0.000178908         0.650226         0.62599
                        -0.73894        0.659736      0.000450923    -0.000295691      -0.00373841      -0.0552453      6.97889e-05     1.65177e-05
