! TOUCHSTONE file generated by CST MICROWAVE STUDIO
! Date and time: Tue Oct 14 07:32:29 2025
! Project name: Teste_Macro_Metasurface_Nanopilar.cst
! Parameters = {H=600; L_x=190; L_y=145; Lambda=1064; Max_L=200; Min_L=70; PathPara=1; Phi=0; Step_L=10; Theta=0; p=520; phaseX=180; phaseY=0}
! Header version: 2018
! Port assignment regex: !\s*Touchstone port\s*([0-9]+)\s*=\s*(CST MWS port|CST DS port)\s*([0-9]+|Zmin|Zmax)\s*\(\"(.*)\"\)(\s*mode\s*([0-9]+))?.*
! Touchstone port assignment:
! Touchstone port 1 = CST MWS port Zmax ("") mode 1
! Touchstone port 2 = CST MWS port Zmax ("") mode 2
! Touchstone port 3 = CST MWS port Zmin ("") mode 1
! Touchstone port 4 = CST MWS port Zmin ("") mode 2
! S-Parameters are not renormalized. Each port impedance will be approximated by the real part at minimum frequency. The values are described via the [Reference] keyword.
! Default impedance is overridden by [Reference]
[Version] 2.0
# GHz S RI R 376.73
[Number of Ports] 4
[Reference]
376.73 376.73 259.814 259.814 
[Number of Frequencies] 51
[Network Data]
281700                 -0.173605     -0.00136764      4.04159e-05    -0.000294555         0.620181        0.759125       0.00100249    -0.000971016
                     2.01838e-06     -0.00039732        -0.204951      -0.0696474      0.000747359     -0.00112231         0.906749        0.352522
                        0.620521        0.759314      0.000677999     -0.00105225       -0.0328821        0.165907      0.000684151    -0.000247417
                     0.000834941     -0.00103187         0.906626        0.352288      0.000737872    -0.000358953         0.196442       0.0841154
281702                   -0.1736       -0.001345      4.01713e-05    -0.000294453          0.62051        0.758858       0.00100225     -0.00097129
                     2.79293e-06    -0.000397256        -0.204983      -0.0696066      0.000747022     -0.00112278         0.906891        0.352145
                         0.62085        0.759047      0.000677549     -0.00105259       -0.0327586        0.165928      0.000684033    -0.000247431
                     0.000834699     -0.00103194         0.906767        0.351911       0.00073783    -0.000359143         0.196509       0.0840049
281704                 -0.173595     -0.00132236       3.9927e-05     -0.00029435         0.620838        0.758591         0.001002    -0.000971564
                     3.56748e-06    -0.000397191        -0.205016      -0.0695658      0.000746685     -0.00112325         0.907033        0.351767
                         0.62118         0.75878      0.000677099     -0.00105293       -0.0326351        0.165949      0.000683915    -0.000247445
                     0.000834457       -0.001032         0.906909        0.351534      0.000737789    -0.000359332         0.196577       0.0838943
281706                  -0.17359     -0.00129972      3.96831e-05    -0.000294247         0.621167        0.758324       0.00100176    -0.000971839
                     4.34206e-06    -0.000397126        -0.205049      -0.0695249      0.000746348     -0.00112372         0.907174         0.35139
                        0.621509        0.758513      0.000676648     -0.00105327       -0.0325115        0.165969      0.000683797     -0.00024746
                     0.000834215     -0.00103206         0.907051        0.351157      0.000737747    -0.000359522         0.196644       0.0837837
281708                 -0.173585     -0.00127707      3.94395e-05    -0.000294143         0.621496        0.758056       0.00100151    -0.000972113
                     5.11672e-06    -0.000397061        -0.205082      -0.0694841       0.00074601     -0.00112418         0.907316        0.351012
                        0.621838        0.758246      0.000676196      -0.0010536        -0.032388         0.16599      0.000683679    -0.000247475
                     0.000833973     -0.00103212         0.907192         0.35078      0.000737705    -0.000359711         0.196711        0.083673
281710                  -0.17358     -0.00125441      3.91963e-05    -0.000294038         0.621824        0.757789       0.00100127    -0.000972388
                     5.89149e-06    -0.000396995        -0.205115      -0.0694432      0.000745672     -0.00112465         0.907457        0.350635
                        0.622167        0.757978      0.000675744     -0.00105394       -0.0322645         0.16601      0.000683561    -0.000247492
                     0.000833731     -0.00103219         0.907334        0.350403      0.000737663      -0.0003599         0.196778       0.0835623
281712                 -0.173575     -0.00123175      3.89533e-05    -0.000293933         0.622153        0.757521       0.00100102    -0.000972662
                     6.66642e-06     -0.00039693        -0.205147      -0.0694023      0.000745334     -0.00112512         0.907599        0.350257
                        0.622496         0.75771      0.000675291     -0.00105428        -0.032141        0.166031      0.000683442    -0.000247509
                     0.000833489     -0.00103225         0.907475        0.350026      0.000737621    -0.000360089         0.196845       0.0834516
281714                  -0.17357     -0.00120909      3.87106e-05    -0.000293827         0.622481        0.757253       0.00100076    -0.000972937
                     7.44155e-06    -0.000396864         -0.20518      -0.0693614      0.000744996     -0.00112559          0.90774         0.34988
                        0.622825        0.757443      0.000674837     -0.00105461       -0.0320175        0.166051      0.000683324    -0.000247526
                     0.000833247     -0.00103231         0.907616        0.349649      0.000737579    -0.000360278         0.196912       0.0833408
281716                 -0.173565     -0.00118641      3.84681e-05    -0.000293721         0.622809        0.756985       0.00100051    -0.000973212
                     8.21694e-06    -0.000396799        -0.205213      -0.0693205      0.000744657     -0.00112606         0.907881        0.349502
                        0.623154        0.757175      0.000674382     -0.00105495        -0.031894        0.166071      0.000683205    -0.000247545
                     0.000833004     -0.00103237         0.907757        0.349271      0.000737537    -0.000360467         0.196979         0.08323
281718                  -0.17356     -0.00116373      3.82259e-05    -0.000293613         0.623137        0.756717       0.00100025    -0.000973487
                     8.99264e-06    -0.000396734        -0.205245      -0.0692795      0.000744318     -0.00112653         0.908022        0.349124
                        0.623483        0.756906      0.000673927     -0.00105528       -0.0317705        0.166091      0.000683086    -0.000247564
                     0.000832762     -0.00103243         0.907898        0.348894      0.000737494    -0.000360655         0.197046       0.0831191
281720                 -0.173555     -0.00114105       3.7984e-05    -0.000293506         0.623465        0.756449      0.000999996    -0.000973762
                      9.7687e-06     -0.00039667        -0.205278      -0.0692386      0.000743979       -0.001127         0.908162        0.348746
                        0.623811        0.756638      0.000673471     -0.00105562        -0.031647        0.166111      0.000682967    -0.000247583
                      0.00083252     -0.00103249         0.908038        0.348517      0.000737451    -0.000360844         0.197113       0.0830082
281722                  -0.17355     -0.00111835      3.77422e-05    -0.000293397         0.623793         0.75618      0.000999736    -0.000974037
                     1.05452e-05    -0.000396607        -0.205311      -0.0691976       0.00074364     -0.00112746         0.908303        0.348369
                        0.624139         0.75637      0.000673014     -0.00105595       -0.0315235        0.166131      0.000682848    -0.000247603
                     0.000832278     -0.00103255         0.908179        0.348139      0.000737408    -0.000361032          0.19718       0.0828972
281724                 -0.173545     -0.00109565      3.75006e-05    -0.000293288          0.62412        0.755912      0.000999474    -0.000974311
                     1.13222e-05    -0.000396545        -0.205344      -0.0691566        0.0007433     -0.00112793         0.908443        0.347991
                        0.624467        0.756101      0.000672556     -0.00105629       -0.0314001        0.166151      0.000682728    -0.000247624
                     0.000832035     -0.00103261         0.908319        0.347762      0.000737365     -0.00036122         0.197246       0.0827862
281726                  -0.17354     -0.00107293      3.72592e-05    -0.000293178         0.624448        0.755643      0.000999211    -0.000974586
                     1.20998e-05    -0.000396485        -0.205376      -0.0691156       0.00074296      -0.0011284         0.908583        0.347613
                        0.624795        0.755832      0.000672098     -0.00105662       -0.0312766        0.166171      0.000682609    -0.000247646
                     0.000831793     -0.00103266         0.908459        0.347384      0.000737321    -0.000361408         0.197313       0.0826751
281728                 -0.173535     -0.00105021      3.70179e-05    -0.000293068         0.624775        0.755374      0.000998946    -0.000974862
                      1.2878e-05    -0.000396425        -0.205409      -0.0690746       0.00074262     -0.00112887         0.908723        0.347235
                        0.625123        0.755564      0.000671638     -0.00105695       -0.0311532         0.16619      0.000682489    -0.000247668
                     0.000831551     -0.00103272         0.908599        0.347006      0.000737278    -0.000361595         0.197379        0.082564
281730                  -0.17353     -0.00102747      3.67768e-05    -0.000292957         0.625102        0.755105      0.000998678    -0.000975137
                      1.3657e-05    -0.000396368        -0.205442      -0.0690336       0.00074228     -0.00112933         0.908863        0.346857
                        0.625451        0.755295      0.000671178     -0.00105729       -0.0310297         0.16621      0.000682369    -0.000247691
                     0.000831308     -0.00103278         0.908739        0.346629      0.000737233    -0.000361783         0.197446       0.0824529
281732                 -0.173525     -0.00100472      3.65358e-05    -0.000292845         0.625429        0.754836      0.000998409    -0.000975412
                     1.44368e-05    -0.000396312        -0.205474      -0.0689925      0.000741939      -0.0011298         0.909003        0.346479
                        0.625779        0.755025      0.000670718     -0.00105762       -0.0309063        0.166229      0.000682249    -0.000247715
                     0.000831066     -0.00103284         0.908878        0.346251      0.000737189    -0.000361971         0.197512       0.0823417
281734                  -0.17352    -0.000981963      3.62948e-05    -0.000292733         0.625756        0.754567      0.000998138    -0.000975687
                     1.52176e-05    -0.000396259        -0.205507      -0.0689514      0.000741597     -0.00113026         0.909143          0.3461
                        0.626106        0.754756      0.000670256     -0.00105795       -0.0307829        0.166249      0.000682129    -0.000247739
                     0.000830823     -0.00103289         0.909018        0.345873      0.000737144    -0.000362158         0.197579       0.0822305
281736                 -0.173515    -0.000959188      3.60539e-05     -0.00029262         0.626083        0.754298      0.000997865    -0.000975962
                     1.59993e-05    -0.000396208         -0.20554      -0.0689103      0.000741256     -0.00113073         0.909282        0.345722
                        0.626434        0.754487      0.000669794     -0.00105829       -0.0306594        0.166268      0.000682009    -0.000247764
                     0.000830581     -0.00103295         0.909157        0.345495      0.000737099    -0.000362345         0.197645       0.0821192
281738                  -0.17351    -0.000936397      3.58131e-05    -0.000292506          0.62641        0.754028       0.00099759    -0.000976238
                     1.67822e-05    -0.000396161        -0.205572      -0.0688692      0.000740913      -0.0011312         0.909421        0.345344
                        0.626761        0.754217      0.000669331     -0.00105862        -0.030536        0.166287      0.000681888     -0.00024779
                     0.000830338       -0.001033         0.909296        0.345118      0.000737054    -0.000362533         0.197711       0.0820079
281740                 -0.173506    -0.000913591      3.55722e-05    -0.000292392         0.626736        0.753759      0.000997313    -0.000976513
                     1.75664e-05    -0.000396116        -0.205605      -0.0688281      0.000740571     -0.00113166          0.90956        0.344965
                        0.627088        0.753948      0.000668868     -0.00105895       -0.0304126        0.166306      0.000681768    -0.000247816
                     0.000830095     -0.00103305         0.909435         0.34474      0.000737008     -0.00036272         0.197777       0.0818965
281742                 -0.173501    -0.000890768      3.53314e-05    -0.000292277         0.627063        0.753489      0.000997034    -0.000976788
                     1.83519e-05    -0.000396075        -0.205638       -0.068787      0.000740227     -0.00113213         0.909699        0.344587
                        0.627415        0.753678      0.000668403     -0.00105929       -0.0302892        0.166325      0.000681647    -0.000247843
                     0.000829852     -0.00103311         0.909574        0.344362      0.000736962    -0.000362908         0.197843       0.0817851
281744                 -0.173496    -0.000867927      3.50905e-05    -0.000292162         0.627389        0.753219      0.000996753    -0.000977064
                     1.91389e-05    -0.000396038         -0.20567      -0.0687458      0.000739884     -0.00113259         0.909838        0.344209
                        0.627742        0.753408      0.000667938     -0.00105962       -0.0301658        0.166344      0.000681526    -0.000247871
                     0.000829609     -0.00103316         0.909712        0.343983      0.000736915    -0.000363095         0.197909       0.0816737
281746                 -0.173491    -0.000845068      3.48496e-05    -0.000292046         0.627715        0.752949      0.000996471    -0.000977339
                     1.99275e-05    -0.000396005        -0.205703      -0.0687047      0.000739539     -0.00113305         0.909976         0.34383
                        0.628069        0.753138      0.000667473     -0.00105995       -0.0300424        0.166363      0.000681405    -0.000247899
                     0.000829366     -0.00103321         0.909851        0.343605      0.000736868    -0.000363282         0.197975       0.0815622
281748                 -0.173486    -0.000822189      3.46087e-05     -0.00029193         0.628041        0.752679      0.000996186    -0.000977615
                     2.07177e-05    -0.000395976        -0.205736      -0.0686635      0.000739195     -0.00113352         0.910115        0.343452
                        0.628395        0.752868      0.000667007     -0.00106028       -0.0299191        0.166382      0.000681284    -0.000247929
                     0.000829123     -0.00103326         0.909989        0.343227      0.000736821     -0.00036347         0.198041       0.0814507
281750                 -0.173481    -0.000799291      3.43676e-05    -0.000291813         0.628367        0.752409      0.000995899     -0.00097789
                     2.15098e-05    -0.000395952        -0.205768      -0.0686223      0.000738849     -0.00113398         0.910253        0.343073
                        0.628722        0.752598       0.00066654     -0.00106062       -0.0297957        0.166401      0.000681162    -0.000247958
                      0.00082888     -0.00103331         0.910127        0.342849      0.000736773    -0.000363657         0.198107       0.0813391
281752                 -0.173476    -0.000776373      3.41264e-05    -0.000291696         0.628693        0.752138      0.000995611    -0.000978166
                     2.23036e-05    -0.000395932        -0.205801      -0.0685811      0.000738503     -0.00113444         0.910391        0.342694
                        0.629048        0.752328      0.000666072     -0.00106095       -0.0296723        0.166419      0.000681041    -0.000247989
                     0.000828636     -0.00103336         0.910265        0.342471      0.000736725    -0.000363845         0.198173       0.0812275
281754                 -0.173471    -0.000753435      3.38852e-05    -0.000291578         0.629019        0.751868       0.00099532    -0.000978441
                     2.30993e-05    -0.000395918        -0.205834      -0.0685398      0.000738157     -0.00113491         0.910529        0.342316
                        0.629375        0.752057      0.000665604     -0.00106128        -0.029549        0.166438      0.000680919     -0.00024802
                     0.000828393     -0.00103341         0.910403        0.342092      0.000736676    -0.000364032         0.198238       0.0811158
281756                 -0.173466    -0.000730478      3.36438e-05     -0.00029146         0.629344        0.751597      0.000995028    -0.000978717
                     2.38968e-05    -0.000395908        -0.205866      -0.0684986       0.00073781     -0.00113537         0.910667        0.341937
                        0.629701        0.751787      0.000665136     -0.00106162       -0.0294256        0.166456      0.000680797    -0.000248052
                     0.000828149     -0.00103345         0.910541        0.341714      0.000736627     -0.00036422         0.198304       0.0810041
281758                 -0.173461    -0.000707503      3.34022e-05    -0.000291342         0.629669        0.751326      0.000994733    -0.000978992
                      2.4696e-05    -0.000395902        -0.205899      -0.0684573      0.000737462     -0.00113583         0.910805        0.341558
                        0.630027        0.751516      0.000664667     -0.00106195       -0.0293023        0.166475      0.000680675    -0.000248084
                     0.000827905      -0.0010335         0.910678        0.341336      0.000736578    -0.000364408          0.19837       0.0808923
281760                 -0.173457    -0.000684512      3.31605e-05    -0.000291223         0.629995        0.751055      0.000994437    -0.000979268
                     2.54966e-05      -0.0003959        -0.205931       -0.068416      0.000737114     -0.00113629         0.910942        0.341179
                        0.630353        0.751246      0.000664198     -0.00106228        -0.029179        0.166493      0.000680553    -0.000248117
                      0.00082766     -0.00103354         0.910816        0.340957      0.000736528    -0.000364596         0.198435       0.0807805
281762                 -0.173452    -0.000661508      3.29186e-05    -0.000291104          0.63032        0.750784      0.000994139    -0.000979544
                     2.62981e-05    -0.000395899        -0.205964      -0.0683747      0.000736765     -0.00113675         0.911079          0.3408
                        0.630679        0.750975      0.000663728     -0.00106261       -0.0290556        0.166511      0.000680431    -0.000248151
