! TOUCHSTONE file generated by CST MICROWAVE STUDIO
! Date and time: Tue Oct 14 07:26:26 2025
! Project name: Teste_Macro_Metasurface_Nanopilar.cst
! Parameters = {H=600; L_x=95; L_y=115; Lambda=1064; Max_L=200; Min_L=70; PathPara=1; Phi=0; Step_L=10; Theta=0; p=520; phaseX=180; phaseY=0}
! Header version: 2018
! Port assignment regex: !\s*Touchstone port\s*([0-9]+)\s*=\s*(CST MWS port|CST DS port)\s*([0-9]+|Zmin|Zmax)\s*\(\"(.*)\"\)(\s*mode\s*([0-9]+))?.*
! Touchstone port assignment:
! Touchstone port 1 = CST MWS port Zmax ("") mode 1
! Touchstone port 2 = CST MWS port Zmax ("") mode 2
! Touchstone port 3 = CST MWS port Zmin ("") mode 1
! Touchstone port 4 = CST MWS port Zmin ("") mode 2
! S-Parameters are not renormalized. Each port impedance will be approximated by the real part at minimum frequency. The values are described via the [Reference] keyword.
! Default impedance is overridden by [Reference]
[Version] 2.0
# GHz S RI R 376.73
[Number of Ports] 4
[Reference]
376.73 376.73 259.814 259.814 
[Number of Frequencies] 51
[Network Data]
281700                 -0.108898      -0.0652608     -7.55115e-05     0.000361821          0.18058       -0.970109     -0.000328231    -0.000244307
                    -9.17847e-05     0.000280872        0.0142967       0.0110343     -0.000430934     -0.00023651         0.836579       -0.543973
                        0.180647       -0.969839     -0.000319976    -0.000281924        -0.124413       0.0227197      0.000265562    -9.41559e-05
                     -0.00036459    -0.000229027         0.837164       -0.544207      0.000192284     -0.00011242       0.00416668       0.0181974
281702                 -0.108931      -0.0652334     -7.56144e-05     0.000362005         0.180135        -0.97019     -0.000328399    -0.000244213
                    -9.16834e-05     0.000280836        0.0143051       0.0110169     -0.000431027    -0.000236267         0.836363       -0.544304
                        0.180202       -0.969919     -0.000320223    -0.000281901        -0.124413       0.0227964       0.00026548     -9.4273e-05
                    -0.000364681    -0.000228876          0.83695       -0.544539      0.000192198     -0.00011244       0.00416156       0.0181948
281704                 -0.108963      -0.0652059      -7.5718e-05     0.000362189         0.179691        -0.97027     -0.000328566    -0.000244118
                    -9.15822e-05       0.0002808        0.0143135       0.0109995      -0.00043112    -0.000236025         0.836148       -0.544635
                        0.179758       -0.969999     -0.000320471    -0.000281878        -0.124413       0.0228732      0.000265397      -9.439e-05
                    -0.000364771    -0.000228724         0.836735       -0.544871      0.000192112    -0.000112462       0.00415644       0.0181922
281706                 -0.108996      -0.0651785     -7.58222e-05     0.000362374         0.179246        -0.97035     -0.000328733    -0.000244023
                    -9.14811e-05     0.000280764        0.0143219       0.0109821     -0.000431213    -0.000235783         0.835933       -0.544966
                        0.179314       -0.970079     -0.000320719    -0.000281856        -0.124413         0.02295      0.000265315    -9.45071e-05
                    -0.000364862    -0.000228573          0.83652       -0.545203      0.000192026    -0.000112483       0.00415131       0.0181896
281708                 -0.109028       -0.065151      -7.5927e-05     0.000362559         0.178802       -0.970429       -0.0003289    -0.000243927
                    -9.13799e-05     0.000280728        0.0143303       0.0109647     -0.000431305     -0.00023554         0.835717       -0.545297
                         0.17887       -0.970158     -0.000320967    -0.000281833        -0.124413       0.0230267      0.000265232    -9.46241e-05
                    -0.000364953    -0.000228422         0.836305       -0.545535      0.000191941    -0.000112504       0.00414619        0.018187
281710                 -0.109061      -0.0651236     -7.60325e-05     0.000362745         0.178357       -0.970509     -0.000329067    -0.000243832
                    -9.12787e-05     0.000280692        0.0143386       0.0109473     -0.000431398    -0.000235298         0.835501       -0.545628
                        0.178425       -0.970237     -0.000321215     -0.00028181        -0.124413       0.0231035      0.000265149    -9.47411e-05
                    -0.000365043    -0.000228271          0.83609       -0.545866      0.000191855    -0.000112525       0.00414106       0.0181844
281712                 -0.109093      -0.0650961     -7.61386e-05     0.000362931         0.177913       -0.970588     -0.000329233    -0.000243736
                    -9.11776e-05     0.000280656         0.014347       0.0109299     -0.000431491    -0.000235055         0.835285       -0.545958
                        0.177981       -0.970317     -0.000321464    -0.000281787        -0.124413       0.0231803      0.000265067     -9.4858e-05
                    -0.000365134     -0.00022812         0.835875       -0.546198      0.000191769    -0.000112547       0.00413593       0.0181818
281714                 -0.109126      -0.0650686     -7.62453e-05     0.000363118         0.177468       -0.970667       -0.0003294     -0.00024364
                    -9.10765e-05      0.00028062        0.0143553       0.0109125     -0.000431584    -0.000234813         0.835069       -0.546289
                        0.177537       -0.970396     -0.000321712    -0.000281764        -0.124413       0.0232571      0.000264984     -9.4975e-05
                    -0.000365226    -0.000227969          0.83566       -0.546529      0.000191683    -0.000112568        0.0041308       0.0181793
281716                 -0.109158       -0.065041     -7.63526e-05     0.000363305         0.177024       -0.970746     -0.000329566    -0.000243544
                    -9.09754e-05     0.000280584        0.0143637       0.0108951     -0.000431676    -0.000234571         0.834853       -0.546619
                        0.177092       -0.970474     -0.000321961    -0.000281741        -0.124412       0.0233339      0.000264901    -9.50919e-05
                    -0.000365317    -0.000227817         0.835444       -0.546861      0.000191597     -0.00011259       0.00412566       0.0181767
281718                 -0.109191      -0.0650135     -7.64606e-05     0.000363493         0.176579       -0.970825     -0.000329733    -0.000243448
                    -9.08743e-05     0.000280548         0.014372       0.0108777     -0.000431769    -0.000234328         0.834637        -0.54695
                        0.176648       -0.970553      -0.00032221    -0.000281717        -0.124412       0.0234107      0.000264818    -9.52087e-05
                    -0.000365408    -0.000227666         0.835228       -0.547192      0.000191511    -0.000112611       0.00412053       0.0181742
281720                 -0.109223       -0.064986     -7.65692e-05     0.000363681         0.176134       -0.970903     -0.000329899    -0.000243351
                    -9.07732e-05     0.000280511        0.0143803       0.0108603     -0.000431861    -0.000234086          0.83442        -0.54728
                        0.176203       -0.970631     -0.000322459    -0.000281694        -0.124411       0.0234876      0.000264735    -9.53256e-05
                    -0.000365499    -0.000227515         0.835013       -0.547523      0.000191425    -0.000112633       0.00411539       0.0181716
281722                 -0.109256      -0.0649584     -7.66785e-05      0.00036387          0.17569       -0.970982     -0.000330065    -0.000243254
                    -9.06722e-05     0.000280475        0.0143886       0.0108428     -0.000431953    -0.000233843         0.834204        -0.54761
                        0.175758       -0.970709     -0.000322709    -0.000281671        -0.124411       0.0235644      0.000264652    -9.54424e-05
                    -0.000365591    -0.000227364         0.834797       -0.547854      0.000191339    -0.000112655       0.00411025       0.0181691
281724                 -0.109288      -0.0649308     -7.67884e-05     0.000364059         0.175245        -0.97106     -0.000330231    -0.000243157
                    -9.05711e-05     0.000280438        0.0143969       0.0108254     -0.000432046    -0.000233601         0.833987        -0.54794
                        0.175314       -0.970787     -0.000322958    -0.000281647        -0.124411       0.0236412      0.000264568    -9.55592e-05
                    -0.000365683    -0.000227213         0.834581       -0.548185      0.000191252    -0.000112677       0.00410511       0.0181666
281726                 -0.109321      -0.0649032      -7.6899e-05     0.000364249           0.1748       -0.971137     -0.000330397     -0.00024306
                    -9.04701e-05     0.000280402        0.0144052        0.010808     -0.000432138    -0.000233358          0.83377        -0.54827
                        0.174869       -0.970865     -0.000323208    -0.000281623         -0.12441       0.0237181      0.000264485    -9.56759e-05
                    -0.000365774    -0.000227062         0.834365       -0.548516      0.000191166    -0.000112699       0.00409997       0.0181641
281728                 -0.109353      -0.0648756     -7.70102e-05     0.000364439         0.174355       -0.971215     -0.000330563    -0.000242963
                    -9.03691e-05     0.000280365        0.0144135       0.0107905      -0.00043223    -0.000233116         0.833553         -0.5486
                        0.174424       -0.970943     -0.000323458    -0.000281599        -0.124409       0.0237949      0.000264402    -9.57926e-05
                    -0.000365866    -0.000226911         0.834149       -0.548847       0.00019108    -0.000112721       0.00409483       0.0181616
281730                 -0.109386      -0.0648479      -7.7122e-05     0.000364629          0.17391       -0.971293     -0.000330729    -0.000242866
                    -9.02681e-05     0.000280328        0.0144217       0.0107731     -0.000432322    -0.000232874         0.833336        -0.54893
                         0.17398        -0.97102     -0.000323708    -0.000281575        -0.124409       0.0238718      0.000264319    -9.59093e-05
                    -0.000365958     -0.00022676         0.833932       -0.549178      0.000190994    -0.000112743       0.00408968       0.0181591
281732                 -0.109418      -0.0648203     -7.72346e-05      0.00036482         0.173465        -0.97137     -0.000330894    -0.000242768
                    -9.01671e-05     0.000280292          0.01443       0.0107556     -0.000432414    -0.000232631         0.833119        -0.54926
                        0.173535       -0.971097     -0.000323958    -0.000281551        -0.124408       0.0239486      0.000264235    -9.60258e-05
                     -0.00036605    -0.000226609         0.833716       -0.549508      0.000190908    -0.000112765       0.00408453       0.0181566
281734                  -0.10945      -0.0647926     -7.73477e-05     0.000365012          0.17302       -0.971447      -0.00033106     -0.00024267
                    -9.00661e-05     0.000280255        0.0144383       0.0107382     -0.000432506    -0.000232389         0.832902       -0.549589
                         0.17309       -0.971174     -0.000324209    -0.000281527        -0.124407       0.0240255      0.000264152    -9.61423e-05
                    -0.000366142    -0.000226458         0.833499       -0.549839      0.000190822    -0.000112788       0.00407938       0.0181541
281736                 -0.109483      -0.0647649     -7.74616e-05     0.000365203         0.172575       -0.971524     -0.000331225    -0.000242572
                    -8.99652e-05     0.000280218        0.0144465       0.0107207     -0.000432598    -0.000232146         0.832684       -0.549919
                        0.172645       -0.971251     -0.000324459    -0.000281503        -0.124407       0.0241024      0.000264068    -9.62587e-05
                    -0.000366235    -0.000226307         0.833282        -0.55017      0.000190735     -0.00011281       0.00407423       0.0181516
281738                 -0.109515      -0.0647372     -7.75761e-05     0.000365396          0.17213         -0.9716     -0.000331391    -0.000242474
                    -8.98642e-05     0.000280181        0.0144547       0.0107032     -0.000432689    -0.000231904         0.832467       -0.550249
                          0.1722       -0.971327      -0.00032471    -0.000281478        -0.124406       0.0241793      0.000263985    -9.63749e-05
                    -0.000366327    -0.000226156         0.833065         -0.5505      0.000190649    -0.000112833       0.00406908       0.0181492
281740                 -0.109548      -0.0647094     -7.76912e-05     0.000365589         0.171685       -0.971677     -0.000331556    -0.000242376
                    -8.97633e-05     0.000280144        0.0144629       0.0106858     -0.000432781    -0.000231661         0.832249       -0.550578
                        0.171755       -0.971404     -0.000324961    -0.000281453        -0.124405       0.0242562      0.000263902    -9.64906e-05
                     -0.00036642    -0.000226005         0.832848       -0.550831      0.000190563    -0.000112855       0.00406393       0.0181467
281742                  -0.10958      -0.0646817      -7.7807e-05     0.000365782         0.171239       -0.971753     -0.000331722    -0.000242279
                    -8.96624e-05     0.000280107        0.0144711       0.0106683     -0.000432872    -0.000231419         0.832031       -0.550907
                         0.17131        -0.97148     -0.000325212    -0.000281429        -0.124404        0.024333      0.000263821    -9.66046e-05
                    -0.000366512    -0.000225854         0.832631       -0.551161      0.000190477    -0.000112878       0.00405877       0.0181443
281744                 -0.109613      -0.0646539     -7.79234e-05     0.000365975         0.170794       -0.971829     -0.000331271    -0.000241942
                    -8.95615e-05      0.00028007        0.0144793       0.0106508     -0.000432964    -0.000231177         0.831813       -0.551237
                        0.170865       -0.971556     -0.000325464    -0.000281404        -0.124403         0.02441      0.000264245     -9.6716e-05
                    -0.000366605    -0.000225704         0.832414       -0.551491      0.000190391      -0.0001129       0.00405358       0.0181419
281746                 -0.109645      -0.0646262     -7.80405e-05      0.00036617         0.170349       -0.971905     -0.000332046    -0.000242074
                    -8.94606e-05     0.000280032        0.0144875       0.0106333     -0.000433055    -0.000230934         0.831595       -0.551566
                         0.17042       -0.971631     -0.000325715    -0.000281379        -0.124402       0.0244869      0.000263644    -9.68484e-05
                    -0.000366698    -0.000225553         0.832197       -0.551821      0.000190304    -0.000112923       0.00404845       0.0181394
281748                 -0.109677      -0.0645984     -7.81581e-05     0.000366364         0.169904       -0.971981     -0.000332212    -0.000241976
                    -8.93597e-05     0.000279995        0.0144957       0.0106158     -0.000433147    -0.000230692         0.831377       -0.551895
                        0.169975       -0.971707     -0.000325967    -0.000281354        -0.124401       0.0245638      0.000263562    -9.69621e-05
                    -0.000366791    -0.000225402         0.831979       -0.552151      0.000190219    -0.000112946       0.00404329        0.018137
281750                  -0.10971      -0.0645706     -7.82763e-05     0.000366559         0.169458       -0.972056     -0.000332377    -0.000241878
                    -8.92588e-05     0.000279958        0.0145039       0.0105983     -0.000433235    -0.000230446         0.831158       -0.552224
                         0.16953       -0.971782     -0.000326219    -0.000281329          -0.1244       0.0246407      0.000263479    -9.70776e-05
                    -0.000366885    -0.000225252         0.831761       -0.552481      0.000190145    -0.000112957       0.00403813       0.0181346
281752                 -0.109742      -0.0645427     -7.83948e-05     0.000366754         0.169013       -0.972131     -0.000332542    -0.000241778
                     -8.9158e-05     0.000279924         0.014512       0.0105808     -0.000433329    -0.000230207          0.83094       -0.552553
                        0.169084       -0.971857     -0.000326471    -0.000281304        -0.124399       0.0247176      0.000263395    -9.71936e-05
                    -0.000366981    -0.000225104         0.831544       -0.552811      0.000190044    -0.000112994       0.00403296       0.0181322
281754                 -0.109775      -0.0645149      -7.8513e-05     0.000366949         0.168567       -0.972206     -0.000332706    -0.000241679
                     -8.9057e-05      0.00027988        0.0145202       0.0105633      -0.00043342    -0.000229965         0.830721       -0.552882
                        0.168639       -0.971932     -0.000326723     -0.00028128        -0.124397       0.0247946      0.000263311    -9.73097e-05
                    -0.000367069    -0.000224948         0.831326       -0.553141      0.000189958    -0.000113016        0.0040278       0.0181298
281756                 -0.109807       -0.064487     -7.86281e-05     0.000367144         0.168122       -0.972281      -0.00033287    -0.000241579
                    -8.89562e-05     0.000279844        0.0145283       0.0105458     -0.000433511    -0.000229722         0.830502        -0.55321
                        0.168194       -0.972007     -0.000326976     -0.00028126        -0.124396       0.0248715      0.000263227    -9.74259e-05
                    -0.000367164    -0.000224798         0.831108       -0.553471      0.000189872    -0.000113039       0.00402263       0.0181274
281758                 -0.109839      -0.0644591     -7.83652e-05     0.000367614         0.167676       -0.972356     -0.000333034    -0.000241478
                    -8.88554e-05     0.000279807         0.014538       0.0105277     -0.000433602     -0.00022948         0.830283       -0.553539
                        0.167749       -0.972082     -0.000327241    -0.000281209        -0.124395       0.0249485      0.000263143    -9.75421e-05
                    -0.000367257    -0.000224647         0.830888         -0.5538      0.000189786    -0.000113063       0.00401746       0.0181251
281760                 -0.109872      -0.0644312     -7.88949e-05     0.000367547         0.167231        -0.97243     -0.000333198    -0.000241378
                    -8.87545e-05     0.000279769        0.0145446       0.0105108     -0.000433693    -0.000229237         0.830064       -0.553868
                        0.167303       -0.972156     -0.000327484    -0.000281192        -0.124393       0.0250254      0.000263058    -9.76583e-05
                    -0.000367351    -0.000224497         0.830671        -0.55413      0.000189699    -0.000113086       0.00401229       0.0181227
281762                 -0.109904      -0.0644033     -7.90121e-05     0.000367742         0.166785       -0.972505     -0.000333362    -0.000241277
                    -8.86537e-05     0.000279731        0.0145527       0.0104933     -0.000433784    -0.000228995         0.829845       -0.554196
                        0.166858        -0.97223     -0.000327736    -0.000281168        -0.124392       0.0251024      0.000262974    -9.77745e-05
