! TOUCHSTONE file generated by CST MICROWAVE STUDIO
! Date and time: Tue Oct 14 07:29:47 2025
! Project name: Teste_Macro_Metasurface_Nanopilar.cst
! Parameters = {H=600; L_x=145; L_y=200; Lambda=1064; Max_L=200; Min_L=70; PathPara=1; Phi=0; Step_L=10; Theta=0; p=520; phaseX=180; phaseY=0}
! Header version: 2018
! Port assignment regex: !\s*Touchstone port\s*([0-9]+)\s*=\s*(CST MWS port|CST DS port)\s*([0-9]+|Zmin|Zmax)\s*\(\"(.*)\"\)(\s*mode\s*([0-9]+))?.*
! Touchstone port assignment:
! Touchstone port 1 = CST MWS port Zmax ("") mode 1
! Touchstone port 2 = CST MWS port Zmax ("") mode 2
! Touchstone port 3 = CST MWS port Zmin ("") mode 1
! Touchstone port 4 = CST MWS port Zmin ("") mode 2
! S-Parameters are not renormalized. Each port impedance will be approximated by the real part at minimum frequency. The values are described via the [Reference] keyword.
! Default impedance is overridden by [Reference]
[Version] 2.0
# GHz S RI R 376.73
[Number of Ports] 4
[Reference]
376.73 376.73 259.814 259.814 
[Number of Frequencies] 51
[Network Data]
281700                 -0.243501      -0.0950147        4.715e-06     0.000260004         0.941946        0.193321     -0.000156964      0.00056577
                    -0.000114777     0.000177344        -0.154951      0.00134243     -0.000388831     0.000339234         0.704767        0.682836
                         0.94169         0.19346     -0.000307489     0.000627554          0.25895      0.00611425     -0.000123611     0.000356564
                    -0.000234039      0.00059484         0.704009        0.683613     -6.84474e-05     0.000154697       0.00059574        0.155712
281702                 -0.243546      -0.0949586      4.76396e-06     0.000260259          0.94202         0.19293     -0.000156572     0.000565922
                    -0.000114896     0.000177203        -0.154915      0.00141304     -0.000388377     0.000339602         0.705089        0.682505
                        0.941764        0.193069      -0.00030735     0.000627999         0.258976      0.00596875     -0.000122886     0.000356848
                    -0.000233934     0.000594957         0.704331        0.683283     -6.82154e-05     0.000155434      0.000664064        0.155687
281704                 -0.243591      -0.0949024      4.81513e-06     0.000260511         0.942094        0.192539     -0.000156181     0.000566072
                    -0.000115016     0.000177061        -0.154879      0.00148373     -0.000387922     0.000339972          0.70541        0.682173
                        0.941839        0.192678     -0.000307207     0.000628443         0.259001      0.00582323     -0.000122161     0.000357128
                    -0.000233827     0.000595074         0.704653        0.682953     -6.79849e-05     0.000156172      0.000732264        0.155662
281706                 -0.243636      -0.0948461      4.86848e-06      0.00026076         0.942168        0.192147      -0.00015579     0.000566221
                    -0.000115135     0.000176918        -0.154843       0.0015545     -0.000387467     0.000340344         0.705731         0.68184
                        0.941913        0.192286      -0.00030706     0.000628887         0.259026      0.00567768     -0.000121436     0.000357404
                     -0.00023372     0.000595191         0.704975        0.682623     -6.77559e-05     0.000156909      0.000800339        0.155637
281708                 -0.243682      -0.0947899      4.92403e-06     0.000261007         0.942242        0.191756     -0.000155399     0.000566369
                    -0.000115254     0.000176774        -0.154807      0.00162534     -0.000387011     0.000340718         0.706052        0.681508
                        0.941987        0.191895     -0.000306909     0.000629331         0.259052      0.00553212      -0.00012071     0.000357677
                    -0.000233612     0.000595308         0.705297        0.682293     -6.75283e-05     0.000157647       0.00086829        0.155612
281710                 -0.243727      -0.0947336      4.98177e-06      0.00026125         0.942315        0.191365     -0.000155008     0.000566516
                    -0.000115373     0.000176629        -0.154771      0.00169626     -0.000386556     0.000341094         0.706373        0.681175
                         0.94206        0.191504     -0.000306754     0.000629775         0.259077      0.00538654     -0.000119983     0.000357947
                    -0.000233503     0.000595425         0.705618        0.681963     -6.73022e-05     0.000158385      0.000936115        0.155586
281712                 -0.243772      -0.0946774      5.04169e-06     0.000261491         0.942388        0.190974     -0.000154618     0.000566661
                    -0.000115492     0.000176483        -0.154735      0.00176726     -0.000386101     0.000341471         0.706694        0.680842
                        0.942134        0.191112     -0.000306595     0.000630218         0.259102      0.00524093     -0.000119257     0.000358213
                    -0.000233394     0.000595542          0.70594        0.681632     -6.70776e-05     0.000159123       0.00100381        0.155561
281714                 -0.243817      -0.0946211      5.10379e-06     0.000261729         0.942462        0.190583     -0.000154228     0.000566806
                    -0.000115611     0.000176337        -0.154698      0.00183833     -0.000385645      0.00034185         0.707014        0.680509
                        0.942208        0.190721     -0.000306432     0.000630661         0.259127      0.00509531      -0.00011853     0.000358476
                    -0.000233284      0.00059566         0.706261        0.681301     -6.68544e-05     0.000159862       0.00107139        0.155535
281716                 -0.243862      -0.0945647      5.16806e-06     0.000261964         0.942535        0.190191     -0.000153839     0.000566949
                     -0.00011573     0.000176189        -0.154661      0.00190949     -0.000385189      0.00034223         0.707335        0.680176
                        0.942281         0.19033     -0.000306265     0.000631104         0.259151      0.00494966     -0.000117802     0.000358735
                    -0.000233174     0.000595777         0.706582         0.68097     -6.66327e-05     0.000160601       0.00113884         0.15551
281718                 -0.243907      -0.0945084       5.2345e-06     0.000262196         0.942607          0.1898      -0.00015345     0.000567091
                    -0.000115848      0.00017604        -0.154625      0.00198072     -0.000384734     0.000342613         0.707656        0.679842
                        0.942354        0.189938     -0.000306094     0.000631546         0.259176      0.00480399     -0.000117074     0.000358992
                    -0.000233063     0.000595895         0.706904        0.680639     -6.64126e-05     0.000161339       0.00120616        0.155484
281720                 -0.243952       -0.094452      5.30311e-06     0.000262426          0.94268        0.189409     -0.000153061     0.000567232
                    -0.000115967     0.000175891        -0.154588      0.00205203     -0.000384278     0.000342997         0.707976        0.679508
                        0.942427        0.189547     -0.000305919     0.000631988         0.259201      0.00465831     -0.000116346     0.000359245
                    -0.000232951     0.000596013         0.707225        0.680307     -6.61939e-05     0.000162078       0.00127335        0.155458
281722                 -0.243997      -0.0943956      5.37387e-06     0.000262652         0.942753        0.189017     -0.000152673     0.000567372
                    -0.000116085      0.00017574        -0.154551      0.00212342     -0.000383821     0.000343382         0.708296        0.679174
                          0.9425        0.189155      -0.00030574     0.000632429         0.259225       0.0045126     -0.000115617     0.000359496
                    -0.000232838     0.000596131         0.707546        0.679975     -6.59766e-05     0.000162817       0.00134042        0.155432
281724                 -0.244042      -0.0943392      5.44679e-06     0.000262876         0.942825        0.188626     -0.000152286     0.000567511
                    -0.000116204     0.000175589        -0.154514      0.00219489     -0.000383365      0.00034377         0.708617         0.67884
                        0.942572        0.188764     -0.000305557      0.00063287          0.25925      0.00436687     -0.000114888     0.000359743
                    -0.000232725     0.000596249         0.707867        0.679643     -6.57609e-05     0.000163557       0.00140735        0.155406
281726                 -0.244087      -0.0942828      5.52185e-06     0.000263096         0.942897        0.188234     -0.000151899     0.000567648
                    -0.000116322     0.000175436        -0.154477      0.00226644     -0.000382909     0.000344159         0.708937        0.678505
                        0.942645        0.188372     -0.000305371     0.000633311         0.259274      0.00422112     -0.000114159     0.000359988
                    -0.000232612     0.000596368         0.708188        0.679311     -6.55467e-05     0.000164296       0.00147416         0.15538
281728                 -0.244132      -0.0942263      5.59905e-06     0.000263314         0.942969        0.187843     -0.000151512     0.000567785
                    -0.000116441     0.000175283        -0.154439      0.00233807     -0.000382452      0.00034455         0.709257        0.678171
                        0.942717        0.187981      -0.00030518     0.000633751         0.259299      0.00407535     -0.000113431      0.00036023
                    -0.000232498     0.000596486         0.708508        0.678978     -6.53339e-05     0.000165035       0.00154085        0.155354
281730                 -0.244177      -0.0941698      5.67838e-06     0.000263529         0.943041        0.187451     -0.000151126     0.000567921
                    -0.000116559     0.000175129        -0.154402      0.00240978     -0.000381996     0.000344942         0.709577        0.677836
                        0.942789        0.187589     -0.000304986      0.00063419         0.259323      0.00392955     -0.000112702     0.000360469
                    -0.000232383     0.000596605         0.708829        0.678646     -6.51227e-05     0.000165774        0.0016074        0.155328
281732                 -0.244222      -0.0941133      5.75983e-06     0.000263741         0.943113         0.18706     -0.000150741     0.000568055
                    -0.000116677     0.000174974        -0.154364      0.00248157     -0.000381539     0.000345337         0.709897          0.6775
                        0.942861        0.187197     -0.000304787     0.000634629         0.259347      0.00378374     -0.000111973     0.000360705
                    -0.000232267     0.000596724          0.70915        0.678313     -6.49129e-05     0.000166514       0.00167382        0.155302
281734                 -0.244267      -0.0940568       5.8434e-06      0.00026395         0.943184        0.186668     -0.000150356     0.000568189
                    -0.000116795     0.000174817        -0.154326      0.00255344     -0.000381083     0.000345733         0.710217        0.677165
                        0.942933        0.186806     -0.000304585     0.000635067         0.259371      0.00363791     -0.000111245     0.000360938
                    -0.000232151     0.000596842          0.70947        0.677979     -6.47046e-05     0.000167253       0.00174011        0.155275
281736                 -0.244312      -0.0940003      5.92908e-06     0.000264156         0.943256        0.186277     -0.000149972     0.000568321
                    -0.000116914      0.00017466        -0.154289      0.00262539     -0.000380626      0.00034613         0.710537        0.676829
                        0.943005        0.186414     -0.000304379     0.000635505         0.259395      0.00349206     -0.000110516     0.000361169
                    -0.000232035     0.000596962          0.70979        0.677646     -6.44978e-05     0.000167993       0.00180627        0.155249
281738                 -0.244357      -0.0939437      6.01686e-06     0.000264358         0.943327        0.185885     -0.000149588     0.000568453
                    -0.000117032     0.000174502        -0.154251      0.00269742     -0.000380169     0.000346529         0.710856        0.676493
                        0.943076        0.186022     -0.000304169     0.000635942         0.259419      0.00334618     -0.000109789     0.000361397
                    -0.000231918     0.000597081         0.710111        0.677312     -6.42926e-05     0.000168732       0.00187231        0.155222
281740                 -0.244402      -0.0938871      6.10674e-06     0.000264558         0.943398        0.185494     -0.000149205     0.000568583
                     -0.00011715     0.000174343        -0.154213      0.00276954     -0.000379712      0.00034693         0.711176        0.676157
                        0.943148        0.185631     -0.000303955     0.000636378         0.259443      0.00320029     -0.000109061     0.000361622
                      -0.0002318       0.0005972         0.710431        0.676978     -6.40888e-05     0.000169471       0.00193821        0.155196
281742                 -0.244447      -0.0938305      6.19869e-06     0.000264755         0.943469        0.185102     -0.000148823     0.000568713
                    -0.000117268     0.000174183        -0.154174      0.00284173     -0.000379255     0.000347333         0.711496         0.67582
                        0.943219        0.185239     -0.000303738     0.000636814         0.259467      0.00305437     -0.000108334     0.000361844
                    -0.000231682      0.00059732         0.710751        0.676644     -6.38865e-05     0.000170211       0.00200397        0.155169
281744                 -0.244492      -0.0937739      6.29272e-06     0.000264949         0.943539         0.18471     -0.000148441     0.000568841
                    -0.000117386     0.000174023        -0.154136        0.002914     -0.000378798     0.000347737         0.711815        0.675484
                         0.94329        0.184847     -0.000303516     0.000637249          0.25949      0.00290844     -0.000107608     0.000362064
                    -0.000231563     0.000597439         0.711071         0.67631     -6.36857e-05      0.00017095       0.00206961        0.155142
281746                 -0.244537      -0.0937172      6.38881e-06      0.00026514          0.94361        0.184319     -0.000148061     0.000568969
                    -0.000117504     0.000173861        -0.154098      0.00298636     -0.000378341     0.000348143         0.712134        0.675147
                        0.943361        0.184455     -0.000303291     0.000637683         0.259514      0.00276249     -0.000106882      0.00036228
                    -0.000231444     0.000597559         0.711391        0.675975     -6.34864e-05     0.000171689       0.00213512        0.155116
281748                 -0.244582      -0.0936606      6.48695e-06     0.000265328          0.94368        0.183927     -0.000147681     0.000569096
                    -0.000117621     0.000173698        -0.154059       0.0030588     -0.000377883     0.000348551         0.712454         0.67481
                        0.943432        0.184064     -0.000303062     0.000638116         0.259537      0.00261651     -0.000106156     0.000362494
                    -0.000231324     0.000597679         0.711711         0.67564     -6.32885e-05     0.000172428       0.00220049        0.155089
281750                 -0.244626      -0.0936039      6.58714e-06     0.000265513         0.943751        0.183535     -0.000147302     0.000569222
                    -0.000117739     0.000173534         -0.15402      0.00313132     -0.000377426      0.00034896         0.712773        0.674472
                        0.943502        0.183672     -0.000302829     0.000638549         0.259561      0.00247052     -0.000105431     0.000362706
                    -0.000231204     0.000597799          0.71203        0.675305     -6.30922e-05     0.000173167       0.00226573        0.155062
281752                 -0.244671      -0.0935472      6.68935e-06     0.000265694         0.943821        0.183144     -0.000146923     0.000569348
                    -0.000117857      0.00017337        -0.153982      0.00320392     -0.000376969     0.000349371         0.713092        0.674135
                        0.943572         0.18328     -0.000302593     0.000638981         0.259584       0.0023245     -0.000104707     0.000362914
                    -0.000231083      0.00059792          0.71235         0.67497     -6.28973e-05     0.000173906       0.00233083        0.155035
281754                 -0.244716      -0.0934904      6.79358e-06     0.000265873         0.943891        0.182752     -0.000146546     0.000569472
                    -0.000117975     0.000173204        -0.153943       0.0032766     -0.000376511     0.000349783         0.713411        0.673797
                        0.943643        0.182888     -0.000302353     0.000639412         0.259607      0.00217847     -0.000103984      0.00036312
                    -0.000230961      0.00059804          0.71267        0.674634     -6.27039e-05     0.000174644        0.0023958        0.155008
281756                 -0.244761      -0.0934337      6.89982e-06     0.000266048          0.94396         0.18236     -0.000146169     0.000569596
                    -0.000118093     0.000173038        -0.153904      0.00334937     -0.000376054     0.000350198          0.71373        0.673459
                        0.943713        0.182496     -0.000302109     0.000639843         0.259631      0.00203241     -0.000103261     0.000363324
                    -0.000230839     0.000598161         0.712989        0.674298      -6.2512e-05     0.000175383       0.00246064         0.15498
281758                 -0.244806      -0.0933769      7.00804e-06     0.000266221          0.94403        0.181968     -0.000145794     0.000569719
                    -0.000118211      0.00017287        -0.153864      0.00342222     -0.000375596     0.000350613         0.714048         0.67312
                        0.943783        0.182104     -0.000301861     0.000640272         0.259654      0.00188634     -0.000102539     0.000363524
                    -0.000230717     0.000598282         0.713308        0.673962     -6.23215e-05     0.000176121       0.00252534        0.154953
281760                 -0.244851      -0.0933201      7.11824e-06      0.00026639         0.944099        0.181576     -0.000145419     0.000569841
                    -0.000118329     0.000172702        -0.153825      0.00349515     -0.000375138     0.000351031         0.714367        0.672782
                        0.943852        0.181712     -0.000301609       0.0006407         0.259677      0.00174024     -0.000101817     0.000363723
                    -0.000230594     0.000598403         0.713627        0.673626     -6.21324e-05      0.00017686        0.0025899        0.154926
281762                 -0.244895      -0.0932633       7.2304e-06     0.000266556         0.944169        0.181185     -0.000145045     0.000569962
                    -0.000118446     0.000172532        -0.153786      0.00356817     -0.000374681      0.00035145         0.714686        0.672443
                        0.943922         0.18132     -0.000301354     0.000641128           0.2597      0.00159413     -0.000101097     0.000363918
