! TOUCHSTONE file generated by CST MICROWAVE STUDIO
! Date and time: Tue Oct 14 07:30:15 2025
! Project name: Teste_Macro_Metasurface_Nanopilar.cst
! Parameters = {H=600; L_x=155; L_y=130; Lambda=1064; Max_L=200; Min_L=70; PathPara=1; Phi=0; Step_L=10; Theta=0; p=520; phaseX=180; phaseY=0}
! Header version: 2018
! Port assignment regex: !\s*Touchstone port\s*([0-9]+)\s*=\s*(CST MWS port|CST DS port)\s*([0-9]+|Zmin|Zmax)\s*\(\"(.*)\"\)(\s*mode\s*([0-9]+))?.*
! Touchstone port assignment:
! Touchstone port 1 = CST MWS port Zmax ("") mode 1
! Touchstone port 2 = CST MWS port Zmax ("") mode 2
! Touchstone port 3 = CST MWS port Zmin ("") mode 1
! Touchstone port 4 = CST MWS port Zmin ("") mode 2
! S-Parameters are not renormalized. Each port impedance will be approximated by the real part at minimum frequency. The values are described via the [Reference] keyword.
! Default impedance is overridden by [Reference]
[Version] 2.0
# GHz S RI R 376.73
[Number of Ports] 4
[Reference]
376.73 376.73 259.814 259.814 
[Number of Frequencies] 51
[Network Data]
281700                 -0.099851       -0.128675       0.00018617      0.00260055         0.130862        0.973185       -0.0030267       0.0023726
                     9.85966e-05         0.00259        -0.446688        -0.48754      -0.00146395      0.00355063         0.668349        0.273644
                        0.130889        0.973252      -0.00128582      0.00352763       -0.0611191        0.150093      -0.00333002      0.00198709
                     -0.00336877      0.00236083         0.669514        0.273929      -0.00378816      0.00190459         0.642309      -0.0911077
281702                 -0.099896       -0.128661      0.000188075      0.00260093         0.131276        0.973111      -0.00302591      0.00237398
                     0.000102613      0.00259196        -0.447294       -0.487518      -0.00146083      0.00354749         0.668218        0.272862
                         0.13133        0.973193      -0.00128163      0.00352998        -0.061034        0.150146      -0.00332868       0.0019929
                     -0.00336944      0.00236513         0.669405        0.273136      -0.00378104      0.00190515         0.642515      -0.0921013
281704                 -0.099941       -0.128647       0.00018999      0.00260129         0.131691        0.973037      -0.00302514      0.00237531
                     0.000106654      0.00259394          -0.4479       -0.487495      -0.00145777      0.00354421         0.668086        0.272082
                        0.131771        0.973132      -0.00127743      0.00353233       -0.0609488          0.1502       -0.0033273      0.00199871
                     -0.00337005      0.00236944         0.669294        0.272345      -0.00377379      0.00190549         0.642695      -0.0930329
281706                 -0.099986       -0.128633      0.000191917      0.00260163         0.132105        0.972964       -0.0030244      0.00237658
                     0.000110722      0.00259598        -0.448507       -0.487471      -0.00145478      0.00354076         0.667954        0.271304
                        0.132211        0.973071      -0.00127323      0.00353468       -0.0608636        0.150253      -0.00332589      0.00200452
                     -0.00337061      0.00237377         0.669182        0.271557      -0.00376641      0.00190557          0.64289       -0.093919
281708                 -0.100031       -0.128619      0.000193861      0.00260195         0.132521        0.972891       -0.0030237      0.00237778
                     0.000114822      0.00259807        -0.449115       -0.487446      -0.00145187      0.00353711         0.667822        0.270528
                         0.13265         0.97301      -0.00126902      0.00353704       -0.0607782        0.150306      -0.00332443      0.00201034
                     -0.00337109      0.00237812         0.669069        0.270771      -0.00375886      0.00190535         0.643109      -0.0947848
281710                 -0.100076       -0.128605      0.000195825      0.00260224         0.132936        0.972819      -0.00302304      0.00237889
                     0.000118962      0.00260025        -0.449723        -0.48742      -0.00144906      0.00353324          0.66769        0.269753
                        0.133089        0.972948      -0.00126482      0.00353941       -0.0606927        0.150359      -0.00332293      0.00201615
                     -0.00337149      0.00238249         0.668955        0.269987      -0.00375114      0.00190478         0.643347      -0.0956459
281712                 -0.100121       -0.128591      0.000197815      0.00260249         0.133352        0.972748      -0.00302244       0.0023799
                     0.000123149      0.00260254        -0.450332       -0.487393      -0.00144637      0.00352911         0.667559         0.26898
                        0.133527        0.972886      -0.00126061      0.00354179       -0.0606072        0.150412      -0.00332138      0.00202197
                     -0.00337179      0.00238688         0.668838        0.269206      -0.00374323      0.00190381         0.643598       -0.096509
281714                 -0.100166       -0.128577      0.000199839      0.00260271         0.133768        0.972677      -0.00302191      0.00238078
                       0.0001274      0.00260497        -0.450942       -0.487365      -0.00144382      0.00352468         0.667427        0.268208
                        0.133965        0.972824       -0.0012564      0.00354418       -0.0605215        0.150465      -0.00331976      0.00202779
                     -0.00337197       0.0023913         0.668721        0.268427      -0.00373511      0.00190235         0.643857      -0.0973767
281716                 -0.100211       -0.128563      0.000201909      0.00260289         0.134185        0.972607       -0.0030215      0.00238149
                     0.000131736       0.0026076        -0.451553       -0.487336      -0.00144146      0.00351988         0.667296        0.267437
                        0.134402        0.972761       -0.0012522       0.0035466       -0.0604358        0.150518      -0.00331808       0.0020336
                       -0.003372      0.00239575         0.668601        0.267651      -0.00372676      0.00190032         0.644121      -0.0982493
281718                 -0.100256       -0.128549      0.000204038      0.00260302         0.134602        0.972538      -0.00302124      0.00238201
                     0.000136192      0.00261051        -0.452164       -0.487306      -0.00143932      0.00351465         0.667166        0.266667
                        0.134838        0.972698      -0.00124801      0.00354904       -0.0603499        0.150571      -0.00331632       0.0020394
                     -0.00337184      0.00240023         0.668479        0.266878      -0.00371816      0.00189757         0.644387      -0.0991266
281720                 -0.100301       -0.128535      0.000206249      0.00260311         0.135019        0.972469       -0.0030212      0.00238226
                     0.000140829      0.00261383        -0.452776       -0.487275      -0.00143748       0.0035089         0.667036        0.265898
                        0.135274        0.972634      -0.00124384      0.00355152        -0.060264        0.150623      -0.00331446      0.00204519
                     -0.00337144      0.00240475         0.668355        0.266108      -0.00370931      0.00189397         0.644654       -0.100008
281722                 -0.100346        -0.12852      0.000208572      0.00260314         0.135437        0.972401       -0.0030215      0.00238218
                     0.000145754      0.00261775        -0.453389       -0.487244      -0.00143603      0.00350253         0.666906         0.26513
                        0.135708        0.972571      -0.00123969      0.00355404       -0.0601779        0.150676      -0.00331248      0.00205095
                     -0.00337073      0.00240933         0.668227        0.265341      -0.00370018      0.00188929         0.644921       -0.100894
281724                 -0.100391       -0.128506       0.00021105      0.00260312         0.135854        0.972333      -0.00302232      0.00238168
                     0.000151179      0.00262264        -0.454002       -0.487211       -0.0014351      0.00349537         0.666778        0.264361
                        0.136142        0.972507      -0.00123558      0.00355661       -0.0600917        0.150728      -0.00331036      0.00205668
                     -0.00336959      0.00241396         0.668097        0.264576       -0.0036908      0.00188327         0.645187       -0.101783
281726                 -0.100436       -0.128492      0.000213741      0.00260308         0.136272        0.972267      -0.00302401      0.00238065
                     0.000157578      0.00262914        -0.454616       -0.487177      -0.00143488      0.00348724         0.666649        0.263592
                        0.136575        0.972443      -0.00123154      0.00355925       -0.0600055         0.15078      -0.00330805      0.00206232
                     -0.00336786      0.00241866         0.667964        0.263814      -0.00368123      0.00187551         0.645452       -0.102676
281728                 -0.100481       -0.128478      0.000216725      0.00260307          0.13669        0.972201      -0.00302718      0.00237904
                     0.000166196      0.00263866        -0.455231       -0.487141      -0.00143568      0.00347788         0.666521        0.262823
                        0.137006        0.972379       -0.0012276      0.00356196       -0.0599191        0.150832       -0.0033055      0.00206784
                     -0.00336527      0.00242345         0.667826        0.263053      -0.00367157      0.00186553         0.645716       -0.103571
281730                 -0.100526       -0.128463      0.000220095      0.00260318         0.137108        0.972137        -0.003033       0.0023771
                     0.000181292      0.00265439        -0.455847       -0.487105      -0.00143798      0.00346695         0.666394        0.262054
                        0.137436        0.972315       -0.0012238      0.00356474       -0.0598325        0.150884      -0.00330264      0.00207314
                     -0.00336135      0.00242836         0.667685        0.262295      -0.00366211       0.0018526         0.645978        -0.10447
281732                 -0.100571       -0.128449      0.000223924      0.00260364         0.137527        0.972073      -0.00304349      0.00237629
                     0.000224882      0.00268146        -0.456463       -0.487067      -0.00144253        0.003454         0.666266        0.261283
                        0.137863        0.972251      -0.00122022       0.0035676       -0.0597459        0.150936       -0.0032994      0.00207801
                     -0.00335523      0.00243339         0.667539        0.261538      -0.00365336      0.00183578         0.646238        -0.10537
281734                 -0.100615       -0.128434       0.00022817      0.00260478         0.137945         0.97201      -0.00306032      0.00238195
                     0.000358331      0.00258313        -0.457081       -0.487028      -0.00145069       0.0034385         0.666138        0.260512
                        0.138285        0.972188      -0.00121695      0.00357047        -0.059659        0.150988      -0.00329573      0.00208211
                     -0.00334504      0.00243851         0.667389        0.260781      -0.00364639      0.00181377         0.646496       -0.106274
281736                  -0.10066        -0.12842      0.000232496      0.00260701         0.138364        0.971949      -0.00307623      0.00240381
                     0.000209373      0.00251097        -0.457699       -0.486988      -0.00146488      0.00341989         0.666009        0.259739
                        0.138695        0.972127      -0.00121411      0.00357326        -0.059572        0.151039      -0.00329185      0.00208478
                     -0.00332606       0.0024433         0.667235        0.260025      -0.00364327      0.00178495         0.646753       -0.107179
281738                 -0.100705       -0.128405      0.000236171      0.00261047         0.138783        0.971889      -0.00307134      0.00243462
                     0.000180632      0.00255031        -0.458319       -0.486946      -0.00148968      0.00339823         0.665879        0.258965
                        0.139049         0.97207      -0.00121178      0.00357574       -0.0594847        0.151091      -0.00328878      0.00208513
                     -0.00328177      0.00244421         0.667076        0.259268      -0.00364803      0.00174771         0.647007       -0.108087
281740                 -0.100749       -0.128391      0.000238418      0.00261462         0.139203        0.971831      -0.00305151      0.00245051
                     0.000178047      0.00256923         -0.45894       -0.486903      -0.00153382       0.0033766         0.665748        0.258189
                        0.140253        0.971407       -0.0012099      0.00357754       -0.0593971        0.151142       -0.0032892      0.00208341
                     -0.00310894      0.00236801         0.666914        0.258509      -0.00366803        0.001702          0.64726       -0.108997
281742                 -0.100791       -0.128377      0.000239119      0.00261844         0.139623        0.971774        -0.003035      0.00245318
                     0.000179995      0.00257977        -0.459563       -0.486859      -0.00161123      0.00337007         0.665616        0.257413
                        0.140168        0.971882       -0.0012081      0.00357834       -0.0593092        0.151192      -0.00329493      0.00208373
                     -0.00365273      0.00221874         0.666749        0.257748      -0.00371472      0.00165379          0.64751       -0.109909
281744                 -0.100827        -0.12837      0.000238895      0.00262125         0.140043         0.97172      -0.00302459      0.00245177
                     0.000183155      0.00258655        -0.460189       -0.486813       -0.0017215      0.00342706         0.665481        0.256635
                         0.14055        0.971833      -0.00120574      0.00357812       -0.0592207        0.151242       -0.0033018      0.00209003
                     -0.00351471      0.00240734         0.666582        0.256986      -0.00379767      0.00162322         0.647758       -0.110823
281746                 -0.100896       -0.128358      0.000238469      0.00262302         0.140465        0.971668      -0.00301811      0.00244997
                     0.000186717      0.00259135        -0.460816       -0.486767      -0.00177085      0.00359147         0.665345        0.255856
                        0.140963        0.971773      -0.00120234      0.00357737       -0.0591316        0.151289      -0.00330531      0.00209975
                     -0.00347212      0.00243549         0.666413        0.256221      -0.00390356      0.00164338         0.648004       -0.111738
281748                 -0.100937       -0.128337      0.000238251      0.00262403         0.140889        0.971619      -0.00301384      0.00244865
                     0.000190415      0.00259497        -0.461447       -0.486721      -0.00167321      0.00373011         0.665206        0.255077
                        0.141384        0.971709      -0.00119788      0.00357678       -0.0590424        0.151333      -0.00330575      0.00210952
                     -0.00345353      0.00244803         0.666243        0.255453      -0.00398529      0.00172402         0.648247       -0.112656
281750                 -0.100981       -0.128321      0.000238361      0.00262461         0.141316        0.971572      -0.00301081      0.00244792
                     0.000194146      0.00259783        -0.462079       -0.486676       -0.0015536       0.0037557         0.665065        0.254297
                        0.141809        0.971644      -0.00119278      0.00357673       -0.0589594         0.15137      -0.00330464      0.00211837
                     -0.00344349      0.00245641         0.666073        0.254683      -0.00400945      0.00182642         0.648488       -0.113575
281752                 -0.101025       -0.128306      0.000238777      0.00262496         0.141746        0.971529      -0.00300852      0.00244771
                     0.000197858      0.00260017        -0.462714       -0.486633       -0.0014777      0.00373414         0.664921        0.253516
                        0.142236        0.971578      -0.00118743      0.00357728        -0.058899        0.151415      -0.00330288      0.00212635
                     -0.00343742      0.00246316         0.665903        0.253911      -0.00398938      0.00191057         0.648727       -0.114495
281754                  -0.10107       -0.128291      0.000239436      0.00262522         0.142182        0.971487      -0.00300671      0.00244791
                     0.000201524      0.00260213        -0.463348       -0.486593      -0.00143394      0.00370596         0.664775        0.252735
                        0.142663        0.971512       -0.0011821      0.00357831       -0.0588218        0.151487      -0.00330087       0.0021337
                      -0.0034335       0.0024691         0.665735        0.253137      -0.00395177      0.00196699         0.648964       -0.115417
281756                 -0.101115       -0.128276      0.000240271      0.00262545         0.142625        0.971445      -0.00300521      0.00244845
                     0.000205121      0.00260379        -0.463981       -0.486554      -0.00140739      0.00368112         0.664625        0.251954
                        0.143091        0.971446       -0.0011769      0.00357965       -0.0587292        0.151549      -0.00329878      0.00214061
                     -0.00343089       0.0024746         0.665568        0.252362      -0.00391215       0.0020021         0.649198        -0.11634
281758                  -0.10116       -0.128262      0.000241223       0.0026257         0.143076        0.971401      -0.00300393      0.00244925
                     0.000208634      0.00260522        -0.464613       -0.486515      -0.00138994      0.00366074         0.664473        0.251173
                        0.143519        0.971379      -0.00117187      0.00358119       -0.0586372        0.151603      -0.00329667      0.00214722
                     -0.00342913      0.00247984         0.665402        0.251586       -0.0038761      0.00202372          0.64943       -0.117265
281760                 -0.101205       -0.128247      0.000242244      0.00262598         0.143534        0.971351      -0.00300281      0.00245028
                     0.000212045      0.00260646        -0.465242       -0.486476      -0.00137751      0.00364409         0.664318        0.250392
                        0.143947        0.971312        -0.001167      0.00358285       -0.0585468        0.151655      -0.00329456       0.0021536
                     -0.00342795       0.0024849         0.665239        0.250809      -0.00384471       0.0020373         0.649659        -0.11819
281762                  -0.10125       -0.128232      0.000243292       0.0026263         0.143996        0.971291      -0.00300183       0.0024515
                     0.000215337      0.00260756         -0.46587       -0.486434      -0.00136801      0.00363031         0.664161        0.249611
                        0.144376        0.971245       -0.0011623      0.00358457       -0.0584573        0.151706      -0.00329247      0.00215982
