! TOUCHSTONE file generated by CST MICROWAVE STUDIO
! Date and time: Tue Oct 14 07:31:55 2025
! Project name: Teste_Macro_Metasurface_Nanopilar.cst
! Parameters = {H=600; L_x=180; L_y=170; Lambda=1064; Max_L=200; Min_L=70; PathPara=1; Phi=0; Step_L=10; Theta=0; p=520; phaseX=180; phaseY=0}
! Header version: 2018
! Port assignment regex: !\s*Touchstone port\s*([0-9]+)\s*=\s*(CST MWS port|CST DS port)\s*([0-9]+|Zmin|Zmax)\s*\(\"(.*)\"\)(\s*mode\s*([0-9]+))?.*
! Touchstone port assignment:
! Touchstone port 1 = CST MWS port Zmax ("") mode 1
! Touchstone port 2 = CST MWS port Zmax ("") mode 2
! Touchstone port 3 = CST MWS port Zmin ("") mode 1
! Touchstone port 4 = CST MWS port Zmin ("") mode 2
! S-Parameters are not renormalized. Each port impedance will be approximated by the real part at minimum frequency. The values are described via the [Reference] keyword.
! Default impedance is overridden by [Reference]
[Version] 2.0
# GHz S RI R 376.73
[Number of Ports] 4
[Reference]
376.73 376.73 259.814 259.814 
[Number of Frequencies] 51
[Network Data]
281700                 -0.180791      -0.0563711      0.000151128     0.000128439          0.90597        0.368373      0.000350801    -0.000109655
                     0.000185663     0.000115355        -0.209389      -0.0805729     -9.47133e-05    -0.000294445         0.927927        0.285723
                        0.906251        0.368277     -0.000132022    -0.000231315         0.167155       0.0855115     -0.000151314    -0.000144477
                     0.000288511    -8.51129e-05         0.928233        0.286046     -0.000144071     -0.00017639         0.216788       0.0499186
281702                   -0.1808      -0.0563207      0.000151341     0.000128345         0.906126        0.367991      0.000350678    -0.000109795
                     0.000185728     0.000115182        -0.209417      -0.0805216     -9.50671e-05    -0.000294297         0.928043         0.28534
                        0.906407        0.367895     -0.000132067    -0.000231213         0.167199        0.085414     -0.000151461    -0.000144541
                     0.000288506     -8.5203e-05         0.928348        0.285663     -0.000144226    -0.000176397         0.216824       0.0497985
281704                  -0.18081      -0.0562703      0.000151554     0.000128251         0.906282        0.367608      0.000350555    -0.000109934
                     0.000185794      0.00011501        -0.209446      -0.0804703     -9.54206e-05    -0.000294148         0.928159        0.284957
                        0.906563        0.367512     -0.000132112    -0.000231112         0.167242       0.0853165     -0.000151609    -0.000144603
                     0.000288502    -8.52923e-05         0.928463         0.28528     -0.000144387    -0.000176421          0.21686       0.0496784
281706                 -0.180819      -0.0562199      0.000151766     0.000128156         0.906437        0.367225      0.000350432    -0.000110073
                      0.00018586     0.000114838        -0.209475       -0.080419      -9.5774e-05    -0.000293998         0.928274        0.284574
                        0.906718         0.36713     -0.000132156    -0.000231012         0.167286       0.0852191     -0.000151756    -0.000144666
                     0.000288497    -8.53809e-05         0.928578        0.284897     -0.000144562    -0.000176454         0.216897       0.0495583
281708                 -0.180829      -0.0561694      0.000151979      0.00012806         0.906592        0.366842      0.000350309    -0.000110211
                     0.000185925     0.000114667        -0.209504      -0.0803677     -9.61273e-05    -0.000293847         0.928389        0.284191
                        0.906874        0.366748     -0.000132201    -0.000230912         0.167329       0.0851216     -0.000151904    -0.000144727
                     0.000288493    -8.54686e-05         0.928693        0.284514     -0.000144751    -0.000176486         0.216933       0.0494381
281710                 -0.180838       -0.056119      0.000152191     0.000127964         0.906747        0.366459      0.000350185    -0.000110349
                     0.000185991     0.000114496        -0.209532      -0.0803164     -9.64809e-05    -0.000293694         0.928505        0.283808
                        0.907029        0.366365     -0.000132246    -0.000230813         0.167373        0.085024     -0.000152053    -0.000144788
                     0.000288488    -8.55556e-05         0.928808        0.284131     -0.000144949    -0.000176512         0.216969        0.049318
281712                 -0.180847      -0.0560686      0.000152404     0.000127867         0.906902        0.366076      0.000350062    -0.000110487
                     0.000186057     0.000114326        -0.209561      -0.0802651     -9.68352e-05    -0.000293539          0.92862        0.283425
                        0.907184        0.365982     -0.000132291    -0.000230714         0.167416       0.0849265     -0.000152201    -0.000144848
                     0.000288483    -8.56418e-05         0.928923        0.283747     -0.000145153     -0.00017653         0.217005       0.0491977
281714                 -0.180856      -0.0560181      0.000152616      0.00012777         0.907057        0.365693      0.000349938    -0.000110624
                     0.000186123     0.000114156         -0.20959      -0.0802137     -9.71917e-05    -0.000293381         0.928735        0.283042
                        0.907339          0.3656     -0.000132335    -0.000230616         0.167459       0.0848289      -0.00015235    -0.000144907
                     0.000288479    -8.57273e-05         0.929037        0.283364     -0.000145357    -0.000176542         0.217041       0.0490775
281716                 -0.180866      -0.0559676      0.000152828     0.000127673         0.907211        0.365309      0.000349815    -0.000110761
                     0.000186189     0.000113986        -0.209618      -0.0801624     -9.75545e-05    -0.000293219         0.928849        0.282659
                        0.907494        0.365217      -0.00013238    -0.000230518         0.167502       0.0847313       -0.0001525    -0.000144966
                     0.000288474     -8.5812e-05         0.929151        0.282981     -0.000145561    -0.000176548         0.217077       0.0489573
281718                 -0.180875      -0.0559172       0.00015304     0.000127575         0.907366        0.364926      0.000349691    -0.000110897
                     0.000186255     0.000113817        -0.209647       -0.080111      -9.7941e-05    -0.000293055         0.928964        0.282276
                        0.907648        0.364834     -0.000132425    -0.000230421         0.167545       0.0846337     -0.000152649    -0.000145024
                      0.00028847    -8.58959e-05         0.929265        0.282597     -0.000145765    -0.000176551         0.217113        0.048837
281720                 -0.180884      -0.0558667      0.000153252     0.000127476          0.90752        0.364542      0.000349567    -0.000111033
                     0.000186321     0.000113649        -0.209676      -0.0800596     -9.83649e-05     -0.00029299         0.929078        0.281893
                        0.907803        0.364451      -0.00013247    -0.000230325         0.167589        0.084536     -0.000152799    -0.000145082
                     0.000288465    -8.59792e-05         0.929379        0.282214     -0.000145967    -0.000176551         0.217148       0.0487167
281722                 -0.180893      -0.0558162      0.000153464     0.000127377         0.907674        0.364159      0.000349443    -0.000111169
                     0.000186388     0.000113481        -0.209704      -0.0800082     -9.85954e-05     -0.00029288         0.929193        0.281509
                        0.907957        0.364068     -0.000132515    -0.000230229         0.167632       0.0844383      -0.00015295    -0.000145138
                      0.00028846    -8.60616e-05         0.929493         0.28183     -0.000146169    -0.000176548         0.217184       0.0485964
281724                 -0.180903      -0.0557657      0.000153675     0.000127278         0.907828        0.363775      0.000349319    -0.000111304
                     0.000186454     0.000113314        -0.209733      -0.0799568     -9.89181e-05    -0.000292687         0.929307        0.281126
                        0.908111        0.363685      -0.00013256    -0.000230134         0.167674       0.0843406       -0.0001531    -0.000145194
                     0.000288456    -8.61434e-05         0.929607        0.281447      -0.00014637    -0.000176542          0.21722        0.048476
281726                 -0.180912      -0.0557152      0.000153887     0.000127178         0.907981        0.363392      0.000349195    -0.000111439
                      0.00018652     0.000113147        -0.209761      -0.0799054     -9.92627e-05    -0.000292513         0.929421        0.280743
                        0.908265        0.363302     -0.000132605    -0.000230039         0.167717       0.0842429     -0.000153251     -0.00014525
                     0.000288451    -8.62244e-05          0.92972        0.281063     -0.000146569    -0.000176535         0.217255       0.0483557
281728                 -0.180921      -0.0556647      0.000154098     0.000127077         0.908135        0.363008       0.00034907    -0.000111574
                     0.000186587      0.00011298         -0.20979      -0.0798539     -9.96101e-05    -0.000292346         0.929535        0.280359
                        0.908419        0.362919      -0.00013265    -0.000229945          0.16776       0.0841451     -0.000153403    -0.000145304
                     0.000288447    -8.63047e-05         0.929833         0.28068     -0.000146768    -0.000176526         0.217291       0.0482353
281730                  -0.18093      -0.0556142      0.000154309     0.000126976         0.908288        0.362624      0.000348946    -0.000111708
                     0.000186654     0.000112814        -0.209819      -0.0798025     -9.99577e-05    -0.000292181         0.929648        0.279976
                        0.908573        0.362536     -0.000132695    -0.000229852         0.167803       0.0840473     -0.000153554    -0.000145358
                     0.000288442    -8.63844e-05         0.929947        0.280296     -0.000146967    -0.000176515         0.217326       0.0481148
281732                 -0.180939      -0.0555637      0.000154521     0.000126875         0.908442         0.36224      0.000348821    -0.000111842
                      0.00018672     0.000112648        -0.209847       -0.079751     -0.000100305    -0.000292017         0.929762        0.279592
                        0.908726        0.362152      -0.00013274    -0.000229759         0.167845       0.0839495     -0.000153706    -0.000145412
                     0.000288437    -8.64633e-05          0.93006        0.279912     -0.000147164    -0.000176503         0.217362       0.0479944
281734                 -0.180948      -0.0555132      0.000154731     0.000126773         0.908595        0.361856      0.000348696    -0.000111975
                     0.000186787     0.000112483        -0.209876      -0.0796995     -0.000100652    -0.000291853         0.929875        0.279209
                         0.90888        0.361769     -0.000132785    -0.000229666         0.167888       0.0838517     -0.000153859    -0.000145464
                     0.000288433    -8.65415e-05         0.930172        0.279528     -0.000147362    -0.000176489         0.217397        0.047874
281736                 -0.180957      -0.0554627      0.000154942     0.000126671         0.908748        0.361472      0.000348571    -0.000112108
                     0.000186854     0.000112318        -0.209904      -0.0796481     -0.000100998    -0.000291689         0.929988        0.278825
                        0.909033        0.361385      -0.00013283    -0.000229574         0.167931       0.0837538     -0.000154011    -0.000145516
                     0.000288429     -8.6619e-05         0.930285        0.279145     -0.000147558    -0.000176473         0.217432       0.0477535
281738                 -0.180966      -0.0554121      0.000155153     0.000126568         0.908901        0.361088      0.000348446    -0.000112241
                     0.000186921     0.000112154        -0.209933      -0.0795966     -0.000101344    -0.000291525         0.930101        0.278442
                        0.909186        0.361002     -0.000132876    -0.000229483         0.167973       0.0836559     -0.000154164    -0.000145568
                     0.000288424    -8.66959e-05         0.930398        0.278761     -0.000147754    -0.000176456         0.217467        0.047633
281740                 -0.180975      -0.0553616      0.000155364     0.000126464         0.909053        0.360704      0.000348321    -0.000112373
                     0.000186988      0.00011199        -0.209961       -0.079545      -0.00010169    -0.000291359         0.930214        0.278058
                        0.909339        0.360618     -0.000132921    -0.000229392         0.168015        0.083558     -0.000154318    -0.000145618
                      0.00028842    -8.67721e-05          0.93051        0.278377      -0.00014795    -0.000176437         0.217502       0.0475124
281742                 -0.180984       -0.055311      0.000155574     0.000126361         0.909206         0.36032      0.000348196    -0.000112505
                     0.000187056     0.000111827         -0.20999      -0.0794935     -0.000102035    -0.000291193         0.930327        0.277674
                        0.909492        0.360235     -0.000132966    -0.000229302         0.168058       0.0834601     -0.000154471    -0.000145668
                     0.000288415    -8.68476e-05         0.930622        0.277993     -0.000148146    -0.000176416         0.217537       0.0473919
281744                 -0.180993      -0.0552605      0.000155784     0.000126256         0.909358        0.359936      0.000348071    -0.000112636
                     0.000187123     0.000111664        -0.210018       -0.079442     -0.000102379    -0.000291027         0.930439         0.27729
                        0.909644        0.359851     -0.000133012    -0.000229212           0.1681       0.0833621     -0.000154625    -0.000145717
                     0.000288411    -8.69225e-05         0.930734        0.277609     -0.000148341    -0.000176394         0.217572       0.0472713
281746                 -0.181002      -0.0552099      0.000155994     0.000126151          0.90951        0.359551      0.000347945    -0.000112767
                      0.00018719     0.000111502        -0.210047      -0.0793904     -0.000102723    -0.000290859         0.930552        0.276907
                        0.909797        0.359467     -0.000133057    -0.000229123         0.168142       0.0832641      -0.00015478    -0.000145766
                     0.000288407    -8.69968e-05         0.930846        0.277225     -0.000148536     -0.00017637         0.217607       0.0471507
281748                 -0.181011      -0.0551593      0.000156204     0.000126046         0.909662        0.359167       0.00034782    -0.000112897
                     0.000187258      0.00011134        -0.210075      -0.0793389     -0.000103067     -0.00029069         0.930664        0.276523
                        0.909949        0.359083     -0.000133103    -0.000229035         0.168184        0.083166     -0.000154934    -0.000145814
                     0.000288403    -8.70706e-05         0.930958        0.276841     -0.000148731    -0.000176345         0.217642       0.0470301
281750                 -0.181019      -0.0551088      0.000156414      0.00012594         0.909814        0.358782      0.000347694    -0.000113027
                     0.000187326     0.000111178        -0.210103      -0.0792873      -0.00010341     -0.00029052         0.930776        0.276139
                        0.910101        0.358699     -0.000133149    -0.000228947         0.168226        0.083068     -0.000155089    -0.000145861
                     0.000288399    -8.71443e-05         0.931069        0.276457     -0.000148926    -0.000176317         0.217677       0.0469094
281752                 -0.181028      -0.0550582      0.000156623     0.000125834         0.909966        0.358398       0.00034757    -0.000113156
                     0.000187394     0.000111016        -0.210132      -0.0792357     -0.000103752     -0.00029035         0.930888        0.275755
                        0.910253        0.358315     -0.000133195    -0.000228859         0.168268       0.0829699     -0.000155244    -0.000145908
                     0.000288395    -8.72191e-05         0.931181        0.276073      -0.00014912    -0.000176288         0.217711       0.0467888
281754                 -0.181037      -0.0550076      0.000156832     0.000125727         0.910117        0.358013      0.000347447    -0.000113283
                     0.000187459     0.000110854         -0.21016      -0.0791841     -0.000104095    -0.000290178            0.931        0.275371
                        0.910405        0.357931      -0.00013324    -0.000228772          0.16831       0.0828718     -0.000155398    -0.000145956
                     0.000288386    -8.72902e-05         0.931292        0.275688     -0.000149315    -0.000176257         0.217746       0.0466681
281756                 -0.181046       -0.054957      0.000157042      0.00012562         0.910269        0.357628       0.00034734    -0.000113321
                     0.000187526     0.000110696        -0.210189      -0.0791325     -0.000104436    -0.000290005         0.931111        0.274987
                        0.910557        0.357547     -0.000133286    -0.000228686         0.168352       0.0827737      -0.00015553    -0.000146043
                     0.000288382    -8.73583e-05         0.931403        0.275304     -0.000149509    -0.000176224          0.21778       0.0465474
281758                 -0.181055      -0.0549064       0.00015725     0.000125512          0.91042        0.357243      0.000347175    -0.000113552
                     0.000187594     0.000110537        -0.210217      -0.0790808     -0.000104778    -0.000289831         0.931223        0.274603
                        0.910708        0.357162     -0.000133331      -0.0002286         0.168394       0.0826755     -0.000155722    -0.000146033
                     0.000288379     -8.7428e-05         0.931514         0.27492     -0.000149703    -0.000176189         0.217815       0.0464266
281760                 -0.181063      -0.0548558      0.000157458     0.000125403         0.910571        0.356858      0.000347054    -0.000113678
                     0.000187663     0.000110378        -0.210245      -0.0790292     -0.000105118    -0.000289656         0.931334        0.274219
                        0.910859        0.356778     -0.000133376    -0.000228515         0.168435       0.0825773     -0.000155875     -0.00014608
                     0.000288375    -8.74975e-05         0.931625        0.274535     -0.000149897    -0.000176152         0.217849       0.0463059
281762                 -0.181072      -0.0548051      0.000157666     0.000125294         0.910722        0.356473      0.000346928    -0.000113805
                     0.000187731     0.000110219        -0.210274      -0.0789776     -0.000105459     -0.00028948         0.931445        0.273834
                         0.91101        0.356394      -0.00013342     -0.00022843         0.168477       0.0824791     -0.000156032    -0.000146124
