! TOUCHSTONE file generated by CST MICROWAVE STUDIO
! Date and time: Tue Oct 14 07:27:06 2025
! Project name: Teste_Macro_Metasurface_Nanopilar.cst
! Parameters = {H=600; L_x=105; L_y=130; Lambda=1064; Max_L=200; Min_L=70; PathPara=1; Phi=0; Step_L=10; Theta=0; p=520; phaseX=180; phaseY=0}
! Header version: 2018
! Port assignment regex: !\s*Touchstone port\s*([0-9]+)\s*=\s*(CST MWS port|CST DS port)\s*([0-9]+|Zmin|Zmax)\s*\(\"(.*)\"\)(\s*mode\s*([0-9]+))?.*
! Touchstone port assignment:
! Touchstone port 1 = CST MWS port Zmax ("") mode 1
! Touchstone port 2 = CST MWS port Zmax ("") mode 2
! Touchstone port 3 = CST MWS port Zmin ("") mode 1
! Touchstone port 4 = CST MWS port Zmin ("") mode 2
! S-Parameters are not renormalized. Each port impedance will be approximated by the real part at minimum frequency. The values are described via the [Reference] keyword.
! Default impedance is overridden by [Reference]
[Version] 2.0
# GHz S RI R 376.73
[Number of Ports] 4
[Reference]
376.73 376.73 259.814 259.814 
[Number of Frequencies] 51
[Network Data]
281700              -0.000427327       0.0375072     -0.000332821     0.000587263        -0.926542        0.348888     -0.000218952     0.000791819
                    -0.000358815     0.000525984        -0.117035        -0.10091     -0.000539594     0.000756911        -0.080473       -0.977925
                       -0.926822        0.348754       -0.0006252     0.000624773        0.0229132       0.0302483     -0.000109457     0.000636611
                    -0.000278088     0.000804649       -0.0808065       -0.978069     -0.000206378     0.000618498       -0.0977764        0.119079
281702              -0.000403353       0.0374736     -0.000332319     0.000587599        -0.926361        0.349373     -0.000218564     0.000791776
                    -0.000358406     0.000526262        -0.117082       -0.100876     -0.000539164     0.000757183       -0.0809393       -0.977884
                       -0.926641        0.349239     -0.000625083      0.00062506        0.0229038       0.0302141      -0.00010953     0.000636625
                    -0.000277669     0.000804721        -0.081272       -0.978028     -0.000206319     0.000618517       -0.0977154        0.119147
281704              -0.000379406       0.0374401     -0.000331817     0.000587934         -0.92618        0.349858     -0.000218176     0.000791732
                    -0.000357998      0.00052654         -0.11713       -0.100842     -0.000538733     0.000757455       -0.0814056       -0.977843
                        -0.92646        0.349724     -0.000624965     0.000625347        0.0228943         0.03018     -0.000109602      0.00063664
                     -0.00027725     0.000804793       -0.0817376       -0.977986     -0.000206261     0.000618536       -0.0976543        0.119214
281706              -0.000355489       0.0374065     -0.000331314     0.000588268        -0.925998        0.350343     -0.000217788     0.000791688
                    -0.000357589     0.000526818        -0.117177       -0.100807     -0.000538302     0.000757727       -0.0818718       -0.977802
                       -0.926278        0.350209     -0.000624847     0.000625633        0.0228848       0.0301458     -0.000109674     0.000636654
                    -0.000276831     0.000804864       -0.0822032       -0.977944     -0.000206202     0.000618554       -0.0975932        0.119281
281708              -0.000331601       0.0373729      -0.00033081     0.000588601        -0.925816        0.350827       -0.0002174     0.000791643
                     -0.00035718     0.000527096        -0.117224       -0.100773     -0.000537871     0.000757998       -0.0823381        -0.97776
                       -0.926097        0.350693     -0.000624728      0.00062592        0.0228752       0.0301117     -0.000109746     0.000636667
                    -0.000276412     0.000804936       -0.0826687       -0.977902     -0.000206143     0.000618573        -0.097532        0.119348
281710              -0.000307741       0.0373393     -0.000330306     0.000588934        -0.925634        0.351312     -0.000217012     0.000791597
                    -0.000356771     0.000527374        -0.117271       -0.100739      -0.00053744     0.000758269       -0.0828043       -0.977718
                       -0.925915        0.351178     -0.000624608     0.000626207        0.0228657       0.0300776     -0.000109818     0.000636681
                    -0.000275994     0.000805007       -0.0831343        -0.97786     -0.000206084     0.000618591       -0.0974708        0.119415
281712              -0.000283911       0.0373057     -0.000329801     0.000589265        -0.925452        0.351796     -0.000216624     0.000791551
                    -0.000356363     0.000527652        -0.117319       -0.100704     -0.000537009      0.00075854       -0.0832705       -0.977676
                       -0.925733        0.351663     -0.000624489     0.000626494         0.022856       0.0300436     -0.000109889     0.000636695
                    -0.000275575     0.000805078       -0.0835998       -0.977818     -0.000206025     0.000618609       -0.0974096        0.119482
281714              -0.000260109       0.0372721     -0.000329296     0.000589596        -0.925269        0.352281     -0.000216237     0.000791504
                    -0.000355954     0.000527929        -0.117366        -0.10067     -0.000536577      0.00075881       -0.0837367       -0.977633
                       -0.925551        0.352147     -0.000624368      0.00062678        0.0228464       0.0300095      -0.00010996     0.000636708
                    -0.000275156     0.000805148       -0.0840653       -0.977775     -0.000205966     0.000618627       -0.0973483        0.119549
281716              -0.000236336       0.0372385      -0.00032879     0.000589925        -0.925086        0.352765     -0.000215849     0.000791456
                    -0.000355545     0.000528207        -0.117413       -0.100635     -0.000536145     0.000759079       -0.0842029       -0.977591
                       -0.925368        0.352631     -0.000624247     0.000627067        0.0228367       0.0299755     -0.000110031     0.000636721
                    -0.000274738     0.000805218       -0.0845308       -0.977732     -0.000205907     0.000618645        -0.097287        0.119617
281718              -0.000212592       0.0372049     -0.000328284     0.000590254        -0.924903        0.353249     -0.000215461     0.000791408
                    -0.000355136     0.000528484         -0.11746       -0.100601     -0.000535713     0.000759349       -0.0846691       -0.977548
                       -0.925185        0.353116     -0.000624125     0.000627355         0.022827       0.0299415     -0.000110102     0.000636735
                     -0.00027432     0.000805288       -0.0849963       -0.977689     -0.000205847     0.000618663       -0.0972256        0.119684
281720              -0.000188877       0.0371712     -0.000327777     0.000590582         -0.92472        0.353733     -0.000215074     0.000791359
                    -0.000354727     0.000528761        -0.117507       -0.100566      -0.00053528     0.000759617       -0.0851352       -0.977505
                       -0.925002          0.3536     -0.000624003     0.000627642        0.0228173       0.0299076     -0.000110172     0.000636748
                    -0.000273901     0.000805357       -0.0854618       -0.977646     -0.000205788     0.000618681       -0.0971641         0.11975
281722               -0.00016519       0.0371375      -0.00032727     0.000590908        -0.924536        0.354217     -0.000214687      0.00079131
                    -0.000354318     0.000529038        -0.117555       -0.100531     -0.000534847     0.000759886       -0.0856013       -0.977462
                       -0.924819        0.354084      -0.00062388     0.000627929        0.0228075       0.0298736     -0.000110243      0.00063676
                    -0.000273483     0.000805427       -0.0859272       -0.977602     -0.000205728     0.000618699       -0.0971026        0.119817
281724              -0.000141533       0.0371039     -0.000326762     0.000591234        -0.924352        0.354701     -0.000214299      0.00079126
                    -0.000353909     0.000529315        -0.117602       -0.100497     -0.000534415     0.000760154       -0.0860675       -0.977418
                       -0.924635        0.354568     -0.000623757     0.000628216        0.0227977       0.0298397     -0.000110313     0.000636773
                    -0.000273065     0.000805495       -0.0863927       -0.977559     -0.000205668     0.000618717       -0.0970411        0.119884
281726              -0.000117904       0.0370702     -0.000326254     0.000591559        -0.924168        0.355185     -0.000213912      0.00079121
                      -0.0003535     0.000529592        -0.117649       -0.100462     -0.000533981     0.000760422       -0.0865336       -0.977375
                       -0.924451        0.355052     -0.000623633     0.000628504        0.0227879       0.0298058     -0.000110382     0.000636786
                    -0.000272647     0.000805564       -0.0868581       -0.977515     -0.000205609     0.000618734       -0.0969795        0.119951
281728              -9.43046e-05       0.0370365     -0.000325746     0.000591883        -0.923984        0.355668     -0.000213525     0.000791158
                     -0.00035309     0.000529869        -0.117696       -0.100428     -0.000533548     0.000760689       -0.0869997       -0.977331
                       -0.924267        0.355536     -0.000623508     0.000628792         0.022778        0.029772     -0.000110452     0.000636798
                    -0.000272229     0.000805632       -0.0873235       -0.977471     -0.000205549     0.000618752       -0.0969179        0.120018
281730              -7.07339e-05       0.0370028     -0.000325237     0.000592206        -0.923799        0.356152     -0.000213138     0.000791107
                    -0.000352681     0.000530146        -0.117743       -0.100393     -0.000533114     0.000760956       -0.0874658       -0.977286
                       -0.924083        0.356019     -0.000623382      0.00062908        0.0227681       0.0297381     -0.000110521      0.00063681
                    -0.000271811       0.0008057        -0.087789       -0.977426     -0.000205489     0.000618769       -0.0968562        0.120085
281732              -4.71921e-05        0.036969     -0.000324727     0.000592527        -0.923614        0.356635     -0.000212751     0.000791054
                    -0.000352272     0.000530422         -0.11779       -0.100358      -0.00053268     0.000761222       -0.0879318       -0.977242
                       -0.923898        0.356503     -0.000623256     0.000629368        0.0227581       0.0297043      -0.00011059     0.000636822
                    -0.000271394     0.000805768       -0.0882544       -0.977382     -0.000205429     0.000618787       -0.0967945        0.120152
281734              -2.36793e-05       0.0369353     -0.000324217     0.000592848        -0.923429        0.357119     -0.000212364     0.000791001
                    -0.000351863     0.000530699        -0.117837       -0.100324     -0.000532246     0.000761488       -0.0883979       -0.977197
                       -0.923714        0.356986     -0.000623128     0.000629657        0.0227482       0.0296705     -0.000110659     0.000636834
                    -0.000270976     0.000805835       -0.0887197       -0.977337     -0.000205369     0.000618804       -0.0967327        0.120218
281736              -1.95339e-07       0.0369015     -0.000323707     0.000593168        -0.923244        0.357602     -0.000211977     0.000790948
                    -0.000351454     0.000530975        -0.117885       -0.100289     -0.000531812     0.000761754       -0.0888639       -0.977153
                       -0.923528         0.35747     -0.000623001     0.000629945        0.0227382       0.0296367     -0.000110728     0.000636846
                    -0.000270558     0.000805902       -0.0891851       -0.977292     -0.000205309     0.000618822       -0.0966709        0.120285
281738               2.32596e-05       0.0368678     -0.000323196     0.000593486        -0.923058        0.358085     -0.000211591     0.000790894
                    -0.000351045     0.000531251        -0.117932       -0.100254     -0.000531377     0.000762019       -0.0893299       -0.977108
                       -0.923343        0.357953     -0.000622872     0.000630235        0.0227281        0.029603     -0.000110796     0.000636857
                    -0.000270141     0.000805969       -0.0896505       -0.977246     -0.000205249     0.000618839        -0.096609        0.120352
281740               4.66857e-05        0.036834     -0.000322685     0.000593804        -0.922872        0.358568     -0.000211204     0.000790839
                    -0.000350636     0.000531528        -0.117979       -0.100219     -0.000530943     0.000762284       -0.0897959       -0.977062
                       -0.923158        0.358436     -0.000622742     0.000630524         0.022718       0.0295693     -0.000110864     0.000636869
                    -0.000269724     0.000806035       -0.0901158       -0.977201     -0.000205189     0.000618856       -0.0965471        0.120418
281742               7.00828e-05       0.0368002     -0.000322174      0.00059412        -0.922686        0.359051     -0.000210818     0.000790783
                    -0.000350227     0.000531804        -0.118026       -0.100185     -0.000530507     0.000762549       -0.0902619       -0.977017
                       -0.922972        0.358919     -0.000622612     0.000630814        0.0227079       0.0295356     -0.000110932      0.00063688
                    -0.000269307     0.000806101       -0.0905812       -0.977155     -0.000205128     0.000618873       -0.0964851        0.120485
281744               9.34509e-05       0.0367664     -0.000321662     0.000594435          -0.9225        0.359534     -0.000210431     0.000790728
                    -0.000349818      0.00053208        -0.118073        -0.10015     -0.000530072     0.000762813       -0.0907279       -0.976971
                       -0.922786        0.359402     -0.000622481     0.000631105        0.0226978       0.0295019        -0.000111     0.000636891
                     -0.00026889     0.000806167       -0.0910465       -0.977109     -0.000205068      0.00061889       -0.0964231        0.120552
281746                0.00011679       0.0367326     -0.000321149     0.000594748        -0.922313        0.360017     -0.000210045     0.000790671
                    -0.000349408     0.000532356         -0.11812       -0.100115     -0.000529637     0.000763077       -0.0911938       -0.976925
                       -0.922599        0.359885     -0.000622348     0.000631396        0.0226876       0.0294683     -0.000111067     0.000636902
                    -0.000268473     0.000806232       -0.0915118       -0.977063     -0.000205008     0.000618908       -0.0963611        0.120618
281748                 0.0001401       0.0366987     -0.000320637      0.00059506        -0.922126        0.360499     -0.000209659     0.000790614
                    -0.000348999     0.000532632        -0.118167        -0.10008     -0.000529201      0.00076334       -0.0916598       -0.976879
                       -0.922413        0.360368     -0.000622215     0.000631688        0.0226774       0.0294346     -0.000111134     0.000636912
                    -0.000268056     0.000806297       -0.0919771       -0.977017     -0.000204947     0.000618925       -0.0962989        0.120685
281750               0.000163381       0.0366649     -0.000320124     0.000595369        -0.921939        0.360982     -0.000209273     0.000790556
                     -0.00034859     0.000532908        -0.118214       -0.100045     -0.000528765     0.000763603       -0.0921257       -0.976833
                       -0.922226         0.36085     -0.000622081     0.000631981        0.0226672        0.029401     -0.000111201     0.000636923
                    -0.000267639     0.000806362       -0.0924423        -0.97697     -0.000204887     0.000618942       -0.0962368        0.120751
281752               0.000186634        0.036631      -0.00031961     0.000595677        -0.921752        0.361464     -0.000208887     0.000790498
                    -0.000348181     0.000533184        -0.118261        -0.10001     -0.000528329     0.000763866       -0.0925916       -0.976786
                       -0.922039        0.361333     -0.000621946     0.000632275        0.0226569       0.0293675     -0.000111268     0.000636933
                    -0.000267223     0.000806426       -0.0929076       -0.976923     -0.000204827     0.000618958       -0.0961746        0.120818
281754               0.000209857       0.0365972     -0.000319096     0.000595981        -0.921564        0.361947     -0.000208501     0.000790438
                    -0.000347772      0.00053346        -0.118308      -0.0999751     -0.000527893     0.000764128       -0.0930575       -0.976739
                       -0.921851        0.361815     -0.000621811      0.00063257        0.0226466       0.0293339     -0.000111335     0.000636944
                    -0.000266806      0.00080649       -0.0933729       -0.976876     -0.000204766     0.000618975       -0.0961123        0.120884
281756               0.000233051       0.0365633     -0.000318582     0.000596281        -0.921376        0.362429     -0.000208116     0.000790379
                    -0.000347363     0.000533736        -0.118355      -0.0999402     -0.000527456      0.00076439       -0.0935234       -0.976692
                       -0.921664        0.362298     -0.000621674     0.000632866        0.0226363       0.0293004     -0.000111401     0.000636954
                     -0.00026639     0.000806554       -0.0938381       -0.976829     -0.000204706     0.000618992         -0.09605         0.12095
281758               0.000256216       0.0365294      -0.00031807     0.000596574        -0.921188        0.362911      -0.00020773     0.000790319
                    -0.000346954     0.000534011        -0.118402      -0.0999052     -0.000527019     0.000764651       -0.0939893       -0.976645
                       -0.921476         0.36278     -0.000621537     0.000633164        0.0226259       0.0292669     -0.000111467     0.000636963
                    -0.000265974     0.000806617       -0.0943033       -0.976781     -0.000204645     0.000619009       -0.0959877        0.121017
281760               0.000279352       0.0364955     -0.000317564     0.000596858           -0.921        0.363393     -0.000207345     0.000790258
                    -0.000346545     0.000534287        -0.118449      -0.0998701     -0.000526582     0.000764912       -0.0944551       -0.976598
                       -0.921288        0.363262     -0.000621399     0.000633463        0.0226155       0.0292334     -0.000111533     0.000636973
                    -0.000265558      0.00080668       -0.0947685       -0.976734     -0.000204585     0.000619026       -0.0959253        0.121083
281762                0.00030246       0.0364616     -0.000317074      0.00059713        -0.920811        0.363875     -0.000206959     0.000790196
                    -0.000346137     0.000534563        -0.118496      -0.0998351     -0.000526145     0.000765173       -0.0949209        -0.97655
                         -0.9211        0.363744     -0.000621261     0.000633765        0.0226051          0.0292     -0.000111599     0.000636983
