! TOUCHSTONE file generated by CST MICROWAVE STUDIO
! Date and time: Tue Oct 14 07:28:40 2025
! Project name: Teste_Macro_Metasurface_Nanopilar.cst
! Parameters = {H=600; L_x=130; L_y=125; Lambda=1064; Max_L=200; Min_L=70; PathPara=1; Phi=0; Step_L=10; Theta=0; p=520; phaseX=180; phaseY=0}
! Header version: 2018
! Port assignment regex: !\s*Touchstone port\s*([0-9]+)\s*=\s*(CST MWS port|CST DS port)\s*([0-9]+|Zmin|Zmax)\s*\(\"(.*)\"\)(\s*mode\s*([0-9]+))?.*
! Touchstone port assignment:
! Touchstone port 1 = CST MWS port Zmax ("") mode 1
! Touchstone port 2 = CST MWS port Zmax ("") mode 2
! Touchstone port 3 = CST MWS port Zmin ("") mode 1
! Touchstone port 4 = CST MWS port Zmin ("") mode 2
! S-Parameters are not renormalized. Each port impedance will be approximated by the real part at minimum frequency. The values are described via the [Reference] keyword.
! Default impedance is overridden by [Reference]
[Version] 2.0
# GHz S RI R 376.73
[Number of Ports] 4
[Reference]
376.73 376.73 259.814 259.814 
[Number of Frequencies] 51
[Network Data]
281700                -0.0313311      -0.0439408       0.00122144     -0.00129156        -0.614926        0.777015     -0.000566094    -0.000297751
                      0.00120752     -0.00126963       -0.0377709      -0.0795406     -0.000567296    -0.000441701        -0.412726        0.899254
                       -0.615927        0.776748     -0.000662483    -0.000351506       -0.0495552      -0.0179327      -0.00061663      0.00144649
                    -0.000650945    -0.000325641        -0.412407         0.89919     -0.000723998      0.00152059       -0.0840063       0.0249815
281702                -0.0313471      -0.0439568       0.00122045      -0.0012923        -0.614544        0.777317      -0.00056625    -0.000297607
                       0.0012065      -0.0012704       -0.0378026       -0.079551     -0.000567531    -0.000441512        -0.412297        0.899449
                       -0.615544         0.77705     -0.000662589    -0.000351182       -0.0495929      -0.0178959      -0.00061624      0.00144658
                     -0.00065096    -0.000325405        -0.411978        0.899385     -0.000723607      0.00152079       -0.0840117       0.0250443
281704                 -0.031363      -0.0439727       0.00121946     -0.00129305        -0.614162        0.777618     -0.000566403    -0.000297467
                      0.00120548     -0.00127117       -0.0378344      -0.0795613     -0.000567766    -0.000441323        -0.411868        0.899644
                       -0.615161        0.777352     -0.000662692    -0.000350862       -0.0496305      -0.0178591     -0.000615852      0.00144668
                    -0.000650974    -0.000325169        -0.411549         0.89958     -0.000723217      0.00152098        -0.084017        0.025107
281706                -0.0313789      -0.0439886       0.00121846      -0.0012938        -0.613779         0.77792     -0.000566555     -0.00029733
                      0.00120446     -0.00127194       -0.0378662      -0.0795716     -0.000568002    -0.000441133        -0.411439        0.899838
                       -0.614778        0.777654     -0.000662793    -0.000350545       -0.0496681      -0.0178222     -0.000615466      0.00144678
                    -0.000650988    -0.000324934         -0.41112        0.899774     -0.000722826      0.00152118       -0.0840223       0.0251698
281708                -0.0313949      -0.0440046       0.00121747     -0.00129454        -0.613397        0.778221     -0.000566706    -0.000297196
                      0.00120344     -0.00127271       -0.0378979      -0.0795819     -0.000568237    -0.000440944         -0.41101        0.900033
                       -0.614395        0.777955     -0.000662893     -0.00035023       -0.0497057      -0.0177854     -0.000615082      0.00144688
                    -0.000651002    -0.000324699         -0.41069        0.899968     -0.000722435      0.00152137       -0.0840275       0.0252326
281710                -0.0314109      -0.0440205       0.00121647     -0.00129529        -0.613014        0.778522     -0.000566854    -0.000297063
                      0.00120243     -0.00127348       -0.0379297      -0.0795922     -0.000568473    -0.000440754        -0.410581        0.900227
                       -0.614012        0.778256      -0.00066299    -0.000349917       -0.0497433      -0.0177484     -0.000614699      0.00144699
                    -0.000651016    -0.000324464        -0.410261        0.900163     -0.000722045      0.00152157       -0.0840327       0.0252954
281712                -0.0314269      -0.0440364       0.00121547     -0.00129603        -0.612631        0.778822     -0.000567002    -0.000296933
                      0.00120141     -0.00127425       -0.0379615      -0.0796024     -0.000568709    -0.000440564        -0.410152        0.900421
                       -0.613628        0.778558     -0.000663087    -0.000349606       -0.0497808      -0.0177115     -0.000614318      0.00144709
                     -0.00065103    -0.000324229        -0.409831        0.900357     -0.000721654      0.00152176       -0.0840378       0.0253583
281714                -0.0314429      -0.0440523       0.00121447     -0.00129678        -0.612248        0.779123     -0.000567149    -0.000296805
                      0.00120039     -0.00127501       -0.0379933      -0.0796127     -0.000568945    -0.000440373        -0.409722        0.900615
                       -0.613245        0.778858     -0.000663181    -0.000349297       -0.0498183      -0.0176745     -0.000613938      0.00144719
                    -0.000651044    -0.000323995        -0.409401         0.90055     -0.000721263      0.00152196       -0.0840429       0.0254211
281716                -0.0314589      -0.0440682       0.00121347     -0.00129752        -0.611865        0.779423     -0.000567295    -0.000296678
                      0.00119936     -0.00127578       -0.0380251      -0.0796229     -0.000569181    -0.000440183        -0.409293        0.900808
                       -0.612861        0.779159     -0.000663275    -0.000348989       -0.0498558      -0.0176374     -0.000613559       0.0014473
                    -0.000651057    -0.000323761        -0.408972        0.900744     -0.000720872      0.00152215       -0.0840479        0.025484
281718                 -0.031475      -0.0440841       0.00121247     -0.00129827        -0.611481        0.779724      -0.00056744    -0.000296553
                      0.00119834     -0.00127654        -0.038057      -0.0796331     -0.000569417    -0.000439992        -0.408864        0.901002
                       -0.612477        0.779459     -0.000663367    -0.000348683       -0.0498932      -0.0176003     -0.000613181       0.0014474
                    -0.000651071    -0.000323527        -0.408542        0.900937     -0.000720481      0.00152234       -0.0840529       0.0255468
281720                 -0.031491      -0.0440999       0.00121147     -0.00129901        -0.611098        0.780024     -0.000567584    -0.000296429
                      0.00119732      -0.0012773       -0.0380888      -0.0796434     -0.000569654    -0.000439801        -0.408434        0.901195
                       -0.612093         0.77976     -0.000663459    -0.000348378       -0.0499307      -0.0175632     -0.000612804      0.00144751
                    -0.000651084    -0.000323293        -0.408112         0.90113     -0.000720091      0.00152254       -0.0840579       0.0256097
281722                -0.0315071      -0.0441158       0.00121047     -0.00129976        -0.610714        0.780323     -0.000567727    -0.000296306
                       0.0011963     -0.00127807       -0.0381207      -0.0796535      -0.00056989     -0.00043961        -0.408004        0.901388
                       -0.611709         0.78006     -0.000663549    -0.000348075        -0.049968      -0.0175261     -0.000612428      0.00144762
                    -0.000651097     -0.00032306        -0.407682        0.901323       -0.0007197      0.00152273       -0.0840628       0.0256726
281724                -0.0315232      -0.0441317       0.00120946      -0.0013005        -0.610331        0.780623      -0.00056787    -0.000296184
                      0.00119528     -0.00127883       -0.0381525      -0.0796637     -0.000570127    -0.000439418        -0.407575        0.901581
                       -0.611325         0.78036     -0.000663639    -0.000347772       -0.0500054      -0.0174889     -0.000612054      0.00144773
                     -0.00065111    -0.000322827        -0.407252        0.901516     -0.000719309      0.00152292       -0.0840676       0.0257356
281726                -0.0315393      -0.0441475       0.00120846     -0.00130124        -0.609947        0.780922     -0.000568013    -0.000296063
                      0.00119426     -0.00127959       -0.0381844      -0.0796739     -0.000570364    -0.000439226        -0.407145        0.901773
                       -0.610941        0.780659     -0.000663727    -0.000347471       -0.0500427      -0.0174516      -0.00061168      0.00144784
                    -0.000651123    -0.000322594        -0.406822        0.901708     -0.000718918      0.00152311       -0.0840725       0.0257985
281728                -0.0315554      -0.0441634       0.00120745     -0.00130199        -0.609563        0.781222     -0.000568154    -0.000295943
                      0.00119323     -0.00128035       -0.0382162       -0.079684       -0.0005706    -0.000439034        -0.406715        0.901966
                       -0.610556        0.780959     -0.000663815     -0.00034717         -0.05008      -0.0174144     -0.000611307      0.00144795
                    -0.000651136    -0.000322362        -0.406391          0.9019     -0.000718527      0.00152331       -0.0840772       0.0258614
281730                -0.0315715      -0.0441792       0.00120644     -0.00130273        -0.609178        0.781521     -0.000568296    -0.000295824
                      0.00119221      -0.0012811       -0.0382481      -0.0796942     -0.000570837    -0.000438842        -0.406285        0.902158
                       -0.610172        0.781258     -0.000663902     -0.00034687       -0.0501173       -0.017377     -0.000610935      0.00144806
                    -0.000651148     -0.00032213        -0.405961        0.902093     -0.000718136       0.0015235       -0.0840819       0.0259244
281732                -0.0315877       -0.044195       0.00120544     -0.00130348        -0.608794         0.78182     -0.000568436    -0.000295705
                      0.00119118     -0.00128186         -0.03828      -0.0797043     -0.000571074     -0.00043865        -0.405855         0.90235
                       -0.609787        0.781557     -0.000663988    -0.000346571       -0.0501545      -0.0173397     -0.000610563      0.00144817
                     -0.00065116    -0.000321898        -0.405531        0.902284     -0.000717745      0.00152369       -0.0840866       0.0259874
281734                -0.0316039      -0.0442108       0.00120443     -0.00130422         -0.60841        0.782118     -0.000568577    -0.000295588
                      0.00119016     -0.00128262       -0.0383119      -0.0797144     -0.000571311    -0.000438457        -0.405424        0.902541
                       -0.609402        0.781856     -0.000664074    -0.000346273       -0.0501918      -0.0173023     -0.000610192      0.00144828
                    -0.000651172    -0.000321667          -0.4051        0.902476     -0.000717354      0.00152388       -0.0840912       0.0260503
281736                  -0.03162      -0.0442266       0.00120342     -0.00130496        -0.608025        0.782417     -0.000568717    -0.000295471
                      0.00118913     -0.00128337       -0.0383439      -0.0797245     -0.000571548    -0.000438264        -0.404994        0.902733
                       -0.609017        0.782155     -0.000664158    -0.000345976       -0.0502289      -0.0172649     -0.000609823      0.00144839
                    -0.000651184    -0.000321436         -0.40467        0.902667     -0.000716963      0.00152407       -0.0840958       0.0261133
281738                -0.0316362      -0.0442425       0.00120241      -0.0013057         -0.60764        0.782715     -0.000568856    -0.000295354
                      0.00118811     -0.00128413       -0.0383758      -0.0797346     -0.000571786    -0.000438071        -0.404564        0.902924
                       -0.608632        0.782453     -0.000664242    -0.000345679       -0.0502661      -0.0172274     -0.000609454       0.0014485
                    -0.000651195    -0.000321206        -0.404239        0.902859     -0.000716572      0.00152426       -0.0841003       0.0261764
281740                -0.0316524      -0.0442583        0.0012014     -0.00130644        -0.607255        0.783013     -0.000568995    -0.000295239
                      0.00118708     -0.00128488       -0.0384077      -0.0797447     -0.000572023    -0.000437878        -0.404133        0.903115
                       -0.608247        0.782752     -0.000664326    -0.000345383       -0.0503032      -0.0171899     -0.000609086      0.00144862
                    -0.000651205    -0.000320976        -0.403808         0.90305     -0.000716181      0.00152445       -0.0841048       0.0262394
281742                -0.0316687       -0.044274       0.00120039     -0.00130718         -0.60687        0.783311     -0.000569132    -0.000295125
                      0.00118606     -0.00128563       -0.0384397      -0.0797547      -0.00057226    -0.000437684        -0.403703        0.903306
                       -0.607861         0.78305     -0.000664409    -0.000345087       -0.0503403      -0.0171524     -0.000608719      0.00144873
                    -0.000651215    -0.000320745        -0.403378         0.90324      -0.00071579      0.00152464       -0.0841092       0.0263024
281744                -0.0316849      -0.0442898       0.00119938     -0.00130792        -0.606485        0.783608     -0.000569269    -0.000295012
                      0.00118503     -0.00128639       -0.0384716      -0.0797648     -0.000572498     -0.00043749        -0.403272        0.903497
                       -0.607475        0.783348      -0.00066449    -0.000344793       -0.0503774      -0.0171148     -0.000608354      0.00144885
                    -0.000651224    -0.000320514        -0.402947        0.903431     -0.000715399      0.00152482       -0.0841136       0.0263655
281746                -0.0317012      -0.0443056       0.00119837     -0.00130866          -0.6061        0.783906     -0.000569404    -0.000294902
                        0.001184     -0.00128714       -0.0385036      -0.0797748     -0.000572735    -0.000437296        -0.402842        0.903687
                        -0.60709        0.783645     -0.000664572    -0.000344498       -0.0504144      -0.0170772     -0.000607991      0.00144897
                    -0.000651233    -0.000320281        -0.402516        0.903621     -0.000715008      0.00152501        -0.084118       0.0264285
281748                -0.0317174      -0.0443214       0.00119736      -0.0013094        -0.605715        0.784203     -0.000569536    -0.000294797
                      0.00118297     -0.00128789       -0.0385355      -0.0797848     -0.000572973    -0.000437102        -0.402411        0.903878
                       -0.606704        0.783943     -0.000664652    -0.000344205       -0.0504514      -0.0170395     -0.000607632      0.00144909
                    -0.000651242    -0.000320047        -0.402085        0.903812     -0.000714617       0.0015252       -0.0841223       0.0264916
281750                -0.0317337      -0.0443371       0.00119635     -0.00131014        -0.605329          0.7845     -0.000569661    -0.000294706
                      0.00118194     -0.00128864       -0.0385675      -0.0797948      -0.00057321    -0.000436907         -0.40198        0.904068
                       -0.606318         0.78424     -0.000664731    -0.000343912       -0.0504884      -0.0170018     -0.000607284      0.00144923
                    -0.000651253    -0.000319812        -0.401653        0.904002     -0.000714227      0.00152539       -0.0841265       0.0265547
281752                  -0.03175      -0.0443529       0.00119534     -0.00131087        -0.604943        0.784797     -0.000569757    -0.000294696
                      0.00118091     -0.00128939       -0.0385995      -0.0798048     -0.000573448    -0.000436713        -0.401549        0.904258
                       -0.605932        0.784537     -0.000664809     -0.00034362       -0.0505254      -0.0169641     -0.000606984       0.0014494
                    -0.000651266    -0.000319578        -0.401222        0.904191     -0.000713837      0.00152558       -0.0841308       0.0266178
281754                -0.0317664      -0.0443686       0.00119433     -0.00131161        -0.604557        0.785094     -0.000570298     -0.00029423
                      0.00117988     -0.00129014       -0.0386315      -0.0798147     -0.000573686    -0.000436518        -0.401118        0.904447
                       -0.605545        0.784834     -0.000664885    -0.000343328       -0.0505623      -0.0169263     -0.000605942      0.00144863
                    -0.000651279    -0.000319344        -0.400791        0.904381     -0.000713447      0.00152577       -0.0841349       0.0266808
281756                -0.0317827      -0.0443843       0.00119332     -0.00131234        -0.604171         0.78539     -0.000570187    -0.000294225
                      0.00117885     -0.00129089       -0.0386636      -0.0798247     -0.000573924    -0.000436323        -0.400687        0.904636
                       -0.605159        0.785131     -0.000664958    -0.000343036       -0.0505992      -0.0168885     -0.000606041      0.00144942
                    -0.000651294     -0.00031911         -0.40036         0.90457     -0.000713058      0.00152596        -0.084139        0.026744
281758                 -0.031799      -0.0444001       0.00119231     -0.00131307        -0.603785        0.785687     -0.000570295    -0.000294138
                      0.00117782     -0.00129164       -0.0386956      -0.0798346     -0.000574163    -0.000436128        -0.400256        0.904826
                       -0.604772        0.785428     -0.000665027    -0.000342743        -0.050636      -0.0168507     -0.000605714      0.00144958
                    -0.000651309    -0.000318878        -0.399928        0.904759     -0.000712672      0.00152615        -0.084143       0.0268072
281760                -0.0318154      -0.0444158        0.0011913      -0.0013138        -0.603399        0.785983     -0.000570422    -0.000294035
                      0.00117679     -0.00129239       -0.0387276      -0.0798445     -0.000574403    -0.000435934        -0.399825        0.905015
                       -0.604386        0.785724     -0.000665091    -0.000342445       -0.0506728      -0.0168128     -0.000605363      0.00144971
                    -0.000651324    -0.000318647        -0.399497        0.904948     -0.000712289      0.00152636        -0.084147       0.0268704
281762                -0.0318318      -0.0444315       0.00119029     -0.00131453        -0.603013        0.786278     -0.000570554    -0.000293927
                      0.00117576     -0.00129314       -0.0387597      -0.0798544     -0.000574649    -0.000435739        -0.399393        0.905204
                       -0.603999         0.78602     -0.000665152    -0.000342135       -0.0507096      -0.0167749     -0.000605005      0.00144983
