! TOUCHSTONE file generated by CST MICROWAVE STUDIO
! Date and time: Tue Oct 14 07:33:05 2025
! Project name: Teste_Macro_Metasurface_Nanopilar.cst
! Parameters = {H=600; L_x=200; L_y=130; Lambda=1064; Max_L=200; Min_L=70; PathPara=1; Phi=0; Step_L=10; Theta=0; p=520; phaseX=180; phaseY=0}
! Header version: 2018
! Port assignment regex: !\s*Touchstone port\s*([0-9]+)\s*=\s*(CST MWS port|CST DS port)\s*([0-9]+|Zmin|Zmax)\s*\(\"(.*)\"\)(\s*mode\s*([0-9]+))?.*
! Touchstone port assignment:
! Touchstone port 1 = CST MWS port Zmax ("") mode 1
! Touchstone port 2 = CST MWS port Zmax ("") mode 2
! Touchstone port 3 = CST MWS port Zmin ("") mode 1
! Touchstone port 4 = CST MWS port Zmin ("") mode 2
! S-Parameters are not renormalized. Each port impedance will be approximated by the real part at minimum frequency. The values are described via the [Reference] keyword.
! Default impedance is overridden by [Reference]
[Version] 2.0
# GHz S RI R 376.73
[Number of Ports] 4
[Reference]
376.73 376.73 259.814 259.814 
[Number of Frequencies] 51
[Network Data]
281700                 -0.195468       -0.359786      0.000302644     0.000457661         0.634776        0.634912      0.000196838      0.00032308
                      0.00033306     0.000257626        -0.192898      -0.0453272      2.13429e-05     0.000185169         0.900427        0.376738
                         0.63452        0.634034      -2.0521e-05     0.000362942         0.361228        0.166588     -0.000452247     0.000133294
                     6.36522e-05     0.000195473         0.900976        0.377446      -0.00043647     -0.00012819         0.165901        0.101602
281702                 -0.195729        -0.35997      0.000303248     0.000457786         0.635121        0.634348      0.000197429     0.000323437
                     0.000328976     0.000259199        -0.192926      -0.0452971      1.97813e-05     0.000183484         0.900582        0.376358
                        0.634828        0.633455     -2.03051e-05     0.000363668         0.361675        0.166257     -0.000452277     0.000134093
                     6.06984e-05     0.000193541         0.901132        0.377065      -0.00043686    -0.000130911         0.165986        0.101503
281704                  -0.19599       -0.360154      0.000303853      0.00045791         0.635465        0.633783      0.000198023     0.000323796
                     0.000324444     0.000260566        -0.192954      -0.0452669      1.82876e-05     0.000181882         0.900737        0.375977
                        0.635141        0.632877     -2.00866e-05     0.000364398         0.362123        0.165926     -0.000452304     0.000134895
                     5.79054e-05      0.00019131         0.901287        0.376685      -0.00043722    -0.000133607         0.166072        0.101404
281706                 -0.196253       -0.360337       0.00030446     0.000458033         0.635808        0.633217       0.00019862     0.000324154
                     0.000319377     0.000261631        -0.192982      -0.0452368       1.6858e-05     0.000180363         0.900892        0.375596
                        0.635459        0.632301     -1.98651e-05     0.000365131         0.362572        0.165593     -0.000452329     0.000135699
                     5.53148e-05      0.00018876         0.901442        0.376305      -0.00043755    -0.000136276         0.166156        0.101305
281708                 -0.196517       -0.360518      0.000305068     0.000458154         0.636152         0.63265      0.000199219     0.000324513
                     0.000313671     0.000262254         -0.19301      -0.0452066      1.54893e-05     0.000178925         0.901046        0.375215
                        0.635781        0.631725     -1.96406e-05     0.000365867         0.363021        0.165259     -0.000452352     0.000136505
                     5.29777e-05     0.000185874         0.901598        0.375925     -0.000437851    -0.000138915         0.166241        0.101206
281710                 -0.196782         -0.3607      0.000305677     0.000458273         0.636495        0.632082      0.000199822     0.000324872
                     0.000307211     0.000262215        -0.193038      -0.0451764      1.41784e-05     0.000177569           0.9012        0.374834
                        0.636107         0.63115     -1.94126e-05     0.000366606         0.363471        0.164924     -0.000452372     0.000137313
                     5.09575e-05     0.000182634         0.901753        0.375544     -0.000438125     -0.00014152         0.166326        0.101106
281712                 -0.197049        -0.36088      0.000306288     0.000458391         0.636838        0.631513      0.000200427     0.000325232
                     0.000299882     0.000261174        -0.193066      -0.0451462      1.29225e-05     0.000176295         0.901354        0.374453
                        0.636438        0.630575     -1.91809e-05     0.000367349         0.363921        0.164589      -0.00045239     0.000138124
                     4.93338e-05     0.000179025         0.901908        0.375164     -0.000438372    -0.000144087         0.166411        0.101007
281714                 -0.197317       -0.361061        0.0003069     0.000458506          0.63718        0.630943      0.000201034     0.000325593
                     0.000291615     0.000258602        -0.193094      -0.0451159      1.17193e-05     0.000175102         0.901508        0.374072
                        0.636772        0.630001      -1.8945e-05     0.000368095         0.364372        0.164252     -0.000452406     0.000138938
                     4.82076e-05     0.000175037         0.902062        0.374783     -0.000438594    -0.000146612         0.166496        0.100908
281716                 -0.197587       -0.361241      0.000307513     0.000458619         0.637522        0.630372      0.000201645     0.000325954
                     0.000282507      0.00025368        -0.193121      -0.0450857      1.05667e-05     0.000173991         0.901662        0.373691
                         0.63711        0.629426     -1.87043e-05     0.000368845         0.364824        0.163915      -0.00045242     0.000139753
                     4.77076e-05     0.000170669         0.902217        0.374403     -0.000438792    -0.000149092          0.16658        0.100808
281718                 -0.197859       -0.361421      0.000308128      0.00045873         0.637864          0.6298      0.000202258     0.000326315
                     0.000273096     0.000245216        -0.193149      -0.0450554      9.46274e-06     0.000172962         0.901816         0.37331
                        0.637452        0.628852     -1.84581e-05     0.000369598         0.365276        0.163576     -0.000452431     0.000140572
                     4.79993e-05     0.000165941         0.902371        0.374022     -0.000438968    -0.000151521         0.166665        0.100709
281720                 -0.198132       -0.361602      0.000308744     0.000458837         0.638206        0.629226      0.000202875     0.000326677
                     0.000264933     0.000231743        -0.193177      -0.0450251      8.40602e-06     0.000172017         0.901969        0.372929
                        0.637797        0.628277     -1.82053e-05     0.000370354         0.365729        0.163237     -0.000452439     0.000141393
                     4.92953e-05     0.000160906         0.902526        0.373641     -0.000439124    -0.000153896         0.166749         0.10061
281722                 -0.198407       -0.361783      0.000309361     0.000458942         0.638548        0.628652      0.000203494      0.00032704
                     0.000261412     0.000212363        -0.193205      -0.0449948      7.39533e-06     0.000171155         0.902122        0.372548
                        0.638145        0.627702     -1.79446e-05     0.000371114         0.366183        0.162897     -0.000452446     0.000142217
                     5.18666e-05     0.000155679          0.90268         0.37326     -0.000439262    -0.000156211         0.166834         0.10051
281724                 -0.198683       -0.361965      0.000309979     0.000459042          0.63889        0.628076      0.000204116     0.000327404
                     0.000267776     0.000189134        -0.193233      -0.0449645      6.42978e-06     0.000170377         0.902275        0.372167
                        0.638497        0.627126      -1.7674e-05     0.000371877         0.366637        0.162556      -0.00045245     0.000143043
                     5.60506e-05     0.000150482         0.902834         0.37288     -0.000439383    -0.000158461         0.166918         0.10041
281726                  -0.19896       -0.362148      0.000310597     0.000459139         0.639231        0.627499       0.00020474     0.000327768
                     0.000287413     0.000169651        -0.193261      -0.0449342      5.50885e-06     0.000169686         0.902428        0.371785
                        0.638852         0.62655     -1.73911e-05      0.00037264         0.367091        0.162214     -0.000452452     0.000143872
                     6.22446e-05     0.000145717         0.902987        0.372499      -0.00043949     -0.00016064         0.167003        0.100311
281728                 -0.199239       -0.362331      0.000311215      0.00045923         0.639573        0.626921      0.000205368     0.000328133
                      0.00031547     0.000163315        -0.193289      -0.0449038      4.63238e-06     0.000169082         0.902581        0.371404
                        0.639211        0.625973     -1.70923e-05     0.000373403         0.367546        0.161871     -0.000452452     0.000144705
                     7.08555e-05     0.000142085         0.903141        0.372118     -0.000439586    -0.000162743         0.167087        0.100211
281730                 -0.199518       -0.362515      0.000311833     0.000459316         0.639915        0.626341      0.000205998     0.000328499
                     0.000341025      0.00017168        -0.193317      -0.0448735      3.80059e-06     0.000168568         0.902734        0.371022
                        0.639573        0.625396     -1.67735e-05     0.000374159         0.368002        0.161528      -0.00045245      0.00014554
                     8.21461e-05     0.000140737         0.903294        0.371737     -0.000439674    -0.000164762         0.167171        0.100111
281732                 -0.199798         -0.3627      0.000312449     0.000459395         0.640256         0.62576      0.000206631     0.000328866
                     0.000357477     0.000188149        -0.193345      -0.0448431      3.01415e-06     0.000168145         0.902886        0.370641
                        0.639938        0.624818     -1.64302e-05     0.000374898         0.368457        0.161183     -0.000452446     0.000146378
                     9.58739e-05     0.000143397         0.903448        0.371356     -0.000439756     -0.00016669         0.167255        0.100011
281734                 -0.200078       -0.362885      0.000313062     0.000459466         0.640598        0.625178      0.000207267     0.000329234
                     0.000365094     0.000206099        -0.193372      -0.0448127      2.27422e-06     0.000167816         0.903038        0.370259
                        0.640308         0.62424     -1.60613e-05     0.000375604         0.368914        0.160838     -0.000452439     0.000147219
                     0.000110628     0.000152217         0.903601        0.370975     -0.000439836    -0.000168521         0.167339       0.0999116
281736                 -0.200359       -0.363071      0.000313668     0.000459528          0.64094        0.624594      0.000207906     0.000329603
                     0.000366674     0.000222384          -0.1934      -0.0447823      1.58248e-06     0.000167584         0.903191        0.369878
                        0.640682         0.62366      -1.5679e-05     0.000376248         0.369371        0.160492     -0.000452431     0.000148064
                     0.000123079     0.000168854         0.903754        0.370593     -0.000439917    -0.000170245         0.167423       0.0998116
281738                 -0.200641       -0.363258      0.000314265     0.000459581         0.641282         0.62401      0.000208547     0.000329973
                     0.000364648     0.000236275        -0.193428      -0.0447518      9.41279e-07     0.000167451         0.903343        0.369496
                        0.641062         0.62308      -1.5327e-05     0.000376802         0.369828        0.160145     -0.000452421     0.000148912
                     0.000128184     0.000192498         0.903906        0.370212     -0.000440002    -0.000171853         0.167507       0.0997116
281740                 -0.200923       -0.363445      0.000314846     0.000459625         0.641625        0.623423      0.000209191     0.000330344
                     0.000360505     0.000247999        -0.193456      -0.0447214      3.53664e-07     0.000167423         0.903494        0.369114
                        0.641449        0.622499     -1.50852e-05     0.000377286         0.370285        0.159797      -0.00045241     0.000149764
                     0.000121758      0.00021827         0.904059        0.369831     -0.000440096    -0.000173335         0.167591       0.0996116
281742                 -0.201205       -0.363633      0.000315405     0.000459663         0.641967        0.622836      0.000209837     0.000330717
                     0.000355015     0.000258017        -0.193484      -0.0446909     -1.76455e-07     0.000167501         0.903646        0.368732
                        0.641845        0.621917     -1.49997e-05       0.0003778         0.370743        0.159448     -0.000452397     0.000150619
                      0.00010413     0.000239007         0.904211         0.36945     -0.000440203     -0.00017468         0.167675       0.0995115
281744                 -0.201488       -0.363821      0.000315933     0.000459703          0.64231        0.622246      0.000210485     0.000331091
                     0.000348499     0.000266758        -0.193512      -0.0446605     -6.44168e-07     0.000167691         0.903798         0.36835
                        0.642253        0.621332     -1.50017e-05     0.000378448         0.371202        0.159099     -0.000452383     0.000151478
                     8.03423e-05     0.000249887         0.904364        0.369068     -0.000440327    -0.000175875         0.167759       0.0994113
281746                 -0.201771       -0.364009      0.000316426     0.000459762         0.642654        0.621656      0.000211135     0.000331466
                     0.000340986     0.000274559         -0.19354        -0.04463     -1.04336e-06     0.000167997         0.903949        0.367968
                        0.642681        0.620742     -1.49835e-05     0.000379227          0.37166        0.158749     -0.000452368     0.000152341
                      5.6344e-05     0.000250653         0.904516        0.368687     -0.000440473    -0.000176907         0.167843       0.0993111
281748                 -0.202055       -0.364198      0.000316888      0.00045986         0.642998        0.621064      0.000211787     0.000331843
                      0.00033229     0.000281639        -0.193568      -0.0445995     -1.36647e-06     0.000168425           0.9041        0.367586
                         0.64314        0.620139     -1.48993e-05     0.000380076         0.372119        0.158398     -0.000452353     0.000153208
                     3.59148e-05     0.000243874         0.904668        0.368305     -0.000440645    -0.000177758         0.167926       0.0992108
281750                 -0.202339       -0.364388      0.000317339     0.000460017         0.643343         0.62047      0.000212441     0.000332221
                     0.000322006     0.000288083        -0.193596      -0.0445689     -1.60416e-06     0.000168981         0.904251        0.367204
                        0.643649        0.619502     -1.47543e-05     0.000380947         0.372578        0.158046     -0.000452338     0.000154079
                     2.04452e-05       0.0002325         0.904819        0.367924     -0.000440849    -0.000178411          0.16801       0.0991104
281752                 -0.202623       -0.364577      0.000317815     0.000460237         0.643688        0.619875      0.000213096       0.0003326
                     0.000309451     0.000293755        -0.193624      -0.0445384      -1.7449e-06      0.00016967         0.904402        0.366822
                        0.644233        0.618755     -1.45666e-05      0.00038182         0.373037        0.157693     -0.000452323     0.000154953
                       9.985e-06     0.000218778         0.904971        0.367542      -0.00044109    -0.000178845         0.168093         0.09901
281754                 -0.202907       -0.364767      0.000318344     0.000460497         0.644035        0.619278      0.000213752      0.00033298
                     0.000293551     0.000298087        -0.193651      -0.0445078     -1.77443e-06     0.000170499         0.904552         0.36644
                        0.644789        0.617684     -1.43516e-05     0.000382687         0.373497         0.15734      -0.00045231      0.00015583
                     4.11884e-06     0.000204187         0.905122         0.36716     -0.000441372    -0.000179035         0.168177       0.0989096
281756                 -0.203192       -0.364958      0.000318934     0.000460765         0.644382        0.618679      0.000214409     0.000333362
                     0.000272716     0.000299513        -0.193679      -0.0444773     -1.67497e-06     0.000171476         0.904703        0.366058
                        0.644654        0.616427     -1.41193e-05     0.000383547         0.373956        0.156986     -0.000452298      0.00015671
                     2.38166e-06     0.000189717         0.905274        0.366779     -0.000441701    -0.000178952          0.16826       0.0988091
281758                 -0.203477       -0.365148      0.000319573     0.000461015          0.64473        0.618079      0.000215067     0.000333743
                     0.000245124     0.000294085        -0.193707      -0.0444467     -1.42423e-06     0.000172607         0.904853        0.365675
                        0.644312        0.616045     -1.38766e-05     0.000384403         0.374416        0.156631     -0.000452288     0.000157591
                     4.36944e-06     0.000176122         0.905425        0.366397     -0.000442081    -0.000178562         0.168343       0.0987085
281760                 -0.203762       -0.365339      0.000320242     0.000461236          0.64508        0.617477      0.000215725     0.000334125
                     0.000211366     0.000272753        -0.193735      -0.0444161     -9.93954e-07     0.000173901         0.905003        0.365293
                        0.644518        0.615822     -1.36277e-05     0.000385255         0.374876        0.156276      -0.00045228     0.000158472
                      9.7024e-06     0.000164091         0.905576        0.366015     -0.000442516    -0.000177822         0.168427       0.0986079
281762                 -0.204047        -0.36553      0.000320925     0.000461428         0.645431        0.616874      0.000216383     0.000334505
                     0.000185283     0.000221831        -0.193763      -0.0443855     -3.47777e-07     0.000175366         0.905153        0.364911
                        0.644897         0.61544     -1.33759e-05     0.000386105         0.375335         0.15592     -0.000452272     0.000159352
