! TOUCHSTONE file generated by CST MICROWAVE STUDIO
! Date and time: Tue Oct 14 07:26:14 2025
! Project name: Teste_Macro_Metasurface_Nanopilar.cst
! Parameters = {H=600; L_x=90; L_y=160; Lambda=1064; Max_L=200; Min_L=70; PathPara=1; Phi=0; Step_L=10; Theta=0; p=520; phaseX=180; phaseY=0}
! Header version: 2018
! Port assignment regex: !\s*Touchstone port\s*([0-9]+)\s*=\s*(CST MWS port|CST DS port)\s*([0-9]+|Zmin|Zmax)\s*\(\"(.*)\"\)(\s*mode\s*([0-9]+))?.*
! Touchstone port assignment:
! Touchstone port 1 = CST MWS port Zmax ("") mode 1
! Touchstone port 2 = CST MWS port Zmax ("") mode 2
! Touchstone port 3 = CST MWS port Zmin ("") mode 1
! Touchstone port 4 = CST MWS port Zmin ("") mode 2
! S-Parameters are not renormalized. Each port impedance will be approximated by the real part at minimum frequency. The values are described via the [Reference] keyword.
! Default impedance is overridden by [Reference]
[Version] 2.0
# GHz S RI R 376.73
[Number of Ports] 4
[Reference]
376.73 376.73 259.814 259.814 
[Number of Frequencies] 51
[Network Data]
281700                -0.0475919       -0.156341     -0.000454263     0.000120413       -0.0544367        0.979197     -0.000161033     0.000646937
                     -0.00038598     7.28188e-05        0.0199464      -0.0502439      -0.00043832     0.000377013         0.644342       -0.759394
                      -0.0541051         0.97908     -0.000387902     0.000283155       -0.0632941        0.150583      0.000285424     0.000247467
                    -4.64747e-05     0.000488658         0.644062       -0.759461      0.000222142     0.000352772       -0.0459525       0.0288124
281702                -0.0476512       -0.156348      -0.00045411     0.000120386       -0.0539837        0.979219     -0.000160843     0.000647152
                    -0.000386005     7.28473e-05        0.0199329      -0.0502675     -0.000438213      0.00037724         0.644029       -0.759659
                      -0.0536521        0.979101     -0.000387496     0.000283244       -0.0632147        0.150642      0.000285654     0.000247554
                    -4.63162e-05     0.000488663         0.643749       -0.759726      0.000222284     0.000352709       -0.0459545       0.0288412
281704                -0.0477106       -0.156355     -0.000453958     0.000120359       -0.0535306         0.97924     -0.000160653     0.000647366
                    -0.000386029     7.28757e-05        0.0199194       -0.050291     -0.000438106     0.000377466         0.643715       -0.759924
                      -0.0531991        0.979123     -0.000387089     0.000283332       -0.0631352        0.150702      0.000285884     0.000247642
                    -4.61577e-05     0.000488669         0.643435       -0.759991      0.000222427     0.000352645       -0.0459565         0.02887
281706                  -0.04777       -0.156363     -0.000453805     0.000120332       -0.0530775        0.979261     -0.000160462      0.00064758
                    -0.000386054     7.29041e-05        0.0199059      -0.0503146     -0.000437998     0.000377692         0.643401       -0.760189
                      -0.0527462        0.979144     -0.000386682      0.00028342       -0.0630556        0.150761      0.000286113     0.000247731
                    -4.59991e-05     0.000488675         0.643121       -0.760255       0.00022257     0.000352582       -0.0459584       0.0288989
281708                -0.0478293        -0.15637     -0.000453653     0.000120304       -0.0526244        0.979281      -0.00016027     0.000647794
                    -0.000386078     7.29325e-05        0.0198924      -0.0503382      -0.00043789     0.000377918         0.643087       -0.760453
                      -0.0522932        0.979165     -0.000386274     0.000283507        -0.062976         0.15082      0.000286342     0.000247821
                    -4.58406e-05     0.000488681         0.642807        -0.76052      0.000222712      0.00035252       -0.0459603       0.0289277
281710                -0.0478887       -0.156377     -0.000453501     0.000120277       -0.0521714        0.979302     -0.000160077     0.000648008
                    -0.000386103     7.29608e-05        0.0198789      -0.0503617     -0.000437781     0.000378144         0.642772       -0.760718
                      -0.0518402        0.979185     -0.000385866     0.000283595       -0.0628964        0.150879      0.000286571     0.000247911
                     -4.5682e-05     0.000488686         0.642492       -0.760784      0.000222855     0.000352457       -0.0459623       0.0289565
281712                -0.0479481       -0.156385     -0.000453349     0.000120249       -0.0517183        0.979322     -0.000159883     0.000648222
                    -0.000386128     7.29891e-05        0.0198653      -0.0503853     -0.000437672      0.00037837         0.642458       -0.760982
                      -0.0513872        0.979206     -0.000385458     0.000283681       -0.0628166        0.150939      0.000286799     0.000248001
                    -4.55233e-05     0.000488692         0.642178       -0.761049      0.000222998     0.000352394       -0.0459641       0.0289854
281714                -0.0480075       -0.156392     -0.000453197      0.00012022       -0.0512652        0.979342     -0.000159689     0.000648436
                    -0.000386153     7.30173e-05        0.0198518      -0.0504089     -0.000437563     0.000378595         0.642144       -0.761247
                      -0.0509343        0.979226     -0.000385049     0.000283768       -0.0627369        0.150998      0.000287027     0.000248093
                    -4.53646e-05     0.000488698         0.641863       -0.761313      0.000223141     0.000352332        -0.045966       0.0290142
281716                -0.0480669       -0.156399     -0.000453046     0.000120192       -0.0508121        0.979362     -0.000159494     0.000648649
                    -0.000386177     7.30455e-05        0.0198382      -0.0504324     -0.000437453     0.000378821         0.641829       -0.761511
                      -0.0504813        0.979246      -0.00038464     0.000283854       -0.0626571        0.151057      0.000287255     0.000248185
                    -4.52059e-05     0.000488704         0.641549       -0.761577      0.000223284      0.00035227       -0.0459679       0.0290431
281718                -0.0481263       -0.156406     -0.000452894     0.000120163        -0.050359        0.979382     -0.000159298     0.000648863
                    -0.000386202     7.30736e-05        0.0198246       -0.050456     -0.000437343     0.000379046         0.641514       -0.761775
                      -0.0500283        0.979266      -0.00038423      0.00028394       -0.0625772        0.151116      0.000287482     0.000248277
                    -4.50472e-05      0.00048871         0.641234       -0.761841      0.000223427     0.000352209       -0.0459697        0.029072
281720                -0.0481858       -0.156413     -0.000452743     0.000120134       -0.0499059        0.979401     -0.000159101     0.000649077
                    -0.000386227     7.31017e-05         0.019811      -0.0504795     -0.000437232     0.000379271         0.641199       -0.762039
                      -0.0495753        0.979286      -0.00038382     0.000284025       -0.0624973        0.151175      0.000287709     0.000248371
                    -4.48884e-05     0.000488716         0.640919       -0.762105       0.00022357     0.000352147       -0.0459716       0.0291008
281722                -0.0482452        -0.15642     -0.000452591     0.000120105       -0.0494528         0.97942     -0.000158904      0.00064929
                    -0.000386252     7.31298e-05        0.0197974      -0.0505031     -0.000437121     0.000379495         0.640884       -0.762303
                      -0.0491223        0.979305     -0.000383409      0.00028411       -0.0624174        0.151234      0.000287936     0.000248465
                    -4.47296e-05     0.000488722         0.640604       -0.762368      0.000223714     0.000352086       -0.0459734       0.0291297
281724                -0.0483046       -0.156427      -0.00045244     0.000120075       -0.0489997        0.979439     -0.000158706     0.000649503
                    -0.000386277     7.31578e-05        0.0197838      -0.0505266     -0.000437009      0.00037972         0.640569       -0.762566
                      -0.0486693        0.979325     -0.000382999     0.000284195       -0.0623374        0.151293      0.000288162     0.000248559
                    -4.45708e-05     0.000488728         0.640289       -0.762632      0.000223857     0.000352025       -0.0459752       0.0291586
281726                -0.0483641       -0.156435     -0.000452289     0.000120045       -0.0485465        0.979458     -0.000158507     0.000649716
                    -0.000386302     7.31858e-05        0.0197702      -0.0505501     -0.000436897     0.000379944         0.640254        -0.76283
                      -0.0482163        0.979344     -0.000382587     0.000284279       -0.0622574        0.151351      0.000288388     0.000248654
                    -4.44119e-05     0.000488734         0.639974       -0.762895         0.000224     0.000351964       -0.0459769       0.0291875
281728                -0.0484235       -0.156442     -0.000452139     0.000120015       -0.0480934        0.979477     -0.000158307     0.000649929
                    -0.000386327     7.32137e-05        0.0197565      -0.0505737     -0.000436785     0.000380169         0.639939       -0.763093
                      -0.0477633        0.979363     -0.000382175     0.000284363       -0.0621773         0.15141      0.000288613      0.00024875
                     -4.4253e-05      0.00048874         0.639659       -0.763159      0.000224144     0.000351903       -0.0459787       0.0292165
281730                 -0.048483       -0.156449     -0.000451988     0.000119985       -0.0476403        0.979495     -0.000158107     0.000650142
                    -0.000386352     7.32416e-05        0.0197428      -0.0505972     -0.000436672     0.000380392         0.639624       -0.763356
                      -0.0473103        0.979381     -0.000381763     0.000284446       -0.0620971        0.151469      0.000288838     0.000248847
                     -4.4094e-05     0.000488746         0.639343       -0.763422      0.000224287     0.000351843       -0.0459804       0.0292454
281732                -0.0485425       -0.156456     -0.000451837     0.000119954       -0.0471872        0.979513     -0.000157905     0.000650355
                    -0.000386377     7.32695e-05        0.0197292      -0.0506208     -0.000436559     0.000380616         0.639308        -0.76362
                      -0.0468573          0.9794     -0.000381351     0.000284529       -0.0620169        0.151528      0.000289063     0.000248944
                     -4.3935e-05     0.000488753         0.639028       -0.763685      0.000224431     0.000351782       -0.0459822       0.0292743
281734                 -0.048602       -0.156463     -0.000451687     0.000119923       -0.0467341        0.979531     -0.000157703     0.000650568
                    -0.000386403     7.32973e-05        0.0197155      -0.0506443     -0.000436445      0.00038084         0.638993       -0.763883
                      -0.0464043        0.979418     -0.000380938     0.000284612       -0.0619367        0.151587      0.000289287     0.000249042
                     -4.3776e-05     0.000488759         0.638712       -0.763948      0.000224575     0.000351722       -0.0459839       0.0293033
281736                -0.0486614        -0.15647     -0.000451537     0.000119892       -0.0462809        0.979549       -0.0001575     0.000650781
                    -0.000386428     7.33251e-05        0.0197018      -0.0506678     -0.000436331     0.000381063         0.638677       -0.764145
                      -0.0459513        0.979436     -0.000380524     0.000284695       -0.0618564        0.151645      0.000289511      0.00024914
                    -4.36169e-05     0.000488765         0.638397       -0.764211      0.000224718     0.000351662       -0.0459856       0.0293322
281738                -0.0487209       -0.156477     -0.000451387     0.000119861       -0.0458278        0.979566     -0.000157297     0.000650993
                    -0.000386453     7.33529e-05        0.0196881      -0.0506913     -0.000436216     0.000381287         0.638361       -0.764408
                      -0.0454983        0.979454      -0.00038011     0.000284777       -0.0617761        0.151704      0.000289735      0.00024924
                    -4.34577e-05     0.000488771         0.638081       -0.764474      0.000224862     0.000351603       -0.0459872       0.0293612
281740                -0.0487804       -0.156484     -0.000451237      0.00011983       -0.0453747        0.979584     -0.000157092     0.000651206
                    -0.000386478     7.33806e-05        0.0196743      -0.0507149     -0.000436101      0.00038151         0.638045       -0.764671
                      -0.0450453        0.979471     -0.000379696     0.000284859       -0.0616957        0.151762      0.000289958     0.000249339
                    -4.32986e-05     0.000488778         0.637765       -0.764736      0.000225006     0.000351543       -0.0459889       0.0293902
281742                -0.0488399        -0.15649     -0.000451087     0.000119798       -0.0449216        0.979601     -0.000156887     0.000651418
                    -0.000386504     7.34083e-05        0.0196606      -0.0507384     -0.000435985     0.000381733         0.637729       -0.764933
                      -0.0445923        0.979489     -0.000379281      0.00028494       -0.0616152        0.151821      0.000290181      0.00024944
                    -4.31394e-05     0.000488784         0.637449       -0.764999       0.00022515     0.000351484       -0.0459905       0.0294191
281744                -0.0488995       -0.156497     -0.000450937     0.000119766       -0.0444684        0.979618     -0.000156681      0.00065163
                    -0.000386529      7.3436e-05        0.0196468      -0.0507619     -0.000435869     0.000381955         0.637413       -0.765196
                      -0.0441392        0.979506     -0.000378866     0.000285021       -0.0615347        0.151879      0.000290403     0.000249541
                    -4.29801e-05      0.00048879         0.637133       -0.765261      0.000225294     0.000351425       -0.0459922       0.0294481
281746                 -0.048959       -0.156504     -0.000450787     0.000119733       -0.0440153        0.979634     -0.000156474     0.000651842
                    -0.000386554     7.34637e-05         0.019633      -0.0507854     -0.000435753     0.000382178         0.637097       -0.765458
                      -0.0436862        0.979523      -0.00037845     0.000285102       -0.0614542        0.151938      0.000290625     0.000249642
                    -4.28208e-05     0.000488797         0.636816       -0.765523      0.000225438     0.000351366       -0.0459938       0.0294771
281748                -0.0490185       -0.156511     -0.000450638     0.000119701       -0.0435622        0.979651     -0.000156266     0.000652054
                     -0.00038658     7.34913e-05        0.0196193      -0.0508089     -0.000435637     0.000382401          0.63678        -0.76572
                      -0.0432332        0.979539     -0.000378034     0.000285183       -0.0613736        0.151996      0.000290846     0.000249744
                    -4.26614e-05     0.000488803           0.6365       -0.765785      0.000225583     0.000351308       -0.0459954       0.0295061
281750                -0.0490781       -0.156518     -0.000450488     0.000119668        -0.043109        0.979667     -0.000156057     0.000652266
                    -0.000386605     7.35189e-05        0.0196055      -0.0508324     -0.000435535     0.000382604         0.636464       -0.765982
                      -0.0427802        0.979556     -0.000377617     0.000285264        -0.061293        0.152055      0.000291067     0.000249846
                    -4.25021e-05      0.00048881         0.636183       -0.766047      0.000225728     0.000351264        -0.045997       0.0295351
281752                -0.0491376       -0.156525     -0.000450336     0.000119633       -0.0426559        0.979683     -0.000155847     0.000652477
                    -0.000386631     7.35464e-05        0.0195916      -0.0508559     -0.000435399     0.000382843         0.636147       -0.766244
                      -0.0423271        0.979572     -0.000377199     0.000285348       -0.0612123        0.152113      0.000291286     0.000249949
                    -4.23426e-05     0.000488816         0.635867       -0.766309      0.000225871     0.000351188       -0.0459985       0.0295642
281754                -0.0491972       -0.156532     -0.000450152     0.000119566       -0.0422027        0.979699     -0.000155636     0.000652687
                    -0.000386656     7.35739e-05        0.0195778      -0.0508794     -0.000435281     0.000383066         0.635831       -0.766506
                      -0.0418741        0.979588     -0.000376748     0.000285506       -0.0611316        0.152171      0.000291504     0.000250051
                    -4.21831e-05     0.000488823          0.63555        -0.76657      0.000226015     0.000351131       -0.0460001       0.0295932
281756                -0.0492567       -0.156538     -0.000450052     0.000119572       -0.0417496        0.979714     -0.000155421     0.000652895
                    -0.000386682     7.36014e-05         0.019564      -0.0509029     -0.000435162     0.000383287         0.635514       -0.766767
                      -0.0414211        0.979604     -0.000376372     0.000285483       -0.0610508         0.15223      0.000291719      0.00025015
                    -4.20236e-05     0.000488829         0.635233       -0.766832       0.00022616     0.000351073       -0.0460016       0.0296222
281758                -0.0493163       -0.156545       -0.0004499     0.000119537       -0.0412965         0.97973     -0.000155196     0.000653094
                    -0.000386707     7.36289e-05        0.0195501      -0.0509264     -0.000435043     0.000383509         0.635197       -0.767029
                      -0.0409681         0.97962     -0.000375952     0.000285568         -0.06097        0.152288      0.000291919     0.000250238
                     -4.1864e-05     0.000488836         0.634916       -0.767093      0.000226304     0.000351015       -0.0460031       0.0296513
281760                -0.0493759       -0.156552      -0.00044975     0.000119503       -0.0408433        0.979745     -0.000155354     0.000653684
                    -0.000386733     7.36563e-05        0.0195362      -0.0509499     -0.000434923      0.00038373         0.634879        -0.76729
                       -0.040515        0.979636     -0.000375533     0.000285648       -0.0608891        0.152346      0.000292772     0.000251049
                    -4.17043e-05     0.000488842         0.634599       -0.767355      0.000226449     0.000350957       -0.0460041        0.029681
281762                -0.0494354       -0.156558     -0.000449602     0.000119468       -0.0403902         0.97976     -0.000154821     0.000653565
                    -0.000386759     7.36837e-05        0.0195224      -0.0509734     -0.000434803     0.000383952         0.634563       -0.767551
                       -0.040062        0.979651     -0.000375114     0.000285726       -0.0608082        0.152404      0.000292432     0.000250521
