! TOUCHSTONE file generated by CST MICROWAVE STUDIO
! Date and time: Tue Oct 14 07:31:17 2025
! Project name: Teste_Macro_Metasurface_Nanopilar.cst
! Parameters = {H=600; L_x=170; L_y=170; Lambda=1064; Max_L=200; Min_L=70; PathPara=1; Phi=0; Step_L=10; Theta=0; p=520; phaseX=180; phaseY=0}
! Header version: 2018
! Port assignment regex: !\s*Touchstone port\s*([0-9]+)\s*=\s*(CST MWS port|CST DS port)\s*([0-9]+|Zmin|Zmax)\s*\(\"(.*)\"\)(\s*mode\s*([0-9]+))?.*
! Touchstone port assignment:
! Touchstone port 1 = CST MWS port Zmax ("") mode 1
! Touchstone port 2 = CST MWS port Zmax ("") mode 2
! Touchstone port 3 = CST MWS port Zmin ("") mode 1
! Touchstone port 4 = CST MWS port Zmin ("") mode 2
! S-Parameters are not renormalized. Each port impedance will be approximated by the real part at minimum frequency. The values are described via the [Reference] keyword.
! Default impedance is overridden by [Reference]
[Version] 2.0
# GHz S RI R 376.73
[Number of Ports] 4
[Reference]
376.73 376.73 259.814 259.814 
[Number of Frequencies] 51
[Network Data]
281700                 -0.187803      -0.0604725      0.000490757     0.000216447         0.864353        0.455555     -0.000208066     0.000953184
                     0.000525764     0.000168134        -0.187629      -0.0609987     -0.000227191     0.000691125         0.864537        0.454633
                        0.864149        0.455647     -0.000428742      0.00066782          0.15485        0.118533     -0.000869915      0.00010627
                    -0.000112094      0.00078695          0.86451        0.454679      -0.00047418     8.64271e-05         0.155374        0.117874
281702                 -0.187824      -0.0604315      0.000491408     0.000216845         0.864537        0.455198      -0.00020809     0.000953373
                      0.00052487     0.000168187        -0.187651      -0.0609577     -0.000227117     0.000691513         0.864722        0.454278
                        0.864334         0.45529     -0.000427603     0.000668478         0.154927        0.118448     -0.000870807     0.000106873
                    -0.000113569      0.00078652         0.864696        0.454325     -0.000474545     8.73338e-05          0.15545        0.117788
281704                 -0.187845      -0.0603904      0.000492142     0.000217172         0.864722        0.454842     -0.000208116     0.000953556
                     0.000524038     0.000168257        -0.187674      -0.0609167     -0.000227041     0.000691902         0.864906        0.453924
                        0.864518        0.454933     -0.000426556      0.00066915         0.155003        0.118362     -0.000871702     0.000107482
                    -0.000114722     0.000786246         0.864881        0.453971     -0.000474908     8.82419e-05         0.155526        0.117702
281706                 -0.187866      -0.0603493      0.000492939     0.000217408         0.864906        0.454486     -0.000208144      0.00095373
                     0.000523268     0.000168342        -0.187696      -0.0608756     -0.000226963     0.000692293          0.86509        0.453569
                        0.864702        0.454576     -0.000425595     0.000669825         0.155079        0.118276     -0.000872599     0.000108096
                     -0.00011562     0.000786087         0.865066        0.453617     -0.000475269     8.91513e-05         0.155602        0.117616
281708                 -0.187888      -0.0603082      0.000493772     0.000217538          0.86509         0.45413     -0.000208175     0.000953892
                     0.000522559      0.00016844        -0.187718      -0.0608346     -0.000226881     0.000692685         0.865274        0.453214
                        0.864886        0.454219     -0.000424715     0.000670498         0.155156         0.11819     -0.000873499     0.000108718
                     -0.00011631     0.000786018         0.865251        0.453263     -0.000475628     9.00619e-05         0.155678         0.11753
281710                 -0.187909      -0.0602671      0.000494609     0.000217561         0.865275        0.453775     -0.000208208     0.000954041
                     0.000521913     0.000168548         -0.18774      -0.0607936     -0.000226797     0.000693078         0.865458        0.452859
                         0.86507        0.453861     -0.000423908     0.000671161         0.155232        0.118105     -0.000874404      0.00010935
                     -0.00011683     0.000786018         0.865436        0.452908     -0.000475985     9.09736e-05         0.155754        0.117444
281712                  -0.18793      -0.0602261      0.000495425     0.000217483         0.865459        0.453419     -0.000208241      0.00095417
                     0.000521329     0.000168665        -0.187762      -0.0607525     -0.000226709     0.000693473         0.865641        0.452505
                        0.865253        0.453504     -0.000423169      0.00067181         0.155308        0.118019     -0.000875317     0.000109997
                     -0.00011721     0.000786073         0.865621        0.452554     -0.000476339      9.1886e-05          0.15583        0.117358
281714                 -0.187952       -0.060185      0.000496197      0.00021732         0.865644        0.453064     -0.000208273     0.000954274
                     0.000520807     0.000168789        -0.187784      -0.0607114     -0.000226618     0.000693869         0.865825         0.45215
                        0.865436        0.453147     -0.000422493     0.000672442         0.155384        0.117933     -0.000876243     0.000110668
                    -0.000117473     0.000786173         0.865805        0.452199     -0.000476691     9.27991e-05         0.155906        0.117272
281716                 -0.187973      -0.0601439      0.000496911     0.000217091         0.865828        0.452708     -0.000208296     0.000954342
                     0.000520347     0.000168916        -0.187807      -0.0606703     -0.000226522     0.000694267         0.866008        0.451795
                        0.865619         0.45279     -0.000421872     0.000673053          0.15546        0.117847     -0.000877201     0.000111385
                    -0.000117636      0.00078631         0.865989        0.451844     -0.000477041     9.37126e-05         0.155982        0.117186
281718                 -0.187995      -0.0601028      0.000497562     0.000216817         0.866012        0.452353     -0.000208298     0.000954362
                     0.000519948     0.000169047        -0.187829      -0.0606292     -0.000226423     0.000694667         0.866191         0.45144
                        0.865802        0.452432     -0.000421303     0.000673642         0.155536         0.11776     -0.000878265      0.00011221
                    -0.000117715     0.000786477         0.866173        0.451489     -0.000477389     9.46262e-05         0.156057        0.117099
281720                 -0.188016      -0.0600618      0.000498148     0.000216516         0.866197        0.451997     -0.000208256     0.000954321
                     0.000519612     0.000169177        -0.187851      -0.0605881     -0.000226319     0.000695069         0.866374        0.451085
                        0.865985        0.452075      -0.00042078     0.000674207         0.155612        0.117674     -0.000880012     0.000113227
                    -0.000117723     0.000786671         0.866357        0.451134     -0.000477735     9.55397e-05         0.156133        0.117013
281722                 -0.188038      -0.0600207      0.000498673     0.000216203         0.866381        0.451642      -0.00020812      0.00095421
                     0.000519337     0.000169304        -0.187873      -0.0605469      -0.00022621     0.000695472         0.866557         0.45073
                        0.866168        0.451718     -0.000420299     0.000674747         0.155688        0.117588     -0.000880943     0.000111231
                    -0.000117669     0.000786888         0.866541        0.450779     -0.000478078     9.64527e-05         0.156208        0.116926
281724                  -0.18806      -0.0599796      0.000499144      0.00021589         0.866565        0.451286     -0.000207806     0.000954055
                     0.000519124     0.000169427        -0.187895      -0.0605058     -0.000226095     0.000695878          0.86674        0.450375
                         0.86635        0.451361     -0.000419856     0.000675261         0.155764        0.117502     -0.000880725     0.000112617
                    -0.000117563     0.000787125         0.866724        0.450423     -0.000478419     9.73648e-05         0.156284         0.11684
281726                 -0.188081      -0.0599385      0.000499568     0.000215584          0.86675        0.450931     -0.000207223     0.000953978
                     0.000518973     0.000169543        -0.187917      -0.0604646     -0.000225974     0.000696287         0.866922         0.45002
                        0.866532        0.451004     -0.000419447     0.000675748         0.155839        0.117416     -0.000881531      0.00011356
                    -0.000117412     0.000787381         0.866907        0.450068     -0.000478758     9.82756e-05         0.156359        0.116753
281728                 -0.188103      -0.0598974      0.000499953     0.000215293         0.866934        0.450575     -0.000206411     0.000954233
                     0.000518883     0.000169647        -0.187939      -0.0604234     -0.000225846     0.000696697         0.867105        0.449665
                        0.866714        0.450646      -0.00041907     0.000676209         0.155915        0.117329      -0.00088242     0.000114327
                    -0.000117224     0.000787652          0.86709        0.449712     -0.000479094     9.91846e-05         0.156435        0.116667
281730                 -0.188125      -0.0598563      0.000500304     0.000215019         0.867118        0.450219       -0.0002057     0.000954967
                     0.000518856     0.000169739        -0.187961      -0.0603822     -0.000225711     0.000697111         0.867287         0.44931
                        0.866896        0.450289     -0.000418722     0.000676641         0.155991        0.117243     -0.000883324     0.000115033
                    -0.000117004      0.00078794         0.867273        0.449356     -0.000479427     0.000100091          0.15651         0.11658
281732                 -0.188146      -0.0598152      0.000500627     0.000214765         0.867302        0.449863     -0.000205406     0.000955935
                      0.00051889     0.000169813        -0.187983       -0.060341     -0.000225567     0.000697528         0.867469        0.448954
                        0.867077        0.449932     -0.000418399     0.000677047         0.156066        0.117156     -0.000884233     0.000115714
                     -0.00011676     0.000788242         0.867456        0.449001     -0.000479758     0.000100994         0.156585        0.116493
281734                 -0.188168      -0.0597741      0.000500929     0.000214533         0.867485        0.449507     -0.000205474     0.000956801
                     0.000518985     0.000169866        -0.188005      -0.0602997     -0.000225413     0.000697948         0.867651        0.448599
                        0.867259        0.449575     -0.000418101     0.000677423         0.156142         0.11707     -0.000885144     0.000116381
                    -0.000116496     0.000788559         0.867638        0.448644     -0.000480086     0.000101894         0.156661        0.116407
281736                  -0.18819       -0.059733      0.000501212     0.000214323         0.867669         0.44915     -0.000205698     0.000957464
                     0.000519141     0.000169894        -0.188027      -0.0602585     -0.000225248     0.000698373         0.867833        0.448244
                         0.86744        0.449218     -0.000417824     0.000677771         0.156218        0.116983     -0.000886056     0.000117042
                    -0.000116221     0.000788889          0.86782        0.448288      -0.00048041     0.000102788         0.156736         0.11632
281738                 -0.188212      -0.0596918      0.000501479     0.000214137         0.867852        0.448793     -0.000205947     0.000957966
                     0.000519358     0.000169892        -0.188049      -0.0602172     -0.000225071     0.000698802         0.868015        0.447888
                        0.867622         0.44886     -0.000417566      0.00067809         0.156293        0.116897     -0.000886969     0.000117701
                    -0.000115942     0.000789234         0.868002        0.447932      -0.00048073     0.000103675         0.156811        0.116233
281740                 -0.188234      -0.0596507      0.000501733     0.000213975         0.868035        0.448436     -0.000206176     0.000958367
                     0.000519633     0.000169853        -0.188071       -0.060176     -0.000224878     0.000699238         0.868196        0.447533
                        0.867803        0.448503     -0.000417327     0.000678377         0.156368         0.11681     -0.000887883     0.000118358
                    -0.000115668     0.000789591         0.868184        0.447576     -0.000481045     0.000104554         0.156886        0.116146
281742                 -0.188255      -0.0596095      0.000501974     0.000213839         0.868217        0.448079     -0.000206374      0.00095871
                     0.000519966     0.000169773        -0.188093      -0.0601347     -0.000224668     0.000699681         0.868378        0.447178
                        0.867984        0.448146     -0.000417104     0.000678631         0.156444        0.116724     -0.000888798     0.000119017
                     -0.00011541      0.00078996         0.868366        0.447219     -0.000481353     0.000105422         0.156961        0.116059
281744                 -0.188277      -0.0595682        0.0005022     0.000213731         0.868398        0.447722     -0.000206545     0.000959023
                     0.000520354     0.000169642        -0.188115      -0.0600934     -0.000224436     0.000700134         0.868559        0.446822
                        0.868165        0.447789     -0.000416896     0.000678851         0.156519        0.116637     -0.000889714     0.000119677
                    -0.000115184     0.000790335         0.868547        0.446862     -0.000481652     0.000106277         0.157036        0.115972
281746                 -0.188299      -0.0595269      0.000502409     0.000213654          0.86858        0.447366     -0.000206695     0.000959322
                     0.000520792     0.000169454        -0.188137       -0.060052     -0.000224179       0.0007006          0.86874        0.446466
                        0.868346        0.447432     -0.000416699     0.000679032         0.156594         0.11655     -0.000890631      0.00012034
                    -0.000115009     0.000790707         0.868729        0.446505     -0.000481938     0.000107114         0.157111        0.115885
281748                 -0.188321      -0.0594856      0.000502592     0.000213612         0.868761        0.447009     -0.000206831     0.000959618
                     0.000521274     0.000169197        -0.188159      -0.0600107     -0.000223891     0.000701084         0.868921        0.446111
                        0.868527        0.447075     -0.000416512     0.000679171         0.156669        0.116464     -0.000891548     0.000121006
                    -0.000114911     0.000791056          0.86891        0.446148     -0.000482203     0.000107928         0.157186        0.115797
281750                 -0.188344      -0.0594441      0.000502734     0.000213608         0.868942        0.446653     -0.000206962     0.000959923
                     0.000521791     0.000168863        -0.188181      -0.0599694     -0.000223565     0.000701594         0.869102        0.445755
                        0.868708        0.446718     -0.000416329     0.000679262         0.156744        0.116377     -0.000892466     0.000121677
                     -0.00011492     0.000791338         0.869091        0.445791     -0.000482434     0.000108715         0.157261         0.11571
281752                 -0.188366      -0.0594025       0.00050281     0.000213637         0.869124        0.446297     -0.000207093     0.000960246
                      0.00052233     0.000168439        -0.188203       -0.059928      -0.00022319     0.000702146         0.869283        0.445399
                        0.868889        0.446361     -0.000416144     0.000679298         0.156819         0.11629     -0.000893384     0.000122355
                    -0.000115054     0.000791475         0.869272        0.445434     -0.000482602     0.000109471         0.157335        0.115623
281754                 -0.188388      -0.0593608      0.000502779     0.000213679         0.869305        0.445941     -0.000207234     0.000960605
                     0.000522872     0.000167915        -0.188225      -0.0598865     -0.000222758     0.000702763         0.869463        0.445043
                        0.869069        0.446003     -0.000415948     0.000679272         0.156894        0.116203       -0.0008943     0.000123042
                    -0.000115282     0.000791336         0.869452        0.445076     -0.000482658     0.000110211          0.15741        0.115536
281756                 -0.188409      -0.0593189        0.0005026     0.000213666         0.869486        0.445584     -0.000207397     0.000961031
                     0.000523393     0.000167285        -0.188247       -0.059845     -0.000222261     0.000703493         0.869644        0.444688
                         0.86925        0.445646     -0.000415723     0.000679175         0.156968        0.116116     -0.000895215     0.000123742
                    -0.000115441     0.000790773         0.869633        0.444719     -0.000482528     0.000111018         0.157485        0.115448
281758                 -0.188431      -0.0592769      0.000502289     0.000213461         0.869668        0.445228     -0.000207601     0.000961594
                      0.00052386     0.000166545        -0.188269      -0.0598029     -0.000221717     0.000704418         0.869824        0.444332
                        0.869431        0.445289     -0.000415446     0.000679001         0.157043        0.116029     -0.000896123     0.000124465
                    -0.000115195     0.000789795         0.869813        0.444361     -0.000482224     0.000112127         0.157559        0.115361
281760                 -0.188452       -0.059235      0.000502021     0.000212951         0.869849        0.444871     -0.000207852     0.000962489
                     0.000524232     0.000165706         -0.18829      -0.0597607     -0.000221225     0.000705672         0.870004        0.443976
                        0.869612        0.444932      -0.00041508     0.000678749         0.157118        0.115941     -0.000897013     0.000125228
                    -0.000114269     0.000788753         0.869994        0.444002     -0.000482156     0.000113717         0.157634        0.115273
281762                 -0.188473      -0.0591934      0.000502038     0.000212245          0.87003        0.444514     -0.000207878     0.000964452
                     0.000524465     0.000164792        -0.188311      -0.0597197     -0.000221116     0.000707343         0.870184         0.44362
                        0.869794        0.444575     -0.000414577     0.000678437         0.157193        0.115854     -0.000897842     0.000126082
