! TOUCHSTONE file generated by CST MICROWAVE STUDIO
! Date and time: Tue Oct 14 07:32:31 2025
! Project name: Teste_Macro_Metasurface_Nanopilar.cst
! Parameters = {H=600; L_x=190; L_y=160; Lambda=1064; Max_L=200; Min_L=70; PathPara=1; Phi=0; Step_L=10; Theta=0; p=520; phaseX=180; phaseY=0}
! Header version: 2018
! Port assignment regex: !\s*Touchstone port\s*([0-9]+)\s*=\s*(CST MWS port|CST DS port)\s*([0-9]+|Zmin|Zmax)\s*\(\"(.*)\"\)(\s*mode\s*([0-9]+))?.*
! Touchstone port assignment:
! Touchstone port 1 = CST MWS port Zmax ("") mode 1
! Touchstone port 2 = CST MWS port Zmax ("") mode 2
! Touchstone port 3 = CST MWS port Zmin ("") mode 1
! Touchstone port 4 = CST MWS port Zmin ("") mode 2
! S-Parameters are not renormalized. Each port impedance will be approximated by the real part at minimum frequency. The values are described via the [Reference] keyword.
! Default impedance is overridden by [Reference]
[Version] 2.0
# GHz S RI R 376.73
[Number of Ports] 4
[Reference]
376.73 376.73 259.814 259.814 
[Number of Frequencies] 51
[Network Data]
281700                  -0.10726       0.0120314      0.000391726    -1.99582e-05         0.893706          0.4102      0.000304068    -0.000568698
                     0.000279272    -0.000163343        -0.236068      -0.0945894       0.00025098     -0.00050541         0.941216        0.206549
                         0.89358        0.410995      0.000219008    -0.000450759         0.056351          0.1006     -9.81109e-05    -0.000581411
                     0.000104089    -0.000612241         0.941458        0.206487     -0.000147712    -0.000608965         0.252023       0.0112405
281702                 -0.107131       0.0121311      0.000391796    -1.98594e-05         0.893928        0.409709      0.000303992    -0.000569297
                     0.000279274     -0.00016328        -0.236108      -0.0945321      0.000250851    -0.000505796         0.941297        0.206161
                        0.893802        0.410504      0.000219035    -0.000451073        0.0562887        0.100533     -9.82014e-05    -0.000581497
                      0.00010368    -0.000612315         0.941539        0.206099     -0.000148082    -0.000609002         0.252044       0.0111015
281704                 -0.107001       0.0122308      0.000391866    -1.97593e-05          0.89415        0.409216      0.000303915    -0.000569896
                     0.000279275    -0.000163217        -0.236147      -0.0944747       0.00025072    -0.000506182         0.941377        0.205774
                        0.894024        0.410013      0.000219063    -0.000451388         0.056226        0.100466     -9.82923e-05    -0.000581584
                      0.00010327    -0.000612389          0.94162        0.205711     -0.000148455    -0.000609041         0.252066       0.0109624
281706                 -0.106872       0.0123306      0.000391938    -1.96577e-05         0.894372        0.408724      0.000303836    -0.000570497
                     0.000279276    -0.000163153        -0.236186      -0.0944174      0.000250586    -0.000506569         0.941458        0.205386
                        0.894246        0.409521       0.00021909    -0.000451704         0.056163        0.100399     -9.83837e-05    -0.000581669
                     0.000102858    -0.000612462           0.9417        0.205323     -0.000148831    -0.000609081         0.252087       0.0108233
281708                 -0.106742       0.0124304      0.000392011    -1.95548e-05         0.894593        0.408231      0.000303757    -0.000571098
                     0.000279278    -0.000163089        -0.236225        -0.09436      0.000250449    -0.000506957         0.941538        0.204998
                        0.894468        0.409029      0.000219118     -0.00045202        0.0560996        0.100332     -9.84757e-05    -0.000581753
                     0.000102446    -0.000612536         0.941781        0.204935     -0.000149209    -0.000609123         0.252108       0.0106842
281710                 -0.106611       0.0125303      0.000392085    -1.94504e-05         0.894815        0.407738      0.000303677      -0.0005717
                     0.000279279    -0.000163025        -0.236264      -0.0943026       0.00025031    -0.000507346         0.941619         0.20461
                        0.894689        0.408537      0.000219145    -0.000452337        0.0560359        0.100265     -9.85681e-05    -0.000581837
                     0.000102032    -0.000612609         0.941861        0.204546      -0.00014959    -0.000609166         0.252129       0.0105451
281712                  -0.10648       0.0126303      0.000392161    -1.93447e-05         0.895036        0.407244      0.000303595    -0.000572303
                      0.00027928    -0.000162961        -0.236303      -0.0942451      0.000250169    -0.000507735         0.941699        0.204222
                        0.894911        0.408044      0.000219173    -0.000452655        0.0559718        0.100198     -9.86611e-05     -0.00058192
                     0.000101617    -0.000612682         0.941941        0.204158     -0.000149974     -0.00060921          0.25215       0.0104059
281714                 -0.106349       0.0127303      0.000392237    -1.92375e-05         0.895257         0.40675      0.000303513    -0.000572906
                     0.000279281    -0.000162896        -0.236342      -0.0941877      0.000250025    -0.000508124         0.941779        0.203834
                        0.895132        0.407551      0.000219201    -0.000452973        0.0559074        0.100131     -9.87545e-05    -0.000582002
                     0.000101201    -0.000612756         0.942021         0.20377      -0.00015036    -0.000609255         0.252171       0.0102668
281716                 -0.106218       0.0128303      0.000392315    -1.91289e-05         0.895478        0.406255       0.00030343    -0.000573511
                     0.000279281    -0.000162831        -0.236381      -0.0941302      0.000249879    -0.000508514         0.941858        0.203446
                        0.895353        0.407057      0.000219229    -0.000453292        0.0558426        0.100065     -9.88485e-05    -0.000582084
                     0.000100784    -0.000612829         0.942101        0.203382     -0.000150748    -0.000609301         0.252192       0.0101276
281718                 -0.106086       0.0129304      0.000392393    -1.90189e-05         0.895699         0.40576      0.000303346    -0.000574116
                     0.000279282    -0.000162765         -0.23642      -0.0940728      0.000249731    -0.000508904         0.941938        0.203058
                        0.895574        0.406563      0.000219258    -0.000453611        0.0557774       0.0999982      -9.8943e-05    -0.000582164
                     0.000100365    -0.000612902          0.94218        0.202993     -0.000151138    -0.000609347         0.252212       0.0099884
281720                 -0.105953       0.0130305      0.000392473    -1.89075e-05          0.89592        0.405265      0.000303261    -0.000574722
                     0.000279283      -0.0001627        -0.236458      -0.0940153       0.00024958    -0.000509295         0.942017         0.20267
                        0.895794        0.406069      0.000219286    -0.000453931        0.0557119       0.0999316      -9.9038e-05    -0.000582244
                     9.99456e-05    -0.000612975          0.94226        0.202605      -0.00015153    -0.000609394         0.252233      0.00984919
281722                 -0.105821       0.0131307      0.000392554    -1.87946e-05          0.89614        0.404769      0.000303174    -0.000575328
                     0.000279283    -0.000162634        -0.236497      -0.0939578      0.000249428    -0.000509686         0.942097        0.202282
                        0.896015        0.405574      0.000219315    -0.000454252        0.0556461       0.0998651     -9.91335e-05    -0.000582323
                     9.95246e-05    -0.000613048         0.942339        0.202216     -0.000151924    -0.000609442         0.252254      0.00970997
281724                 -0.105688        0.013231      0.000392636    -1.86803e-05          0.89636        0.404273      0.000303087    -0.000575936
                     0.000279283    -0.000162568        -0.236536      -0.0939002      0.000249274    -0.000510076         0.942176        0.201894
                        0.896235        0.405079      0.000219344    -0.000454573        0.0555799       0.0997987     -9.92296e-05    -0.000582401
                     9.91024e-05     -0.00061312         0.942418        0.201828      -0.00015232     -0.00060949         0.252274      0.00957072
281726                 -0.105554       0.0133313      0.000392718    -1.85646e-05          0.89658        0.403776      0.000302999    -0.000576544
                     0.000279284    -0.000162501        -0.236575      -0.0938427      0.000249117    -0.000510467         0.942255        0.201506
                        0.896455        0.404583      0.000219373    -0.000454895        0.0555133       0.0997324     -9.93262e-05    -0.000582478
                     9.86788e-05    -0.000613193         0.942497         0.20144     -0.000152718    -0.000609538         0.252294      0.00943146
281728                  -0.10542       0.0134316      0.000392802    -1.84475e-05           0.8968        0.403279      0.000302909    -0.000577153
                     0.000279284    -0.000162434        -0.236614      -0.0937851      0.000248959    -0.000510858         0.942334        0.201117
                        0.896675        0.404087      0.000219402    -0.000455218        0.0554463       0.0996661     -9.94233e-05    -0.000582555
                      9.8254e-05    -0.000613265         0.942576        0.201051     -0.000153118    -0.000609587         0.252315      0.00929218
281730                 -0.105286        0.013532      0.000392887    -1.83289e-05          0.89702        0.402781      0.000302819    -0.000577763
                     0.000279284    -0.000162367        -0.236653      -0.0937275      0.000248798    -0.000511249         0.942412        0.200729
                        0.896895         0.40359      0.000219431    -0.000455541         0.055379       0.0995999     -9.95209e-05    -0.000582631
                     9.78279e-05    -0.000613337         0.942655        0.200662      -0.00015352    -0.000609636         0.252335      0.00915289
281732                 -0.105152       0.0136324      0.000392973    -1.82089e-05         0.897239        0.402283      0.000302728    -0.000578374
                     0.000279283    -0.000162299        -0.236692      -0.0936699      0.000248636    -0.000511641         0.942491        0.200341
                        0.897114        0.403093      0.000219461    -0.000455865        0.0553113       0.0995338     -9.96191e-05    -0.000582706
                     9.74004e-05     -0.00061341         0.942733        0.200274     -0.000153923    -0.000609685         0.252355      0.00901358
281734                 -0.105017       0.0137329       0.00039306    -1.80875e-05         0.897459        0.401784      0.000302635    -0.000578985
                     0.000279283    -0.000162231        -0.236731      -0.0936123      0.000248472    -0.000512032         0.942569        0.199953
                        0.897333        0.402595       0.00021949    -0.000456189        0.0552433       0.0994677     -9.97178e-05     -0.00058278
                     9.69716e-05    -0.000613481         0.942812        0.199885     -0.000154327    -0.000609734         0.252375      0.00887425
281736                 -0.104881       0.0138335      0.000393148    -1.79646e-05         0.897678        0.401286      0.000302542    -0.000579598
                     0.000279283    -0.000162163        -0.236769      -0.0935547      0.000248306    -0.000512422         0.942647        0.199564
                        0.897552        0.402097       0.00021952    -0.000456514        0.0551749       0.0994017     -9.98171e-05    -0.000582853
                     9.65415e-05    -0.000613553          0.94289        0.199497     -0.000154734    -0.000609783         0.252395       0.0087349
281738                 -0.104746        0.013934      0.000393236    -1.78404e-05         0.897897        0.400786      0.000302448    -0.000580211
                     0.000279282    -0.000162094        -0.236808      -0.0934971      0.000248138    -0.000512813         0.942725        0.199176
                        0.897771        0.401599       0.00021955     -0.00045684        0.0551061       0.0993358     -9.99169e-05    -0.000582926
                       9.611e-05    -0.000613625         0.942968        0.199108     -0.000155141    -0.000609832         0.252415      0.00859554
281740                  -0.10461       0.0140347      0.000393326    -1.77147e-05         0.898115        0.400286      0.000302352    -0.000580825
                     0.000279281    -0.000162025        -0.236847      -0.0934394      0.000247969    -0.000513204         0.942803        0.198788
                         0.89799          0.4011       0.00021958    -0.000457167         0.055037       0.0992699     -0.000100017    -0.000582998
                     9.56771e-05    -0.000613696         0.943046        0.198719      -0.00015555    -0.000609881         0.252435      0.00845617
281742                 -0.104473       0.0141354      0.000393416    -1.75876e-05         0.898334        0.399786      0.000302256    -0.000581439
                      0.00027928    -0.000161956        -0.236886      -0.0933817      0.000247798    -0.000513595         0.942881        0.198399
                        0.898209        0.400601      0.000219611    -0.000457494        0.0549675       0.0992042     -0.000100118    -0.000583069
                     9.52429e-05    -0.000613767         0.943123        0.198331     -0.000155961     -0.00060993         0.252455      0.00831677
281744                 -0.104336       0.0142361      0.000393507    -1.74591e-05         0.898552        0.399285      0.000302158    -0.000582054
                     0.000279279    -0.000161887        -0.236925       -0.093324      0.000247626    -0.000513985         0.942958        0.198011
                        0.898427        0.400101      0.000219642    -0.000457822        0.0548976       0.0991385      -0.00010022    -0.000583139
                     9.48072e-05    -0.000613838         0.943201        0.197942     -0.000156372    -0.000609978         0.252475      0.00817736
281746                 -0.104199       0.0143369      0.000393599    -1.73294e-05         0.898771        0.398784       0.00030206    -0.000582671
                     0.000279279    -0.000161817        -0.236963      -0.0932663      0.000247452    -0.000514375         0.943036        0.197623
                        0.898645        0.399601      0.000219672    -0.000458151        0.0548274       0.0990729     -0.000100322    -0.000583208
                     9.43702e-05    -0.000613908         0.943278        0.197553     -0.000156785    -0.000610027         0.252494      0.00803794
281748                 -0.104061       0.0144377       0.00039369    -1.71989e-05         0.898989        0.398283       0.00030196    -0.000583287
                     0.000279279    -0.000161746        -0.237002      -0.0932086      0.000247277    -0.000514765         0.943113        0.197234
                        0.898863        0.399101      0.000219704     -0.00045848        0.0547568       0.0990073     -0.000100424    -0.000583276
                     9.39317e-05    -0.000613979         0.943356        0.197164     -0.000157199    -0.000610075         0.252514      0.00789849
281750                 -0.103923       0.0145386      0.000393775    -1.70693e-05         0.899207        0.397781       0.00030186    -0.000583905
                     0.000279278    -0.000161674        -0.237041      -0.0931508        0.0002471    -0.000515155          0.94319        0.196846
                        0.899081          0.3986      0.000219738    -0.000458809        0.0546858       0.0989418     -0.000100527    -0.000583344
                     9.34921e-05    -0.000614049         0.943433        0.196775     -0.000157614    -0.000610123         0.252533      0.00775904
281752                 -0.103785       0.0146395      0.000393936     -1.6888e-05         0.899424        0.397278      0.000301758    -0.000584523
                     0.000279277    -0.000161602        -0.237079       -0.093093      0.000246922    -0.000515545         0.943267        0.196457
                        0.899299        0.398098      0.000219759    -0.000459146        0.0546144       0.0988764     -0.000100631     -0.00058341
                      9.3055e-05    -0.000614113         0.943509        0.196386      -0.00015803     -0.00061017         0.252553      0.00761956
281754                 -0.103646       0.0147405      0.000393994    -1.67862e-05         0.899642        0.396775      0.000301656    -0.000585142
                     0.000279275     -0.00016153        -0.237118      -0.0930352      0.000246742    -0.000515934         0.943344        0.196069
                        0.899516        0.397596      0.000219794    -0.000459474        0.0545427       0.0988111     -0.000100734    -0.000583476
                     9.26065e-05    -0.000614187         0.943586        0.195997     -0.000158447    -0.000610217         0.252572      0.00748007
281756                 -0.103506       0.0148415      0.000394086    -1.66512e-05         0.899859        0.396272      0.000301553    -0.000585761
                     0.000279273    -0.000161457        -0.237157      -0.0929774      0.000246562    -0.000516323          0.94342         0.19568
                        0.899734        0.397094      0.000219826    -0.000459806        0.0544705       0.0987459     -0.000100838    -0.000583539
                     9.21623e-05    -0.000614256         0.943663        0.195609     -0.000158865    -0.000610264         0.252591      0.00734056
281758                 -0.103367       0.0149426      0.000394183    -1.65131e-05         0.900076        0.395768      0.000301453    -0.000586378
                     0.000279272    -0.000161384        -0.237196      -0.0929196       0.00024638    -0.000516711         0.943497        0.195291
                        0.899951        0.396591      0.000219858    -0.000460139        0.0543981       0.0986807     -0.000100939    -0.000583594
                     9.17164e-05    -0.000614325         0.943739         0.19522     -0.000159284     -0.00061031         0.252611      0.00720104
281760                 -0.103227       0.0150437      0.000394281     -1.6373e-05         0.900293        0.395264      0.000301317    -0.000587015
                      0.00027927     -0.00016131        -0.237234      -0.0928618      0.000246197    -0.000517099         0.943573        0.194903
                        0.900168        0.396088       0.00021989    -0.000460473        0.0543252       0.0986157     -0.000101069    -0.000583703
                      9.1269e-05    -0.000614393         0.943816        0.194831     -0.000159703    -0.000610355          0.25263       0.0070615
281762                 -0.103086       0.0151449       0.00039438    -1.62313e-05          0.90051        0.394759      0.000301226    -0.000587631
                     0.000279268    -0.000161236        -0.237273      -0.0928039      0.000246014    -0.000517487         0.943649        0.194514
                        0.900384        0.395584      0.000219922    -0.000460808        0.0542519       0.0985507     -0.000101164    -0.000583744
