! TOUCHSTONE file generated by CST MICROWAVE STUDIO
! Date and time: Tue Oct 14 07:29:25 2025
! Project name: Teste_Macro_Metasurface_Nanopilar.cst
! Parameters = {H=600; L_x=140; L_y=180; Lambda=1064; Max_L=200; Min_L=70; PathPara=1; Phi=0; Step_L=10; Theta=0; p=520; phaseX=180; phaseY=0}
! Header version: 2018
! Port assignment regex: !\s*Touchstone port\s*([0-9]+)\s*=\s*(CST MWS port|CST DS port)\s*([0-9]+|Zmin|Zmax)\s*\(\"(.*)\"\)(\s*mode\s*([0-9]+))?.*
! Touchstone port assignment:
! Touchstone port 1 = CST MWS port Zmax ("") mode 1
! Touchstone port 2 = CST MWS port Zmax ("") mode 2
! Touchstone port 3 = CST MWS port Zmin ("") mode 1
! Touchstone port 4 = CST MWS port Zmin ("") mode 2
! S-Parameters are not renormalized. Each port impedance will be approximated by the real part at minimum frequency. The values are described via the [Reference] keyword.
! Default impedance is overridden by [Reference]
[Version] 2.0
# GHz S RI R 376.73
[Number of Ports] 4
[Reference]
376.73 376.73 259.814 259.814 
[Number of Frequencies] 51
[Network Data]
281700                 -0.170859       -0.013069      2.59597e-05    -0.000123325         0.806824        0.558941      0.000128388     0.000271196
                     1.00982e-05    -0.000112727        -0.297347        0.180614     -3.61618e-05    -0.000271078         0.222867        0.893539
                         0.80662         0.55881     -0.000113259    -0.000186004        0.0713358        0.151453      0.000242094     4.73648e-05
                     0.000122781     0.000231001         0.222992        0.893474      0.000265268     5.54856e-06        -0.328161      -0.0470049
281702                 -0.170868      -0.0130458      2.53614e-05    -0.000123231         0.807058        0.558602      0.000128491     0.000270873
                     9.62938e-06    -0.000112646        -0.297087        0.180541     -3.60371e-05    -0.000271396         0.223529        0.893496
                        0.806854        0.558471     -0.000113538    -0.000185732        0.0714453         0.15141      0.000241708     4.74482e-05
                      0.00012265     0.000230703         0.223653        0.893431      0.000265069      5.4126e-06        -0.327975      -0.0465431
281704                 -0.170877      -0.0130225      2.47858e-05     -0.00012316         0.807291        0.558263      0.000128594      0.00027055
                     9.16131e-06    -0.000112565        -0.296827        0.180467     -3.59045e-05    -0.000271722          0.22419        0.893452
                        0.807088        0.558132     -0.000113814     -0.00018546        0.0715549        0.151367      0.000241323      4.7532e-05
                     0.000122519     0.000230407         0.224314        0.893386      0.000264879     5.26727e-06        -0.327789      -0.0460822
281706                 -0.170886      -0.0129992      2.42214e-05    -0.000123106         0.807524        0.557924      0.000128696     0.000270227
                     8.69393e-06    -0.000112483        -0.296567        0.180393     -3.57635e-05    -0.000272055          0.22485        0.893407
                        0.807321        0.557793     -0.000114088    -0.000185187        0.0716644        0.151324      0.000240937     4.76162e-05
                     0.000122388     0.000230111         0.224975        0.893342      0.000264699     5.11227e-06        -0.327602       -0.045622
281708                 -0.170895      -0.0129759      2.36629e-05    -0.000123062         0.807757        0.557585      0.000128798     0.000269904
                     8.22724e-06    -0.000112401        -0.296309         0.18032     -3.56141e-05    -0.000272396         0.225511        0.893362
                        0.807555        0.557454     -0.000114361    -0.000184914        0.0717739        0.151281      0.000240553     4.77009e-05
                     0.000122257     0.000229816         0.225635        0.893296      0.000264528     4.94727e-06        -0.327415      -0.0451627
281710                 -0.170904      -0.0129526      2.31075e-05    -0.000123024         0.807989        0.557245      0.000128901     0.000269582
                     7.76126e-06    -0.000112319         -0.29605        0.180246     -3.54558e-05    -0.000272745          0.22617        0.893316
                        0.807788        0.557114     -0.000114631     -0.00018464        0.0718833        0.151238      0.000240168     4.77859e-05
                     0.000122126     0.000229521         0.226295         0.89325      0.000264368     4.77192e-06        -0.327228      -0.0447041
281712                 -0.170913      -0.0129293      2.25539e-05    -0.000122991         0.808222        0.556906      0.000129003     0.000269259
                     7.29596e-06    -0.000112237        -0.295792        0.180172     -3.52883e-05    -0.000273103          0.22683         0.89327
                        0.808021        0.556775       -0.0001149    -0.000184367        0.0719928        0.151195      0.000239784     4.78714e-05
                     0.000121995     0.000229227         0.226954        0.893203      0.000264218     4.58588e-06        -0.327041      -0.0442463
281714                 -0.170922       -0.012906      2.20013e-05    -0.000122961         0.808454        0.556567      0.000129105     0.000268936
                     6.83136e-06    -0.000112155        -0.295535        0.180099     -3.51115e-05     -0.00027347         0.227488        0.893222
                        0.808254        0.556435     -0.000115168    -0.000184093        0.0721021        0.151151        0.0002394     4.79573e-05
                     0.000121863     0.000228934         0.227613        0.893156      0.000264078     4.38877e-06        -0.326853      -0.0437894
281716                 -0.170931      -0.0128826      2.14493e-05    -0.000122931         0.808686        0.556227      0.000129207     0.000268613
                     6.36744e-06    -0.000112072        -0.295278        0.180025     -3.49249e-05    -0.000273845         0.228147        0.893174
                        0.808487        0.556096     -0.000115434     -0.00018382        0.0722115        0.151108      0.000239017     4.80436e-05
                     0.000121732     0.000228641         0.228272        0.893107      0.000263949     4.18023e-06        -0.326665      -0.0433332
281718                  -0.17094      -0.0128593      2.08975e-05    -0.000122903         0.808918        0.555887      0.000129309     0.000268291
                      5.9042e-06    -0.000111989        -0.295022        0.179951     -3.47282e-05    -0.000274231         0.228805        0.893126
                         0.80872        0.555756       -0.0001157    -0.000183547        0.0723208        0.151064      0.000238634     4.81303e-05
                       0.0001216     0.000228349          0.22893        0.893059      0.000263832     3.95984e-06        -0.326477      -0.0428778
281720                 -0.170949      -0.0128359       2.0346e-05    -0.000122873          0.80915        0.555548      0.000129411     0.000267968
                     5.44164e-06    -0.000111906        -0.294766        0.179877     -3.45211e-05    -0.000274625         0.229462        0.893077
                        0.808952        0.555416     -0.000115964    -0.000183274        0.0724301        0.151021      0.000238251     4.82174e-05
                     0.000121469     0.000228057         0.229587        0.893009      0.000263726     3.72721e-06        -0.326288      -0.0424232
281722                 -0.170958      -0.0128126      1.97945e-05    -0.000122844         0.809382        0.555208      0.000129513     0.000267645
                     4.97977e-06    -0.000111823        -0.294511        0.179803     -3.43032e-05     -0.00027503         0.230119        0.893027
                        0.809185        0.555076     -0.000116228    -0.000183001        0.0725394        0.150977      0.000237868     4.83049e-05
                     0.000121337     0.000227766         0.230244        0.892959      0.000263632      3.4819e-06          -0.3261      -0.0419694
281724                 -0.170967      -0.0127892      1.92431e-05    -0.000122813         0.809614        0.554868      0.000129615     0.000267323
                     4.51856e-06    -0.000111739        -0.294256        0.179729     -3.40742e-05    -0.000275446         0.230776        0.892976
                        0.809417        0.554736      -0.00011649    -0.000182729        0.0726486        0.150933      0.000237486     4.83928e-05
                     0.000121205     0.000227476         0.230901        0.892908       0.00026355     3.22348e-06        -0.325911      -0.0415164
281726                 -0.170976      -0.0127658      1.86917e-05    -0.000122781         0.809845        0.554528      0.000129717        0.000267
                     4.05803e-06    -0.000111656        -0.294001        0.179655     -3.38337e-05    -0.000275872         0.231432        0.892925
                        0.809649        0.554396     -0.000116753    -0.000182456        0.0727578         0.15089      0.000237104     4.84812e-05
                     0.000121073     0.000227186         0.231557        0.892857      0.000263481     2.95149e-06        -0.325722      -0.0410641
281728                 -0.170985      -0.0127424      1.81403e-05    -0.000122747         0.810076        0.554188      0.000129818     0.000266678
                     3.59817e-06    -0.000111572        -0.293747        0.179581     -3.35812e-05    -0.000276309         0.232088        0.892873
                        0.809881        0.554056     -0.000117014    -0.000182184         0.072867        0.150846      0.000236723     4.85699e-05
                     0.000120941     0.000226897         0.232213        0.892805      0.000263425     2.66544e-06        -0.325532      -0.0406127
281730                 -0.170994       -0.012719       1.7589e-05    -0.000122712         0.810308        0.553847       0.00012992     0.000266355
                     3.13898e-06    -0.000111488        -0.293494        0.179507     -3.33164e-05    -0.000276759         0.232743        0.892821
                        0.810113        0.553716     -0.000117275    -0.000181912        0.0729761        0.150802      0.000236341      4.8659e-05
                     0.000120809     0.000226608         0.232868        0.892752      0.000263382     2.36486e-06        -0.325343       -0.040162
281732                 -0.171004      -0.0126956      1.70377e-05    -0.000122675         0.810539        0.553507      0.000130021     0.000266032
                     2.68045e-06    -0.000111404        -0.293241        0.179433     -3.30388e-05     -0.00027722         0.233398        0.892768
                        0.810344        0.553375     -0.000117536     -0.00018164        0.0730852        0.150758       0.00023596     4.87485e-05
                     0.000120676      0.00022632         0.233523        0.892699      0.000263352     2.04922e-06        -0.325153      -0.0397121
281734                 -0.171013      -0.0126722      1.64865e-05    -0.000122637         0.810769        0.553167      0.000130122      0.00026571
                     2.22259e-06     -0.00011132        -0.292989        0.179359     -3.27481e-05    -0.000277694         0.234053        0.892714
                        0.810576        0.553035     -0.000117796    -0.000181369        0.0731943        0.150714      0.000235579     4.88385e-05
                     0.000120544     0.000226033         0.234178        0.892645      0.000263337     1.71798e-06        -0.324963       -0.039263
281736                 -0.171022      -0.0126488      1.59354e-05    -0.000122597            0.811        0.552826      0.000130224     0.000265387
                     1.76538e-06    -0.000111235        -0.292737        0.179285     -3.24436e-05     -0.00027818         0.234707         0.89266
                        0.810807        0.552694     -0.000118056    -0.000181097        0.0733033         0.15067      0.000235199     4.89288e-05
                     0.000120411     0.000225746         0.234832         0.89259      0.000263337     1.37059e-06        -0.324773      -0.0388146
281738                 -0.171031      -0.0126254      1.53844e-05    -0.000122555          0.81123        0.552485      0.000130324     0.000265065
                     1.30883e-06    -0.000111151        -0.292485        0.179211      -3.2125e-05    -0.000278681          0.23536        0.892605
                        0.811038        0.552353     -0.000118316    -0.000180826        0.0734123        0.150625      0.000234818     4.90195e-05
                     0.000120279      0.00022546         0.235485        0.892535      0.000263351     1.00648e-06        -0.324582      -0.0383671
281740                  -0.17104      -0.0126019      1.48335e-05    -0.000122511         0.811461        0.552145      0.000130425     0.000264742
                     8.52941e-07    -0.000111066        -0.292234        0.179137     -3.17918e-05    -0.000279195         0.236013        0.892549
                         0.81127        0.552013     -0.000118575    -0.000180555        0.0735213        0.150581      0.000234438     4.91106e-05
                     0.000120146     0.000225175         0.236139        0.892479      0.000263381     6.25044e-07        -0.324391      -0.0379203
281742                 -0.171049      -0.0125785      1.42827e-05    -0.000122465         0.811691        0.551804      0.000130526      0.00026442
                     3.97702e-07    -0.000110981        -0.291984        0.179063     -3.14434e-05    -0.000279724         0.236666        0.892493
                          0.8115        0.551672     -0.000118834    -0.000180284        0.0736302        0.150537      0.000234059     4.92021e-05
                     0.000120013      0.00022489         0.236791        0.892422      0.000263427     2.25656e-07          -0.3242      -0.0374743
281744                 -0.171058       -0.012555       1.3732e-05    -0.000122418         0.811921        0.551463      0.000130626     0.000264097
                    -5.68865e-08    -0.000110896        -0.291734        0.178989     -3.10793e-05    -0.000280267         0.237318        0.892436
                        0.811731        0.551331     -0.000119093    -0.000180013        0.0737391        0.150492      0.000233679      4.9294e-05
                      0.00011988     0.000224606         0.237444        0.892365       0.00026349    -1.92333e-07        -0.324009       -0.037029
281746                 -0.171067      -0.0125316      1.31816e-05    -0.000122369         0.812151        0.551122      0.000130727     0.000263775
                    -5.10826e-07    -0.000110811        -0.291484        0.178915      -3.0699e-05    -0.000280826          0.23797        0.892378
                        0.811962         0.55099     -0.000119351    -0.000179742         0.073848        0.150448        0.0002333     4.93862e-05
                     0.000119748     0.000224322         0.238095        0.892307      0.000263569    -6.29599e-07        -0.323817      -0.0365845
281748                 -0.171076      -0.0125081      1.26313e-05    -0.000122318         0.812381        0.550781      0.000130827     0.000263452
                    -9.64117e-07    -0.000110725        -0.291235        0.178841     -3.03018e-05    -0.000281402         0.238621         0.89232
                        0.812192        0.550649     -0.000119609    -0.000179471        0.0739568        0.150403      0.000232921     4.94789e-05
                     0.000119615     0.000224039         0.238747        0.892249      0.000263666    -1.08684e-06        -0.323626      -0.0361408
281750                 -0.171085      -0.0124846      1.20812e-05    -0.000122266          0.81261         0.55044      0.000130927      0.00026313
                    -1.41676e-06     -0.00011064        -0.290987        0.178766     -2.98872e-05    -0.000281994         0.239272        0.892261
                        0.812423        0.550307     -0.000119867      -0.0001792        0.0740656        0.150359      0.000232542     4.95719e-05
                     0.000119481     0.000223756         0.239398         0.89219      0.000263782     -1.5648e-06        -0.323434      -0.0356979
281752                 -0.171094      -0.0124611      1.15314e-05    -0.000122212         0.812839        0.550098      0.000131027     0.000262807
                    -1.86877e-06    -0.000110554        -0.290739        0.178692     -2.94546e-05    -0.000282604         0.239923        0.892202
                        0.812653        0.549966     -0.000120125     -0.00017893        0.0741744        0.150314      0.000232163     4.96653e-05
                     0.000119348     0.000223474         0.240048         0.89213      0.000263916    -2.06423e-06        -0.323241      -0.0352557
281754                 -0.171103      -0.0124376      1.09818e-05    -0.000122156         0.813069        0.549757      0.000131126     0.000262484
                    -2.32013e-06    -0.000110468        -0.290491        0.178618     -2.90032e-05    -0.000283231         0.240573        0.892142
                        0.812883        0.549625     -0.000120383    -0.000178659        0.0742831        0.150269      0.000231785     4.97592e-05
                     0.000119215     0.000223193         0.240699         0.89207      0.000264069    -2.58593e-06        -0.323049      -0.0348143
281756                 -0.171112      -0.0124141      1.04325e-05    -0.000122099         0.813298        0.549415      0.000131225     0.000262162
                    -2.77085e-06    -0.000110382        -0.290244        0.178544     -2.85325e-05    -0.000283878         0.241222        0.892081
                        0.813113        0.549283      -0.00012064    -0.000178389        0.0743918        0.150224      0.000231407     4.98533e-05
                     0.000119082     0.000222912         0.241348        0.892009      0.000264242    -3.13071e-06        -0.322856      -0.0343737
281758                 -0.171121      -0.0123906      9.88343e-06    -0.000122041         0.813527        0.549074      0.000131325     0.000261839
                    -3.22093e-06    -0.000110296        -0.289997        0.178469     -2.80417e-05    -0.000284543         0.241871         0.89202
                        0.813343        0.548942     -0.000120897    -0.000178119        0.0745005         0.15018      0.000231029     4.99479e-05
                     0.000118948     0.000222632         0.241997        0.891947      0.000264436    -3.69945e-06        -0.322664      -0.0339338
281760                  -0.17113       -0.012367      9.33469e-06    -0.000121981         0.813755        0.548732      0.000131423     0.000261516
                    -3.67037e-06     -0.00011021        -0.289751        0.178395     -2.75301e-05    -0.000285229          0.24252        0.891958
                        0.813572          0.5486     -0.000121153    -0.000177849        0.0746091        0.150135      0.000230651     5.00429e-05
                     0.000118815     0.000222353         0.242646        0.891885      0.000264652    -4.29304e-06        -0.322471      -0.0334947
281762                 -0.171139      -0.0123435      8.78627e-06     -0.00012192         0.813984         0.54839      0.000131522     0.000261194
                    -4.11917e-06    -0.000110123        -0.289506        0.178321      -2.6997e-05    -0.000285936         0.243168        0.891895
                        0.813802        0.548258      -0.00012141    -0.000177579        0.0747177         0.15009      0.000230274     5.01382e-05
