! TOUCHSTONE file generated by CST MICROWAVE STUDIO
! Date and time: Tue Oct 14 07:24:57 2025
! Project name: Teste_Macro_Metasurface_Nanopilar.cst
! Parameters = {H=600; L_x=70; L_y=155; Lambda=1064; Max_L=200; Min_L=70; PathPara=1; Phi=0; Step_L=10; Theta=0; p=520; phaseX=180; phaseY=0}
! Header version: 2018
! Port assignment regex: !\s*Touchstone port\s*([0-9]+)\s*=\s*(CST MWS port|CST DS port)\s*([0-9]+|Zmin|Zmax)\s*\(\"(.*)\"\)(\s*mode\s*([0-9]+))?.*
! Touchstone port assignment:
! Touchstone port 1 = CST MWS port Zmax ("") mode 1
! Touchstone port 2 = CST MWS port Zmax ("") mode 2
! Touchstone port 3 = CST MWS port Zmin ("") mode 1
! Touchstone port 4 = CST MWS port Zmin ("") mode 2
! S-Parameters are not renormalized. Each port impedance will be approximated by the real part at minimum frequency. The values are described via the [Reference] keyword.
! Default impedance is overridden by [Reference]
[Version] 2.0
# GHz S RI R 376.73
[Number of Ports] 4
[Reference]
376.73 376.73 259.814 259.814 
[Number of Frequencies] 51
[Network Data]
281700                0.00419605        0.162022     -0.000242227     0.000101135        -0.966543       -0.146733     -0.000346147     0.000202019
                    -0.000395753     4.96765e-06       -0.0183838        0.107448     -0.000521239    -1.21388e-05         0.992761      -0.0324989
                       -0.966497       -0.146327     -0.000425654    -0.000183498       -0.0546652        0.153648     -0.000363677     1.79253e-05
                    -0.000322652     4.09264e-05         0.992654      -0.0326307     -0.000258287    -7.14862e-05        0.0251859        0.106129
281702                0.00428141        0.161994     -0.000241821     0.000101226        -0.966623       -0.146231      -0.00034599     0.000202337
                    -0.000395787     5.19073e-06       -0.0183454         0.10745     -0.000521511    -1.21567e-05         0.992749      -0.0328613
                       -0.966577       -0.145824     -0.000425891     -0.00018342       -0.0545787        0.153651     -0.000363642     1.79264e-05
                    -0.000322672     4.10875e-05         0.992643      -0.0329931      -0.00025817    -7.17555e-05        0.0252251        0.106115
281704                0.00436675        0.161965     -0.000241414     0.000101317        -0.966704       -0.145729     -0.000345833     0.000202654
                     -0.00039582      5.4139e-06       -0.0183069        0.107452     -0.000521783    -1.21736e-05         0.992737      -0.0332237
                       -0.966657       -0.145322     -0.000426128    -0.000183342       -0.0544923        0.153655     -0.000363607     1.79273e-05
                    -0.000322691     4.12487e-05         0.992631      -0.0333554     -0.000258054    -7.20246e-05        0.0252643        0.106101
281706                0.00445207        0.161936     -0.000241006     0.000101408        -0.966784       -0.145227     -0.000345676     0.000202971
                    -0.000395854     5.63715e-06       -0.0182685        0.107454     -0.000522054    -1.21897e-05         0.992725       -0.033586
                       -0.966736       -0.144819     -0.000426365    -0.000183264       -0.0544058        0.153658     -0.000363573      1.7928e-05
                     -0.00032271     4.14099e-05         0.992619      -0.0337178     -0.000257939    -7.22936e-05        0.0253035        0.106087
281708                0.00453737        0.161908     -0.000240599     0.000101498        -0.966864       -0.144725     -0.000345519     0.000203288
                    -0.000395887     5.86049e-06       -0.0182301        0.107455     -0.000522326    -1.22048e-05         0.992713      -0.0339484
                       -0.966816       -0.144316     -0.000426601    -0.000183187       -0.0543194        0.153661     -0.000363539     1.79285e-05
                    -0.000322729     4.15711e-05         0.992607      -0.0340802     -0.000257825    -7.25623e-05        0.0253427        0.106073
281710                0.00462265        0.161879      -0.00024019     0.000101588        -0.966943       -0.144223     -0.000345361     0.000203605
                     -0.00039592      6.0839e-06       -0.0181917        0.107457     -0.000522596     -1.2219e-05         0.992701      -0.0343108
                       -0.966895       -0.143813     -0.000426838    -0.000183109        -0.054233        0.153664     -0.000363505     1.79288e-05
                    -0.000322748     4.17324e-05         0.992595      -0.0344426     -0.000257713    -7.28307e-05        0.0253819        0.106058
281712                 0.0047079         0.16185     -0.000239782     0.000101677        -0.967023        -0.14372     -0.000345204     0.000203923
                    -0.000395953      6.3074e-06       -0.0181533        0.107459     -0.000522867    -1.22322e-05         0.992689      -0.0346731
                       -0.966974       -0.143311     -0.000427075    -0.000183032       -0.0541466        0.153667     -0.000363471     1.79289e-05
                    -0.000322766     4.18938e-05         0.992583      -0.0348049     -0.000257602     -7.3099e-05         0.025421        0.106044
281714                0.00479314        0.161821     -0.000239372     0.000101766        -0.967102       -0.143218     -0.000345046      0.00020424
                    -0.000395985     6.53097e-06       -0.0181148         0.10746     -0.000523138    -1.22445e-05         0.992677      -0.0350355
                       -0.967053       -0.142808     -0.000427312    -0.000182955       -0.0540603         0.15367     -0.000363437     1.79288e-05
                    -0.000322785     4.20552e-05          0.99257      -0.0351673     -0.000257492     -7.3367e-05        0.0254602         0.10603
281716                0.00487835        0.161792     -0.000238963     0.000101855        -0.967181       -0.142716     -0.000344888     0.000204558
                    -0.000396018     6.75462e-06       -0.0180764        0.107462     -0.000523408    -1.22558e-05         0.992664      -0.0353978
                       -0.967131       -0.142305     -0.000427549    -0.000182878       -0.0539739        0.153673     -0.000363403     1.79284e-05
                    -0.000322803     4.22166e-05         0.992558      -0.0355297     -0.000257384    -7.36348e-05        0.0254994        0.106016
281718                0.00496354        0.161763     -0.000238553     0.000101943        -0.967259       -0.142213      -0.00034473     0.000204875
                     -0.00039605     6.97835e-06        -0.018038        0.107464     -0.000523678    -1.22662e-05         0.992651      -0.0357602
                       -0.967209       -0.141802     -0.000427786    -0.000182802       -0.0538876        0.153676     -0.000363369     1.79279e-05
                    -0.000322821     4.23781e-05         0.992545       -0.035892     -0.000257277    -7.39024e-05        0.0255385        0.106002
281720                 0.0050487        0.161734     -0.000238142     0.000102031        -0.967338       -0.141711     -0.000344572     0.000205193
                    -0.000396082     7.20216e-06       -0.0179996        0.107465     -0.000523947    -1.22757e-05         0.992639      -0.0361225
                       -0.967287       -0.141299     -0.000428023    -0.000182725       -0.0538013        0.153679     -0.000363336     1.79271e-05
                     -0.00032284     4.25396e-05         0.992532      -0.0362544     -0.000257171    -7.41697e-05        0.0255777        0.105988
281722                0.00513385        0.161705     -0.000237731     0.000102118        -0.967416       -0.141208     -0.000344414      0.00020551
                    -0.000396114     7.42603e-06       -0.0179612        0.107467     -0.000524217    -1.22842e-05         0.992626      -0.0364849
                       -0.967365       -0.140796      -0.00042826    -0.000182649        -0.053715        0.153682     -0.000363302     1.79261e-05
                    -0.000322858     4.27011e-05         0.992519      -0.0366167     -0.000257066    -7.44368e-05        0.0256168        0.105973
281724                0.00521897        0.161676      -0.00023732     0.000102205        -0.967494       -0.140706     -0.000344256     0.000205828
                    -0.000396145     7.64998e-06       -0.0179228        0.107468     -0.000524486    -1.22918e-05         0.992613      -0.0368472
                       -0.967442       -0.140293     -0.000428496    -0.000182573       -0.0536287        0.153684     -0.000363269     1.79249e-05
                    -0.000322876     4.28627e-05         0.992506       -0.036979     -0.000256963    -7.47036e-05        0.0256559        0.105959
281726                0.00530408        0.161647     -0.000236908     0.000102291        -0.967571       -0.140203     -0.000344097     0.000206145
                    -0.000396177     7.87399e-06       -0.0178844         0.10747     -0.000524755    -1.22984e-05         0.992599      -0.0372095
                       -0.967519        -0.13979     -0.000428733    -0.000182497       -0.0535424        0.153687     -0.000363236     1.79235e-05
                    -0.000322894     4.30243e-05         0.992493      -0.0373414     -0.000256861    -7.49701e-05        0.0256951        0.105945
281728                0.00538916        0.161617     -0.000236496     0.000102377        -0.967649       -0.139701     -0.000343939     0.000206463
                    -0.000396208     8.09806e-06       -0.0178459        0.107472     -0.000525023     -1.2304e-05         0.992586      -0.0375719
                       -0.967596       -0.139286      -0.00042897    -0.000182421       -0.0534562         0.15369     -0.000363203     1.79219e-05
                    -0.000322912     4.31859e-05          0.99248      -0.0377037     -0.000256761    -7.52364e-05        0.0257342        0.105931
281730                0.00547421        0.161588     -0.000236083     0.000102463        -0.967726       -0.139198      -0.00034378     0.000206781
                    -0.000396239     8.32219e-06       -0.0178075        0.107473     -0.000525291    -1.23087e-05         0.992573      -0.0379342
                       -0.967672       -0.138783     -0.000429207    -0.000182345       -0.0533699        0.153692      -0.00036317       1.792e-05
                    -0.000322929     4.33476e-05         0.992467      -0.0380661     -0.000256661    -7.55023e-05        0.0257733        0.105916
281732                0.00555925        0.161559      -0.00023567     0.000102548        -0.967802       -0.138695     -0.000343621     0.000207098
                     -0.00039627     8.54637e-06       -0.0177691        0.107475     -0.000525559    -1.23125e-05         0.992559      -0.0382965
                       -0.967749        -0.13828     -0.000429444    -0.000182269       -0.0532837        0.153695     -0.000363138      1.7918e-05
                    -0.000322947     4.35093e-05         0.992453      -0.0384284     -0.000256563    -7.57681e-05        0.0258124        0.105902
281734                0.00564426        0.161529     -0.000235257     0.000102633        -0.967879       -0.138192     -0.000343462     0.000207416
                    -0.000396301     8.77059e-06       -0.0177307        0.107476     -0.000525827    -1.23152e-05         0.992545      -0.0386588
                       -0.967825       -0.137777      -0.00042968    -0.000182194       -0.0531975        0.153697     -0.000363105     1.79157e-05
                    -0.000322965      4.3671e-05         0.992439      -0.0387907     -0.000256467    -7.60335e-05        0.0258515        0.105888
281736                0.00572926          0.1615     -0.000234843     0.000102717        -0.967955        -0.13769     -0.000343303     0.000207734
                    -0.000396332     8.99485e-06       -0.0176923        0.107478     -0.000526094    -1.23171e-05         0.992531      -0.0390212
                         -0.9679       -0.137273     -0.000429917    -0.000182118       -0.0531114          0.1537     -0.000363073     1.79132e-05
                    -0.000322982     4.38327e-05         0.992426       -0.039153     -0.000256371    -7.62986e-05        0.0258906        0.105873
281738                0.00581423        0.161471     -0.000234429     0.000102801        -0.968031       -0.137187     -0.000343144     0.000208052
                    -0.000396363     9.21914e-06       -0.0176539        0.107479     -0.000526362    -1.23179e-05         0.992517      -0.0393835
                       -0.967976        -0.13677     -0.000430154    -0.000182043       -0.0530252        0.153702      -0.00036304     1.79105e-05
                       -0.000323     4.39944e-05         0.992412      -0.0395153     -0.000256277    -7.65635e-05        0.0259297        0.105859
281740                0.00589918        0.161441     -0.000234014     0.000102884        -0.968107       -0.136684     -0.000342985      0.00020837
                    -0.000396394     9.44344e-06       -0.0176155        0.107481     -0.000526629    -1.23179e-05         0.992503      -0.0397458
                       -0.968051       -0.136266      -0.00043039    -0.000181968       -0.0529391        0.153705     -0.000363008     1.79076e-05
                    -0.000323018     4.41561e-05         0.992398      -0.0398776     -0.000256184     -7.6828e-05        0.0259688        0.105845
281742                 0.0059841        0.161412     -0.000233599     0.000102967        -0.968182       -0.136181     -0.000342825     0.000208688
                    -0.000396424     9.66774e-06       -0.0175771        0.107482     -0.000526895    -1.23168e-05         0.992489      -0.0401081
                       -0.968126       -0.135763     -0.000430627    -0.000181893       -0.0528529        0.153707     -0.000362976     1.79045e-05
                    -0.000323035     4.43178e-05         0.992383      -0.0402399     -0.000256093    -7.70922e-05        0.0260078         0.10583
281744                0.00606901        0.161382     -0.000233183      0.00010305        -0.968257       -0.135678     -0.000342666     0.000209006
                    -0.000396455     9.89203e-06       -0.0175387        0.107484     -0.000527162    -1.23149e-05         0.992475      -0.0404704
                       -0.968201       -0.135259     -0.000430864    -0.000181818       -0.0527668        0.153709     -0.000362944     1.79012e-05
                    -0.000323053     4.44795e-05         0.992369      -0.0406022     -0.000256002    -7.73561e-05        0.0260469        0.105816
281746                0.00615389        0.161352     -0.000232768     0.000103132        -0.968332       -0.135175     -0.000342506     0.000209325
                    -0.000396486     1.01163e-05       -0.0175003        0.107485     -0.000527428    -1.23121e-05          0.99246      -0.0408327
                       -0.968275       -0.134756       -0.0004311    -0.000181743       -0.0526807        0.153711     -0.000362912     1.78978e-05
                     -0.00032307     4.46412e-05         0.992355      -0.0409645     -0.000255913    -7.76196e-05        0.0260859        0.105801
281748                0.00623875        0.161323     -0.000232351     0.000103213        -0.968407       -0.134672     -0.000342383     0.000209658
                    -0.000396517     1.03405e-05        -0.017462        0.107486     -0.000527694    -1.23084e-05         0.992445       -0.041195
                       -0.968349       -0.134252     -0.000431337    -0.000181669       -0.0525947        0.153713      -0.00036288     1.78946e-05
                    -0.000323087     4.48029e-05          0.99234      -0.0413268     -0.000255826    -7.78828e-05         0.026125        0.105787
281750                0.00632359        0.161293     -0.000231934     0.000103295        -0.968481       -0.134169     -0.000342188     0.000209956
                    -0.000396548     1.05646e-05       -0.0174236        0.107488      -0.00052796     -1.2304e-05         0.992431      -0.0415572
                       -0.968423       -0.133749     -0.000431573    -0.000181594       -0.0525086        0.153715      -0.00036285     1.78875e-05
                    -0.000323105     4.49645e-05         0.992325      -0.0416891     -0.000255739    -7.81456e-05         0.026164        0.105773
281752                 0.0064084        0.161263     -0.000231517     0.000103376        -0.968556       -0.133665     -0.000342028     0.000210275
                    -0.000396579     1.07887e-05       -0.0173852        0.107489     -0.000528227    -1.22994e-05         0.992416      -0.0419195
                       -0.968497       -0.133245      -0.00043181     -0.00018152       -0.0524226        0.153717     -0.000362819     1.78844e-05
                    -0.000323123     4.51262e-05          0.99231      -0.0420514     -0.000255654    -7.84078e-05        0.0262031        0.105758
281754                 0.0064932        0.161233       -0.0002311     0.000103456        -0.968629       -0.133162     -0.000341868     0.000210593
                     -0.00039661     1.10126e-05       -0.0173468        0.107491     -0.000528496    -1.22957e-05         0.992401      -0.0422818
                        -0.96857       -0.132741     -0.000432046    -0.000181446       -0.0523365        0.153719     -0.000362787     1.78802e-05
                     -0.00032314     4.52877e-05         0.992295      -0.0424137     -0.000255569    -7.86694e-05        0.0262421        0.105744
281756                0.00657797        0.161203     -0.000230681     0.000103537        -0.968703       -0.132659     -0.000341707     0.000210911
                    -0.000396642     1.12364e-05       -0.0173084        0.107492     -0.000528778    -1.23041e-05         0.992386       -0.042644
                       -0.968644       -0.132237     -0.000432282    -0.000181373       -0.0522505        0.153721     -0.000362756     1.78755e-05
                    -0.000323158     4.54492e-05          0.99228       -0.042776     -0.000255485    -7.89296e-05        0.0262811        0.105729
281758                0.00666272        0.161173     -0.000230262     0.000103618        -0.968777       -0.132156     -0.000341547     0.000211229
                    -0.000396674     1.14601e-05         -0.01727        0.107493     -0.000528954    -1.22482e-05          0.99237      -0.0430063
                       -0.968717       -0.131734     -0.000432518    -0.000181301       -0.0521645        0.153723     -0.000362725     1.78706e-05
                    -0.000323176     4.56107e-05         0.992265      -0.0431382     -0.000255387    -7.91919e-05        0.0263201        0.105715
281760                0.00674745        0.161144     -0.000229842     0.000103701         -0.96885       -0.131652     -0.000341387     0.000211547
                    -0.000396706     1.16835e-05       -0.0172316        0.107495      -0.00052926    -1.22509e-05         0.992355      -0.0433685
                       -0.968789        -0.13123     -0.000432753    -0.000181233       -0.0520786        0.153725     -0.000362695     1.78655e-05
                    -0.000323193     4.57721e-05          0.99225      -0.0435005     -0.000255326    -7.94635e-05        0.0263591          0.1057
281762                0.00683215        0.161114     -0.000229414     0.000103797        -0.968923       -0.131149     -0.000341226     0.000211865
                    -0.000396738     1.19068e-05       -0.0171933        0.107496     -0.000529529     -1.2243e-05         0.992339      -0.0437308
                       -0.968861       -0.130726     -0.000432982    -0.000181179       -0.0519926        0.153727     -0.000362664     1.78601e-05
