! TOUCHSTONE file generated by CST MICROWAVE STUDIO
! Date and time: Tue Oct 14 07:32:44 2025
! Project name: Teste_Macro_Metasurface_Nanopilar.cst
! Parameters = {H=600; L_x=195; L_y=120; Lambda=1064; Max_L=200; Min_L=70; PathPara=1; Phi=0; Step_L=10; Theta=0; p=520; phaseX=180; phaseY=0}
! Header version: 2018
! Port assignment regex: !\s*Touchstone port\s*([0-9]+)\s*=\s*(CST MWS port|CST DS port)\s*([0-9]+|Zmin|Zmax)\s*\(\"(.*)\"\)(\s*mode\s*([0-9]+))?.*
! Touchstone port assignment:
! Touchstone port 1 = CST MWS port Zmax ("") mode 1
! Touchstone port 2 = CST MWS port Zmax ("") mode 2
! Touchstone port 3 = CST MWS port Zmin ("") mode 1
! Touchstone port 4 = CST MWS port Zmin ("") mode 2
! S-Parameters are not renormalized. Each port impedance will be approximated by the real part at minimum frequency. The values are described via the [Reference] keyword.
! Default impedance is overridden by [Reference]
[Version] 2.0
# GHz S RI R 376.73
[Number of Ports] 4
[Reference]
376.73 376.73 259.814 259.814 
[Number of Frequencies] 51
[Network Data]
281700                -0.0922786       -0.113467     -0.000257729     0.000121854        0.0543147        0.982786      0.000463076    -4.74193e-05
                    -0.000197849     5.92333e-05        -0.158649       0.0436453      0.000342872    -0.000418854         0.777546        0.598934
                       0.0537476        0.982798      0.000320973    -0.000302724       -0.0777985         0.12275     -0.000203713     7.12171e-05
                      0.00046608    -0.000152553           0.7775        0.599493     -9.03482e-05     0.000106393      -0.00245971        0.158661
281702                -0.0923177       -0.113458     -0.000237322     0.000113891        0.0547498         0.98276      0.000463016     -4.7534e-05
                    -0.000197838     5.97155e-05        -0.158641       0.0436491      0.000342684    -0.000418871         0.777809        0.598596
                        0.054183        0.982772      0.000346424    -0.000252045       -0.0777297        0.122814     -0.000203717     7.13029e-05
                     0.000465824    -0.000152748         0.777774        0.599115     -9.04141e-05     0.000106295      -0.00232615        0.158656
281704                -0.0923569       -0.113448     -0.000214806     0.000102216        0.0551848        0.982733      0.000462956     -4.7648e-05
                    -0.000197827     6.01968e-05        -0.158633       0.0436531      0.000342496    -0.000418887         0.778071        0.598258
                       0.0546183        0.982746        0.0004722     -0.00027355       -0.0776609        0.122878     -0.000203722     7.13881e-05
                     0.000465567    -0.000152942         0.778043        0.598748     -9.04798e-05     0.000106199      -0.00219261        0.158651
281706                 -0.092396       -0.113438     -0.000197574     9.07266e-05        0.0556199        0.982706      0.000462896    -4.77612e-05
                    -0.000197817     6.06773e-05        -0.158625       0.0436575      0.000342308    -0.000418903         0.778333         0.59792
                       0.0550537         0.98272      0.000457811    -0.000369473        -0.077592        0.122941     -0.000203727     7.14727e-05
                     0.000465311    -0.000153137         0.778309        0.598393     -9.05454e-05     0.000106102      -0.00205909        0.158646
281708                -0.0924352       -0.113428     -0.000197449     9.03902e-05        0.0560549        0.982679      0.000462836    -4.78737e-05
                    -0.000197806     6.11569e-05        -0.158616       0.0436624       0.00034212    -0.000418919         0.778595        0.597582
                        0.055489        0.982694      0.000445608    -0.000380045        -0.077523        0.123005     -0.000203733     7.15566e-05
                     0.000465056    -0.000153331         0.778572        0.598053     -9.06108e-05     0.000106006      -0.00192558        0.158641
281710                -0.0924743       -0.113418     -0.000220522      0.00010579        0.0564899        0.982652      0.000462776    -4.79855e-05
                    -0.000197795     6.16356e-05        -0.158605        0.043668      0.000341932    -0.000418934         0.778857        0.597244
                       0.0559243        0.982667      0.000482066    -0.000296113        -0.077454        0.123069     -0.000203739     7.16399e-05
                     0.000464801    -0.000153525          0.77883        0.597737      -9.0676e-05      0.00010591      -0.00179209        0.158635
281712                -0.0925135       -0.113409     -0.000256847     0.000123698         0.056925        0.982625      0.000462716    -4.80965e-05
                    -0.000197784     6.21135e-05        -0.158593       0.0436747      0.000341745     -0.00041895         0.779118        0.596905
                       0.0563596         0.98264       0.00032014    -0.000304205        -0.077385        0.123132     -0.000203746     7.17225e-05
                     0.000464546    -0.000153719         0.779075        0.597461     -9.07411e-05     0.000105814      -0.00165861         0.15863
281714                -0.0925527       -0.113399     -0.000289956     0.000134077        0.0573599        0.982597      0.000462655    -4.82067e-05
                    -0.000197773     6.25905e-05        -0.158576       0.0436826      0.000341557    -0.000418964          0.77938        0.596567
                       0.0567949        0.982613      0.000327501    -0.000347151       -0.0773159        0.123196     -0.000203753     7.18044e-05
                     0.000464291    -0.000153913         0.779279        0.597267      -9.0806e-05     0.000105719      -0.00152515        0.158624
281716                -0.0925918       -0.113389     -0.000313236     0.000138334        0.0577949        0.982569      0.000462595    -4.83161e-05
                    -0.000197763     6.30667e-05        -0.158551         0.04369      0.000341369    -0.000418979         0.779641        0.596228
                       0.0572301        0.982586      0.000332894    -0.000357318       -0.0772467         0.12326     -0.000203761     7.18856e-05
                     0.000464037    -0.000154106         0.779263        0.597248     -9.08708e-05     0.000105624      -0.00139171        0.158619
281718                 -0.092631       -0.113379     -0.000328062      0.00013982        0.0582299        0.982542      0.000462534    -4.84248e-05
                    -0.000197752      6.3542e-05        -0.158508       0.0436802      0.000341181    -0.000418993         0.779902        0.595889
                       0.0576654        0.982559      0.000335226    -0.000361164       -0.0771776        0.123323     -0.000203769     7.19662e-05
                     0.000463783      -0.0001543         0.778234        0.596607     -9.09353e-05     0.000105529      -0.00125828        0.158613
281720                -0.0926702       -0.113369     -0.000337307     0.000140306        0.0586648        0.982513      0.000462474    -4.85326e-05
                    -0.000197741     6.40165e-05        -0.158498       0.0436216      0.000340994    -0.000419007         0.780163         0.59555
                       0.0581006        0.982531      0.000336279    -0.000363026       -0.0771083        0.123387     -0.000203778      7.2046e-05
                     0.000463529    -0.000154493         0.779205         0.59496     -9.09996e-05     0.000105434      -0.00112487        0.158607
281722                -0.0927094       -0.113359     -0.000343123     0.000140482        0.0590997        0.982485      0.000462413    -4.86397e-05
                    -0.000197731     6.44901e-05        -0.158537       0.0436122      0.000340806    -0.000419021         0.780424        0.595211
                       0.0585358        0.982503      0.000336752    -0.000364082        -0.077039         0.12345     -0.000203788     7.21252e-05
                     0.000463276    -0.000154686         0.779978        0.594735     -9.10637e-05      0.00010534     -0.000991477        0.158601
281724                -0.0927485       -0.113349      -0.00034685     0.000140587        0.0595346        0.982457      0.000462352    -4.87459e-05
                     -0.00019772     6.49629e-05        -0.158548       0.0436294      0.000340618    -0.000419034         0.780685        0.594872
                        0.058971        0.982475      0.000336937    -0.000364758       -0.0769697        0.123514     -0.000203798     7.22036e-05
                     0.000463023    -0.000154879         0.780396        0.594509     -9.11277e-05     0.000105246     -0.000858099        0.158595
281726                -0.0927877       -0.113339     -0.000349281     0.000140697        0.0599695        0.982428       0.00046229    -4.88513e-05
                     -0.00019771     6.54349e-05        -0.158546       0.0436435       0.00034043    -0.000419047         0.780945        0.594533
                       0.0594062        0.982447       0.00033697    -0.000365237       -0.0769003        0.123577     -0.000203808     7.22813e-05
                     0.000462771    -0.000155071         0.780722        0.594235     -9.11914e-05     0.000105152     -0.000724737        0.158589
281728                -0.0928269        -0.11333     -0.000350892     0.000140835        0.0604044        0.982399      0.000462229    -4.89559e-05
                    -0.000197699     6.59061e-05         -0.15854        0.043654      0.000340243     -0.00041906         0.781206        0.594194
                       0.0598414        0.982419      0.000336917    -0.000365609       -0.0768309         0.12364      -0.00020382     7.23582e-05
                     0.000462519    -0.000155264         0.781016        0.593935     -9.12549e-05     0.000105058     -0.000591392        0.158583
281730                -0.0928661        -0.11332     -0.000351972     0.000141001        0.0608393         0.98237      0.000462167    -4.90597e-05
                    -0.000197689     6.63764e-05        -0.158532       0.0436624      0.000340055    -0.000419072         0.781466        0.593855
                       0.0602765         0.98239      0.000336815    -0.000365919       -0.0767614        0.123704     -0.000203831     7.24344e-05
                     0.000462267    -0.000155456         0.781295        0.593619     -9.13181e-05     0.000104965     -0.000458063        0.158576
281732                -0.0929053        -0.11331     -0.000352701     0.000141192        0.0612741        0.982341      0.000462105    -4.91627e-05
                    -0.000197679     6.68459e-05        -0.158523       0.0436696      0.000339867    -0.000419084         0.781726        0.593515
                       0.0607116        0.982361      0.000336685    -0.000366192       -0.0766919        0.123767     -0.000203843     7.25099e-05
                     0.000462015    -0.000155648         0.781566        0.593295     -9.13812e-05     0.000104872     -0.000324751         0.15857
281734                -0.0929445         -0.1133     -0.000353193     0.000141403        0.0617089        0.982311      0.000462042    -4.92648e-05
                    -0.000197668     6.73146e-05        -0.158514       0.0436761      0.000339679    -0.000419096         0.781986        0.593175
                       0.0611468        0.982332      0.000336538    -0.000366445       -0.0766224         0.12383     -0.000203856     7.25846e-05
                     0.000461764     -0.00015584         0.781834        0.592965      -9.1444e-05     0.000104779     -0.000191456        0.158563
281736                -0.0929836        -0.11329     -0.000353522     0.000141631        0.0621437        0.982282      0.000461979    -4.93661e-05
                    -0.000197658     6.77825e-05        -0.158505       0.0436821      0.000339491    -0.000419107         0.782245        0.592836
                       0.0615819        0.982303      0.000336382    -0.000366686       -0.0765527        0.123893     -0.000203869     7.26585e-05
                     0.000461514    -0.000156031         0.782098        0.592632     -9.15066e-05     0.000104686     -5.81772e-05        0.158557
281738                -0.0930228        -0.11328     -0.000353739     0.000141871        0.0625785        0.982252      0.000461916    -4.94666e-05
                    -0.000197648     6.82496e-05        -0.158496       0.0436879      0.000339303    -0.000419118         0.782505        0.592496
                       0.0620169        0.982274      0.000336221     -0.00036692       -0.0764831        0.123957     -0.000203883     7.27317e-05
                     0.000461263    -0.000156223         0.782361        0.592296     -9.15689e-05     0.000104594      7.50845e-05         0.15855
281740                 -0.093062        -0.11327     -0.000353878     0.000142122        0.0630133        0.982222      0.000461852    -4.95662e-05
                    -0.000197637      6.8716e-05        -0.158487       0.0436934      0.000339114    -0.000419129         0.782764        0.592156
                        0.062452        0.982244      0.000336056     -0.00036715       -0.0764134         0.12402     -0.000203897      7.2804e-05
                     0.000461014    -0.000156414         0.782623        0.591959     -9.16309e-05     0.000104502      0.000208329        0.158543
281742                -0.0931012        -0.11326     -0.000353962     0.000142381        0.0634481        0.982191      0.000461788     -4.9665e-05
                    -0.000197627     6.91815e-05        -0.158478       0.0436988      0.000338926    -0.000419139         0.783024        0.591816
                       0.0628871        0.982215      0.000335891     -0.00036738       -0.0763436        0.124083     -0.000203912     7.28756e-05
                     0.000460764    -0.000156605         0.782884        0.591621     -9.16928e-05      0.00010441      0.000341557        0.158536
281744                -0.0931404        -0.11325     -0.000354007     0.000142647        0.0638828        0.982161      0.000461724     -4.9763e-05
                    -0.000197617     6.96464e-05        -0.158469       0.0437041      0.000338738    -0.000419149         0.783283        0.591476
                       0.0633221        0.982185      0.000335726     -0.00036761       -0.0762738        0.124146     -0.000203927     7.29465e-05
                     0.000460515    -0.000156796         0.783144        0.591282     -9.17543e-05     0.000104318      0.000474768        0.158529
281746                -0.0931796        -0.11324     -0.000354024     0.000142918        0.0643175         0.98213      0.000461659    -4.98601e-05
                    -0.000197607     7.01105e-05         -0.15846       0.0437094      0.000338549    -0.000419158         0.783542        0.591135
                       0.0637571        0.982155      0.000335562     -0.00036784        -0.076204        0.124209     -0.000203943     7.30165e-05
                     0.000460266    -0.000156986         0.783404        0.590942     -9.18156e-05     0.000104226      0.000607962        0.158522
281748                -0.0932188       -0.113229     -0.000354023     0.000143193        0.0647522        0.982099      0.000461594    -4.99563e-05
                    -0.000197597     7.05742e-05        -0.158451       0.0437147      0.000338361    -0.000419167         0.783801        0.590795
                       0.0641921        0.982124      0.000335399    -0.000368073       -0.0761341        0.124272      -0.00020396     7.30859e-05
                     0.000460018    -0.000157176         0.783663        0.590602     -9.18766e-05     0.000104135      0.000741139        0.158515
281750                 -0.093258       -0.113219     -0.000354009     0.000143472        0.0651869        0.982068      0.000461528    -5.00517e-05
                    -0.000197586     7.10381e-05        -0.158442       0.0437199      0.000338173    -0.000419176         0.784059        0.590454
                       0.0646271        0.982094      0.000335237    -0.000368307       -0.0760641        0.124335     -0.000203977     7.31545e-05
                      0.00045977    -0.000157366         0.783922        0.590262     -9.19373e-05     0.000104044        0.0008743        0.158508
281752                -0.0932972       -0.113209     -0.000353986     0.000143754        0.0656216        0.982037      0.000461463    -5.01461e-05
                    -0.000197567     7.15046e-05        -0.158433       0.0437251      0.000337985    -0.000419184         0.784318        0.590114
                       0.0650621        0.982063      0.000335077    -0.000368544       -0.0759941        0.124398     -0.000203995     7.32226e-05
                     0.000459523    -0.000157555         0.784181        0.589922     -9.19977e-05     0.000103953       0.00100744          0.1585
281754                -0.0933364       -0.113199     -0.000353958     0.000144039        0.0660563        0.982006      0.000461397    -5.02395e-05
                    -0.000197565      7.1949e-05        -0.158424       0.0437303      0.000337798    -0.000419193         0.784576        0.589773
                        0.065497        0.982032      0.000334918    -0.000368782       -0.0759241         0.12446     -0.000204013     7.32903e-05
                     0.000459274     -0.00015774          0.78444        0.589581     -9.20579e-05     0.000103863       0.00114057        0.158493
281756                -0.0933756       -0.113189     -0.000353926     0.000144326        0.0664909        0.981974      0.000461331     -5.0332e-05
                    -0.000197557     7.24127e-05        -0.158415       0.0437355       0.00033761    -0.000419202         0.784834        0.589432
                        0.065932        0.982001      0.000334761    -0.000369023        -0.075854        0.124523     -0.000204033     7.33581e-05
                     0.000459019    -0.000157935         0.784699         0.58924     -9.21182e-05     0.000103773       0.00127368        0.158485
281758                -0.0934148       -0.113179     -0.000353894     0.000144615        0.0669255        0.981942      0.000461266    -5.04235e-05
                    -0.000197547     7.28729e-05        -0.158406       0.0437407      0.000337422    -0.000419212         0.785092        0.589091
                       0.0663669         0.98197      0.000334605    -0.000369266       -0.0757838        0.124586     -0.000204055     7.34274e-05
                     0.000458776    -0.000158128         0.784957        0.588899     -9.21786e-05     0.000103683       0.00140678        0.158478
281760                 -0.093454       -0.113169      -0.00035386     0.000144906        0.0673601        0.981911      0.000461204    -5.05146e-05
                    -0.000197538     7.33317e-05        -0.158397       0.0437459      0.000337233    -0.000419221          0.78535         0.58875
                       0.0668018        0.981938       0.00033445     -0.00036951       -0.0757137        0.124649     -0.000204078     7.35036e-05
                     0.000458532    -0.000158317         0.785215        0.588558     -9.22389e-05     0.000103592       0.00153985         0.15847
281762                -0.0934933       -0.113159     -0.000353828     0.000145198        0.0677947        0.981878      0.000461147    -5.06083e-05
                    -0.000197528     7.37895e-05        -0.158388       0.0437511      0.000337044     -0.00041923         0.785608        0.588409
                       0.0672366        0.981907      0.000334297    -0.000369757       -0.0756434        0.124711     -0.000204075      7.3607e-05
