! TOUCHSTONE file generated by CST MICROWAVE STUDIO
! Date and time: Tue Oct 14 07:25:06 2025
! Project name: Teste_Macro_Metasurface_Nanopilar.cst
! Parameters = {H=600; L_x=75; L_y=85; Lambda=1064; Max_L=200; Min_L=70; PathPara=1; Phi=0; Step_L=10; Theta=0; p=520; phaseX=180; phaseY=0}
! Header version: 2018
! Port assignment regex: !\s*Touchstone port\s*([0-9]+)\s*=\s*(CST MWS port|CST DS port)\s*([0-9]+|Zmin|Zmax)\s*\(\"(.*)\"\)(\s*mode\s*([0-9]+))?.*
! Touchstone port assignment:
! Touchstone port 1 = CST MWS port Zmax ("") mode 1
! Touchstone port 2 = CST MWS port Zmax ("") mode 2
! Touchstone port 3 = CST MWS port Zmin ("") mode 1
! Touchstone port 4 = CST MWS port Zmin ("") mode 2
! S-Parameters are not renormalized. Each port impedance will be approximated by the real part at minimum frequency. The values are described via the [Reference] keyword.
! Default impedance is overridden by [Reference]
[Version] 2.0
# GHz S RI R 376.73
[Number of Ports] 4
[Reference]
376.73 376.73 259.814 259.814 
[Number of Frequencies] 51
[Network Data]
281700                -0.0391525        0.117423      0.000375103      0.00012637         0.989254       0.0704446      -0.00022401     0.000535992
                     0.000245344     0.000392997       -0.0524976        0.125142      6.84344e-05      0.00042925         0.978553        0.153153
                        0.989423       0.0705949       0.00022892     0.000453529        0.0219464         0.12185     -0.000342509     0.000277182
                    -0.000214421     0.000363652         0.978795        0.152911     -0.000326647     0.000254399        0.0117522        0.135205
281702                -0.0391116        0.117433      0.000374918     0.000126665          0.98928       0.0700863      -0.00022374      0.00053613
                     0.000245064     0.000392795       -0.0524549        0.125156      6.86727e-05     0.000429563         0.978608          0.1528
                        0.989449       0.0702361      0.000228804     0.000453574        0.0219929        0.121838     -0.000342537     0.000277396
                    -0.000214392     0.000363708         0.978851        0.152559     -0.000326788     0.000254761        0.0118045        0.135197
281704                -0.0390708        0.117442      0.000374733     0.000126958         0.989306       0.0697279     -0.000223472     0.000536267
                     0.000244783     0.000392594       -0.0524123        0.125171      6.89117e-05     0.000429876         0.978663        0.152448
                        0.989475       0.0698774      0.000228689     0.000453619        0.0220394        0.121826     -0.000342567      0.00027761
                    -0.000214363     0.000363763         0.978906        0.152207     -0.000326928     0.000255123        0.0118568         0.13519
281706                -0.0390299        0.117452      0.000374549      0.00012725         0.989331       0.0693695     -0.000223206     0.000536404
                     0.000244501     0.000392394       -0.0523697        0.125185      6.91515e-05     0.000430188         0.978719        0.152096
                          0.9895       0.0695187      0.000228574     0.000453663        0.0220858        0.121813     -0.000342597     0.000277822
                    -0.000214334     0.000363819         0.978961        0.151854     -0.000327068     0.000255485        0.0119092        0.135182
281708                -0.0389891        0.117461      0.000374364     0.000127541         0.989357       0.0690111     -0.000222941      0.00053654
                     0.000244218     0.000392193       -0.0523271          0.1252      6.93921e-05     0.000430499         0.978773        0.151743
                        0.989526         0.06916       0.00022846     0.000453707        0.0221323        0.121801     -0.000342628     0.000278033
                    -0.000214306     0.000363874         0.979015        0.151502     -0.000327206     0.000255846        0.0119615        0.135174
281710                -0.0389482         0.11747       0.00037418      0.00012783         0.989382       0.0686527     -0.000222678     0.000536676
                     0.000243934     0.000391992       -0.0522844        0.125214      6.96335e-05      0.00043081         0.978828        0.151391
                        0.989552       0.0688012      0.000228346     0.000453749        0.0221787        0.121788     -0.000342659     0.000278244
                    -0.000214277      0.00036393          0.97907         0.15115     -0.000327344     0.000256206        0.0120138        0.135166
281712                -0.0389073         0.11748      0.000373996     0.000128119         0.989407       0.0682943     -0.000222416     0.000536811
                      0.00024365     0.000391791       -0.0522418        0.125229      6.98756e-05      0.00043112         0.978883        0.151038
                        0.989577       0.0684425      0.000228233     0.000453792        0.0222252        0.121776     -0.000342691     0.000278453
                    -0.000214249     0.000363985         0.979125        0.150798     -0.000327482     0.000256566        0.0120661        0.135159
281714                -0.0388665        0.117489      0.000373811     0.000128406         0.989432       0.0679359     -0.000222156     0.000536945
                     0.000243364     0.000391591       -0.0521991        0.125243      7.01184e-05      0.00043143         0.978938        0.150686
                        0.989602       0.0680837      0.000228121     0.000453833        0.0222716        0.121763     -0.000342724     0.000278661
                    -0.000214221      0.00036404         0.979179        0.150445     -0.000327618     0.000256925        0.0121184        0.135151
281716                -0.0388256        0.117499      0.000373627     0.000128692         0.989457       0.0675775     -0.000221897     0.000537079
                     0.000243078      0.00039139       -0.0521565        0.125257      7.03621e-05     0.000431739         0.978992        0.150333
                        0.989628       0.0677249      0.000228009     0.000453874         0.022318        0.121751     -0.000342757     0.000278868
                    -0.000214193     0.000364095         0.979233        0.150093     -0.000327754     0.000257283        0.0121707        0.135143
281718                -0.0387847        0.117508      0.000373443     0.000128977         0.989482       0.0672191      -0.00022164     0.000537212
                     0.000242791      0.00039119       -0.0521138        0.125272      7.06064e-05     0.000432047         0.979046        0.149981
                        0.989653       0.0673661      0.000227897     0.000453915        0.0223645        0.121738     -0.000342791     0.000279074
                    -0.000214166      0.00036415         0.979287         0.14974     -0.000327889     0.000257641         0.012223        0.135135
281720                -0.0387439        0.117517      0.000373259     0.000129261         0.989507       0.0668606     -0.000221385     0.000537345
                     0.000242503      0.00039099       -0.0520712        0.125286      7.08515e-05     0.000432354           0.9791        0.149628
                        0.989677       0.0670073      0.000227786     0.000453955        0.0224109        0.121726     -0.000342826     0.000279279
                    -0.000214138     0.000364205         0.979341        0.149388     -0.000328023     0.000257998        0.0122753        0.135127
281722                 -0.038703        0.117527      0.000373076     0.000129544         0.989531       0.0665021     -0.000221131     0.000537477
                     0.000242214      0.00039079       -0.0520285        0.125301      7.10974e-05     0.000432661         0.979155        0.149276
                        0.989702       0.0666485      0.000227676     0.000453994        0.0224573        0.121713     -0.000342861     0.000279482
                    -0.000214111     0.000364259         0.979395        0.149036     -0.000328156     0.000258355        0.0123276        0.135119
281724                -0.0386621        0.117536      0.000372892     0.000129825         0.989556       0.0661437     -0.000220879     0.000537608
                     0.000241924      0.00039059       -0.0519858        0.125315      7.13439e-05     0.000432967         0.979208        0.148923
                        0.989727       0.0662897      0.000227566     0.000454033        0.0225037          0.1217     -0.000342897     0.000279685
                    -0.000214084     0.000364314         0.979449        0.148683     -0.000328289      0.00025871        0.0123798        0.135112
281726                -0.0386212        0.117545      0.000372708     0.000130105          0.98958       0.0657852     -0.000220628     0.000537739
                     0.000241633      0.00039039       -0.0519432        0.125329      7.15912e-05     0.000433272         0.979262        0.148571
                        0.989751       0.0659309      0.000227457     0.000454071        0.0225501        0.121688     -0.000342933     0.000279887
                    -0.000214057     0.000364369         0.979503        0.148331     -0.000328421     0.000259066        0.0124321        0.135104
281728                -0.0385803        0.117555      0.000372525     0.000130384         0.989604       0.0654267     -0.000220379     0.000537869
                     0.000241341      0.00039019       -0.0519005        0.125344      7.18392e-05     0.000433577         0.979316        0.148218
                        0.989776        0.065572      0.000227348     0.000454108        0.0225965        0.121675     -0.000342971     0.000280087
                    -0.000214031     0.000364423         0.979556        0.147978     -0.000328553      0.00025942        0.0124844        0.135096
281730                -0.0385395        0.117564      0.000372342     0.000130661         0.989628       0.0650682     -0.000220132     0.000537999
                     0.000241049     0.000389991       -0.0518578        0.125358       7.2088e-05     0.000433881         0.979369        0.147865
                          0.9898       0.0652132       0.00022724     0.000454145        0.0226429        0.121663     -0.000343009     0.000280286
                    -0.000214004     0.000364477         0.979609        0.147626     -0.000328683     0.000259774        0.0125367        0.135088
281732                -0.0384986        0.117573      0.000372159     0.000130938         0.989652       0.0647097     -0.000219886     0.000538128
                     0.000240756     0.000389791       -0.0518151        0.125372      7.23374e-05     0.000434184         0.979423        0.147513
                        0.989824       0.0648543      0.000227132     0.000454182        0.0226893         0.12165     -0.000343048     0.000280484
                    -0.000213978     0.000364532         0.979663        0.147273     -0.000328813     0.000260127        0.0125889         0.13508
281734                -0.0384577        0.117583      0.000371977     0.000131213         0.989676       0.0643512     -0.000219643     0.000538257
                     0.000240461     0.000389592       -0.0517724        0.125386      7.25876e-05     0.000434486         0.979476         0.14716
                        0.989848       0.0644955      0.000227026     0.000454218        0.0227356        0.121637     -0.000343088      0.00028068
                    -0.000213952     0.000364586         0.979716        0.146921     -0.000328943     0.000260479        0.0126412        0.135072
281736                -0.0384168        0.117592      0.000371796     0.000131486           0.9897       0.0639927     -0.000219401     0.000538385
                     0.000240166     0.000389393       -0.0517297        0.125401      7.28385e-05     0.000434787         0.979529        0.146807
                        0.989872       0.0641366       0.00022692     0.000454254         0.022782        0.121625     -0.000343129     0.000280875
                    -0.000213926      0.00036464         0.979769        0.146568     -0.000329071      0.00026083        0.0126934        0.135064
281738                -0.0383759        0.117601      0.000371616     0.000131759         0.989723       0.0636341     -0.000219163     0.000538512
                      0.00023987     0.000389194        -0.051687        0.125415        7.309e-05     0.000435088         0.979582        0.146455
                        0.989896       0.0637777      0.000226815     0.000454289        0.0228284        0.121612     -0.000343173     0.000281066
                    -0.000213901     0.000364694         0.979822        0.146215     -0.000329199     0.000261181        0.0127457        0.135056
281740                 -0.038335         0.11761      0.000371439     0.000132029         0.989747       0.0632756     -0.000218935     0.000538636
                     0.000239573     0.000388995       -0.0516443        0.125429      7.33423e-05     0.000435387         0.979635        0.146102
                        0.989919       0.0634188      0.000226711     0.000454325        0.0228747        0.121599     -0.000343224     0.000281248
                    -0.000213875     0.000364748         0.979874        0.145863     -0.000329327     0.000261531        0.0127979        0.135048
281742                -0.0382941         0.11762      0.000371268     0.000132298          0.98977        0.062917      -0.00021859     0.000538683
                     0.000239275     0.000388796       -0.0516016        0.125443      7.35953e-05     0.000435686         0.979688        0.145749
                        0.989943       0.0630599       0.00022661     0.000454362        0.0229211        0.121586     -0.000343031     0.000281308
                     -0.00021385     0.000364802         0.979927         0.14551     -0.000329454      0.00026188        0.0128502        0.135039
281744                -0.0382532        0.117629      0.000371119     0.000132566         0.989793       0.0625584     -0.000218419      0.00053889
                     0.000238977     0.000388598       -0.0515589        0.125458       7.3849e-05     0.000435984         0.979741        0.145397
                        0.989966        0.062701      0.000226517     0.000454405        0.0229674        0.121574      -0.00034326     0.000281675
                    -0.000213825     0.000364855         0.979979        0.145157      -0.00032958     0.000262228        0.0129024        0.135031
281746                -0.0382123        0.117638      0.000371165      0.00013289         0.989816       0.0621999     -0.000218192     0.000539016
                     0.000238677     0.000388399       -0.0515162        0.125472      7.41034e-05     0.000436281         0.979793        0.145044
                        0.989989       0.0623421      0.000226482     0.000454518        0.0230138        0.121561     -0.000343315     0.000281858
                      -0.0002138     0.000364909         0.980031        0.144805     -0.000329705     0.000262576        0.0129546        0.135023
281748                -0.0381714        0.117647      0.000370515     0.000133168         0.989839       0.0618413     -0.000217961     0.000539141
                     0.000238377     0.000388201       -0.0514735        0.125486      7.43588e-05     0.000436577         0.979846        0.144691
                        0.990013       0.0619832      0.000226217     0.000454397        0.0230601        0.121548     -0.000343362     0.000282046
                    -0.000213775     0.000364963         0.980085        0.144452      -0.00032983     0.000262923        0.0130069        0.135015
281750                -0.0381305        0.117656      0.000370417     0.000133393         0.989862       0.0614827      -0.00021773     0.000539265
                     0.000238075     0.000388003       -0.0514308          0.1255      7.46155e-05     0.000436872         0.979898        0.144338
                        0.990035       0.0616242      0.000226152     0.000454453        0.0231064        0.121535     -0.000343408     0.000282233
                    -0.000213751     0.000365016         0.980136        0.144099     -0.000329955     0.000263268        0.0130591        0.135007
281752                -0.0380896        0.117665      0.000370256      0.00013365         0.989884       0.0611241     -0.000217499     0.000539389
                     0.000237773     0.000387805       -0.0513881        0.125514      7.48737e-05     0.000437164          0.97995        0.143985
                        0.990058       0.0612653      0.000226058     0.000454489        0.0231527        0.121522     -0.000343453      0.00028242
                    -0.000213727      0.00036507         0.980188        0.143747     -0.000330078     0.000263613        0.0131113        0.134999
281754                -0.0380487        0.117675      0.000370081      0.00013391         0.989907       0.0607655      -0.00021727     0.000539512
                      0.00023747     0.000387608       -0.0513454        0.125528      7.51299e-05     0.000437453         0.980002        0.143633
                        0.990081       0.0609064      0.000225959     0.000454521         0.023199        0.121509     -0.000343499     0.000282607
                    -0.000213703     0.000365123          0.98024        0.143394     -0.000330202     0.000263958        0.0131635         0.13499
281756                -0.0380078        0.117684      0.000369902      0.00013417         0.989929       0.0604069     -0.000217043     0.000539634
                     0.000237166      0.00038741       -0.0513026        0.125542      7.53846e-05     0.000437744         0.980054         0.14328
                        0.990104       0.0605474      0.000225859     0.000454551        0.0232453        0.121497     -0.000343545     0.000282792
                    -0.000213679     0.000365177         0.980292        0.143041     -0.000330324     0.000264302        0.0132158        0.134982
281758                -0.0379669        0.117693       0.00036972      0.00013443         0.989951       0.0600482     -0.000216816     0.000539756
                     0.000236861     0.000387213       -0.0512599        0.125557      7.56413e-05     0.000438035         0.980106        0.142927
                        0.990126       0.0601884      0.000225759      0.00045458        0.0232916        0.121484     -0.000343591     0.000282977
                    -0.000213655      0.00036523         0.980343        0.142688      -0.00033045      0.00026464         0.013268        0.134974
281760                 -0.037926        0.117702      0.000369537     0.000134689         0.989973       0.0596896     -0.000216592     0.000539877
                     0.000236555     0.000387017       -0.0512172        0.125571      7.58994e-05     0.000438325         0.980157        0.142574
                        0.990148       0.0598294      0.000225659     0.000454607        0.0233379        0.121471     -0.000343638     0.000283161
                    -0.000213632     0.000365283         0.980395        0.142336     -0.000330569     0.000264983        0.0133202        0.134966
281762                -0.0378851        0.117711      0.000369353     0.000134947         0.989995        0.059331     -0.000216368     0.000539998
                     0.000236248     0.000386821       -0.0511744        0.125585      7.61582e-05     0.000438614         0.980209        0.142221
                        0.990171       0.0594704      0.000225559     0.000454634        0.0233842        0.121458     -0.000343686     0.000283343
