! TOUCHSTONE file generated by CST MICROWAVE STUDIO
! Date and time: Tue Oct 14 07:27:32 2025
! Project name: Teste_Macro_Metasurface_Nanopilar.cst
! Parameters = {H=600; L_x=110; L_y=185; Lambda=1064; Max_L=200; Min_L=70; PathPara=1; Phi=0; Step_L=10; Theta=0; p=520; phaseX=180; phaseY=0}
! Header version: 2018
! Port assignment regex: !\s*Touchstone port\s*([0-9]+)\s*=\s*(CST MWS port|CST DS port)\s*([0-9]+|Zmin|Zmax)\s*\(\"(.*)\"\)(\s*mode\s*([0-9]+))?.*
! Touchstone port assignment:
! Touchstone port 1 = CST MWS port Zmax ("") mode 1
! Touchstone port 2 = CST MWS port Zmax ("") mode 2
! Touchstone port 3 = CST MWS port Zmin ("") mode 1
! Touchstone port 4 = CST MWS port Zmin ("") mode 2
! S-Parameters are not renormalized. Each port impedance will be approximated by the real part at minimum frequency. The values are described via the [Reference] keyword.
! Default impedance is overridden by [Reference]
[Version] 2.0
# GHz S RI R 376.73
[Number of Ports] 4
[Reference]
376.73 376.73 259.814 259.814 
[Number of Frequencies] 51
[Network Data]
281700                 -0.260714         0.27531      -0.00039485     9.09793e-05         0.329451        0.854121     -0.000715414    -0.000537474
                     -0.00036717     5.83676e-05       -0.0836033     -0.00677638     -0.000798741     1.33698e-05        -0.775613         0.61338
                        0.329385        0.853991     -0.000823487    -4.62751e-05        -0.369445      -0.0439557      4.63482e-05    -0.000658407
                    -0.000783288    -0.000465123        -0.775513        0.613382     -9.19651e-05    -0.000532544        0.0127707      -0.0801249
281702                 -0.260538        0.275292     -0.000394387     9.12264e-05         0.329937        0.853996     -0.000715714    -0.000536792
                    -0.000366669      5.8544e-05       -0.0835964     -0.00676881     -0.000798402     1.42079e-05         -0.77531        0.613767
                        0.329872        0.853866     -0.000823409    -4.52789e-05        -0.369347      -0.0436471      4.56508e-05    -0.000658256
                    -0.000783513    -0.000464766        -0.775208        0.613768     -9.21523e-05    -0.000532207        0.0126958       -0.080129
281704                 -0.260362        0.275275     -0.000393924      9.1472e-05         0.330423         0.85387     -0.000716004    -0.000536106
                    -0.000366167     5.87198e-05       -0.0835894     -0.00676125     -0.000798061     1.50457e-05        -0.775005        0.614153
                        0.330359        0.853741      -0.00082333    -4.42843e-05         -0.36925      -0.0433387      4.49601e-05    -0.000658092
                    -0.000783737     -0.00046441        -0.774904        0.614153     -9.23393e-05    -0.000531871         0.012621      -0.0801331
281706                 -0.260186        0.275257     -0.000393461     9.17161e-05          0.33091        0.853744     -0.000716284    -0.000535426
                    -0.000365665      5.8895e-05       -0.0835824      -0.0067537     -0.000797717     1.58831e-05        -0.774701        0.614539
                        0.330845        0.853615      -0.00082325    -4.32913e-05        -0.369152      -0.0430305      4.42852e-05    -0.000657925
                    -0.000783963    -0.000464053          -0.7746        0.614539     -9.25262e-05    -0.000531535        0.0125461      -0.0801371
281708                  -0.26001         0.27524        -0.000393     9.19587e-05         0.331396        0.853617     -0.000716565    -0.000534757
                    -0.000365163     5.90695e-05       -0.0835755     -0.00674615      -0.00079737     1.67201e-05        -0.774397        0.614925
                        0.331331        0.853489     -0.000823168    -4.22999e-05        -0.369055      -0.0427226        4.362e-05    -0.000657768
                    -0.000784188    -0.000463697        -0.774295        0.614924     -9.27129e-05    -0.000531199        0.0124713       -0.080141
281710                 -0.259834        0.275222     -0.000392538     9.21997e-05         0.331882        0.853491      -0.00071685    -0.000534093
                    -0.000364661     5.92434e-05       -0.0835685      -0.0067386     -0.000797021     1.75568e-05        -0.774092        0.615311
                        0.331818        0.853363     -0.000823084      -4.131e-05        -0.368957      -0.0424148      4.29556e-05    -0.000657621
                    -0.000784413    -0.000463341         -0.77399         0.61531     -9.28994e-05    -0.000530863        0.0123964      -0.0801449
281712                 -0.259659        0.275205     -0.000392078     9.24392e-05         0.332368        0.853364     -0.000717141     -0.00053343
                    -0.000364159     5.94167e-05       -0.0835616     -0.00673106      -0.00079667      1.8393e-05        -0.773787        0.615697
                        0.332304        0.853236     -0.000822999    -4.03218e-05        -0.368858      -0.0421073      4.22881e-05    -0.000657481
                    -0.000784639    -0.000462985        -0.773685        0.615695     -9.30858e-05    -0.000530527        0.0123216      -0.0801487
281714                 -0.259483        0.275187     -0.000391618     9.26772e-05         0.332853        0.853237     -0.000717435    -0.000532765
                    -0.000363656     5.95894e-05       -0.0835546     -0.00672353     -0.000796316     1.92288e-05        -0.773482        0.616082
                         0.33279         0.85311     -0.000822912    -3.93351e-05         -0.36876      -0.0417999       4.1617e-05    -0.000657345
                    -0.000784865     -0.00046263         -0.77338         0.61608      -9.3272e-05    -0.000530192        0.0122468      -0.0801524
281716                 -0.259308        0.275169     -0.000391159     9.29138e-05         0.333339        0.853109     -0.000717732      -0.0005321
                    -0.000363154     5.97614e-05       -0.0835477       -0.006716      -0.00079596     2.00641e-05        -0.773177        0.616468
                        0.333275        0.852982     -0.000822824    -3.83501e-05        -0.368661      -0.0414928      4.09426e-05    -0.000657211
                    -0.000785091    -0.000462274        -0.773074        0.616465     -9.34581e-05    -0.000529857        0.0121719      -0.0801561
281718                 -0.259132        0.275152       -0.0003907     9.31488e-05         0.333824        0.852981      -0.00071803    -0.000531433
                    -0.000362651     5.99328e-05       -0.0835408     -0.00670847     -0.000795601      2.0899e-05        -0.772872        0.616853
                        0.333761        0.852855     -0.000822734    -3.73667e-05        -0.368563      -0.0411859      4.02655e-05    -0.000657079
                    -0.000785317    -0.000461918        -0.772769        0.616849     -9.36439e-05    -0.000529522        0.0120971      -0.0801597
281720                 -0.258957        0.275134     -0.000390242     9.33823e-05          0.33431        0.852853      -0.00071833    -0.000530766
                    -0.000362148     6.01035e-05       -0.0835339     -0.00670095     -0.000795239     2.17334e-05        -0.772566        0.617238
                        0.334247        0.852727     -0.000822642     -3.6385e-05        -0.368464      -0.0408791      3.95861e-05    -0.000656948
                    -0.000785544    -0.000461563        -0.772463        0.617234     -9.38297e-05    -0.000529187        0.0120223      -0.0801633
281722                 -0.258782        0.275116     -0.000389785     9.36143e-05         0.334795        0.852725      -0.00071863    -0.000530097
                    -0.000361644     6.02735e-05       -0.0835269     -0.00669344     -0.000794876     2.25673e-05        -0.772261        0.617623
                        0.334732        0.852599     -0.000822549    -3.54049e-05        -0.368364      -0.0405726      3.89046e-05    -0.000656819
                     -0.00078577    -0.000461208        -0.772157        0.617618     -9.40153e-05    -0.000528852        0.0119475      -0.0801668
281724                 -0.258607        0.275098     -0.000389328     9.38448e-05          0.33528        0.852596     -0.000718932    -0.000529427
                    -0.000361141     6.04428e-05         -0.08352     -0.00668593     -0.000794509     2.34006e-05        -0.771955        0.618008
                        0.335217        0.852471     -0.000822455    -3.44265e-05        -0.368265      -0.0402663      3.82213e-05     -0.00065669
                    -0.000785997    -0.000460852        -0.771851        0.618002     -9.42007e-05    -0.000528518        0.0118726      -0.0801702
281726                 -0.258432         0.27508     -0.000388872     9.40738e-05         0.335765        0.852467     -0.000719234    -0.000528757
                    -0.000360637     6.06114e-05       -0.0835131     -0.00667843     -0.000794141     2.42335e-05        -0.771649        0.618393
                        0.335703        0.852342     -0.000822359    -3.34497e-05        -0.368166      -0.0399602      3.75364e-05    -0.000656563
                    -0.000786224    -0.000460497        -0.771544        0.618386      -9.4386e-05    -0.000528184        0.0117978      -0.0801736
281728                 -0.258258        0.275062     -0.000388417     9.43014e-05          0.33625        0.852338     -0.000719537    -0.000528086
                    -0.000360133     6.07792e-05       -0.0835062     -0.00667093     -0.000793769     2.50657e-05        -0.771343        0.618777
                        0.336188        0.852213     -0.000822261    -3.24746e-05        -0.368066      -0.0396543      3.68498e-05    -0.000656436
                    -0.000786451    -0.000460142        -0.771238         0.61877     -9.45711e-05     -0.00052785         0.011723      -0.0801769
281730                 -0.258083        0.275043     -0.000387962     9.45274e-05         0.336734        0.852208      -0.00071984    -0.000527414
                    -0.000359629     6.09462e-05       -0.0834994     -0.00666343     -0.000793396     2.58974e-05        -0.771036        0.619162
                        0.336673        0.852084     -0.000822162    -3.15012e-05        -0.367966      -0.0393486      3.61617e-05    -0.000656311
                    -0.000786679    -0.000459786        -0.770931        0.619154     -9.47561e-05    -0.000527516        0.0116482      -0.0801802
281732                 -0.257908        0.275025     -0.000387508      9.4752e-05         0.337219        0.852078     -0.000720145    -0.000526742
                    -0.000359125     6.11122e-05       -0.0834925     -0.00665594     -0.000793019     2.67285e-05         -0.77073        0.619546
                        0.337157        0.851955     -0.000822061    -3.05296e-05        -0.367866      -0.0390431      3.54721e-05    -0.000656186
                    -0.000786906    -0.000459431        -0.770624        0.619537     -9.49409e-05    -0.000527182        0.0115734      -0.0801834
281734                 -0.257734        0.275007     -0.000387055     9.49751e-05         0.337704        0.851948      -0.00072045    -0.000526069
                    -0.000358621      6.1277e-05       -0.0834856     -0.00664846     -0.000792641      2.7559e-05        -0.770423         0.61993
                        0.337642        0.851825     -0.000821959    -2.95596e-05        -0.367765      -0.0387378      3.47812e-05    -0.000656063
                    -0.000787133    -0.000459074        -0.770317        0.619921     -9.51256e-05    -0.000526849        0.0114986      -0.0801865
281736                  -0.25756        0.274988     -0.000386602     9.51967e-05         0.338188        0.851818     -0.000720756    -0.000525395
                    -0.000358117     6.14403e-05       -0.0834787     -0.00664098     -0.000792259     2.83889e-05        -0.770116        0.620314
                        0.338127        0.851695     -0.000821855    -2.85914e-05        -0.367665      -0.0384327      3.40888e-05    -0.000655941
                     -0.00078736    -0.000458717         -0.77001        0.620304     -9.53101e-05    -0.000526516        0.0114238      -0.0801896
281738                 -0.257385         0.27497      -0.00038615     9.54169e-05         0.338672        0.851687     -0.000721063    -0.000524721
                    -0.000357613     6.16012e-05       -0.0834719      -0.0066335     -0.000791876     2.92181e-05        -0.769809        0.620697
                        0.338611        0.851564      -0.00082175    -2.76248e-05        -0.367564      -0.0381278       3.3395e-05     -0.00065582
                    -0.000787586    -0.000458358        -0.769702        0.620687     -9.54945e-05    -0.000526182        0.0113489      -0.0801926
281740                 -0.257211        0.274951     -0.000385699     9.56356e-05         0.339156        0.851556      -0.00072137    -0.000524047
                     -0.00035711     6.17574e-05        -0.083465     -0.00662603      -0.00079149     3.00467e-05        -0.769501        0.621081
                        0.339096        0.851434     -0.000821643    -2.66601e-05        -0.367463      -0.0378232      3.26999e-05      -0.0006557
                    -0.000787811    -0.000457993        -0.769394         0.62107     -9.56787e-05    -0.000525849        0.0112741      -0.0801955
281742                 -0.257037        0.274933     -0.000385249     9.58528e-05          0.33964        0.851424     -0.000721678    -0.000523371
                    -0.000356609     6.18982e-05       -0.0834582     -0.00661856     -0.000791101     3.08745e-05        -0.769194        0.621464
                         0.33958        0.851303     -0.000821535    -2.56971e-05        -0.367362      -0.0375187      3.20034e-05    -0.000655582
                    -0.000788028    -0.000457611        -0.769086        0.621453     -9.58628e-05    -0.000525517        0.0111993      -0.0801984
281744                 -0.256864        0.274914     -0.000384799     9.60685e-05         0.340124        0.851293     -0.000721987    -0.000522696
                    -0.000356099     6.18072e-05       -0.0834513      -0.0066111      -0.00079071     3.17017e-05        -0.768886        0.621848
                        0.340064        0.851172     -0.000821425    -2.47358e-05        -0.367261      -0.0372145      3.13055e-05    -0.000655464
                    -0.000788137    -0.000456968        -0.768778        0.621835     -9.60467e-05    -0.000525184        0.0111245      -0.0802012
281746                  -0.25669        0.274896      -0.00038435     9.62828e-05         0.340608        0.851161     -0.000722297     -0.00052202
                     -0.00035556     6.23507e-05       -0.0834445     -0.00660365     -0.000790316     3.25282e-05        -0.768578        0.622231
                        0.340548         0.85104     -0.000821314    -2.37764e-05        -0.367159      -0.0369104      3.06063e-05    -0.000655348
                    -0.000788554    -0.000457073         -0.76847        0.622218     -9.62305e-05    -0.000524851        0.0110498       -0.080204
281748                 -0.256516        0.274877     -0.000383902     9.64956e-05         0.341091        0.851028     -0.000722608    -0.000521343
                     -0.00035507      6.2472e-05       -0.0834377      -0.0065962      -0.00078992      3.3354e-05         -0.76827        0.622614
                        0.341032        0.850908     -0.000821201    -2.28187e-05        -0.367058      -0.0366066      2.99057e-05    -0.000655233
                    -0.000788761    -0.000456662        -0.768162          0.6226     -9.64141e-05    -0.000524519         0.010975      -0.0802067
281750                 -0.256343        0.274858     -0.000383454      9.6707e-05         0.341575        0.850896     -0.000722919    -0.000520666
                    -0.000354567     6.26217e-05       -0.0834309     -0.00658875     -0.000789521      3.4179e-05        -0.767962        0.622996
                        0.341515        0.850776     -0.000821087    -2.18628e-05        -0.366956      -0.0363029      2.92038e-05    -0.000655119
                    -0.000788984    -0.000456293        -0.767853        0.622982     -9.65976e-05    -0.000524187        0.0109002      -0.0802093
281752                 -0.256169        0.274839     -0.000383008     9.69169e-05         0.342058        0.850763     -0.000723231    -0.000519989
                    -0.000354063     6.27771e-05        -0.083424     -0.00658131      -0.00078912     3.50033e-05        -0.767653        0.623379
                        0.341999        0.850643     -0.000820972    -2.09087e-05        -0.366854      -0.0359995      2.85006e-05    -0.000655007
                    -0.000789212    -0.000455933        -0.767544        0.623364      -9.6781e-05    -0.000523855        0.0108254      -0.0802119
281754                 -0.255996         0.27482     -0.000382562     9.71254e-05         0.342541         0.85063     -0.000723544    -0.000519311
                    -0.000353557     6.29342e-05       -0.0834172     -0.00657387     -0.000788716     3.58268e-05        -0.767344        0.623761
                        0.342482        0.850511     -0.000820855    -1.99564e-05        -0.366752      -0.0356963       2.7796e-05    -0.000654895
                     -0.00078944    -0.000455576        -0.767235        0.623746     -9.69642e-05    -0.000523523        0.0107506      -0.0802144
281756                 -0.255823        0.274801     -0.000382117     9.73324e-05         0.343024        0.850496     -0.000723858    -0.000518633
                    -0.000353051     6.30917e-05       -0.0834104     -0.00656644      -0.00078831     3.66496e-05        -0.767036        0.624144
                        0.342966        0.850377     -0.000820736     -1.9006e-05        -0.366649      -0.0353932        2.709e-05    -0.000654785
                     -0.00078967    -0.000455221        -0.766926        0.624128     -9.71472e-05    -0.000523191        0.0106758      -0.0802169
281758                 -0.255649        0.274782     -0.000381672      9.7538e-05         0.343507        0.850362     -0.000724172    -0.000517954
                    -0.000352544     6.32493e-05       -0.0834036     -0.00655902     -0.000787901     3.74715e-05        -0.766727        0.624526
                        0.343449        0.850244     -0.000820617    -1.80574e-05        -0.366547      -0.0350904      2.63827e-05    -0.000654677
                      -0.0007899    -0.000454866        -0.766617        0.624509     -9.73301e-05    -0.000522859        0.0106011      -0.0802192
281760                 -0.255476        0.274763     -0.000381229     9.77421e-05          0.34399        0.850228     -0.000724488    -0.000517275
                    -0.000352038     6.34066e-05       -0.0833969      -0.0065516      -0.00078749     3.82927e-05        -0.766417        0.624908
                        0.343932         0.85011     -0.000820495    -1.71107e-05        -0.366444      -0.0347878       2.5674e-05    -0.000654569
                    -0.000790131    -0.000454513        -0.766307         0.62489     -9.75128e-05    -0.000522527        0.0105263      -0.0802216
281762                 -0.255304        0.274744     -0.000380786     9.79449e-05         0.344473        0.850094     -0.000724804    -0.000516595
                     -0.00035153     6.35636e-05       -0.0833901     -0.00654418     -0.000787076     3.91132e-05        -0.766108         0.62529
                        0.344415        0.849977     -0.000820373    -1.61658e-05        -0.366341      -0.0344854       2.4964e-05    -0.000654463
