! TOUCHSTONE file generated by CST MICROWAVE STUDIO
! Date and time: Tue Oct 14 07:30:44 2025
! Project name: Teste_Macro_Metasurface_Nanopilar.cst
! Parameters = {H=600; L_x=160; L_y=200; Lambda=1064; Max_L=200; Min_L=70; PathPara=1; Phi=0; Step_L=10; Theta=0; p=520; phaseX=180; phaseY=0}
! Header version: 2018
! Port assignment regex: !\s*Touchstone port\s*([0-9]+)\s*=\s*(CST MWS port|CST DS port)\s*([0-9]+|Zmin|Zmax)\s*\(\"(.*)\"\)(\s*mode\s*([0-9]+))?.*
! Touchstone port assignment:
! Touchstone port 1 = CST MWS port Zmax ("") mode 1
! Touchstone port 2 = CST MWS port Zmax ("") mode 2
! Touchstone port 3 = CST MWS port Zmin ("") mode 1
! Touchstone port 4 = CST MWS port Zmin ("") mode 2
! S-Parameters are not renormalized. Each port impedance will be approximated by the real part at minimum frequency. The values are described via the [Reference] keyword.
! Default impedance is overridden by [Reference]
[Version] 2.0
# GHz S RI R 376.73
[Number of Ports] 4
[Reference]
376.73 376.73 259.814 259.814 
[Number of Frequencies] 51
[Network Data]
281700                 -0.280451       -0.105223       0.00018407    -0.000372979         0.949493       0.0416683       4.1569e-05     -7.0778e-06
                     0.000237415    -0.000363311        -0.230315       -0.118333      1.14859e-05    -8.86006e-05         0.834236        0.480276
                        0.949467       0.0419008     -1.65488e-06    -0.000142348         0.286294      -0.0813773      -5.1841e-05    -0.000392828
                     6.88731e-05    -0.000100032         0.834107        0.480273     -8.71053e-05    -0.000667319         0.217025        0.138491
281702                 -0.280495       -0.105149      0.000184056    -0.000373012         0.949505        0.041275      4.15611e-05    -6.97483e-06
                     0.000237274    -0.000363499        -0.230353        -0.11827      1.13536e-05     -8.8669e-05          0.83443        0.479937
                         0.94948        0.041508     -1.57224e-06    -0.000142317         0.286265      -0.0815366     -5.19192e-05    -0.000392786
                     6.88202e-05    -0.000100155         0.834301        0.479934     -8.72108e-05    -0.000667113         0.217102         0.13838
281704                 -0.280539       -0.105074      0.000184043    -0.000373045         0.949517       0.0408816      4.15539e-05    -6.87137e-06
                     0.000237133    -0.000363688        -0.230392       -0.118207      1.12201e-05    -8.87379e-05         0.834624        0.479597
                        0.949492       0.0411152     -1.49033e-06    -0.000142287         0.286236      -0.0816959     -5.19968e-05    -0.000392745
                      6.8767e-05    -0.000100278         0.834495        0.479594     -8.73162e-05    -0.000666905          0.21718        0.138268
281706                 -0.280584          -0.105       0.00018403    -0.000373079         0.949529       0.0404883      4.15474e-05    -6.76744e-06
                     0.000236991    -0.000363876        -0.230431       -0.118144      1.10854e-05    -8.88074e-05         0.834818        0.479257
                        0.949504       0.0407224     -1.40902e-06    -0.000142259         0.286206      -0.0818552     -5.20739e-05    -0.000392704
                     6.87136e-05    -0.000100401         0.834688        0.479255     -8.74215e-05    -0.000666694         0.217258        0.138156
281708                 -0.280628       -0.104925      0.000184018    -0.000373113         0.949541        0.040095      4.15416e-05    -6.66303e-06
                     0.000236849    -0.000364065        -0.230469       -0.118081      1.09496e-05    -8.88774e-05         0.835012        0.478917
                        0.949517       0.0403296     -1.32823e-06    -0.000142232         0.286177      -0.0820145     -5.21504e-05    -0.000392662
                     6.86598e-05    -0.000100525         0.834882        0.478915     -8.75267e-05    -0.000666482         0.217336        0.138044
281710                 -0.280673       -0.104851      0.000184007    -0.000373147         0.949553       0.0397016      4.15366e-05    -6.55814e-06
                     0.000236707    -0.000364253        -0.230508       -0.118018      1.08125e-05     -8.8948e-05         0.835205        0.478578
                        0.949528       0.0399367     -1.24786e-06    -0.000142206         0.286148      -0.0821738     -5.22263e-05     -0.00039262
                     6.86057e-05    -0.000100648         0.835075        0.478575     -8.76317e-05    -0.000666267         0.217413        0.137932
281712                 -0.280717       -0.104777      0.000183996    -0.000373182         0.949564       0.0393083      4.15323e-05    -6.45278e-06
                     0.000236565    -0.000364442        -0.230547       -0.117955      1.06742e-05    -8.90191e-05         0.835399        0.478238
                         0.94954       0.0395439     -1.16784e-06    -0.000142181         0.286118       -0.082333     -5.23016e-05    -0.000392579
                     6.85513e-05    -0.000100771         0.835269        0.478235     -8.77364e-05     -0.00066605         0.217491         0.13782
281714                 -0.280761       -0.104702      0.000183986    -0.000373217         0.949575        0.038915      4.15287e-05    -6.34695e-06
                     0.000236422    -0.000364631        -0.230585       -0.117892      1.05348e-05    -8.90907e-05         0.835592        0.477898
                        0.949552       0.0391511     -1.08811e-06    -0.000142158         0.286088      -0.0824923     -5.23763e-05    -0.000392537
                     6.84967e-05    -0.000100895         0.835462        0.477895      -8.7841e-05    -0.000665831         0.217569        0.137708
281716                 -0.280805       -0.104628      0.000183977    -0.000373253         0.949587       0.0385216      4.15259e-05    -6.24065e-06
                      0.00023628     -0.00036482        -0.230624       -0.117828      1.03942e-05     -8.9163e-05         0.835786        0.477558
                        0.949563       0.0387582     -1.00861e-06    -0.000142135         0.286059      -0.0826515     -5.24505e-05    -0.000392495
                     6.84417e-05    -0.000101018         0.835655        0.477556     -8.79453e-05    -0.000665611         0.217646        0.137596
281718                  -0.28085       -0.104553      0.000183968    -0.000373289         0.949598       0.0381283      4.15238e-05    -6.13388e-06
                     0.000236137    -0.000365009        -0.230662       -0.117765      1.02524e-05    -8.92357e-05         0.835979        0.477218
                        0.949574       0.0383654     -9.29309e-07    -0.000142113         0.286029      -0.0828107      -5.2524e-05    -0.000392453
                     6.83865e-05    -0.000101142         0.835847        0.477216     -8.80493e-05    -0.000665389         0.217724        0.137484
281720                 -0.280894       -0.104479       0.00018396    -0.000373325         0.949608        0.037735      4.15224e-05    -6.02665e-06
                     0.000235993    -0.000365198        -0.230701       -0.117702      1.01094e-05    -8.93091e-05         0.836172        0.476877
                        0.949585       0.0379725     -8.50153e-07    -0.000142092         0.285999      -0.0829699      -5.2597e-05    -0.000392411
                     6.83309e-05    -0.000101265          0.83604        0.476875      -8.8153e-05    -0.000665164         0.217801        0.137372
281722                 -0.280938       -0.104404      0.000183952    -0.000373362         0.949619       0.0373416      4.15218e-05    -5.91895e-06
                      0.00023585    -0.000365387         -0.23074       -0.117639      9.96499e-06    -8.93829e-05         0.836364        0.476537
                        0.949596       0.0375797     -7.71112e-07    -0.000142072         0.285969      -0.0831291     -5.26693e-05    -0.000392369
                      6.8275e-05    -0.000101389         0.836232        0.476535     -8.82565e-05    -0.000664938         0.217878         0.13726
281724                 -0.280982       -0.104329      0.000183945      -0.0003734          0.94963       0.0369483      4.15219e-05    -5.81078e-06
                     0.000235706    -0.000365576        -0.230778       -0.117576      9.81921e-06    -8.94573e-05         0.836557        0.476197
                        0.949607       0.0371869     -6.92157e-07    -0.000142052         0.285939      -0.0832883     -5.27411e-05    -0.000392327
                     6.82189e-05    -0.000101512         0.836425        0.476195     -8.83596e-05    -0.000664708         0.217956        0.137148
281726                 -0.281027       -0.104255      0.000183938    -0.000373438          0.94964        0.036555      4.15227e-05    -5.70216e-06
                     0.000235562    -0.000365766        -0.230817       -0.117513      9.67183e-06    -8.95321e-05          0.83675        0.475856
                        0.949618        0.036794     -6.13262e-07    -0.000142033         0.285908      -0.0834475     -5.28122e-05    -0.000392285
                     6.81624e-05    -0.000101636         0.836617        0.475855     -8.84624e-05    -0.000664475         0.218033        0.137035
281728                 -0.281071        -0.10418      0.000183932    -0.000373476          0.94965       0.0361616      4.15243e-05    -5.59308e-06
                     0.000235418    -0.000365955        -0.230855        -0.11745      9.52255e-06    -8.96072e-05         0.836942        0.475516
                        0.949628       0.0364012     -5.34405e-07    -0.000142015         0.285878      -0.0836067     -5.28827e-05    -0.000392243
                     6.81056e-05    -0.000101759         0.836809        0.475514     -8.85647e-05    -0.000664236          0.21811        0.136923
281730                 -0.281115       -0.104106      0.000183925    -0.000373515          0.94966       0.0357683      4.15267e-05    -5.48354e-06
                     0.000235273    -0.000366145        -0.230894       -0.117387      9.37083e-06    -8.96823e-05         0.837134        0.475175
                        0.949638       0.0360083     -4.55567e-07    -0.000141997         0.285848      -0.0837659     -5.29526e-05      -0.0003922
                     6.80486e-05    -0.000101883         0.837001        0.475174     -8.86664e-05    -0.000663986         0.218187        0.136811
281732                 -0.281159       -0.104031       0.00018392    -0.000373555          0.94967        0.035375      4.15298e-05    -5.37354e-06
                     0.000235128    -0.000366334        -0.230932       -0.117324      9.21574e-06    -8.97567e-05         0.837326        0.474835
                        0.949649       0.0356155     -3.76732e-07     -0.00014198         0.285817       -0.083925     -5.30219e-05    -0.000392158
                     6.79912e-05    -0.000102007         0.837193        0.474833     -8.87673e-05    -0.000663713         0.218264        0.136699
281734                 -0.281203       -0.103956      0.000183914    -0.000373595          0.94968       0.0349817      4.15337e-05    -5.26309e-06
                     0.000234983    -0.000366524        -0.230971        -0.11726      9.05552e-06    -8.98287e-05         0.837518        0.474494
                        0.949658       0.0352226     -2.97884e-07    -0.000141963         0.285787      -0.0840842     -5.30905e-05    -0.000392116
                     6.79335e-05     -0.00010213         0.837385        0.474493     -8.88672e-05    -0.000663365         0.218341        0.136586
281736                 -0.281247       -0.103882      0.000183909    -0.000373635         0.949689       0.0345884      4.15384e-05    -5.15219e-06
                     0.000234837    -0.000366713        -0.231009       -0.117197      8.88726e-06    -8.98922e-05          0.83771        0.474153
                        0.949668       0.0348297     -2.19011e-07    -0.000141947         0.285756      -0.0842433     -5.31585e-05    -0.000392073
                     6.78755e-05    -0.000102254         0.837576        0.474152     -8.90274e-05    -0.000662247         0.218418        0.136474
281738                 -0.281291       -0.103807      0.000183903    -0.000373676         0.949699       0.0341952      4.15438e-05    -5.04084e-06
                     0.000234691    -0.000366903        -0.231048       -0.117134      8.71335e-06    -8.99263e-05         0.837902        0.473812
                        0.949678       0.0344369     -1.40099e-07    -0.000141931         0.285725      -0.0844025     -5.32259e-05    -0.000392031
                     6.78172e-05    -0.000102378         0.837768        0.473811      -8.9137e-05    -0.000663748         0.218495        0.136361
281740                 -0.281335       -0.103732      0.000183898    -0.000373718         0.949709       0.0338025        4.155e-05    -4.92905e-06
                     0.000234545    -0.000367093        -0.231086       -0.117071      8.60864e-06    -8.99091e-05         0.838093        0.473471
                        0.949687        0.034044     -6.11363e-08    -0.000141915         0.285695      -0.0845619     -5.32926e-05    -0.000391989
                     6.77586e-05    -0.000102502         0.837959         0.47347      -8.9199e-05    -0.000663196         0.218572        0.136249
281742                 -0.281379       -0.103658      0.000183894     -0.00037376         0.949717       0.0334076      4.15569e-05    -4.81681e-06
                     0.000234398    -0.000367283        -0.231124       -0.117008      8.57339e-06    -9.00212e-05         0.838285         0.47313
                        0.949697       0.0336511       1.7891e-08      -0.0001419         0.285664      -0.0847204     -5.33587e-05    -0.000391946
                     6.76997e-05    -0.000102625          0.83815        0.473129     -8.92931e-05    -0.000662887         0.218649        0.136136
281744                 -0.281423       -0.103583      0.000183889    -0.000373803         0.949726       0.0330146      4.15647e-05    -4.70414e-06
                     0.000234251    -0.000367472        -0.231163       -0.116945      8.43277e-06    -9.01641e-05         0.838476        0.472789
                        0.949706       0.0332583      9.69983e-08    -0.000141885         0.285633      -0.0848796     -5.34242e-05    -0.000391904
                     6.76405e-05    -0.000102749         0.838341        0.472788     -8.93913e-05    -0.000662621         0.218725        0.136024
281746                 -0.281467       -0.103508      0.000183884    -0.000373846         0.949734       0.0326213      4.15732e-05    -4.59105e-06
                     0.000234104    -0.000367662        -0.231201       -0.116881      8.27003e-06    -9.02722e-05         0.838667        0.472448
                        0.949715       0.0328654      1.76206e-07    -0.000141871         0.285601      -0.0850387     -5.34891e-05    -0.000391861
                      6.7581e-05    -0.000102873         0.838532        0.472447     -8.94906e-05    -0.000662372         0.218802        0.135911
281748                 -0.281511       -0.103433      0.000183879     -0.00037389         0.949743       0.0322281      4.15824e-05    -4.47753e-06
                     0.000233956    -0.000367852        -0.231239       -0.116818      8.10807e-06     -9.0366e-05         0.838858        0.472107
                        0.949724       0.0324725      2.55542e-07    -0.000141856          0.28557      -0.0851978     -5.35535e-05    -0.000391819
                     6.75211e-05    -0.000102997         0.838722        0.472106     -8.95903e-05    -0.000662131         0.218878        0.135798
281750                 -0.281555       -0.103358      0.000183874    -0.000373934         0.949751       0.0318347      4.15925e-05    -4.36363e-06
                     0.000233808    -0.000368041        -0.231278       -0.116755      7.94814e-06    -9.04544e-05         0.839049        0.471766
                        0.949732       0.0320797      3.35053e-07    -0.000141842         0.285539      -0.0853568     -5.36175e-05    -0.000391777
                     6.74609e-05     -0.00010312         0.838913        0.471765     -8.96901e-05    -0.000661893         0.218955        0.135686
281752                 -0.281599       -0.103284      0.000183869    -0.000373979          0.94976       0.0314414      4.16034e-05    -4.24939e-06
                      0.00023366    -0.000368231        -0.231316       -0.116692      7.78954e-06    -9.05405e-05          0.83924        0.471424
                        0.949741       0.0316868      4.14824e-07    -0.000141828         0.285508      -0.0855159     -5.36813e-05    -0.000391735
                     6.74004e-05    -0.000103244         0.839103        0.471424     -8.97898e-05    -0.000661657         0.219032        0.135573
281754                 -0.281643       -0.103209      0.000183863    -0.000374026         0.949768       0.0310481      4.16151e-05    -4.13496e-06
                     0.000233511    -0.000368421        -0.231354       -0.116628      7.63167e-06    -9.06256e-05          0.83943        0.471083
                        0.949749       0.0312939      4.95029e-07    -0.000141813         0.285476      -0.0856749      -5.3746e-05    -0.000391694
                     6.73396e-05    -0.000103368         0.839294        0.471082     -8.98894e-05    -0.000661423         0.219108         0.13546
281756                 -0.281687       -0.103134      0.000183854    -0.000374073         0.949776       0.0306548      4.16279e-05    -4.02091e-06
                     0.000233361     -0.00036861        -0.231393       -0.116565      7.47414e-06    -9.07103e-05         0.839621        0.470741
                        0.949757        0.030901      5.76108e-07    -0.000141798         0.285445      -0.0858339     -5.38177e-05    -0.000391658
                     6.72783e-05    -0.000103493         0.839484        0.470741     -8.99889e-05     -0.00066119         0.219184        0.135347
281758                 -0.281731       -0.103059       0.00018384    -0.000374119         0.949783       0.0302614       4.1648e-05    -3.90686e-06
                     0.000233211    -0.000368799        -0.231431       -0.116502      7.31669e-06    -9.07949e-05         0.839811        0.470399
                        0.949765       0.0305081      6.59542e-07     -0.00014178         0.285413       -0.085993     -5.38013e-05    -0.000391554
                     6.72167e-05    -0.000103618         0.839674        0.470399     -9.00882e-05    -0.000660957         0.219261        0.135234
281760                 -0.281774       -0.102984      0.000183821    -0.000374144         0.949791       0.0298681      4.16575e-05    -3.78297e-06
                      0.00023306    -0.000368987        -0.231469       -0.116439      7.15918e-06    -9.08796e-05         0.840001        0.470058
                        0.949773       0.0301152       7.4959e-07     -0.00014173         0.285381       -0.086152     -5.39074e-05    -0.000391551
                     6.71571e-05    -0.000103751         0.839863        0.470058     -9.01874e-05    -0.000660725         0.219337        0.135121
281762                 -0.281818       -0.102909      0.000183839    -0.000374174         0.949799       0.0294747      4.16708e-05    -3.66743e-06
                     0.000232908    -0.000369175        -0.231508       -0.116375       7.0015e-06    -9.09645e-05         0.840191        0.469716
                        0.949781       0.0297223      7.76366e-07    -0.000141781         0.285349      -0.0863109     -5.39714e-05    -0.000391512
