! TOUCHSTONE file generated by CST MICROWAVE STUDIO
! Date and time: Tue Oct 14 07:27:21 2025
! Project name: Teste_Macro_Metasurface_Nanopilar.cst
! Parameters = {H=600; L_x=110; L_y=105; Lambda=1064; Max_L=200; Min_L=70; PathPara=1; Phi=0; Step_L=10; Theta=0; p=520; phaseX=180; phaseY=0}
! Header version: 2018
! Port assignment regex: !\s*Touchstone port\s*([0-9]+)\s*=\s*(CST MWS port|CST DS port)\s*([0-9]+|Zmin|Zmax)\s*\(\"(.*)\"\)(\s*mode\s*([0-9]+))?.*
! Touchstone port assignment:
! Touchstone port 1 = CST MWS port Zmax ("") mode 1
! Touchstone port 2 = CST MWS port Zmax ("") mode 2
! Touchstone port 3 = CST MWS port Zmin ("") mode 1
! Touchstone port 4 = CST MWS port Zmin ("") mode 2
! S-Parameters are not renormalized. Each port impedance will be approximated by the real part at minimum frequency. The values are described via the [Reference] keyword.
! Default impedance is overridden by [Reference]
[Version] 2.0
# GHz S RI R 376.73
[Number of Ports] 4
[Reference]
376.73 376.73 259.814 259.814 
[Number of Frequencies] 51
[Network Data]
281700                -0.0377316      -0.0711553      0.000110433     0.000749344         0.461509        -0.87887      0.000261611     4.78904e-05
                     8.70477e-05     0.000689705       -0.0872266      -0.0789914      0.000291184    -3.87594e-05         0.224871       -0.962079
                        0.461638       -0.878982       0.00017434     0.000106122       -0.0795724       0.0104928      0.000582069    -0.000551879
                     0.000313638     4.92526e-05         0.225161       -0.962801       0.00051536    -0.000524794        -0.112418       0.0331352
281702                  -0.03776      -0.0711584      0.000110841     0.000749303         0.461126       -0.879069      0.000261664     4.77991e-05
                     8.72833e-05      0.00068976       -0.0872627      -0.0789732      0.000291331    -3.88689e-05         0.224433       -0.962179
                        0.461256       -0.879181       0.00017451     0.000106086       -0.0795823       0.0105404      0.000581749    -0.000552271
                     0.000313682     4.91301e-05         0.224722       -0.962902      0.000515097    -0.000525097        -0.112413       0.0332054
281704                -0.0377884      -0.0711614       0.00011125     0.000749261         0.460744       -0.879267      0.000261717     4.77077e-05
                     8.75191e-05     0.000689815       -0.0872987       -0.078955      0.000291477    -3.89785e-05         0.223996       -0.962279
                        0.460873        -0.87938      0.000174681     0.000106049       -0.0795921       0.0105881      0.000581428    -0.000552662
                     0.000313725     4.90075e-05         0.224284       -0.963001      0.000514834    -0.000525399        -0.112407       0.0332755
281706                -0.0378168      -0.0711645      0.000111659     0.000749218         0.460361       -0.879466       0.00026177     4.76162e-05
                     8.77549e-05      0.00068987       -0.0873348      -0.0789368      0.000291624    -3.90882e-05         0.223558       -0.962379
                         0.46049       -0.879578      0.000174851     0.000106012       -0.0796019       0.0106357      0.000581108    -0.000553053
                     0.000313768      4.8885e-05         0.223845       -0.963101      0.000514571    -0.000525702        -0.112402       0.0333457
281708                -0.0378453      -0.0711675      0.000112067     0.000749175         0.459978       -0.879664      0.000261823     4.75246e-05
                     8.79909e-05     0.000689925       -0.0873709      -0.0789186       0.00029177    -3.91979e-05          0.22312       -0.962478
                        0.460108       -0.879776       0.00017502     0.000105975       -0.0796117       0.0106834      0.000580787    -0.000553444
                     0.000313811     4.87624e-05         0.223407       -0.963201      0.000514308    -0.000526004        -0.112396       0.0334158
281710                -0.0378737      -0.0711705      0.000112476     0.000749132         0.459596       -0.879862      0.000261876     4.74329e-05
                     8.82269e-05      0.00068998       -0.0874069      -0.0789003      0.000291917    -3.93077e-05         0.222682       -0.962577
                        0.459725       -0.879975       0.00017519     0.000105939       -0.0796215       0.0107311      0.000580466    -0.000553834
                     0.000313855     4.86398e-05         0.222968         -0.9633      0.000514044    -0.000526306         -0.11239        0.033486
281712                -0.0379021      -0.0711735      0.000112885     0.000749088         0.459213        -0.88006      0.000261928     4.73411e-05
                     8.84631e-05     0.000690034        -0.087443       -0.078882      0.000292062    -3.94175e-05         0.222244       -0.962676
                        0.459342       -0.880173      0.000175359     0.000105902       -0.0796312       0.0107788      0.000580144    -0.000554225
                     0.000313898     4.85172e-05         0.222529       -0.963399      0.000513781    -0.000526608        -0.112384       0.0335562
281714                -0.0379306      -0.0711765      0.000113294     0.000749044          0.45883       -0.880258      0.000261981     4.72492e-05
                     8.86993e-05     0.000690089        -0.087479      -0.0788637      0.000292208    -3.95275e-05         0.221806       -0.962775
                        0.458959       -0.880371      0.000175527     0.000105865       -0.0796409       0.0108265      0.000579823    -0.000554615
                     0.000313941     4.83945e-05          0.22209       -0.963498      0.000513518    -0.000526909        -0.112379       0.0336263
281716                 -0.037959      -0.0711795      0.000113703     0.000748999         0.458447       -0.880455      0.000262034     4.71572e-05
                     8.89356e-05     0.000690144       -0.0875151      -0.0788454      0.000292354    -3.96374e-05         0.221368       -0.962873
                        0.458576       -0.880568      0.000175695     0.000105828       -0.0796505       0.0108742      0.000579501    -0.000555005
                     0.000313984     4.82719e-05         0.221651       -0.963596      0.000513255     -0.00052721        -0.112373       0.0336965
281718                -0.0379875      -0.0711825      0.000114113     0.000748954         0.458063       -0.880652      0.000262087     4.70651e-05
                      8.9172e-05     0.000690198       -0.0875512      -0.0788271      0.000292499    -3.97475e-05         0.220929       -0.962972
                        0.458192       -0.880766      0.000175863     0.000105791       -0.0796602        0.010922      0.000579179    -0.000555394
                     0.000314027     4.81492e-05         0.221212       -0.963695      0.000512991    -0.000527511        -0.112367       0.0337667
281720                -0.0380159      -0.0711855      0.000114522     0.000748909          0.45768        -0.88085      0.000262139     4.69729e-05
                     8.94085e-05     0.000690253       -0.0875872      -0.0788087      0.000292644    -3.98576e-05         0.220491        -0.96307
                        0.457809       -0.880963       0.00017603     0.000105754       -0.0796698       0.0109697      0.000578857    -0.000555784
                     0.000314071     4.80264e-05         0.220773       -0.963793      0.000512728    -0.000527812        -0.112361       0.0338369
281722                -0.0380444      -0.0711884      0.000114931     0.000748863         0.457297       -0.881047      0.000262192     4.68805e-05
                     8.96451e-05     0.000690307       -0.0876233      -0.0787903      0.000292789    -3.99678e-05         0.220053       -0.963168
                        0.457426        -0.88116      0.000176197     0.000105717       -0.0796794       0.0110175      0.000578535    -0.000556173
                     0.000314114     4.79037e-05         0.220334       -0.963891      0.000512465    -0.000528112        -0.112355        0.033907
281724                -0.0380729      -0.0711914      0.000115341     0.000748817         0.456913       -0.881244      0.000262244      4.6788e-05
                     8.98818e-05     0.000690361       -0.0876593      -0.0787719      0.000292934    -4.00781e-05         0.219615       -0.963266
                        0.457042       -0.881357      0.000176363      0.00010568       -0.0796889       0.0110653      0.000578212    -0.000556561
                     0.000314157     4.77809e-05         0.219895       -0.963989      0.000512201    -0.000528412        -0.112349       0.0339772
281726                -0.0381013      -0.0711943       0.00011575      0.00074877          0.45653        -0.88144      0.000262297     4.66954e-05
                     9.01186e-05     0.000690416       -0.0876954      -0.0787535      0.000293078    -4.01884e-05         0.219176       -0.963363
                        0.456658       -0.881554      0.000176529     0.000105643       -0.0796984       0.0111131      0.000577889     -0.00055695
                       0.0003142     4.76581e-05         0.219456       -0.964087      0.000511938    -0.000528712        -0.112343       0.0340474
281728                -0.0381298      -0.0711972       0.00011616     0.000748723         0.456146       -0.881637      0.000262349     4.66027e-05
                     9.03555e-05      0.00069047       -0.0877314      -0.0787351      0.000293222    -4.02988e-05         0.218738       -0.963461
                        0.456275       -0.881751      0.000176695     0.000105606       -0.0797079       0.0111609      0.000577566    -0.000557338
                     0.000314243     4.75353e-05         0.219017       -0.964184      0.000511674    -0.000529012        -0.112337       0.0341176
281730                -0.0381583      -0.0712001      0.000116569     0.000748675         0.455763       -0.881833      0.000262401     4.65098e-05
                     9.05924e-05     0.000690524       -0.0877674      -0.0787167      0.000293366    -4.04093e-05         0.218299       -0.963558
                        0.455891       -0.881948       0.00017686     0.000105568       -0.0797174       0.0112087      0.000577243    -0.000557726
                     0.000314286     4.74124e-05         0.218578       -0.964282      0.000511411    -0.000529312        -0.112331       0.0341878
281732                -0.0381868       -0.071203      0.000116979     0.000748628         0.455379        -0.88203      0.000262453     4.64169e-05
                     9.08295e-05     0.000690578       -0.0878035      -0.0786982       0.00029351    -4.05199e-05         0.217861       -0.963655
                        0.455507       -0.882144      0.000177025     0.000105531       -0.0797268       0.0112565       0.00057692    -0.000558113
                      0.00031433     4.72895e-05         0.218138       -0.964379      0.000511147    -0.000529611        -0.112325        0.034258
281734                -0.0382153      -0.0712059      0.000117389     0.000748579         0.454995       -0.882226      0.000262505     4.63238e-05
                     9.10666e-05     0.000690632       -0.0878395      -0.0786797      0.000293654    -4.06305e-05         0.217422       -0.963752
                        0.455123        -0.88234       0.00017719     0.000105494       -0.0797362       0.0113044      0.000576596    -0.000558499
                     0.000314373     4.71666e-05         0.217699       -0.964476      0.000510884     -0.00052991        -0.112318       0.0343282
281736                -0.0382438      -0.0712088      0.000117799      0.00074853         0.454611       -0.882421      0.000262556     4.62307e-05
                     9.13039e-05     0.000690686       -0.0878756      -0.0786612      0.000293797    -4.07412e-05         0.216984       -0.963848
                        0.454739       -0.882536      0.000177354     0.000105457       -0.0797456       0.0113523      0.000576272    -0.000558884
                     0.000314416     4.70437e-05          0.21726       -0.964573       0.00051062    -0.000530209        -0.112312       0.0343984
281738                -0.0382724      -0.0712116      0.000118209     0.000748481         0.454227       -0.882617      0.000262608     4.61377e-05
                     9.15412e-05      0.00069074       -0.0879116      -0.0786427       0.00029394     -4.0852e-05         0.216541       -0.963944
                        0.454355       -0.882732      0.000177518      0.00010542       -0.0797549       0.0114001      0.000575944    -0.000559265
                     0.000314459     4.69208e-05          0.21682       -0.964669      0.000510357    -0.000530507        -0.112305       0.0344696
281740                -0.0383009      -0.0712145      0.000118619     0.000748431         0.453843       -0.882813      0.000262659     4.60448e-05
                     9.17787e-05     0.000690794       -0.0879476      -0.0786242      0.000294083    -4.09629e-05         0.216106       -0.964041
                        0.453971       -0.882928      0.000177681     0.000105382       -0.0797643        0.011448        0.0005756    -0.000559653
                     0.000314502     4.67978e-05         0.216381       -0.964765      0.000510093    -0.000530805        -0.112299       0.0345389
281742                -0.0383294      -0.0712173      0.000119029     0.000748381         0.453458       -0.883008      0.000262709     4.59524e-05
                     9.20162e-05     0.000690848       -0.0879837      -0.0786057      0.000294226    -4.10738e-05         0.215667       -0.964137
                        0.453586       -0.883123      0.000177844     0.000105345       -0.0797736       0.0114959      0.000575279    -0.000560062
                     0.000314545     4.66748e-05         0.215941       -0.964862       0.00050983    -0.000531103        -0.112293       0.0346091
281744                 -0.038358      -0.0712201      0.000119439     0.000748331         0.453074       -0.883203      0.000262759     4.58608e-05
                     9.22538e-05     0.000690902       -0.0880197      -0.0785871      0.000294369    -4.11848e-05         0.215228       -0.964233
                        0.453202       -0.883319      0.000178007     0.000105308       -0.0797828       0.0115438      0.000574963     -0.00056045
                     0.000314588     4.65517e-05         0.215502       -0.964958      0.000509566    -0.000531401        -0.112286       0.0346794
281746                -0.0383865      -0.0712229      0.000119849      0.00074828          0.45269       -0.883399       0.00026281     4.57704e-05
                     9.24916e-05     0.000690955       -0.0880557      -0.0785685      0.000294511    -4.12958e-05         0.214789       -0.964328
                        0.452818       -0.883514      0.000178169     0.000105271       -0.0797921       0.0115918      0.000574642    -0.000560836
                     0.000314631     4.64287e-05         0.215062       -0.965053      0.000509302    -0.000531699         -0.11228       0.0347496
281748                -0.0384151      -0.0712257       0.00012026     0.000748229         0.452305       -0.883593      0.000262861     4.56812e-05
                     9.27294e-05     0.000691009       -0.0880917      -0.0785499      0.000294653    -4.14066e-05          0.21435       -0.964424
                        0.452433       -0.883709      0.000178331     0.000105233       -0.0798013       0.0116397      0.000574318    -0.000561222
                     0.000314674     4.63056e-05         0.214622       -0.965149      0.000509038    -0.000531996        -0.112273       0.0348198
281750                -0.0384437      -0.0712285       0.00012067     0.000748178         0.451921       -0.883788      0.000262913      4.5593e-05
                     9.29673e-05     0.000691062       -0.0881278      -0.0785313      0.000294796    -4.15167e-05         0.213911       -0.964519
                        0.452048       -0.883904      0.000178494     0.000105196       -0.0798104       0.0116877      0.000573994    -0.000561607
                     0.000314717     4.61825e-05         0.214183       -0.965244      0.000508774    -0.000532294        -0.112267         0.03489
281752                -0.0384722      -0.0712313       0.00012108     0.000748127         0.451536       -0.883983      0.000262968     4.55048e-05
                     9.32053e-05     0.000691116       -0.0881638      -0.0785127      0.000294937    -4.16555e-05         0.213472       -0.964614
                        0.451664       -0.884099      0.000178657     0.000105158       -0.0798196       0.0117356      0.000573669    -0.000561993
                      0.00031476     4.60595e-05         0.213743       -0.965339      0.000508505    -0.000532589         -0.11226       0.0349603
281754                -0.0385008      -0.0712341       0.00012149     0.000748077         0.451151       -0.884177      0.000263023     4.54158e-05
                     9.34438e-05      0.00069117       -0.0881998       -0.078494      0.000295076    -4.17446e-05         0.213033       -0.964709
                        0.451279       -0.884293      0.000178823     0.000105119       -0.0798287       0.0117836      0.000573343    -0.000562379
                     0.000314801     4.59379e-05         0.213303       -0.965434       0.00050825    -0.000532883        -0.112253       0.0350305
281756                -0.0385294      -0.0712368        0.0001219     0.000748034         0.450766       -0.884371       0.00026308     4.53256e-05
                     9.36814e-05     0.000691222       -0.0882358      -0.0784753      0.000295218    -4.18552e-05         0.212594       -0.964803
                        0.450894       -0.884488      0.000179001     0.000105078       -0.0798378       0.0118316      0.000573018    -0.000562765
                     0.000314847     4.58129e-05         0.212863       -0.965529      0.000507986    -0.000533181        -0.112247       0.0351008
281758                 -0.038558      -0.0712396      0.000122364     0.000747984         0.450381       -0.884566      0.000263136     4.52346e-05
                     9.39197e-05     0.000691276       -0.0882717      -0.0784563      0.000295359    -4.19665e-05         0.212155       -0.964898
                        0.450509       -0.884682      0.000178656     0.000105286       -0.0798469       0.0118796      0.000572691     -0.00056315
                      0.00031489     4.56897e-05         0.212427       -0.965625      0.000507722    -0.000533477         -0.11224        0.035171
281760                -0.0385866      -0.0712423      0.000122744     0.000747895         0.449996       -0.884759      0.000263192      4.5143e-05
                     9.41581e-05     0.000691329       -0.0883078      -0.0784379      0.000295499    -4.20782e-05         0.211716       -0.964992
                        0.450124       -0.884876       0.00017925     0.000105021       -0.0798559       0.0119276      0.000572365    -0.000563536
                     0.000314933     4.55664e-05         0.211983       -0.965718      0.000507458    -0.000533773        -0.112233       0.0352413
281762                -0.0386152       -0.071245      0.000123147     0.000747843         0.449611       -0.884953      0.000263248     4.50513e-05
                     9.43966e-05     0.000691382       -0.0883439      -0.0784192       0.00029564    -4.21901e-05         0.211276       -0.965086
                        0.449738        -0.88507      0.000179423      0.00010498       -0.0798649       0.0119757      0.000572038    -0.000563921
