! TOUCHSTONE file generated by CST MICROWAVE STUDIO
! Date and time: Tue Oct 14 07:31:43 2025
! Project name: Teste_Macro_Metasurface_Nanopilar.cst
! Parameters = {H=600; L_x=180; L_y=80; Lambda=1064; Max_L=200; Min_L=70; PathPara=1; Phi=0; Step_L=10; Theta=0; p=520; phaseX=180; phaseY=0}
! Header version: 2018
! Port assignment regex: !\s*Touchstone port\s*([0-9]+)\s*=\s*(CST MWS port|CST DS port)\s*([0-9]+|Zmin|Zmax)\s*\(\"(.*)\"\)(\s*mode\s*([0-9]+))?.*
! Touchstone port assignment:
! Touchstone port 1 = CST MWS port Zmax ("") mode 1
! Touchstone port 2 = CST MWS port Zmax ("") mode 2
! Touchstone port 3 = CST MWS port Zmin ("") mode 1
! Touchstone port 4 = CST MWS port Zmin ("") mode 2
! S-Parameters are not renormalized. Each port impedance will be approximated by the real part at minimum frequency. The values are described via the [Reference] keyword.
! Default impedance is overridden by [Reference]
[Version] 2.0
# GHz S RI R 376.73
[Number of Ports] 4
[Reference]
376.73 376.73 259.814 259.814 
[Number of Frequencies] 51
[Network Data]
281700                 0.0304183       0.0340797      0.000234767      0.00012818         0.886773       -0.457122     -3.82519e-05     0.000246587
                     0.000237162      0.00010363       -0.0660265       -0.231945     -0.000310034     0.000241421         0.186662        0.946329
                        0.887051       -0.457093     -0.000189526     0.000181713        0.0100827       0.0450917     -0.000290737    -0.000114442
                      0.00011227     0.000308216         0.186554        0.946214     -0.000337436    -0.000123102        0.0289973        0.238545
281702                 0.0304365       0.0340599      0.000234748      0.00012815         0.886598       -0.457463     -3.81486e-05     0.000246647
                     0.000237142     0.000103507       -0.0661131       -0.231959     -0.000310132     0.000241508         0.187106        0.946232
                        0.886875       -0.457435     -0.000189455     0.000181862        0.0100904       0.0450874     -0.000290742    -0.000114128
                     0.000112344     0.000308013         0.186998        0.946116     -0.000337514    -0.000123001         0.029148        0.238564
281704                 0.0304547       0.0340401      0.000234729     0.000128119         0.886422       -0.457804     -3.80452e-05     0.000246706
                     0.000237122     0.000103383       -0.0661997       -0.231974     -0.000310229     0.000241596          0.18755        0.946135
                        0.886699       -0.457776     -0.000189384      0.00018201        0.0100981        0.045083     -0.000290746    -0.000113814
                     0.000112417     0.000307809         0.187441        0.946019     -0.000337592      -0.0001229        0.0292987        0.238584
281706                 0.0304729       0.0340202      0.000234711     0.000128088         0.886246       -0.458145     -3.79417e-05     0.000246766
                     0.000237101      0.00010326       -0.0662863       -0.231988     -0.000310327     0.000241684         0.187993        0.946037
                        0.886524       -0.458117     -0.000189312     0.000182158        0.0101058       0.0450787      -0.00029075      -0.0001135
                     0.000112489     0.000307605         0.187884        0.945921      -0.00033767    -0.000122798        0.0294495        0.238603
281708                 0.0304911       0.0340004      0.000234692     0.000128057          0.88607       -0.458486      -3.7838e-05     0.000246825
                      0.00023708     0.000103136        -0.066373       -0.232003     -0.000310423     0.000241771         0.188437        0.945939
                        0.886348       -0.458458     -0.000189241     0.000182307        0.0101135       0.0450743     -0.000290753    -0.000113185
                     0.000112561     0.000307401         0.188328        0.945824     -0.000337748    -0.000122697        0.0296002        0.238622
281710                 0.0305092       0.0339805      0.000234674     0.000128026         0.885893       -0.458827     -3.77343e-05     0.000246885
                     0.000237058     0.000103013       -0.0664596       -0.232017      -0.00031052     0.000241859          0.18888        0.945842
                        0.886171       -0.458799     -0.000189169     0.000182455        0.0101212         0.04507     -0.000290756    -0.000112871
                     0.000112632     0.000307197         0.188771        0.945726     -0.000337826    -0.000122595        0.0297511        0.238641
281712                 0.0305274       0.0339606      0.000234656     0.000127995         0.885717       -0.459167     -3.76305e-05     0.000246944
                     0.000237036      0.00010289       -0.0665463       -0.232032     -0.000310616     0.000241947         0.189324        0.945743
                        0.885995       -0.459139     -0.000189097     0.000182603         0.010129       0.0450656     -0.000290758    -0.000112556
                     0.000112702     0.000306992         0.189214        0.945627     -0.000337904    -0.000122494        0.0299019         0.23866
281714                 0.0305455       0.0339407      0.000234638     0.000127964          0.88554       -0.459508     -3.75267e-05     0.000247004
                     0.000237014     0.000102767        -0.066633       -0.232046     -0.000310711     0.000242036         0.189767        0.945645
                        0.885818        -0.45948     -0.000189024      0.00018275        0.0101367       0.0450613     -0.000290759    -0.000112242
                     0.000112771     0.000306787         0.189658        0.945529     -0.000337981    -0.000122392        0.0300528        0.238678
281716                 0.0305637       0.0339207       0.00023462     0.000127932         0.885364       -0.459849     -3.74229e-05     0.000247064
                     0.000236992     0.000102644       -0.0667197       -0.232061     -0.000310807     0.000242124         0.190211        0.945546
                        0.885642       -0.459821     -0.000188952     0.000182898        0.0101444       0.0450569     -0.000290761    -0.000111927
                     0.000112839     0.000306582         0.190101         0.94543     -0.000338059    -0.000122291        0.0302038        0.238697
281718                 0.0305818       0.0339008      0.000234602     0.000127901         0.885187       -0.460189     -3.73192e-05     0.000247124
                     0.000236969     0.000102521       -0.0668064       -0.232075     -0.000310901     0.000242212         0.190654        0.945448
                        0.885465       -0.460161     -0.000188879     0.000183046        0.0101521       0.0450526     -0.000290762    -0.000111613
                     0.000112906     0.000306376         0.190544        0.945331     -0.000338137    -0.000122189        0.0303548        0.238716
281720                 0.0305999       0.0338808      0.000234584     0.000127869          0.88501        -0.46053     -3.72156e-05     0.000247183
                     0.000236946     0.000102398       -0.0668932       -0.232089     -0.000310995     0.000242301         0.191097        0.945349
                        0.885288       -0.460502     -0.000188806     0.000183193        0.0101598       0.0450483     -0.000290762    -0.000111298
                     0.000112971      0.00030617         0.190987        0.945232     -0.000338214    -0.000122088        0.0305058        0.238734
281722                  0.030618       0.0338608      0.000234567     0.000127838         0.884833        -0.46087     -3.71122e-05     0.000247243
                     0.000236922     0.000102275         -0.06698       -0.232104     -0.000311089     0.000242389         0.191541        0.945249
                        0.885111       -0.460842     -0.000188733      0.00018334        0.0101675       0.0450439     -0.000290763    -0.000110983
                     0.000113036     0.000305964          0.19143        0.945133     -0.000338291    -0.000121987        0.0306568        0.238752
281724                 0.0306361       0.0338408      0.000234549     0.000127806         0.884656       -0.461211      -3.7009e-05     0.000247302
                     0.000236898     0.000102152       -0.0670667       -0.232118     -0.000311182     0.000242477         0.191984         0.94515
                        0.884933       -0.461183      -0.00018866     0.000183487        0.0101752       0.0450396     -0.000290763    -0.000110668
                     0.000113099     0.000305757         0.191873        0.945033     -0.000338369    -0.000121885        0.0308079        0.238771
281726                 0.0306542       0.0338208      0.000234532     0.000127774         0.884478       -0.461551     -3.69059e-05     0.000247361
                     0.000236874      0.00010203       -0.0671535       -0.232132     -0.000311275     0.000242566         0.192427         0.94505
                        0.884756       -0.461523     -0.000188586     0.000183634        0.0101829       0.0450353     -0.000290763    -0.000110354
                     0.000113162      0.00030555         0.192316        0.944934     -0.000338446    -0.000121784         0.030959        0.238789
281728                 0.0306723       0.0338008      0.000234515     0.000127742         0.884301       -0.461891     -3.68027e-05      0.00024742
                     0.000236849     0.000101907       -0.0672403       -0.232147     -0.000311367     0.000242654          0.19287        0.944951
                        0.884578       -0.461863     -0.000188513     0.000183781        0.0101906       0.0450309     -0.000290762    -0.000110039
                     0.000113223     0.000305342         0.192758        0.944834     -0.000338522    -0.000121683        0.0311102        0.238807
281730                 0.0306904       0.0337808      0.000234498      0.00012771         0.884123       -0.462231     -3.66994e-05     0.000247479
                     0.000236824     0.000101785       -0.0673272       -0.232161     -0.000311459     0.000242742         0.193313        0.944851
                          0.8844       -0.462203     -0.000188439     0.000183928        0.0101983       0.0450266     -0.000290762    -0.000109724
                     0.000113282     0.000305134         0.193201        0.944734     -0.000338599    -0.000121582        0.0312614        0.238825
281732                 0.0307085       0.0337608      0.000234481     0.000127678         0.883945       -0.462571     -3.65959e-05     0.000247537
                     0.000236798     0.000101662        -0.067414       -0.232175     -0.000311551      0.00024283         0.193756         0.94475
                        0.884223       -0.462543     -0.000188365     0.000184074         0.010206       0.0450223     -0.000290761     -0.00010941
                      0.00011334     0.000304925         0.193644        0.944633     -0.000338675    -0.000121481        0.0314126        0.238843
281734                 0.0307266       0.0337408      0.000234464     0.000127646         0.883768       -0.462911     -3.64923e-05     0.000247595
                     0.000236771      0.00010154       -0.0675009       -0.232189     -0.000311642     0.000242917         0.194199         0.94465
                        0.884045       -0.462883     -0.000188291     0.000184221        0.0102137       0.0450179     -0.000290761    -0.000109096
                     0.000113397     0.000304715         0.194087        0.944533     -0.000338752     -0.00012138        0.0315639        0.238861
281736                 0.0307446       0.0337208      0.000234447     0.000127613          0.88359       -0.463251     -3.63884e-05     0.000247653
                     0.000236744     0.000101417       -0.0675878       -0.232203     -0.000311732     0.000243005         0.194642        0.944549
                        0.883867       -0.463223     -0.000188217     0.000184367        0.0102214       0.0450136      -0.00029076    -0.000108781
                     0.000113452     0.000304505         0.194529        0.944432     -0.000338827    -0.000121279        0.0317152        0.238879
281738                 0.0307627       0.0337008      0.000234431     0.000127581         0.883411       -0.463591     -3.62843e-05     0.000247711
                     0.000236717     0.000101295       -0.0676747       -0.232217     -0.000311822     0.000243092         0.195085        0.944448
                        0.883688       -0.463563     -0.000188142     0.000184513         0.010229       0.0450093     -0.000290759    -0.000108468
                     0.000113505     0.000304294         0.194972        0.944331     -0.000338903    -0.000121178        0.0318666        0.238896
281740                 0.0307807       0.0336807      0.000234414     0.000127548         0.883233       -0.463931     -3.61801e-05     0.000247768
                     0.000236689     0.000101173       -0.0677616       -0.232232     -0.000311912     0.000243179         0.195528        0.944347
                         0.88351       -0.463903     -0.000188067     0.000184659        0.0102367        0.045005     -0.000290759    -0.000108154
                     0.000113557     0.000304082         0.195414         0.94423     -0.000338978    -0.000121078         0.032018        0.238914
281742                 0.0307987       0.0336607      0.000234398     0.000127515         0.883055       -0.464271     -3.60757e-05     0.000247826
                      0.00023666     0.000101051       -0.0678485       -0.232246     -0.000312001     0.000243265          0.19597        0.944246
                        0.883332       -0.464243     -0.000187992     0.000184805        0.0102444       0.0450007     -0.000290758    -0.000107841
                     0.000113606      0.00030387         0.195857        0.944128     -0.000339053    -0.000120978        0.0321694        0.238931
281744                 0.0308167       0.0336407      0.000234382     0.000127482         0.882876       -0.464611     -3.59711e-05     0.000247883
                      0.00023663     0.000100929       -0.0679354        -0.23226      -0.00031209     0.000243351         0.196413        0.944144
                        0.883153       -0.464583     -0.000187917     0.000184951        0.0102521       0.0449964     -0.000290757    -0.000107528
                     0.000113654     0.000303656         0.196299        0.944027     -0.000339127    -0.000120878        0.0323209        0.238949
281746                 0.0308347       0.0336207      0.000234366      0.00012745         0.882698        -0.46495     -3.58665e-05     0.000247941
                       0.0002366     0.000100807       -0.0680224       -0.232274     -0.000312179     0.000243437         0.196856        0.944043
                        0.882975       -0.464923     -0.000187842     0.000185097        0.0102598        0.044992     -0.000290755    -0.000107216
                       0.0001137     0.000303441         0.196742        0.943925       -0.0003392    -0.000120779        0.0324724        0.238966
281748                 0.0308527       0.0336006       0.00023435     0.000127417         0.882519        -0.46529     -3.57616e-05     0.000247998
                     0.000236569     0.000100685       -0.0681094       -0.232288     -0.000312267     0.000243522         0.197298        0.943941
                        0.882796       -0.465262     -0.000187767     0.000185242        0.0102674       0.0449877     -0.000290754    -0.000106903
                     0.000113743     0.000303226         0.197184        0.943823     -0.000339273    -0.000120679        0.0326239        0.238983
281750                 0.0308706       0.0335806      0.000234334     0.000127383          0.88234       -0.465629     -3.56567e-05     0.000248055
                     0.000236538     0.000100563       -0.0681964       -0.232302     -0.000312355     0.000243607         0.197741        0.943839
                        0.882618       -0.465602     -0.000187691     0.000185388        0.0102751       0.0449834     -0.000290753    -0.000106592
                     0.000113784     0.000303009         0.197626         0.94372     -0.000339345    -0.000120581        0.0327755        0.239001
281752                 0.0308886       0.0335606      0.000234319      0.00012735         0.882161       -0.465969     -3.55517e-05     0.000248112
                     0.000236505     0.000100442       -0.0682834       -0.232316     -0.000312443     0.000243692         0.198183        0.943736
                        0.882439       -0.465942     -0.000187616     0.000185533        0.0102828       0.0449791     -0.000290751     -0.00010628
                     0.000113823     0.000302791         0.198069        0.943618     -0.000339415    -0.000120482        0.0329271        0.239018
281754                 0.0309065       0.0335406      0.000234303     0.000127317         0.881982       -0.466308     -3.54465e-05     0.000248169
                     0.000236472      0.00010032       -0.0683704        -0.23233      -0.00031253     0.000243776         0.198626        0.943634
                         0.88226       -0.466281      -0.00018754     0.000185678        0.0102905       0.0449748     -0.000290749     -0.00010597
                      0.00011386     0.000302571         0.198511        0.943515     -0.000339485    -0.000120384        0.0330787        0.239035
281756                 0.0309244       0.0335205      0.000234288     0.000127283         0.881802       -0.466647     -3.53413e-05     0.000248226
                     0.000236438     0.000100199       -0.0684575       -0.232343     -0.000312617     0.000243859         0.199068        0.943531
                        0.882081       -0.466621     -0.000187464     0.000185823        0.0102981       0.0449705     -0.000290747    -0.000105659
                     0.000113894     0.000302351         0.198953        0.943412     -0.000339554    -0.000120287        0.0332304        0.239051
281758                 0.0309423       0.0335005      0.000234272      0.00012725         0.881623       -0.466987      -3.5236e-05     0.000248283
                     0.000236404     0.000100077       -0.0685445       -0.232357     -0.000312704     0.000243942         0.199511        0.943428
                        0.881903        -0.46696     -0.000187387     0.000185968        0.0103058       0.0449662     -0.000290745    -0.000105349
                     0.000113926     0.000302129         0.199395        0.943309     -0.000339621     -0.00012019        0.0333821        0.239068
281760                 0.0309601       0.0334805      0.000234257     0.000127216         0.881443       -0.467326     -3.51306e-05      0.00024834
                     0.000236368     9.99561e-05       -0.0686316       -0.232371     -0.000312791     0.000244025         0.199953        0.943325
                        0.881724         -0.4673     -0.000187311     0.000186113        0.0103134       0.0449619     -0.000290743    -0.000105039
                     0.000113956     0.000301907         0.199837        0.943206     -0.000339687    -0.000120094        0.0335339        0.239085
281762                  0.030978       0.0334604      0.000234242     0.000127182         0.881264       -0.467665     -3.50251e-05     0.000248397
                     0.000236332     9.98349e-05       -0.0687187       -0.232385     -0.000312878     0.000244107         0.200395        0.943221
                        0.881544       -0.467639     -0.000187235     0.000186258        0.0103211       0.0449576     -0.000290741     -0.00010473
