! TOUCHSTONE file generated by CST MICROWAVE STUDIO
! Date and time: Tue Oct 14 07:33:03 2025
! Project name: Teste_Macro_Metasurface_Nanopilar.cst
! Parameters = {H=600; L_x=200; L_y=120; Lambda=1064; Max_L=200; Min_L=70; PathPara=1; Phi=0; Step_L=10; Theta=0; p=520; phaseX=180; phaseY=0}
! Header version: 2018
! Port assignment regex: !\s*Touchstone port\s*([0-9]+)\s*=\s*(CST MWS port|CST DS port)\s*([0-9]+|Zmin|Zmax)\s*\(\"(.*)\"\)(\s*mode\s*([0-9]+))?.*
! Touchstone port assignment:
! Touchstone port 1 = CST MWS port Zmax ("") mode 1
! Touchstone port 2 = CST MWS port Zmax ("") mode 2
! Touchstone port 3 = CST MWS port Zmin ("") mode 1
! Touchstone port 4 = CST MWS port Zmin ("") mode 2
! S-Parameters are not renormalized. Each port impedance will be approximated by the real part at minimum frequency. The values are described via the [Reference] keyword.
! Default impedance is overridden by [Reference]
[Version] 2.0
# GHz S RI R 376.73
[Number of Ports] 4
[Reference]
376.73 376.73 259.814 259.814 
[Number of Frequencies] 51
[Network Data]
281700                  -0.09767       -0.120925      0.000284123    -0.000191136         0.103224         0.97763     -0.000738471     0.000321788
                     0.000270598    -0.000209335        -0.164121       0.0193612     -0.000570169     0.000524797         0.827388        0.528155
                        0.103574        0.977656     -0.000532707     0.000580535        -0.068755        0.138315      7.11396e-05    -0.000172306
                    -0.000791802     0.000408805         0.826967        0.528806      0.000121893    -0.000368082        0.0503331        0.151558
281702                -0.0977113       -0.120915      0.000284091    -0.000191149         0.103656        0.977582     -0.000738447     0.000322027
                     0.000270342    -0.000209319        -0.164125       0.0193703     -0.000569964     0.000524734         0.827617        0.527796
                        0.104006        0.977607     -0.000532418     0.000580911       -0.0686752        0.138375      7.10325e-05    -0.000172286
                     -0.00079195     0.000409019         0.827196        0.528448      0.000121727      -0.0003684        0.0504594        0.151522
281704                -0.0977526       -0.120905      0.000284059    -0.000191162         0.104087        0.977533     -0.000738423     0.000322269
                     0.000270087    -0.000209303        -0.164128       0.0193795     -0.000569759     0.000524668         0.827846        0.527438
                        0.104438        0.977557     -0.000532128     0.000581286       -0.0685954        0.138435       7.0926e-05    -0.000172264
                    -0.000792097     0.000409233         0.827425        0.528091      0.000121561    -0.000368721        0.0505856        0.151485
281706                -0.0977938       -0.120895      0.000284027    -0.000191173         0.104518        0.977484     -0.000738397     0.000322513
                     0.000269833    -0.000209286        -0.164131       0.0193886     -0.000569553     0.000524599         0.828075        0.527079
                         0.10487        0.977508     -0.000531838     0.000581659       -0.0685155        0.138494        7.082e-05    -0.000172241
                    -0.000792242     0.000409448         0.827653        0.527734      0.000121395    -0.000369046        0.0507118        0.151448
281708                -0.0978351       -0.120885      0.000283995    -0.000191184          0.10495        0.977435     -0.000738369     0.000322759
                     0.000269579     -0.00020927        -0.164134       0.0193978     -0.000569346     0.000524526         0.828303         0.52672
                        0.105301        0.977458     -0.000531547     0.000582031       -0.0684355        0.138554      7.07144e-05    -0.000172218
                    -0.000792384     0.000409662         0.827882        0.527376       0.00012123    -0.000369374         0.050838        0.151411
281710                -0.0978763       -0.120875      0.000283963    -0.000191195         0.105381        0.977385     -0.000738339     0.000323009
                     0.000269327    -0.000209254        -0.164137       0.0194069     -0.000569139     0.000524449         0.828531         0.52636
                        0.105733        0.977409     -0.000531257     0.000582402       -0.0683556        0.138613      7.06091e-05    -0.000172192
                    -0.000792525     0.000409875          0.82811        0.527018      0.000121064    -0.000369706        0.0509642        0.151375
281712                -0.0979176       -0.120864      0.000283931    -0.000191205         0.105812        0.977336     -0.000738306     0.000323261
                     0.000269075    -0.000209237         -0.16414       0.0194161     -0.000568932      0.00052437         0.828759        0.526001
                        0.106165        0.977359     -0.000530966     0.000582772       -0.0682755        0.138673      7.05041e-05    -0.000172166
                    -0.000792664     0.000410089         0.828338         0.52666      0.000120899    -0.000370042        0.0510903        0.151337
281714                -0.0979589       -0.120854      0.000283899    -0.000191214         0.106244        0.977286     -0.000738268     0.000323515
                     0.000268824    -0.000209221        -0.164143       0.0194253     -0.000568724     0.000524286         0.828987        0.525642
                        0.106597        0.977309     -0.000530675      0.00058314       -0.0681954        0.138732      7.03993e-05    -0.000172138
                    -0.000792801     0.000410303         0.828566        0.526303      0.000120734    -0.000370382        0.0512164          0.1513
281716                -0.0980001       -0.120844      0.000283866    -0.000191222         0.106675        0.977236     -0.000738226      0.00032377
                     0.000268573    -0.000209205        -0.164146       0.0194345     -0.000568515     0.000524199         0.829215        0.525283
                        0.107029        0.977258     -0.000530383     0.000583507       -0.0681153        0.138792      7.02945e-05    -0.000172108
                    -0.000792936     0.000410516         0.828794        0.525945       0.00012057    -0.000370725        0.0513425        0.151263
281718                -0.0980414       -0.120834      0.000283833     -0.00019123         0.107106        0.977186     -0.000738177     0.000324024
                     0.000268324    -0.000209189         -0.16415       0.0194437     -0.000568306     0.000524109         0.829443        0.524923
                         0.10746        0.977208     -0.000530091     0.000583872       -0.0680351        0.138851      7.01897e-05    -0.000172078
                    -0.000793069     0.000410729         0.829022        0.525586      0.000120406    -0.000371072        0.0514685        0.151226
281720                -0.0980827       -0.120824      0.000283799    -0.000191238         0.107537        0.977136     -0.000738123     0.000324276
                     0.000268075    -0.000209173        -0.164153       0.0194529     -0.000568097     0.000524015          0.82967        0.524563
                        0.107892        0.977157     -0.000529799     0.000584237       -0.0679549         0.13891      7.00848e-05    -0.000172046
                      -0.0007932     0.000410942          0.82925        0.525228      0.000120242    -0.000371423        0.0515945        0.151188
281722                 -0.098124       -0.120813      0.000283765    -0.000191245         0.107969        0.977085     -0.000738064     0.000324525
                     0.000267827    -0.000209157        -0.164156       0.0194621     -0.000567887     0.000523918         0.829897        0.524204
                        0.108324        0.977106     -0.000529507       0.0005846       -0.0678747        0.138969      6.99798e-05    -0.000172012
                    -0.000793329     0.000411155         0.829477         0.52487      0.000120079    -0.000371778        0.0517205        0.151151
281724                -0.0981652       -0.120803       0.00028373    -0.000191253           0.1084        0.977034     -0.000738001     0.000324769
                      0.00026758    -0.000209141        -0.164159       0.0194713     -0.000567677     0.000523817         0.830125        0.523844
                        0.108755        0.977055     -0.000529214     0.000584961       -0.0677944        0.139029      6.98746e-05    -0.000171977
                    -0.000793456     0.000411367         0.829704        0.524512      0.000119915    -0.000372136        0.0518464        0.151113
281726                -0.0982065       -0.120793      0.000283695     -0.00019126         0.108831        0.976983     -0.000737935     0.000325008
                     0.000267334    -0.000209125        -0.164162       0.0194806     -0.000567466     0.000523712         0.830351        0.523484
                        0.109187        0.977004     -0.000528921     0.000585322        -0.067714        0.139088      6.97691e-05    -0.000171941
                    -0.000793581     0.000411579         0.829931        0.524153      0.000119753    -0.000372498        0.0519723        0.151076
281728                -0.0982478       -0.120783      0.000283659    -0.000191267         0.109262        0.976932     -0.000737869      0.00032524
                     0.000267089     -0.00020911        -0.164166       0.0194898     -0.000567254     0.000523604         0.830578        0.523124
                        0.109618        0.976952     -0.000528628     0.000585681       -0.0676336        0.139147      6.96633e-05    -0.000171903
                    -0.000793704      0.00041179         0.830158        0.523795       0.00011959    -0.000372864        0.0520981        0.151038
281730                -0.0982891       -0.120772      0.000283623    -0.000191274         0.109693        0.976881     -0.000737804     0.000325468
                     0.000266844    -0.000209095        -0.164169       0.0194991     -0.000567042     0.000523493         0.830805        0.522764
                         0.11005        0.976901     -0.000528334     0.000586039       -0.0675531        0.139206      6.95573e-05    -0.000171864
                    -0.000793825     0.000412001         0.830385        0.523436      0.000119428    -0.000373234        0.0522239           0.151
281732                -0.0983304       -0.120762      0.000283586    -0.000191281         0.110124        0.976829     -0.000737741      0.00032569
                       0.0002666     -0.00020908        -0.164172       0.0195084      -0.00056683     0.000523377         0.831031        0.522404
                        0.110481        0.976849     -0.000528041     0.000586395       -0.0674726        0.139265      6.94511e-05    -0.000171823
                    -0.000793945     0.000412212         0.830612        0.523077      0.000119267    -0.000373608        0.0523497        0.150962
281734                -0.0983717       -0.120752      0.000283549    -0.000191288         0.110555        0.976778     -0.000737682     0.000325909
                     0.000266357    -0.000209065        -0.164175       0.0195177     -0.000566617     0.000523258         0.831258        0.522044
                        0.110913        0.976797     -0.000527747      0.00058675       -0.0673921        0.139324      6.93449e-05    -0.000171781
                    -0.000794062     0.000412422         0.830838        0.522719      0.000119106    -0.000373986        0.0524755        0.150924
281736                -0.0984129       -0.120742      0.000283512    -0.000191296         0.110986        0.976726     -0.000737625     0.000326126
                     0.000266115     -0.00020905        -0.164179        0.019527     -0.000566404     0.000523136         0.831484        0.521683
                        0.111344        0.976745     -0.000527452     0.000587104       -0.0673115        0.139383      6.92389e-05    -0.000171737
                    -0.000794178     0.000412631         0.831065         0.52236      0.000118945    -0.000374367        0.0526012        0.150886
281738                -0.0984542       -0.120731      0.000283474    -0.000191303         0.111417        0.976674     -0.000737572     0.000326342
                     0.000265873    -0.000209036        -0.164182       0.0195363      -0.00056619      0.00052301          0.83171        0.521323
                        0.111775        0.976692     -0.000527158     0.000587457       -0.0672309        0.139442      6.91335e-05    -0.000171692
                    -0.000794291      0.00041284         0.831291        0.522001      0.000118785    -0.000374753        0.0527269        0.150848
281740                -0.0984955       -0.120721      0.000283436    -0.000191311         0.111848        0.976621     -0.000737522     0.000326557
                     0.000265632    -0.000209022        -0.164185       0.0195456     -0.000565975      0.00052288         0.831936        0.520963
                        0.112207         0.97664     -0.000526863     0.000587809       -0.0671502        0.139501      6.90292e-05    -0.000171645
                    -0.000794403     0.000413049         0.831517        0.521642      0.000118625    -0.000375142        0.0528525         0.15081
281742                -0.0985368        -0.12071      0.000283398    -0.000191319         0.112279        0.976569     -0.000737475     0.000326772
                     0.000265392    -0.000209009        -0.164189       0.0195549      -0.00056576     0.000522746         0.832161        0.520602
                        0.112638        0.976587     -0.000526568     0.000588159       -0.0670694        0.139559      6.89267e-05    -0.000171598
                    -0.000794512     0.000413257         0.831743        0.521282      0.000118466    -0.000375536        0.0529781        0.150771
281744                -0.0985781         -0.1207      0.000283359    -0.000191328          0.11271        0.976516      -0.00073743     0.000326989
                     0.000265153    -0.000208995        -0.164192       0.0195642     -0.000565545     0.000522608         0.832387        0.520241
                        0.113069        0.976534     -0.000526273     0.000588508       -0.0669887        0.139618      6.88263e-05    -0.000171552
                     -0.00079462     0.000413464         0.831968        0.520923      0.000118308    -0.000375933        0.0531037        0.150733
281746                -0.0986194        -0.12069      0.000283321    -0.000191336         0.113141        0.976463     -0.000737387     0.000327206
                     0.000264915    -0.000208983        -0.164195       0.0195736     -0.000565329     0.000522467         0.832612         0.51988
                        0.113501        0.976481     -0.000525978     0.000588857       -0.0669078        0.139677      6.87278e-05    -0.000171508
                    -0.000794726     0.000413671         0.832194        0.520564       0.00011815    -0.000376334        0.0532292        0.150694
281748                -0.0986607       -0.120679      0.000283282    -0.000191346         0.113572         0.97641     -0.000737346     0.000327425
                     0.000264678     -0.00020897        -0.164199       0.0195829     -0.000565112     0.000522322         0.832837         0.51952
                        0.113932        0.976427     -0.000525682     0.000589204        -0.066827        0.139736      6.86295e-05    -0.000171468
                    -0.000794829     0.000413878         0.832419        0.520204      0.000117992     -0.00037674        0.0533547        0.150656
281750                 -0.098702       -0.120669      0.000283244    -0.000191355         0.114003        0.976357     -0.000737305     0.000327646
                     0.000264443    -0.000208958        -0.164202       0.0195923     -0.000564896     0.000522174         0.833062        0.519159
                        0.114363        0.976374     -0.000525387     0.000589551       -0.0667461        0.139794      6.85288e-05    -0.000171433
                    -0.000794931     0.000414085         0.832645        0.519845      0.000117835    -0.000377149        0.0534802        0.150617
281752                -0.0987433       -0.120659      0.000283206    -0.000191366         0.114433        0.976303     -0.000737265     0.000327868
                      0.00026421    -0.000208947        -0.164205       0.0196017     -0.000564678     0.000522021         0.833287        0.518798
                        0.114794         0.97632     -0.000525092       0.0005899       -0.0666651        0.139853      6.84236e-05      -0.0001714
                    -0.000795029     0.000414293          0.83287        0.519485      0.000117679    -0.000377562        0.0536056        0.150578
281754                -0.0987847       -0.120648      0.000283168    -0.000191379         0.114864         0.97625     -0.000737226     0.000328093
                     0.000263982    -0.000208938        -0.164209       0.0196111      -0.00056446     0.000521865         0.833512        0.518436
                        0.115225        0.976266     -0.000524804     0.000590261       -0.0665841        0.139911      6.83136e-05    -0.000171368
                    -0.000795124     0.000414504         0.833095        0.519125      0.000117523    -0.000377979         0.053731        0.150539
281756                 -0.098826       -0.120638      0.000283129    -0.000191398         0.115295        0.976196     -0.000737185     0.000328319
                     0.000263768    -0.000208941        -0.164212       0.0196204     -0.000564243     0.000521705         0.833736        0.518075
                        0.115656        0.976212     -0.000524527     0.000590527        -0.066503         0.13997      6.81995e-05    -0.000171334
                    -0.000795208      0.00041473          0.83332        0.518765      0.000117368      -0.0003784        0.0538564          0.1505
281758                -0.0988672       -0.120627      0.000283058    -0.000191414         0.115726        0.976142     -0.000737144     0.000328547
                     0.000263479    -0.000209025        -0.164216       0.0196298     -0.000564024     0.000521542         0.833961        0.517714
                        0.116087         0.97616     -0.000524205     0.000590893       -0.0664219        0.140028      6.80828e-05    -0.000171298
                    -0.000795079     0.000415268         0.833544        0.518405      0.000117212    -0.000378825        0.0539817        0.150461
281760                -0.0989087       -0.120617      0.000283026    -0.000191395         0.116156        0.976087     -0.000737101     0.000328776
                     0.000263209    -0.000208929        -0.164219       0.0196393     -0.000563803     0.000521375         0.834185        0.517352
                        0.116519        0.976103     -0.000523906     0.000591238       -0.0663408        0.140087      6.79645e-05     -0.00017126
                    -0.000795462     0.000415001         0.833769        0.518045      0.000117058    -0.000379255         0.054107        0.150422
281762                  -0.09895       -0.120606      0.000282995    -0.000191403         0.116587        0.976033     -0.000737057     0.000329006
                     0.000262989    -0.000208905        -0.164222       0.0196487     -0.000563583     0.000521203         0.834409        0.516991
                        0.116949        0.976049     -0.000523608     0.000591578       -0.0662596        0.140145      6.78454e-05    -0.000171221
