! TOUCHSTONE file generated by CST MICROWAVE STUDIO
! Date and time: Tue Oct 14 07:32:35 2025
! Project name: Teste_Macro_Metasurface_Nanopilar.cst
! Parameters = {H=600; L_x=190; L_y=190; Lambda=1064; Max_L=200; Min_L=70; PathPara=1; Phi=0; Step_L=10; Theta=0; p=520; phaseX=180; phaseY=0}
! Header version: 2018
! Port assignment regex: !\s*Touchstone port\s*([0-9]+)\s*=\s*(CST MWS port|CST DS port)\s*([0-9]+|Zmin|Zmax)\s*\(\"(.*)\"\)(\s*mode\s*([0-9]+))?.*
! Touchstone port assignment:
! Touchstone port 1 = CST MWS port Zmax ("") mode 1
! Touchstone port 2 = CST MWS port Zmax ("") mode 2
! Touchstone port 3 = CST MWS port Zmin ("") mode 1
! Touchstone port 4 = CST MWS port Zmin ("") mode 2
! S-Parameters are not renormalized. Each port impedance will be approximated by the real part at minimum frequency. The values are described via the [Reference] keyword.
! Default impedance is overridden by [Reference]
[Version] 2.0
# GHz S RI R 376.73
[Number of Ports] 4
[Reference]
376.73 376.73 259.814 259.814 
[Number of Frequencies] 51
[Network Data]
281700                 -0.371645       -0.164368      0.000295152     0.000351478         0.906712       0.0808347      0.000191846    -5.59298e-05
                     0.000301621     0.000349709        -0.372244       -0.164793     -4.52303e-05    -4.83152e-05         0.906416       0.0790875
                        0.906725       0.0810476      0.000216064    -3.88261e-05          0.39307      -0.0966143     -0.000315742     0.000317996
                     0.000231532    -1.33829e-05         0.906497       0.0794087     -0.000254757     0.000303358         0.393378      -0.0983247
281702                 -0.371703       -0.164257      0.000295179     0.000351299         0.906742       0.0804633      0.000191856    -5.58996e-05
                     0.000301794     0.000349535        -0.372302       -0.164682     -4.57415e-05    -4.84197e-05         0.906445       0.0787162
                        0.906755       0.0806762      0.000216221    -3.86813e-05         0.393029      -0.0968173     -0.000315639     0.000317938
                     0.000231527    -1.32545e-05         0.906526       0.0790371     -0.000254919     0.000304024         0.393336      -0.0985281
281704                 -0.371761       -0.164146      0.000295209      0.00035112         0.906772        0.080092      0.000191865    -5.58705e-05
                     0.000301968      0.00034936        -0.372361        -0.16457     -4.62632e-05    -4.85206e-05         0.906473       0.0783448
                        0.906784       0.0803048      0.000216375    -3.85354e-05         0.392988      -0.0970203     -0.000315537     0.000317881
                     0.000231521    -1.31244e-05         0.906555       0.0786654     -0.000255126     0.000304666         0.393294      -0.0987314
281706                  -0.37182       -0.164035      0.000295241     0.000350942         0.906802       0.0797206      0.000191876    -5.58428e-05
                     0.000302142     0.000349186        -0.372419       -0.164459     -4.67955e-05    -4.86181e-05         0.906502       0.0779734
                        0.906813       0.0799334      0.000216527    -3.83882e-05         0.392946      -0.0972233     -0.000315435     0.000317823
                     0.000231515    -1.29926e-05         0.906583       0.0782937     -0.000255426     0.000305275         0.393252      -0.0989346
281708                 -0.371878       -0.163924      0.000295277     0.000350765         0.906831       0.0793492      0.000191886     -5.5817e-05
                     0.000302317      0.00034901        -0.372478       -0.164348     -4.73385e-05    -4.87126e-05          0.90653        0.077602
                        0.906842        0.079562      0.000216675    -3.82399e-05         0.392905      -0.0974262     -0.000315332     0.000317766
                      0.00023151    -1.28592e-05         0.906611        0.077922     -0.000255946      0.00030585          0.39321      -0.0991379
281710                 -0.371936       -0.163813      0.000295316     0.000350588          0.90686       0.0789779      0.000191898    -5.57933e-05
                     0.000302493     0.000348834        -0.372536       -0.164237     -4.78921e-05    -4.88046e-05         0.906558       0.0772306
                        0.906871       0.0791905       0.00021682    -3.80903e-05         0.392863      -0.0976291      -0.00031523     0.000317708
                     0.000231504     -1.2724e-05         0.906639       0.0775503     -0.000257093     0.000306597         0.393168      -0.0993411
281712                 -0.371994       -0.163702      0.000295358     0.000350411          0.90689       0.0786065      0.000191912     -5.5772e-05
                      0.00030267     0.000348656        -0.372594       -0.164126     -4.84562e-05    -4.88946e-05         0.906586       0.0768591
                          0.9069       0.0788191      0.000216962    -3.79395e-05         0.392821       -0.097832     -0.000315127     0.000317651
                     0.000231497    -1.25872e-05         0.906667       0.0771786     -0.000258772     0.000309691         0.393125      -0.0995444
281714                 -0.372052        -0.16359      0.000295402     0.000350234         0.906919       0.0782351      0.000191929    -5.57533e-05
                     0.000302848     0.000348477        -0.372653       -0.164014     -4.90305e-05     -4.8983e-05         0.906614       0.0764877
                        0.906928       0.0784476      0.000217101    -3.77873e-05         0.392779      -0.0980349     -0.000315025     0.000317593
                     0.000231491    -1.24486e-05         0.906695       0.0768069      -0.00025571      0.00031212         0.393083      -0.0997476
281716                 -0.372111       -0.163479      0.000295449     0.000350058         0.906948       0.0778637      0.000191951    -5.57365e-05
                     0.000303027     0.000348297        -0.372711       -0.163903     -4.96147e-05    -4.90705e-05         0.906641       0.0761162
                        0.906957       0.0780761      0.000217237    -3.76338e-05         0.392737      -0.0982377     -0.000314922     0.000317536
                     0.000231484    -1.23084e-05         0.906723       0.0764352     -0.000254727     0.000311686          0.39304      -0.0999508
281718                 -0.372169       -0.163368      0.000295499     0.000349881         0.906976       0.0774924      0.000191981    -5.57197e-05
                     0.000303209     0.000348114        -0.372769       -0.163792     -5.02081e-05    -4.91576e-05         0.906669       0.0757448
                        0.906985       0.0777046      0.000217371     -3.7479e-05         0.392695      -0.0984405     -0.000314819     0.000317478
                     0.000231477    -1.21666e-05          0.90675       0.0760635     -0.000254666     0.000311818         0.392997       -0.100154
281720                 -0.372227       -0.163257      0.000295552     0.000349705         0.907005        0.077121      0.000192019     -5.5699e-05
                     0.000303394     0.000347929        -0.372827        -0.16368     -5.08103e-05    -4.92448e-05         0.906696       0.0753733
                        0.907013       0.0773331      0.000217501    -3.73227e-05         0.392653      -0.0986433     -0.000314716     0.000317421
                     0.000231469     -1.2023e-05         0.906777       0.0756917     -0.000254737     0.000312251         0.392954       -0.100357
281722                 -0.372285       -0.163146      0.000295608     0.000349528         0.907033       0.0767496      0.000192064    -5.56694e-05
                     0.000303582     0.000347742        -0.372886       -0.163569     -5.14202e-05    -4.93327e-05         0.906723       0.0750019
                        0.907041       0.0769616      0.000217628     -3.7165e-05         0.392611      -0.0988461     -0.000314614     0.000317363
                     0.000231462    -1.18778e-05         0.906804         0.07532     -0.000254828     0.000312821         0.392911        -0.10056
281724                 -0.372343       -0.163034      0.000295667     0.000349351         0.907062       0.0763782      0.000192111    -5.56272e-05
                     0.000303774     0.000347554        -0.372944       -0.163458     -5.20372e-05    -4.94216e-05          0.90675       0.0746304
                        0.907069       0.0765901      0.000217752    -3.70058e-05         0.392568      -0.0990488      -0.00031451     0.000317306
                     0.000231453     -1.1731e-05         0.906831       0.0749483     -0.000254917     0.000313462         0.392868       -0.100763
281726                 -0.372401       -0.162923      0.000295728     0.000349174          0.90709       0.0760068      0.000192152    -5.55736e-05
                     0.000303972     0.000347365        -0.373002       -0.163346     -5.26601e-05     -4.9512e-05         0.906777       0.0742589
                        0.907097       0.0762186      0.000217873    -3.68451e-05         0.392526      -0.0992516     -0.000314407     0.000317248
                     0.000231445    -1.15825e-05         0.906858       0.0745765     -0.000255001     0.000314143         0.392825       -0.100966
281728                 -0.372459       -0.162812      0.000295791     0.000348997         0.907118       0.0756354      0.000192183    -5.55135e-05
                     0.000304175     0.000347175         -0.37306       -0.163235      -5.3288e-05     -4.9604e-05         0.906804       0.0738874
                        0.907124        0.075847      0.000217991    -3.66829e-05         0.392483      -0.0994543     -0.000314304      0.00031719
                     0.000231437    -1.14324e-05         0.906885       0.0742048      -0.00025508      0.00031485         0.392782       -0.101169
281730                 -0.372517       -0.162701      0.000295858     0.000348819         0.907146        0.075264      0.000192204    -5.54526e-05
                     0.000304383     0.000346987        -0.373118       -0.163123     -5.39196e-05    -4.96977e-05         0.906831       0.0735159
                        0.907151       0.0754755      0.000218106    -3.65191e-05         0.392441       -0.099657       -0.0003142     0.000317133
                     0.000231428    -1.12807e-05         0.906911        0.073833     -0.000255153     0.000315575         0.392738       -0.101373
281732                 -0.372575       -0.162589      0.000295927      0.00034864         0.907173       0.0748926      0.000192218    -5.53945e-05
                     0.000304598     0.000346801        -0.373176       -0.163012     -5.45538e-05    -4.97932e-05         0.906857       0.0731444
                        0.907179       0.0751039      0.000218218    -3.63536e-05         0.392398      -0.0998596     -0.000314097     0.000317075
                      0.00023142    -1.11274e-05         0.906938       0.0734612     -0.000255223     0.000316314         0.392695       -0.101576
281734                 -0.372633       -0.162478      0.000295998     0.000348461         0.907201       0.0745212      0.000192228    -5.53404e-05
                     0.000304816     0.000346618        -0.373234         -0.1629     -5.51895e-05    -4.98902e-05         0.906883       0.0727728
                        0.907206       0.0747323      0.000218327    -3.61866e-05         0.392355       -0.100062     -0.000313993     0.000317017
                     0.000231412    -1.09728e-05         0.906964       0.0730894     -0.000255288     0.000317064         0.392651       -0.101779
281736                 -0.372691       -0.162367      0.000296072     0.000348282         0.907228       0.0741498      0.000192235    -5.52903e-05
                     0.000305039     0.000346439        -0.373292       -0.162789     -5.58257e-05    -4.99886e-05         0.906909       0.0724013
                        0.907233       0.0743608      0.000218433    -3.60178e-05         0.392312       -0.100265     -0.000313888     0.000316959
                     0.000231405    -1.08171e-05          0.90699       0.0727177     -0.000255351     0.000317821         0.392608       -0.101982
281738                 -0.372748       -0.162255      0.000296149     0.000348102         0.907255       0.0737783      0.000192241    -5.52435e-05
                     0.000305264     0.000346265         -0.37335       -0.162677     -5.64615e-05     -5.0088e-05         0.906935       0.0720298
                        0.907259       0.0739892      0.000218536    -3.58474e-05         0.392269       -0.100468     -0.000313784     0.000316901
                       0.0002314    -1.06606e-05         0.907016       0.0723459      -0.00025541     0.000318586         0.392564       -0.102185
281740                 -0.372806       -0.162144      0.000296228     0.000347921         0.907282       0.0734069      0.000192247    -5.51994e-05
                      0.00030549     0.000346094        -0.373408       -0.162566     -5.70958e-05     -5.0188e-05         0.906961       0.0716582
                        0.907286       0.0736176      0.000218636    -3.56752e-05         0.392225        -0.10067     -0.000313679     0.000316843
                     0.000231396    -1.05042e-05         0.907042        0.071974     -0.000255467     0.000319357          0.39252       -0.102388
281742                 -0.372864       -0.162032      0.000296309     0.000347739         0.907309       0.0730355      0.000192253    -5.51573e-05
                     0.000305716     0.000345927        -0.373466       -0.162454     -5.77281e-05    -5.02882e-05         0.906987       0.0712867
                        0.907312        0.073246      0.000218733    -3.55012e-05         0.392182       -0.100873     -0.000313573     0.000316784
                     0.000231394    -1.03489e-05         0.907067       0.0716022     -0.000255521     0.000320134         0.392476        -0.10259
281744                 -0.372922       -0.161921      0.000296393     0.000347557         0.907336        0.072664       0.00019226    -5.51168e-05
                     0.000305942     0.000345762        -0.373523       -0.162343     -5.83577e-05     -5.0388e-05         0.907012       0.0709151
                        0.907339       0.0728744      0.000218827    -3.53255e-05         0.392139       -0.101075     -0.000313467     0.000316725
                     0.000231393    -1.01964e-05         0.907093       0.0712304     -0.000255573     0.000320916         0.392432       -0.102793
281746                 -0.372979       -0.161809      0.000296479     0.000347373         0.907363       0.0722926      0.000192267    -5.50775e-05
                     0.000306168     0.000345599        -0.373581       -0.162231     -5.89841e-05    -5.04871e-05         0.907038       0.0705435
                        0.907365       0.0725028      0.000218917    -3.51478e-05         0.392095       -0.101278      -0.00031336     0.000316666
                     0.000231394    -1.00486e-05         0.907118       0.0708585     -0.000255622     0.000321702         0.392388       -0.102996
281748                 -0.373037       -0.161698      0.000296567     0.000347189         0.907389       0.0719211      0.000192274    -5.50392e-05
                     0.000306393     0.000345437        -0.373639        -0.16212     -5.96071e-05     -5.0585e-05         0.907063       0.0701719
                        0.907391       0.0721312      0.000219005    -3.49683e-05         0.392052        -0.10148     -0.000313251     0.000316606
                     0.000231393    -9.90714e-06         0.907143       0.0704867      -0.00025567     0.000322493         0.392343       -0.103199
281750                 -0.373095       -0.161586      0.000296657     0.000347003         0.907415       0.0715496      0.000192282    -5.50018e-05
                     0.000306617     0.000345275        -0.373697       -0.162008     -6.02264e-05    -5.06814e-05         0.907088       0.0698004
                        0.907416       0.0717595       0.00021909    -3.47869e-05         0.392008       -0.101683     -0.000313141     0.000316546
                     0.000231386    -9.77196e-06         0.907168       0.0701148     -0.000255716     0.000323288         0.392299       -0.103402
281752                 -0.373152       -0.161475      0.000296749     0.000346817         0.907442       0.0711781       0.00019229    -5.49651e-05
                     0.000306841     0.000345114        -0.373755       -0.161896      -6.0842e-05     -5.0776e-05         0.907113       0.0694288
                        0.907442       0.0713879      0.000219172    -3.46035e-05         0.391964       -0.101885     -0.000313027     0.000316486
                      0.00023137    -9.64059e-06         0.907193       0.0697429      -0.00025576     0.000324087         0.392254       -0.103605
281754                  -0.37321       -0.161363      0.000296843     0.000346629         0.907468       0.0708066      0.000192298     -5.4929e-05
                     0.000307065     0.000344952        -0.373812       -0.161785     -6.14538e-05    -5.08685e-05         0.907137       0.0690571
                        0.907468       0.0710163      0.000219252    -3.44181e-05          0.39192       -0.102088     -0.000312909     0.000316425
                     0.000231344    -9.50879e-06         0.907218       0.0693711     -0.000255802      0.00032489          0.39221       -0.103808
281756                 -0.373267       -0.161252      0.000296939      0.00034644         0.907493       0.0704352      0.000192307    -5.48936e-05
                      0.00030729     0.000344789         -0.37387       -0.161673     -6.20621e-05    -5.09589e-05         0.907162       0.0686855
                        0.907493       0.0706446      0.000219328    -3.42306e-05         0.391876        -0.10229     -0.000312784     0.000316369
                      0.00023131    -9.37266e-06         0.907242       0.0689992     -0.000255842     0.000325697         0.392165       -0.104011
281758                 -0.373325        -0.16114      0.000297037      0.00034625         0.907519       0.0700636      0.000192315     -5.4859e-05
                     0.000307514     0.000344626        -0.373927       -0.161561     -6.26669e-05    -5.10471e-05         0.907186       0.0683139
                        0.907518        0.070273      0.000219401     -3.4041e-05         0.391832       -0.102493     -0.000312652     0.000316322
                      0.00023127    -9.23025e-06         0.907267       0.0686272     -0.000255882     0.000326508          0.39212       -0.104213
281760                 -0.373382       -0.161029      0.000297137     0.000346058         0.907545       0.0696921      0.000192322    -5.48253e-05
                     0.000307739     0.000344461        -0.373985       -0.161449     -6.32687e-05    -5.11331e-05          0.90721       0.0679423
                        0.907543       0.0699013      0.000219472    -3.38493e-05         0.391788       -0.102695     -0.000312521     0.000316294
                     0.000231228    -9.08158e-06         0.907291       0.0682553     -0.000255919     0.000327323         0.392075       -0.104416
281762                  -0.37344       -0.160917      0.000297238     0.000345864          0.90757       0.0693206      0.000192329    -5.47927e-05
                     0.000307965     0.000344295        -0.374043       -0.161338     -6.38677e-05    -5.12172e-05         0.907234       0.0675707
                        0.907568       0.0695296       0.00021954    -3.36553e-05         0.391743       -0.102897     -0.000312409     0.000316278
