! TOUCHSTONE file generated by CST MICROWAVE STUDIO
! Date and time: Tue Oct 14 07:28:39 2025
! Project name: Teste_Macro_Metasurface_Nanopilar.cst
! Parameters = {H=600; L_x=130; L_y=120; Lambda=1064; Max_L=200; Min_L=70; PathPara=1; Phi=0; Step_L=10; Theta=0; p=520; phaseX=180; phaseY=0}
! Header version: 2018
! Port assignment regex: !\s*Touchstone port\s*([0-9]+)\s*=\s*(CST MWS port|CST DS port)\s*([0-9]+|Zmin|Zmax)\s*\(\"(.*)\"\)(\s*mode\s*([0-9]+))?.*
! Touchstone port assignment:
! Touchstone port 1 = CST MWS port Zmax ("") mode 1
! Touchstone port 2 = CST MWS port Zmax ("") mode 2
! Touchstone port 3 = CST MWS port Zmin ("") mode 1
! Touchstone port 4 = CST MWS port Zmin ("") mode 2
! S-Parameters are not renormalized. Each port impedance will be approximated by the real part at minimum frequency. The values are described via the [Reference] keyword.
! Default impedance is overridden by [Reference]
[Version] 2.0
# GHz S RI R 376.73
[Number of Ports] 4
[Reference]
376.73 376.73 259.814 259.814 
[Number of Frequencies] 51
[Network Data]
281700                -0.0414847       0.0191741       0.00013852     0.000521272         -0.90791        0.393727     -0.000436954    -0.000644049
                     0.000101243     0.000443122       -0.0217749      -0.0636276      -0.00040902    -0.000513334         -0.54507         0.82734
                       -0.908015        0.393917     -0.000511894     -0.00053399        0.0407412      -0.0146497      0.000340439     0.000192426
                    -0.000379077    -0.000525852        -0.544237        0.827074      0.000449986    -2.30783e-05       -0.0666852      0.00738639
281702                -0.0414667       0.0191613      0.000138806     0.000521138        -0.907708          0.3942     -0.000437375    -0.000643886
                     0.000101303     0.000443004       -0.0218024      -0.0636451     -0.000408943    -0.000513342        -0.544667        0.827604
                       -0.907812        0.394389     -0.000512304    -0.000533751        0.0407035       -0.014688      0.000340444     0.000192013
                    -0.000379515    -0.000525678        -0.543834        0.827338       0.00045041    -2.29283e-05       -0.0667056      0.00743269
281704                -0.0414487       0.0191485      0.000139093     0.000521003        -0.907505        0.394672     -0.000437796    -0.000643722
                     0.000101364     0.000442887         -0.02183      -0.0636625     -0.000408871    -0.000513349        -0.544263        0.827867
                       -0.907609         0.39486     -0.000512713    -0.000533512        0.0406656      -0.0147263       0.00034045       0.0001916
                    -0.000379953    -0.000525503        -0.543431        0.827601      0.000450827    -2.27814e-05        -0.066726      0.00747902
281706                -0.0414307       0.0191356      0.000139379     0.000520869        -0.907303        0.395144     -0.000438216    -0.000643558
                     0.000101424     0.000442769       -0.0218575      -0.0636799     -0.000408804    -0.000513355         -0.54386        0.828131
                       -0.907405        0.395331     -0.000513121    -0.000533273        0.0406278      -0.0147646      0.000340456     0.000191187
                    -0.000380392    -0.000525328        -0.543028        0.827864      0.000451236    -2.26377e-05       -0.0667463      0.00752538
281708                -0.0414127       0.0191228      0.000139665     0.000520735          -0.9071        0.395616     -0.000438636    -0.000643391
                     0.000101485     0.000442651       -0.0218851      -0.0636973     -0.000408742    -0.000513361        -0.543457        0.828394
                       -0.907201        0.395803      -0.00051353    -0.000533033        0.0405899      -0.0148028      0.000340462     0.000190774
                     -0.00038083    -0.000525153        -0.542625        0.828126      0.000451636    -2.24972e-05       -0.0667667      0.00757176
281710                -0.0413948       0.0191099      0.000139951     0.000520601        -0.906896        0.396088     -0.000439054    -0.000643224
                     0.000101545     0.000442533       -0.0219126      -0.0637147     -0.000408685    -0.000513366        -0.543053        0.828657
                       -0.906997        0.396274     -0.000513938    -0.000532793         0.040552      -0.0148409      0.000340469      0.00019036
                    -0.000381268    -0.000524977        -0.542222        0.828389      0.000452029    -2.23598e-05        -0.066787      0.00761817
281712                -0.0413768       0.0190971      0.000140238     0.000520467        -0.906693         0.39656     -0.000439472    -0.000643056
                     0.000101605     0.000442414       -0.0219402      -0.0637321     -0.000408633     -0.00051337         -0.54265         0.82892
                       -0.906793        0.396744     -0.000514346    -0.000532552        0.0405141       -0.014879      0.000340476     0.000189946
                    -0.000381706    -0.000524801        -0.541818        0.828651      0.000452415    -2.22256e-05       -0.0668072       0.0076646
281714                -0.0413589       0.0190842      0.000140524     0.000520333        -0.906489        0.397032     -0.000439889    -0.000642886
                     0.000101666     0.000442296       -0.0219678      -0.0637495     -0.000408585    -0.000513374        -0.542246        0.829183
                       -0.906589        0.397215     -0.000514754    -0.000532311        0.0404761      -0.0149171      0.000340484     0.000189532
                    -0.000382144    -0.000524624        -0.541415        0.828913      0.000452792    -2.20946e-05       -0.0668274      0.00771106
281716                 -0.041341       0.0190713       0.00014081       0.0005202        -0.906285        0.397504     -0.000440306    -0.000642715
                     0.000101726     0.000442177       -0.0219955      -0.0637668     -0.000408543    -0.000513376        -0.541842        0.829445
                       -0.906384        0.397686     -0.000515161    -0.000532069        0.0404381      -0.0149552      0.000340492     0.000189117
                    -0.000382583    -0.000524448        -0.541011        0.829175      0.000453162    -2.19667e-05       -0.0668476      0.00775755
281718                -0.0413232       0.0190584      0.000141096     0.000520066        -0.906081        0.397975     -0.000440721    -0.000642543
                     0.000101786     0.000442058       -0.0220231      -0.0637841     -0.000408506    -0.000513379        -0.541438        0.829707
                       -0.906179        0.398157     -0.000515569    -0.000531827        0.0404001      -0.0149931        0.0003405     0.000188703
                    -0.000383021    -0.000524271        -0.540608        0.829437      0.000453525    -2.18421e-05       -0.0668678      0.00780406
281720                -0.0413053       0.0190455      0.000141382     0.000519933        -0.905877        0.398447     -0.000441136    -0.000642369
                     0.000101847     0.000441938       -0.0220507      -0.0638014     -0.000408473     -0.00051338        -0.541034         0.82997
                       -0.905974        0.398627     -0.000515976    -0.000531584         0.040362      -0.0150311      0.000340508     0.000188288
                    -0.000383459    -0.000524093        -0.540204        0.829699       0.00045388    -2.17207e-05       -0.0668879       0.0078506
281722                -0.0412875       0.0190326      0.000141668     0.000519799        -0.905672        0.398918      -0.00044155    -0.000642194
                     0.000101909     0.000441818       -0.0220784      -0.0638187     -0.000408445    -0.000513381         -0.54063        0.830231
                       -0.905768        0.399097     -0.000516382     -0.00053134         0.040324       -0.015069      0.000340517     0.000187872
                    -0.000383896    -0.000523916          -0.5398         0.82996      0.000454228    -2.16024e-05        -0.066908      0.00789716
281724                -0.0412696       0.0190197      0.000141954     0.000519666        -0.905467        0.399389     -0.000441964    -0.000642018
                     0.000101971     0.000441698       -0.0221061       -0.063836     -0.000408422    -0.000513381        -0.540225        0.830493
                       -0.905563        0.399568     -0.000516789    -0.000531097        0.0402858      -0.0151069      0.000340527     0.000187457
                    -0.000384334    -0.000523738        -0.539395        0.830221      0.000454568    -2.14874e-05        -0.066928      0.00794375
281726                -0.0412518       0.0190067       0.00014224     0.000519533        -0.905262        0.399861     -0.000442376    -0.000641841
                     0.000102034     0.000441578       -0.0221338      -0.0638533     -0.000408404     -0.00051338        -0.539821        0.830754
                       -0.905357        0.400038     -0.000517195    -0.000530852        0.0402477      -0.0151447      0.000340536     0.000187041
                    -0.000384772    -0.000523559        -0.538991        0.830482      0.000454901    -2.13755e-05        -0.066948      0.00799037
281728                 -0.041234       0.0189938      0.000142525       0.0005194        -0.905057        0.400332     -0.000442788    -0.000641662
                     0.000102097     0.000441459       -0.0221615      -0.0638706      -0.00040839    -0.000513379        -0.539416        0.831016
                        -0.90515        0.400508     -0.000517601    -0.000530607        0.0402095      -0.0151825      0.000340546     0.000186624
                     -0.00038521    -0.000523381        -0.538587        0.830743      0.000455227    -2.12669e-05        -0.066968      0.00803701
281730                -0.0412163       0.0189808      0.000142811     0.000519266        -0.904851        0.400802     -0.000443198    -0.000641482
                     0.000102162      0.00044134       -0.0221892      -0.0638878     -0.000408381    -0.000513376        -0.539012        0.831277
                       -0.904944        0.400978     -0.000518007    -0.000530362        0.0401713      -0.0152202      0.000340557     0.000186208
                    -0.000385647    -0.000523202        -0.538182        0.831003      0.000455547    -2.11614e-05       -0.0669879      0.00808368
281732                -0.0411985       0.0189678      0.000143097     0.000519134        -0.904645        0.401273     -0.000443608    -0.000641301
                     0.000102227     0.000441222       -0.0222169       -0.063905     -0.000408377    -0.000513374        -0.538607        0.831538
                       -0.904737        0.401447     -0.000518412    -0.000530116         0.040133      -0.0152579      0.000340567     0.000185791
                    -0.000386084    -0.000523023        -0.537778        0.831264      0.000455859    -2.10591e-05       -0.0670078      0.00813037
281734                -0.0411808       0.0189549      0.000143383     0.000519001        -0.904439        0.401744     -0.000444017    -0.000641118
                     0.000102293     0.000441105       -0.0222447      -0.0639223     -0.000408377     -0.00051337        -0.538202        0.831798
                        -0.90453        0.401917     -0.000518818     -0.00052987        0.0400947      -0.0152956      0.000340578     0.000185373
                    -0.000386522    -0.000522843        -0.537373        0.831524      0.000456164      -2.096e-05       -0.0670277      0.00817709
281736                -0.0411631       0.0189419      0.000143668     0.000518868        -0.904232        0.402214     -0.000444426    -0.000640934
                     0.000102358      0.00044099       -0.0222725      -0.0639395     -0.000408382    -0.000513366        -0.537797        0.832059
                       -0.904323        0.402387     -0.000519223    -0.000529623        0.0400564      -0.0153332       0.00034059     0.000184956
                    -0.000386959    -0.000522664        -0.536968        0.831784      0.000456462    -2.08641e-05       -0.0670475      0.00822383
281738                -0.0411454       0.0189289      0.000143954     0.000518735        -0.904026        0.402685     -0.000444833    -0.000640749
                     0.000102422     0.000440876       -0.0223002      -0.0639566     -0.000408391    -0.000513361        -0.537392        0.832319
                       -0.904116        0.402856     -0.000519628    -0.000529376        0.0400181      -0.0153708      0.000340601     0.000184538
                    -0.000387396    -0.000522484        -0.536563        0.832043      0.000456754    -2.07713e-05       -0.0670673       0.0082706
281740                -0.0411277       0.0189158      0.000144239     0.000518602        -0.903819        0.403155     -0.000445239    -0.000640562
                     0.000102485     0.000440763        -0.022328      -0.0639738     -0.000408405    -0.000513355        -0.536987        0.832579
                       -0.903908        0.403325     -0.000520032    -0.000529128        0.0399797      -0.0154083      0.000340614      0.00018412
                    -0.000387833    -0.000522303        -0.536158        0.832303      0.000457039    -2.06817e-05       -0.0670871      0.00831739
281742                  -0.04111       0.0189028      0.000144524      0.00051847        -0.903612        0.403625     -0.000445645    -0.000640374
                     0.000102547      0.00044065       -0.0223558       -0.063991     -0.000408424    -0.000513349        -0.536581        0.832839
                         -0.9037        0.403795     -0.000520437    -0.000528879        0.0399413      -0.0154458      0.000340626     0.000183701
                     -0.00038827    -0.000522123        -0.535753        0.832562      0.000457318    -2.05952e-05       -0.0671068      0.00836421
281744                -0.0410924       0.0188898       0.00014481     0.000518337        -0.903404        0.404095      -0.00044605    -0.000640185
                     0.000102608     0.000440537       -0.0223837      -0.0640081     -0.000408447    -0.000513342        -0.536176        0.833098
                       -0.903492        0.404264     -0.000520841    -0.000528631        0.0399028      -0.0154833      0.000340639     0.000183282
                    -0.000388707    -0.000521942        -0.535348        0.832821       0.00045759    -2.05119e-05       -0.0671265      0.00841106
281746                -0.0410748       0.0188767      0.000145095     0.000518205        -0.903197        0.404565     -0.000446453    -0.000639994
                     0.000102668     0.000440423       -0.0224115      -0.0640252     -0.000408474    -0.000513334         -0.53577        0.833358
                       -0.903284        0.404733     -0.000521245    -0.000528381        0.0398644      -0.0155207      0.000340652     0.000182862
                    -0.000389144    -0.000521761        -0.534942         0.83308      0.000457855    -2.04317e-05       -0.0671462      0.00845793
281748                -0.0410572       0.0188636       0.00014538     0.000518072        -0.902989        0.405035     -0.000446856    -0.000639801
                     0.000102728      0.00044031       -0.0224394      -0.0640424     -0.000408506    -0.000513326        -0.535364        0.833617
                       -0.903075        0.405201     -0.000521649    -0.000528132        0.0398259       -0.015558      0.000340665     0.000182443
                    -0.000389582     -0.00052158        -0.534537        0.833339      0.000458114    -2.03546e-05       -0.0671658      0.00850482
281750                -0.0410396       0.0188506      0.000145665      0.00051794        -0.902781        0.405505     -0.000447258    -0.000639607
                     0.000102787     0.000440196       -0.0224672      -0.0640595     -0.000408542    -0.000513317        -0.534958        0.833876
                       -0.902866         0.40567     -0.000522052    -0.000527882        0.0397873      -0.0155954      0.000340679     0.000182022
                    -0.000390022    -0.000521399        -0.534131        0.833597      0.000458367    -2.02806e-05       -0.0671854      0.00855175
281752                 -0.041022       0.0188375       0.00014595     0.000517807        -0.902573        0.405975     -0.000447659    -0.000639412
                     0.000102846     0.000440081       -0.0224951      -0.0640765     -0.000408583    -0.000513307        -0.534552        0.834135
                       -0.902657        0.406139     -0.000522455    -0.000527633        0.0397488      -0.0156327      0.000340693     0.000181602
                    -0.000390465    -0.000521225        -0.533725        0.833856      0.000458614    -2.02097e-05        -0.067205      0.00859869
281754                -0.0410043       0.0188243      0.000146233     0.000517675        -0.902364        0.406444     -0.000448058    -0.000639215
                     0.000102904     0.000439966        -0.022523      -0.0640936     -0.000408627    -0.000513297        -0.534146        0.834393
                       -0.902448        0.406607      -0.00052286    -0.000527388        0.0397102      -0.0156699      0.000340707     0.000181181
                     -0.00039088    -0.000521055        -0.533319        0.834114      0.000458855    -2.01419e-05       -0.0672245      0.00864567
281756                -0.0409869       0.0188113      0.000146516     0.000517552        -0.902155        0.406913     -0.000448457    -0.000639016
                     0.000102962      0.00043985       -0.0225509      -0.0641107     -0.000408677    -0.000513285         -0.53374        0.834652
                       -0.902238        0.407076     -0.000523273    -0.000527125        0.0396716      -0.0157071      0.000340722     0.000180759
                    -0.000391313    -0.000520861        -0.532913        0.834372      0.000459089    -2.00772e-05        -0.067244      0.00869266
281758                -0.0409694       0.0187981      0.000146806     0.000517415        -0.901946        0.407383     -0.000448855    -0.000638816
                      0.00010302     0.000439733       -0.0225788      -0.0641277      -0.00040873    -0.000513274        -0.533334         0.83491
                       -0.902029        0.407544      -0.00052367    -0.000526871        0.0396329      -0.0157442      0.000340737     0.000180337
                    -0.000391749    -0.000520675        -0.532507        0.834629      0.000459318    -2.00156e-05       -0.0672634      0.00873969
281760                -0.0409519        0.018785      0.000147091     0.000517282        -0.901737        0.407852     -0.000449252    -0.000638614
                     0.000103079     0.000439616       -0.0226068      -0.0641447     -0.000408788    -0.000513261        -0.532927        0.835168
                       -0.901818        0.408012     -0.000524071    -0.000526619        0.0395942      -0.0157814      0.000340752     0.000179915
                    -0.000392185    -0.000520491        -0.532101        0.834887       0.00045954     -1.9957e-05       -0.0672829      0.00878673
281762                -0.0409344       0.0187719      0.000147375     0.000517149        -0.901527        0.408321     -0.000449647    -0.000638411
                     0.000103139     0.000439498       -0.0226347      -0.0641618      -0.00040885    -0.000513248        -0.532521        0.835426
                       -0.901608         0.40848     -0.000524472    -0.000526366        0.0395555      -0.0158184      0.000340768     0.000179492
