! TOUCHSTONE file generated by CST MICROWAVE STUDIO
! Date and time: Tue Oct 14 07:28:03 2025
! Project name: Teste_Macro_Metasurface_Nanopilar.cst
! Parameters = {H=600; L_x=120; L_y=135; Lambda=1064; Max_L=200; Min_L=70; PathPara=1; Phi=0; Step_L=10; Theta=0; p=520; phaseX=180; phaseY=0}
! Header version: 2018
! Port assignment regex: !\s*Touchstone port\s*([0-9]+)\s*=\s*(CST MWS port|CST DS port)\s*([0-9]+|Zmin|Zmax)\s*\(\"(.*)\"\)(\s*mode\s*([0-9]+))?.*
! Touchstone port assignment:
! Touchstone port 1 = CST MWS port Zmax ("") mode 1
! Touchstone port 2 = CST MWS port Zmax ("") mode 2
! Touchstone port 3 = CST MWS port Zmin ("") mode 1
! Touchstone port 4 = CST MWS port Zmin ("") mode 2
! S-Parameters are not renormalized. Each port impedance will be approximated by the real part at minimum frequency. The values are described via the [Reference] keyword.
! Default impedance is overridden by [Reference]
[Version] 2.0
# GHz S RI R 376.73
[Number of Ports] 4
[Reference]
376.73 376.73 259.814 259.814 
[Number of Frequencies] 51
[Network Data]
281700                -0.0485957       -0.106858     -0.000575057     0.000108233        -0.242292        0.956678     -6.41209e-05    -7.29303e-05
                    -0.000554763     0.000120214       -0.0402823     0.000122129     -0.000105173    -0.000298174        -0.829176        0.542611
                       -0.242145        0.956645     -4.10024e-05    -0.000302406       -0.0924209       0.0719815     -0.000232419    -0.000520653
                    -0.000120535    -4.15337e-06        -0.829384        0.542126     -0.000120968    -0.000456175        0.0153745      -0.0340478
281702                  -0.04865       -0.106858     -0.000576745      0.00010695        -0.241817        0.956811      -6.8836e-05    -8.15981e-05
                    -0.000592062     5.61473e-05       -0.0402752     0.000108092     -8.73181e-05    -0.000327501        -0.828895        0.543036
                       -0.242099         0.95685     -4.10778e-05    -0.000304942       -0.0924054       0.0720658      -0.00024704    -0.000533502
                    -0.000229908     7.96311e-05        -0.829108        0.542549      -0.00015657    -0.000422813        0.0153157      -0.0340625
281704                -0.0486793       -0.106861     -0.000576832     0.000108459        -0.241358        0.956933     -6.74751e-05    -7.75758e-05
                     -0.00057205     0.000114233       -0.0402681     9.40757e-05     -8.55448e-05    -0.000327467        -0.828613        0.543463
                       -0.241357        0.956644     -4.22718e-05    -0.000304011       -0.0923708       0.0721562     -0.000249261    -0.000529553
                    -0.000133742     2.70405e-05        -0.828831        0.542971     -0.000158809    -0.000423948        0.0152565      -0.0340774
281706                -0.0487211       -0.106866      -0.00057663      0.00010898        -0.240908        0.957048     -6.72508e-05    -7.69828e-05
                    -0.000568425     0.000116297       -0.0402611     8.00766e-05     -8.51077e-05     -0.00032734        -0.828332        0.543892
                       -0.240862        0.956809     -4.24085e-05    -0.000303588       -0.0923269       0.0722289     -0.000249494    -0.000528114
                      -0.0001306     2.09574e-05        -0.828555        0.543394     -0.000159525    -0.000424398        0.0151965      -0.0340925
281708                -0.0487632       -0.106871     -0.000576506     0.000109344         -0.24046        0.957161     -6.72126e-05    -7.67668e-05
                    -0.000567037      0.00011705       -0.0402542     6.60934e-05     -8.50222e-05    -0.000327215        -0.828052        0.544324
                       -0.240406        0.956946     -4.24724e-05    -0.000303353       -0.0922911       0.0722928     -0.000249486      -0.0005274
                    -0.000129768     1.87831e-05        -0.828278        0.543816     -0.000159863    -0.000424643        0.0151352      -0.0341084
281710                -0.0488053       -0.106875     -0.000576418     0.000109662        -0.240014        0.957271     -6.72371e-05    -7.66684e-05
                    -0.000566274      0.00011749       -0.0402473     5.21248e-05       -8.508e-05    -0.000327093        -0.827778        0.544759
                       -0.239957        0.957073     -4.25262e-05    -0.000303184       -0.0922608       0.0723568     -0.000249423    -0.000526977
                    -0.000129511     1.76996e-05        -0.828001        0.544238     -0.000160051    -0.000424801        0.0150718      -0.0341261
281712                -0.0488475       -0.106879     -0.000576349     0.000109961        -0.239569        0.957381       -6.729e-05    -7.66221e-05
                    -0.000565772     0.000117808       -0.0402406     3.81702e-05       -8.521e-05    -0.000326975        -0.827514        0.545191
                       -0.239511        0.957196     -4.25788e-05    -0.000303046       -0.0922328        0.072422     -0.000249344    -0.000526699
                    -0.000129484     1.70734e-05        -0.827723         0.54466     -0.000160164    -0.000424914        0.0150053      -0.0341481
281714                -0.0488896       -0.106883     -0.000576291      0.00011025        -0.239125        0.957489     -6.73583e-05    -7.66034e-05
                    -0.000565404     0.000118066       -0.0402338     2.42296e-05     -8.53814e-05    -0.000326859        -0.827252         0.54561
                       -0.239066        0.957316     -4.26317e-05    -0.000302924       -0.0922056       0.0724882     -0.000249261    -0.000526502
                    -0.000129574     1.66827e-05        -0.827446        0.545082     -0.000160234    -0.000425001        0.0149362      -0.0341805
281716                -0.0489318       -0.106887     -0.000576239     0.000110534        -0.238681        0.957597     -6.74358e-05    -7.66013e-05
                    -0.000565115     0.000118289       -0.0402272     1.03039e-05     -8.55786e-05    -0.000326745        -0.826982        0.546022
                       -0.238621        0.957435     -4.26854e-05    -0.000302812       -0.0921788       0.0725552     -0.000249178    -0.000526356
                    -0.000129732     1.64298e-05        -0.827168        0.545504     -0.000160277    -0.000425072        0.0148758      -0.0342341
281718                 -0.048974       -0.106891     -0.000576192     0.000110814        -0.238237        0.957705      -6.7519e-05    -7.66101e-05
                    -0.000564877     0.000118491       -0.0402206    -3.60522e-06      -8.5793e-05    -0.000326631        -0.826706        0.546434
                       -0.238177        0.957553     -4.27399e-05    -0.000302708       -0.0921522       0.0726226     -0.000249096    -0.000526245
                    -0.000129936     1.62653e-05         -0.82689        0.545926     -0.000160303    -0.000425132        0.0148584      -0.0342951
281720                -0.0490162       -0.106894     -0.000576149     0.000111091        -0.237793        0.957812     -6.76061e-05    -7.66265e-05
                    -0.000564673     0.000118679       -0.0402141     -1.7495e-05     -8.60193e-05    -0.000326517        -0.826426        0.546849
                       -0.237733         0.95767      -4.2795e-05    -0.000302609       -0.0921255       0.0726904     -0.000249017    -0.000526158
                    -0.000130173     1.61616e-05        -0.826612        0.546347     -0.000160317    -0.000425184         0.014864      -0.0343048
281722                -0.0490584       -0.106898     -0.000576108     0.000111366        -0.237349        0.957919     -6.76959e-05    -7.66486e-05
                    -0.000564495     0.000118856       -0.0402076    -3.13616e-05     -8.62543e-05    -0.000326404        -0.826146        0.547266
                       -0.237289        0.957786     -4.28508e-05    -0.000302514       -0.0920988       0.0727583     -0.000248941    -0.000526089
                    -0.000130435      1.6102e-05        -0.826334        0.546768     -0.000160322     -0.00042523         0.014836      -0.0342881
281724                -0.0491007       -0.106902      -0.00057607     0.000111639        -0.236904        0.958025     -6.77874e-05    -7.66753e-05
                    -0.000564338     0.000119025       -0.0402012    -4.52003e-05     -8.64957e-05    -0.000326291        -0.825865        0.547684
                       -0.236846        0.957901     -4.29071e-05    -0.000302424       -0.0920719       0.0728265     -0.000248868    -0.000526035
                    -0.000130718     1.60763e-05        -0.826055        0.547189     -0.000160319    -0.000425273        0.0147872      -0.0342789
281726                -0.0491429       -0.106906     -0.000576034     0.000111909         -0.23646        0.958132     -6.78799e-05     -7.6706e-05
                    -0.000564196     0.000119187       -0.0401949    -5.90058e-05     -8.67418e-05    -0.000326177        -0.825584        0.548103
                       -0.236402        0.958016      -4.2964e-05    -0.000302337        -0.092045       0.0728948     -0.000248801    -0.000525993
                    -0.000131021     1.60778e-05        -0.825777         0.54761     -0.000160312    -0.000425313        0.0147327      -0.0342787
281728                -0.0491852        -0.10691        -0.000576     0.000112178        -0.236015        0.958238     -6.79728e-05    -7.67402e-05
                    -0.000564068     0.000119345       -0.0401886    -7.27728e-05     -8.69917e-05    -0.000326063        -0.825303        0.548523
                       -0.235958         0.95813     -4.30213e-05    -0.000302254       -0.0920179       0.0729632     -0.000248739    -0.000525962
                    -0.000131341     1.61022e-05        -0.825498        0.548031     -0.000160301     -0.00042535        0.0146773      -0.0342839
281730                -0.0492275       -0.106913     -0.000575969     0.000112444        -0.235571        0.958344     -6.80657e-05    -7.67779e-05
                    -0.000563954     0.000119497       -0.0401823    -8.64975e-05     -8.72445e-05    -0.000325949        -0.825022        0.548942
                       -0.235515        0.958244      -4.3079e-05    -0.000302175       -0.0919907       0.0730317     -0.000248685    -0.000525941
                    -0.000131681     1.61471e-05        -0.825219        0.548452     -0.000160287    -0.000425386        0.0146222      -0.0342921
281732                -0.0492698       -0.106917      -0.00057594     0.000112707        -0.235126         0.95845     -6.81577e-05    -7.68194e-05
                    -0.000563852     0.000119645       -0.0401761    -0.000100179     -8.74994e-05    -0.000325834        -0.824741        0.549362
                       -0.235071        0.958358     -4.31367e-05    -0.000302102       -0.0919633       0.0731002     -0.000248642    -0.000525931
                     -0.00013204      1.6211e-05         -0.82494        0.548873      -0.00016027    -0.000425421        0.0145677      -0.0343022
281734                -0.0493121       -0.106921     -0.000575913     0.000112965         -0.23468        0.958556     -6.82482e-05    -7.68652e-05
                    -0.000563763     0.000119788       -0.0401698    -0.000113819     -8.77561e-05    -0.000325719         -0.82446        0.549782
                       -0.234628        0.958471     -4.31942e-05    -0.000302034       -0.0919356       0.0731689     -0.000248614    -0.000525934
                    -0.000132421     1.62939e-05         -0.82466        0.549293     -0.000160251    -0.000425456        0.0145138      -0.0343134
281736                -0.0493544       -0.106925      -0.00057589      0.00011322        -0.234235        0.958662     -6.83358e-05    -7.69163e-05
                    -0.000563688     0.000119926       -0.0401636    -0.000127426      -8.8014e-05    -0.000325603        -0.824179        0.550202
                       -0.234184        0.958583     -4.32509e-05    -0.000301974       -0.0919076       0.0732376     -0.000248607    -0.000525954
                    -0.000132828     1.63965e-05        -0.824381        0.549713      -0.00016023     -0.00042549        0.0144603      -0.0343253
281738                -0.0493968       -0.106928      -0.00057587     0.000113467         -0.23379        0.958767     -6.84188e-05    -7.69746e-05
                    -0.000563629     0.000120059       -0.0401573    -0.000141012     -8.82728e-05    -0.000325485        -0.823899        0.550621
                       -0.233741        0.958696     -4.33054e-05    -0.000301924       -0.0918789       0.0733064     -0.000248634    -0.000525998
                    -0.000133267     1.65211e-05        -0.824101        0.550133     -0.000160208    -0.000425526        0.0144072      -0.0343378
281740                -0.0494391       -0.106932     -0.000575853     0.000113705        -0.233344        0.958873     -6.84938e-05    -7.70431e-05
                    -0.000563591     0.000120184        -0.040151    -0.000154592     -8.85322e-05    -0.000325367        -0.823618        0.551041
                       -0.233297        0.958808     -4.33558e-05    -0.000301886       -0.0918492       0.0733756     -0.000248716    -0.000526082
                    -0.000133745     1.66714e-05        -0.823821        0.550553     -0.000160185    -0.000425562        0.0143544      -0.0343507
281742                -0.0494815       -0.106936     -0.000575839     0.000113931        -0.232898        0.958978     -6.85546e-05    -7.71274e-05
                    -0.000563578     0.000120299       -0.0401447     -0.00016818     -8.87918e-05    -0.000325247        -0.823337        0.551461
                       -0.232854        0.958919     -4.33979e-05    -0.000301864       -0.0918163       0.0734456     -0.000248903    -0.000526243
                    -0.000134275     1.68534e-05        -0.823541        0.550973     -0.000160161    -0.000425601        0.0143019      -0.0343638
281744                 -0.049524        -0.10694     -0.000575826     0.000114138        -0.232452        0.959084     -6.85874e-05    -7.72389e-05
                      -0.0005636     0.000120401       -0.0401384    -0.000181789     -8.90511e-05    -0.000325125        -0.823056         0.55188
                       -0.232412        0.959031     -4.34241e-05    -0.000301863       -0.0917642       0.0735238     -0.000249326    -0.000526591
                    -0.000134877     1.70771e-05         -0.82326        0.551393     -0.000160137    -0.000425643        0.0142497      -0.0343771
281746                -0.0495664       -0.106944     -0.000575808     0.000114319        -0.232006        0.959189     -6.85542e-05     -7.7402e-05
                    -0.000563671     0.000120482       -0.0401321    -0.000195428     -8.93096e-05       -0.000325        -0.822775        0.552299
                        -0.23197        0.959142     -4.34194e-05    -0.000301886       -0.0918211         0.07358     -0.000250469    -0.000527643
                     -0.00013558     1.73583e-05         -0.82298        0.551812     -0.000160112    -0.000425691        0.0141976      -0.0343906
281748                -0.0496089       -0.106948     -0.000575775     0.000114464         -0.23156        0.959294     -6.83096e-05    -7.76753e-05
                    -0.000563817     0.000120529       -0.0401257    -0.000209102     -8.95664e-05     -0.00032487        -0.822493        0.552719
                       -0.231528        0.959254     -4.33568e-05    -0.000301931        -0.091762       0.0736467     -0.000253868    -0.000538815
                    -0.000136438     1.77248e-05        -0.822699        0.552232     -0.000160087    -0.000425749        0.0141457      -0.0344042
281750                -0.0496515       -0.106952     -0.000575699     0.000114566        -0.231114        0.959399     -6.68557e-05     -7.7862e-05
                    -0.000564087     0.000120514       -0.0401194    -0.000222811     -8.98199e-05    -0.000324732        -0.822212        0.553138
                       -0.231088        0.959365     -4.31954e-05    -0.000301969       -0.0917281       0.0737159     -0.000241333    -0.000523975
                    -0.000137549     1.82278e-05        -0.822418        0.552651     -0.000160062    -0.000425823        0.0140939      -0.0344179
281752                -0.0496942       -0.106956     -0.000575536     0.000114639        -0.230668        0.959504     -6.86184e-05     -7.4225e-05
                    -0.000564581     0.000120364       -0.0401131    -0.000236553     -9.00668e-05     -0.00032458         -0.82193        0.553557
                       -0.230651        0.959477     -4.29125e-05     -0.00030191       -0.0916976       0.0737848     -0.000244698    -0.000524404
                    -0.000139125     1.89734e-05        -0.822137         0.55307     -0.000160038     -0.00042593        0.0140422      -0.0344316
281754                -0.0497371        -0.10696     -0.000575243      0.00011475        -0.230221        0.959609     -6.96934e-05    -7.58588e-05
                    -0.000565551     0.000119851       -0.0401068    -0.000250325     -9.02982e-05    -0.000324391        -0.821649        0.553976
                       -0.230217        0.959589     -4.26007e-05    -0.000301633       -0.0916682       0.0738536     -0.000245532     -0.00052468
                    -0.000141697     2.02212e-05        -0.821855        0.553489     -0.000160012    -0.000426116        0.0139906      -0.0344454
281756                -0.0497805       -0.106965     -0.000574864     0.000115013        -0.229775        0.959714     -6.97776e-05     -7.6363e-05
                    -0.000567706     0.000117856       -0.0401005    -0.000264123     -9.04826e-05    -0.000324066        -0.821367        0.554394
                       -0.229793          0.9597     -4.24632e-05    -0.000301172       -0.0916392       0.0739224     -0.000245864    -0.000524825
                    -0.000147132     2.28136e-05        -0.821574        0.553907     -0.000159948    -0.000426576        0.0139391      -0.0344593
281758                -0.0498247        -0.10697     -0.000574541      0.00011545        -0.229328        0.959818      -6.9842e-05    -7.65966e-05
                    -0.000567107       0.0001045       -0.0400943    -0.000277943     -9.19493e-05    -0.000321271        -0.821085        0.554813
                        -0.22939        0.959803     -4.25507e-05    -0.000300732       -0.0916103       0.0739911     -0.000246013    -0.000524909
                    -0.000169582     3.16224e-05        -0.821292        0.554325     -0.000157144    -0.000429275        0.0138876      -0.0344731
281760                -0.0498704       -0.106975      -0.00057436     0.000115957        -0.228881        0.959923     -6.99181e-05     -7.6739e-05
                    -0.000550832     0.000117954       -0.0400881     -0.00029178     -9.15759e-05    -0.000324718        -0.820803        0.555231
                        -0.22902        0.959837     -4.27431e-05    -0.000300417       -0.0915816       0.0740598     -0.000246077    -0.000524961
                    -8.45736e-05     -2.6469e-05        -0.821009        0.554744     -0.000159385    -0.000424402        0.0138362       -0.034487
281762                 -0.049918       -0.106978     -0.000574289     0.000116435        -0.228435        0.960027     -7.00035e-05    -7.68406e-05
                    -0.000555762     0.000121758       -0.0400819    -0.000305632     -9.16355e-05    -0.000324372         -0.82052         0.55565
                       -0.228465        0.959791     -4.29443e-05    -0.000300205       -0.0915528       0.0741285     -0.000246094    -0.000524994
