! TOUCHSTONE file generated by CST MICROWAVE STUDIO
! Date and time: Tue Oct 14 07:29:42 2025
! Project name: Teste_Macro_Metasurface_Nanopilar.cst
! Parameters = {H=600; L_x=145; L_y=165; Lambda=1064; Max_L=200; Min_L=70; PathPara=1; Phi=0; Step_L=10; Theta=0; p=520; phaseX=180; phaseY=0}
! Header version: 2018
! Port assignment regex: !\s*Touchstone port\s*([0-9]+)\s*=\s*(CST MWS port|CST DS port)\s*([0-9]+|Zmin|Zmax)\s*\(\"(.*)\"\)(\s*mode\s*([0-9]+))?.*
! Touchstone port assignment:
! Touchstone port 1 = CST MWS port Zmax ("") mode 1
! Touchstone port 2 = CST MWS port Zmax ("") mode 2
! Touchstone port 3 = CST MWS port Zmin ("") mode 1
! Touchstone port 4 = CST MWS port Zmin ("") mode 2
! S-Parameters are not renormalized. Each port impedance will be approximated by the real part at minimum frequency. The values are described via the [Reference] keyword.
! Default impedance is overridden by [Reference]
[Version] 2.0
# GHz S RI R 376.73
[Number of Ports] 4
[Reference]
376.73 376.73 259.814 259.814 
[Number of Frequencies] 51
[Network Data]
281700                 -0.167813       0.0422037     -0.000437549      0.00074399          0.64502        0.737792     -0.000450784      0.00014249
                    -0.000464089     0.000768947         -0.30612        0.208147     -0.000445392     6.15076e-05         0.207549        0.888069
                        0.644667        0.738245     -0.000522466     8.52284e-05       -0.0637273        0.154838      -0.00109779    -0.000249466
                    -0.000504614    -1.90074e-05         0.207138        0.888251     -0.000942137    -0.000383541        -0.346197      -0.0785751
281702                 -0.167795        0.042212     -0.000436827     0.000744264         0.645344        0.737511     -0.000450408     0.000143116
                    -0.000463552     0.000769276        -0.305841        0.208078      -0.00044512     6.18826e-05         0.208211        0.888045
                        0.644993        0.737966     -0.000522226     8.58591e-05       -0.0635956        0.154876      -0.00109768    -0.000248264
                    -0.000504532    -1.84955e-05         0.207799        0.888228     -0.000942506    -0.000382759         -0.34604      -0.0780908
281704                 -0.167776       0.0422204     -0.000436106     0.000744538         0.645669        0.737229     -0.000450022     0.000143743
                    -0.000463015     0.000769604        -0.305563        0.208008     -0.000444849     6.22534e-05         0.208872        0.888021
                        0.645319        0.737686     -0.000521986      8.6489e-05        -0.063464        0.154915      -0.00109757    -0.000247052
                    -0.000504449    -1.79843e-05          0.20846        0.888204     -0.000942871    -0.000381983        -0.345882      -0.0776073
281706                 -0.167758       0.0422288     -0.000435384      0.00074481         0.645993        0.736946     -0.000449624     0.000144369
                    -0.000462477     0.000769932        -0.305285        0.207939      -0.00044458     6.26201e-05         0.209532        0.887995
                        0.645644        0.737406     -0.000521745     8.71182e-05       -0.0633323        0.154953      -0.00109744    -0.000245827
                    -0.000504366    -1.74737e-05         0.209121         0.88818     -0.000943232    -0.000381213        -0.345723      -0.0771245
281708                  -0.16774       0.0422372     -0.000434662     0.000745082         0.646317        0.736664     -0.000449214     0.000144995
                    -0.000461939      0.00077026        -0.305008        0.207869     -0.000444312     6.29828e-05         0.210193        0.887969
                        0.645969        0.737126     -0.000521504     8.77465e-05       -0.0632006        0.154991      -0.00109731    -0.000244591
                    -0.000504283    -1.69638e-05         0.209781        0.888154     -0.000943588    -0.000380449        -0.345564      -0.0766425
281710                 -0.167722       0.0422456      -0.00043394     0.000745353         0.646642        0.736382     -0.000448791     0.000145621
                      -0.0004614     0.000770586        -0.304731        0.207799     -0.000444046     6.33417e-05         0.210853        0.887943
                        0.646294        0.736846     -0.000521262      8.8374e-05       -0.0630689        0.155029      -0.00109716    -0.000243342
                      -0.0005042    -1.64546e-05         0.210441        0.888128      -0.00094394    -0.000379691        -0.345405      -0.0761612
281712                 -0.167704       0.0422541     -0.000433218     0.000745624         0.646965        0.736099     -0.000448354     0.000146247
                    -0.000460861     0.000770913        -0.304455         0.20773     -0.000443782     6.36969e-05         0.211512        0.887916
                        0.646619        0.736565     -0.000521021     8.90008e-05       -0.0629373        0.155067      -0.00109701    -0.000242079
                    -0.000504117    -1.59461e-05         0.211101        0.888102     -0.000944288     -0.00037894        -0.345246      -0.0756807
281714                 -0.167685       0.0422625     -0.000432495     0.000745893         0.647289        0.735816     -0.000447903     0.000146872
                    -0.000460322     0.000771239        -0.304179         0.20766     -0.000443519     6.40485e-05         0.212171        0.887888
                        0.646944        0.736285     -0.000520779     8.96267e-05       -0.0628056        0.155105      -0.00109684    -0.000240802
                    -0.000504033    -1.54382e-05          0.21176        0.888075     -0.000944631    -0.000378193        -0.345086      -0.0752009
281716                 -0.167667       0.0422709     -0.000431773     0.000746162         0.647613        0.735533     -0.000447436     0.000147496
                    -0.000459782     0.000771564        -0.303903         0.20759     -0.000443259     6.43968e-05          0.21283        0.887859
                        0.647269        0.736004     -0.000520537     9.02519e-05       -0.0626739        0.155143      -0.00109667    -0.000239511
                     -0.00050395    -1.49311e-05         0.212419        0.888047      -0.00094497    -0.000377453        -0.344926      -0.0747218
281718                 -0.167649       0.0422793     -0.000431051     0.000746431         0.647936         0.73525     -0.000446953     0.000148118
                    -0.000459241     0.000771889        -0.303628         0.20752        -0.000443     6.47419e-05         0.213488        0.887829
                        0.647594        0.735723     -0.000520295     9.08763e-05       -0.0625422        0.155181      -0.00109648    -0.000238204
                    -0.000503866    -1.44246e-05         0.213077        0.888018     -0.000945304    -0.000376718        -0.344766      -0.0742435
281720                 -0.167631       0.0422878     -0.000430328     0.000746698          0.64826        0.734967     -0.000446453      0.00014874
                    -0.000458701     0.000772214        -0.303354         0.20745     -0.000442742      6.5084e-05         0.214146        0.887799
                        0.647918        0.735442     -0.000520052     9.14999e-05       -0.0624105        0.155219      -0.00109628     -0.00023688
                    -0.000503783    -1.39189e-05         0.213735        0.887989     -0.000945633    -0.000375988        -0.344605       -0.073766
281722                 -0.167613       0.0422962     -0.000429605     0.000746965         0.648583        0.734683     -0.000445935     0.000149359
                    -0.000458159     0.000772538         -0.30308         0.20738     -0.000442487     6.54232e-05         0.214803        0.887769
                        0.648242        0.735161      -0.00051981     9.21228e-05       -0.0622788        0.155256      -0.00109606     -0.00023554
                    -0.000503699    -1.34138e-05         0.214393        0.887959     -0.000945958    -0.000375264        -0.344444      -0.0732892
281724                 -0.167595       0.0423046     -0.000428882     0.000747231         0.648906          0.7344     -0.000445397     0.000149976
                    -0.000457618     0.000772862        -0.302806        0.207309     -0.000442233     6.57598e-05          0.21546        0.887737
                        0.648567         0.73488     -0.000519567     9.27448e-05       -0.0621471        0.155294      -0.00109584    -0.000234182
                    -0.000503615    -1.29095e-05          0.21505        0.887928     -0.000946277    -0.000374545        -0.344283      -0.0728131
281726                 -0.167577       0.0423131     -0.000428159     0.000747496         0.649229        0.734116     -0.000444839     0.000150591
                    -0.000457076     0.000773185        -0.302533        0.207239     -0.000441982     6.60941e-05         0.216117        0.887705
                        0.648891        0.734599     -0.000519323     9.33661e-05       -0.0620154        0.155331       -0.0010956    -0.000232805
                    -0.000503531    -1.24058e-05         0.215707        0.887897     -0.000946592     -0.00037383        -0.344121      -0.0723377
281728                 -0.167559       0.0423216     -0.000427436     0.000747761         0.649552        0.733832     -0.000444259     0.000151202
                    -0.000456533     0.000773508        -0.302261        0.207169     -0.000441732     6.64262e-05         0.216773        0.887672
                        0.649214        0.734317      -0.00051908     9.39867e-05       -0.0618837        0.155368      -0.00109534    -0.000231408
                    -0.000503447    -1.19029e-05         0.216363        0.887865     -0.000946901     -0.00037312        -0.343959      -0.0718631
281730                 -0.167541         0.04233     -0.000426713     0.000748025         0.649875        0.733548     -0.000443657     0.000151809
                     -0.00045599      0.00077383        -0.301989        0.207099     -0.000441484     6.67563e-05         0.217429        0.887639
                        0.649538        0.734036     -0.000518836     9.46064e-05        -0.061752        0.155406      -0.00109507    -0.000229991
                    -0.000503362    -1.14008e-05         0.217019        0.887833     -0.000947206    -0.000372415        -0.343797      -0.0713892
281732                 -0.167523       0.0423385     -0.000425989     0.000748288         0.650197        0.733264     -0.000443029     0.000152412
                    -0.000455447     0.000774153        -0.301717        0.207028     -0.000441238     6.70848e-05         0.218085        0.887605
                        0.649862        0.733754     -0.000518592     9.52254e-05       -0.0616203        0.155443      -0.00109478    -0.000228552
                    -0.000503278    -1.08993e-05         0.217675        0.887799     -0.000947506    -0.000371713        -0.343634      -0.0709161
281734                 -0.167505        0.042347     -0.000425266     0.000748551          0.65052         0.73298     -0.000442376      0.00015301
                    -0.000454904     0.000774475        -0.301446        0.206958     -0.000440993     6.74118e-05          0.21874         0.88757
                        0.650185        0.733472     -0.000518348     9.58437e-05       -0.0614886         0.15548      -0.00109448     -0.00022709
                    -0.000503193    -1.03986e-05          0.21833        0.887765       -0.0009478    -0.000371016        -0.343472      -0.0704437
281736                 -0.167487       0.0423554     -0.000424542     0.000748812         0.650842        0.732695     -0.000441696     0.000153602
                     -0.00045436     0.000774796        -0.301175        0.206887     -0.000440751     6.77377e-05         0.219394        0.887534
                        0.650509         0.73319     -0.000518104     9.64612e-05       -0.0613569        0.155517      -0.00109416    -0.000225605
                    -0.000503109    -9.89858e-06         0.218985        0.887731     -0.000948089    -0.000370323        -0.343308       -0.069972
281738                 -0.167469       0.0423639     -0.000423818     0.000749073         0.651164        0.732411     -0.000440987     0.000154188
                    -0.000453816     0.000775117        -0.300905        0.206816      -0.00044051     6.80628e-05         0.220049        0.887498
                        0.650832        0.732908      -0.00051786     9.70779e-05       -0.0612252        0.155553      -0.00109382    -0.000224095
                    -0.000503024    -9.39934e-06          0.21964        0.887696     -0.000948373    -0.000369633        -0.343145      -0.0695011
281740                 -0.167451       0.0423724     -0.000423094     0.000749334         0.651486        0.732126     -0.000440247     0.000154765
                    -0.000453272     0.000775439        -0.300636        0.206746     -0.000440271     6.83872e-05         0.220702        0.887461
                        0.651155        0.732626     -0.000517615     9.76939e-05       -0.0610935         0.15559      -0.00109346    -0.000222559
                    -0.000502939    -8.90084e-06         0.220294         0.88766     -0.000948651    -0.000368947        -0.342981      -0.0690308
281742                 -0.167433       0.0423809      -0.00042237     0.000749593         0.651808        0.731842     -0.000439475     0.000155334
                    -0.000452728     0.000775759        -0.300366        0.206675     -0.000440034     6.87115e-05         0.221356        0.887424
                        0.651478        0.732344      -0.00051737     9.83091e-05       -0.0609617        0.155627      -0.00109308    -0.000220996
                    -0.000502854    -8.40309e-06         0.220948        0.887623     -0.000948924    -0.000368264        -0.342817      -0.0685614
281744                 -0.167415       0.0423894     -0.000421646     0.000749852          0.65213        0.731557     -0.000438668     0.000155892
                    -0.000452184      0.00077608        -0.300098        0.206604     -0.000439799     6.90357e-05         0.222009        0.887386
                        0.651801        0.732061     -0.000517125     9.89236e-05         -0.06083        0.155663      -0.00109267    -0.000219405
                    -0.000502768     -7.9061e-06         0.221601        0.887586     -0.000949192    -0.000367583        -0.342653      -0.0680926
281746                 -0.167397       0.0423979     -0.000420921      0.00075011         0.652451        0.731272     -0.000437826     0.000156439
                    -0.000451639     0.000776401        -0.299829        0.206533     -0.000439565     6.93604e-05         0.222661        0.887347
                        0.652123        0.731778      -0.00051688     9.95374e-05       -0.0606983          0.1557      -0.00109225    -0.000217786
                    -0.000502683    -7.40987e-06         0.222254        0.887548     -0.000949455    -0.000366906        -0.342488      -0.0676245
281748                 -0.167379       0.0424064     -0.000420197     0.000750368         0.652773        0.730987     -0.000436946     0.000156973
                    -0.000451095     0.000776721        -0.299562        0.206462     -0.000439333     6.96858e-05         0.223313        0.887307
                        0.652446        0.731496     -0.000516635      0.00010015       -0.0605666        0.155736       -0.0010918    -0.000216136
                    -0.000502597    -6.91441e-06         0.222907         0.88751     -0.000949712     -0.00036623        -0.342323      -0.0671572
281750                 -0.167362        0.042415     -0.000419472     0.000750625         0.653094        0.730701     -0.000436025     0.000157492
                     -0.00045055     0.000777042        -0.299294        0.206391     -0.000439103     7.00123e-05         0.223965        0.887267
                        0.652768        0.731213     -0.000516389     0.000100763       -0.0604349        0.155772      -0.00109133    -0.000214455
                    -0.000502512    -6.41971e-06         0.223559         0.88747     -0.000949963    -0.000365557        -0.342157      -0.0666906
281752                 -0.167344       0.0424235     -0.000418748     0.000750881         0.653415        0.730416     -0.000435064     0.000157996
                    -0.000450006     0.000777362        -0.299027         0.20632     -0.000438874     7.03401e-05         0.224616        0.887226
                         0.65309         0.73093     -0.000516144     0.000101374       -0.0603032        0.155808      -0.00109083    -0.000212742
                    -0.000502426    -5.92579e-06         0.224211        0.887431      -0.00095021    -0.000364886        -0.341992      -0.0662248
281754                 -0.167326        0.042432     -0.000418023     0.000751136         0.653736         0.73013     -0.000434059     0.000158482
                    -0.000449462     0.000777682        -0.298761        0.206249     -0.000438646     7.06698e-05         0.225267        0.887185
                        0.653412        0.730646     -0.000515898     0.000101985       -0.0601714        0.155844      -0.00109031    -0.000210997
                     -0.00050234    -5.43265e-06         0.224862         0.88739      -0.00095045    -0.000364216        -0.341826      -0.0657596
281756                 -0.167308       0.0424406     -0.000417298      0.00075139         0.654057        0.729845     -0.000433009     0.000158948
                    -0.000448919     0.000778002        -0.298495        0.206178     -0.000438421     7.10016e-05         0.225918        0.887143
                        0.653734        0.730363     -0.000515652     0.000102595       -0.0600397         0.15588      -0.00108976    -0.000209219
                    -0.000502254     -4.9403e-06         0.225513        0.887349     -0.000950686    -0.000363547         -0.34166      -0.0652952
281758                  -0.16729       0.0424491     -0.000416573     0.000751644         0.654378        0.729559     -0.000431912     0.000159393
                    -0.000448377     0.000778323         -0.29823        0.206106     -0.000438196      7.1336e-05         0.226567          0.8871
                        0.654056         0.73008     -0.000515406     0.000103205        -0.059908        0.155916      -0.00108919    -0.000207406
                    -0.000502168    -4.44874e-06         0.226164        0.887307     -0.000950916     -0.00036288        -0.341493      -0.0648315
281760                 -0.167273       0.0424577     -0.000415848     0.000751897         0.654699        0.729273     -0.000430768     0.000159815
                    -0.000447835     0.000778643        -0.297965        0.206035     -0.000437974     7.16732e-05         0.227217        0.887057
                        0.654378        0.729796      -0.00051516     0.000103813       -0.0597763        0.155952      -0.00108859    -0.000205561
                    -0.000502081    -3.95799e-06         0.226814        0.887265      -0.00095114    -0.000362213        -0.341326      -0.0643685
281762                 -0.167255       0.0424662     -0.000415122      0.00075215         0.655019        0.728988     -0.000429575     0.000160211
                    -0.000447295     0.000778963          -0.2977        0.205964     -0.000437752     7.20138e-05         0.227866        0.887013
                        0.654699        0.729512     -0.000514913     0.000104421       -0.0596446        0.155987      -0.00108796    -0.000203682
