! TOUCHSTONE file generated by CST MICROWAVE STUDIO
! Date and time: Tue Oct 14 07:28:35 2025
! Project name: Teste_Macro_Metasurface_Nanopilar.cst
! Parameters = {H=600; L_x=130; L_y=95; Lambda=1064; Max_L=200; Min_L=70; PathPara=1; Phi=0; Step_L=10; Theta=0; p=520; phaseX=180; phaseY=0}
! Header version: 2018
! Port assignment regex: !\s*Touchstone port\s*([0-9]+)\s*=\s*(CST MWS port|CST DS port)\s*([0-9]+|Zmin|Zmax)\s*\(\"(.*)\"\)(\s*mode\s*([0-9]+))?.*
! Touchstone port assignment:
! Touchstone port 1 = CST MWS port Zmax ("") mode 1
! Touchstone port 2 = CST MWS port Zmax ("") mode 2
! Touchstone port 3 = CST MWS port Zmin ("") mode 1
! Touchstone port 4 = CST MWS port Zmin ("") mode 2
! S-Parameters are not renormalized. Each port impedance will be approximated by the real part at minimum frequency. The values are described via the [Reference] keyword.
! Default impedance is overridden by [Reference]
[Version] 2.0
# GHz S RI R 376.73
[Number of Ports] 4
[Reference]
376.73 376.73 259.814 259.814 
[Number of Frequencies] 51
[Network Data]
281700                 0.0174219      -0.0336697      5.90917e-05     0.000190322         0.694798       -0.714501      -0.00023072    -0.000207677
                    -0.000109712      0.00025005       -0.0726655        0.107027     -5.90861e-05     0.000187765        -0.955277       -0.226448
                        0.694931       -0.714595     -0.000101532     0.000339449       -0.0330079       0.0192848       3.5822e-06     -0.00017662
                    -0.000246364    -0.000286176        -0.955268       -0.226989      3.01849e-05    -0.000133741        0.0142818        0.128368
281702                 0.0174137      -0.0336905      5.92018e-05     0.000190358         0.694504       -0.714786     -0.000230795    -0.000207443
                    -0.000109604     0.000250012       -0.0726023        0.107039     -5.92388e-05     0.000187751        -0.955401        -0.22594
                        0.694637       -0.714879     -0.000101341     0.000339582       -0.0330134       0.0193045      3.38916e-06    -0.000176558
                    -0.000246521     -0.00028608        -0.955392       -0.226481      3.00298e-05    -0.000133684        0.0143563        0.128333
281704                 0.0174055      -0.0337113      5.93119e-05     0.000190394          0.69421        -0.71507      -0.00023087    -0.000207209
                    -0.000109495     0.000249975        -0.072539         0.10705     -5.93917e-05     0.000187736        -0.955524       -0.225431
                        0.694343       -0.715164      -0.00010115     0.000339715       -0.0330189       0.0193242      3.19619e-06    -0.000176497
                    -0.000246677    -0.000285984        -0.955516       -0.225972      2.98747e-05    -0.000133626        0.0144309        0.128299
281706                 0.0173973      -0.0337321      5.94221e-05      0.00019043         0.693916       -0.715354     -0.000230945    -0.000206975
                    -0.000109386     0.000249938       -0.0724757        0.107062     -5.95448e-05     0.000187722        -0.955647       -0.224923
                         0.69405       -0.715448     -0.000100958     0.000339847       -0.0330243       0.0193438      3.00329e-06    -0.000176435
                    -0.000246834    -0.000285888        -0.955639       -0.225464      2.97196e-05    -0.000133567        0.0145054        0.128265
281708                 0.0173891      -0.0337529      5.95321e-05     0.000190466         0.693622       -0.715638      -0.00023102    -0.000206741
                    -0.000109277     0.000249902       -0.0724125        0.107073     -5.96981e-05     0.000187708         -0.95577       -0.224414
                        0.693755       -0.715732     -0.000100767      0.00033998       -0.0330298       0.0193635      2.81046e-06    -0.000176374
                     -0.00024699    -0.000285792        -0.955762       -0.224955      2.95647e-05    -0.000133509        0.0145798         0.12823
281710                 0.0173809      -0.0337738      5.96422e-05     0.000190501         0.693328       -0.715922     -0.000231095    -0.000206508
                    -0.000109167     0.000249865       -0.0723492        0.107085     -5.98517e-05     0.000187694        -0.955893       -0.223905
                        0.693461       -0.716016     -0.000100575     0.000340112       -0.0330352       0.0193832      2.61771e-06    -0.000176312
                    -0.000247147    -0.000285695        -0.955885       -0.224446      2.94098e-05     -0.00013345        0.0146543        0.128196
281712                 0.0173727      -0.0337946      5.97523e-05     0.000190537         0.693033       -0.716206     -0.000231169    -0.000206275
                    -0.000109057     0.000249829       -0.0722859        0.107096     -6.00055e-05      0.00018768        -0.956015       -0.223397
                        0.693167         -0.7163     -0.000100384     0.000340244       -0.0330406       0.0194029      2.42503e-06     -0.00017625
                    -0.000247303    -0.000285599        -0.956008       -0.223938      2.92549e-05    -0.000133391        0.0147286        0.128162
281714                 0.0173644      -0.0338154      5.98623e-05     0.000190572         0.692739        -0.71649     -0.000231244    -0.000206043
                    -0.000108947     0.000249793       -0.0722227        0.107108     -6.01595e-05     0.000187666        -0.956137       -0.222888
                        0.692873       -0.716584     -0.000100192     0.000340376       -0.0330461       0.0194226      2.23245e-06    -0.000176188
                     -0.00024746    -0.000285503         -0.95613       -0.223429      2.91001e-05    -0.000133331         0.014803        0.128127
281716                 0.0173562      -0.0338362      5.99723e-05     0.000190607         0.692444       -0.716773     -0.000231318    -0.000205811
                    -0.000108836     0.000249758       -0.0721594        0.107119     -6.03137e-05     0.000187653        -0.956259       -0.222379
                        0.692578       -0.716868          -0.0001     0.000340508       -0.0330515       0.0194423      2.03994e-06    -0.000176125
                    -0.000247617    -0.000285407        -0.956253        -0.22292      2.89454e-05    -0.000133272        0.0148773        0.128092
281718                 0.0173479       -0.033857      6.00823e-05     0.000190641          0.69215       -0.717057     -0.000231392    -0.000205579
                    -0.000108725     0.000249723       -0.0720962         0.10713     -6.04681e-05     0.000187639        -0.956381        -0.22187
                        0.692284       -0.717151     -9.98084e-05     0.000340639       -0.0330568       0.0194621      1.84753e-06    -0.000176063
                    -0.000247773    -0.000285311        -0.956374       -0.222411      2.87908e-05    -0.000133212        0.0149515        0.128058
281720                 0.0173396      -0.0338778      6.01923e-05     0.000190676         0.691855        -0.71734     -0.000231466    -0.000205348
                    -0.000108614     0.000249688       -0.0720329        0.107141     -6.06227e-05     0.000187626        -0.956502       -0.221361
                        0.691989       -0.717434     -9.96165e-05     0.000340771       -0.0330622       0.0194818      1.65521e-06       -0.000176
                     -0.00024793    -0.000285214        -0.956496       -0.221902      2.86362e-05    -0.000133152        0.0150258        0.128023
281722                 0.0173314      -0.0338986      6.03022e-05      0.00019071          0.69156       -0.717623     -0.000231539    -0.000205116
                    -0.000108502     0.000249654       -0.0719696        0.107152     -6.07776e-05     0.000187612        -0.956623       -0.220852
                        0.691694       -0.717718     -9.94244e-05     0.000340902       -0.0330676       0.0195016      1.46298e-06    -0.000175937
                    -0.000248086    -0.000285118        -0.956617       -0.221393      2.84816e-05    -0.000133091           0.0151        0.127988
281724                 0.0173231      -0.0339195      6.04122e-05     0.000190744         0.691264       -0.717906     -0.000231613    -0.000204886
                     -0.00010839     0.000249619       -0.0719064        0.107164     -6.09326e-05     0.000187599        -0.956744       -0.220343
                        0.691399       -0.718001     -9.92323e-05     0.000341033        -0.033073       0.0195213      1.27085e-06    -0.000175874
                    -0.000248243    -0.000285022        -0.956739       -0.220884      2.83271e-05     -0.00013303        0.0151741        0.127954
281726                 0.0173147      -0.0339403      6.05221e-05     0.000190777         0.690969       -0.718189     -0.000231686    -0.000204655
                    -0.000108277     0.000249586       -0.0718431        0.107175     -6.10879e-05     0.000187586        -0.956864       -0.219834
                        0.691104       -0.718284       -9.904e-05     0.000341163       -0.0330783       0.0195411      1.07882e-06    -0.000175811
                      -0.0002484    -0.000284925        -0.956859       -0.220375      2.81727e-05     -0.00013297        0.0152482        0.127919
281728                 0.0173064      -0.0339611      6.06319e-05     0.000190811         0.690674       -0.718472     -0.000231759    -0.000204425
                    -0.000108164     0.000249552       -0.0717798        0.107186     -6.12434e-05     0.000187573        -0.956984       -0.219325
                        0.690809       -0.718567     -9.88475e-05     0.000341294       -0.0330836       0.0195609       8.8689e-07    -0.000175747
                    -0.000248556    -0.000284829         -0.95698       -0.219865      2.80184e-05    -0.000132908        0.0153223        0.127884
281730                 0.0172981      -0.0339819      6.07418e-05     0.000190844         0.690378       -0.718755     -0.000231831    -0.000204195
                    -0.000108051     0.000249519       -0.0717166        0.107197     -6.13991e-05     0.000187559        -0.957104       -0.218815
                        0.690513        -0.71885      -9.8655e-05     0.000341424        -0.033089       0.0195807      6.95068e-07    -0.000175684
                    -0.000248713    -0.000284732          -0.9571       -0.219356      2.78641e-05    -0.000132847        0.0153963        0.127849
281732                 0.0172897      -0.0340027      6.08516e-05     0.000190877         0.690083       -0.719037     -0.000231904    -0.000203965
                    -0.000107938     0.000249486       -0.0716533        0.107208      -6.1555e-05     0.000187546        -0.957224       -0.218306
                        0.690218       -0.719132     -9.84623e-05     0.000341554       -0.0330943       0.0196005      5.03354e-07     -0.00017562
                     -0.00024887    -0.000284636         -0.95722       -0.218846      2.77098e-05    -0.000132785        0.0154703        0.127814
281734                 0.0172814      -0.0340235      6.09615e-05      0.00019091         0.689787        -0.71932     -0.000231976    -0.000203736
                    -0.000107824     0.000249453       -0.0715901        0.107219     -6.17111e-05     0.000187534        -0.957343       -0.217796
                        0.689922       -0.719415     -9.82695e-05     0.000341684       -0.0330996       0.0196203      3.11751e-07    -0.000175556
                    -0.000249027    -0.000284539         -0.95734       -0.218337      2.75556e-05    -0.000132723        0.0155442        0.127779
281736                  0.017273      -0.0340443      6.10713e-05     0.000190942         0.689491       -0.719602     -0.000232048    -0.000203506
                    -0.000107709     0.000249421       -0.0715268         0.10723     -6.18674e-05     0.000187521        -0.957462       -0.217287
                        0.689627       -0.719698     -9.80765e-05     0.000341814       -0.0331049       0.0196401      1.20262e-07    -0.000175492
                    -0.000249183    -0.000284443        -0.957459       -0.217827      2.74015e-05    -0.000132661        0.0156181        0.127744
281738                 0.0172646      -0.0340651       6.1181e-05     0.000190975         0.689195       -0.719885     -0.000232119    -0.000203277
                    -0.000107595     0.000249389       -0.0714635        0.107241     -6.20239e-05     0.000187508        -0.957581       -0.216777
                        0.689331        -0.71998     -9.78834e-05     0.000341944       -0.0331102         0.01966     -7.11114e-08    -0.000175428
                     -0.00024934    -0.000284346        -0.957579       -0.217318      2.72474e-05    -0.000132598         0.015692        0.127709
281740                 0.0172562      -0.0340859      6.12908e-05     0.000191007         0.688899       -0.720167     -0.000232191    -0.000203049
                     -0.00010748     0.000249358       -0.0714003        0.107251     -6.21806e-05     0.000187495          -0.9577       -0.216268
                        0.689035       -0.720262     -9.76901e-05     0.000342073       -0.0331154       0.0196798     -2.62366e-07    -0.000175364
                    -0.000249497     -0.00028425        -0.957697       -0.216808      2.70934e-05    -0.000132535        0.0157658        0.127674
281742                 0.0172478      -0.0341067      6.14005e-05     0.000191038         0.688603       -0.720449     -0.000232262     -0.00020282
                    -0.000107365     0.000249326        -0.071337        0.107262     -6.23375e-05     0.000187483        -0.957818       -0.215758
                        0.688739       -0.720544     -9.74967e-05     0.000342202       -0.0331207       0.0196996     -4.53498e-07    -0.000175299
                    -0.000249654    -0.000284153        -0.957816       -0.216298      2.69395e-05    -0.000132472        0.0158396        0.127639
281744                 0.0172394      -0.0341275      6.15102e-05      0.00019107         0.688307       -0.720731     -0.000232333    -0.000202592
                    -0.000107249     0.000249295       -0.0712738        0.107273     -6.24946e-05      0.00018747        -0.957936       -0.215248
                        0.688443       -0.720826     -9.73031e-05     0.000342331       -0.0331259       0.0197195     -6.44507e-07    -0.000175235
                    -0.000249811    -0.000284056        -0.957934       -0.215788      2.67855e-05    -0.000132409        0.0159134        0.127604
281746                 0.0172309      -0.0341483      6.16199e-05     0.000191101          0.68801       -0.721013     -0.000232403    -0.000202365
                    -0.000107133     0.000249265       -0.0712105        0.107284      -6.2652e-05     0.000187457        -0.958054       -0.214738
                        0.688146       -0.721108     -9.71093e-05      0.00034246       -0.0331312       0.0197394     -8.35389e-07     -0.00017517
                    -0.000249968    -0.000283959        -0.958053       -0.215279      2.66317e-05    -0.000132345        0.0159871        0.127568
281748                 0.0172225      -0.0341691      6.17295e-05     0.000191132         0.687714       -0.721294     -0.000232474    -0.000202137
                    -0.000107017     0.000249235       -0.0711472        0.107294     -6.28095e-05     0.000187445        -0.958171       -0.214228
                         0.68785        -0.72139     -9.69154e-05     0.000342589       -0.0331364       0.0197593     -1.02614e-06    -0.000175105
                    -0.000250125    -0.000283862         -0.95817       -0.214769      2.64779e-05    -0.000132281        0.0160608        0.127533
281750                  0.017214      -0.0341899      6.18392e-05     0.000191163         0.687417       -0.721576     -0.000232544     -0.00020191
                      -0.0001069     0.000249205        -0.071084        0.107305     -6.29672e-05     0.000187433        -0.958289       -0.213718
                        0.687553       -0.721671     -9.67213e-05     0.000342717       -0.0331416       0.0197792     -1.21676e-06    -0.000175039
                    -0.000250281    -0.000283766        -0.958288       -0.214259      2.63241e-05    -0.000132217        0.0161344        0.127498
281752                 0.0172055      -0.0342106      6.19488e-05     0.000191193          0.68712       -0.721857     -0.000232613    -0.000201682
                    -0.000106783     0.000249175       -0.0710207        0.107316     -6.31252e-05      0.00018742        -0.958406       -0.213208
                        0.687257       -0.721953     -9.65271e-05     0.000342845       -0.0331468       0.0197991     -1.40725e-06    -0.000174974
                    -0.000250438    -0.000283669        -0.958405       -0.213748      2.61704e-05    -0.000132153         0.016208        0.127462
281754                  0.017197      -0.0342314      6.20584e-05     0.000191223         0.686823       -0.722139     -0.000232683    -0.000201455
                    -0.000106666     0.000249146       -0.0709575        0.107326     -6.32833e-05     0.000187408        -0.958522       -0.212698
                         0.68696       -0.722234     -9.63327e-05     0.000342973        -0.033152        0.019819      -1.5976e-06    -0.000174908
                    -0.000250595    -0.000283572        -0.958522       -0.213238      2.60167e-05    -0.000132088        0.0162815        0.127427
281756                 0.0171885      -0.0342522      6.21679e-05     0.000191253         0.686526        -0.72242     -0.000232752    -0.000201229
                    -0.000106548     0.000249117       -0.0708942        0.107337     -6.34416e-05     0.000187396        -0.958639       -0.212188
                        0.686663       -0.722516     -9.61381e-05     0.000343101       -0.0331572       0.0198389     -1.78781e-06    -0.000174843
                    -0.000250752    -0.000283475        -0.958639       -0.212728      2.58631e-05    -0.000132023        0.0163551        0.127391
281758                   0.01718       -0.034273      6.22775e-05     0.000191282         0.686229       -0.722701     -0.000232821    -0.000201002
                     -0.00010643     0.000249089        -0.070831        0.107347     -6.36002e-05     0.000187384        -0.958755       -0.211678
                        0.686366       -0.722797     -9.59433e-05     0.000343229       -0.0331624       0.0198588     -1.97788e-06    -0.000174777
                    -0.000250909    -0.000283377        -0.958755       -0.212218      2.57096e-05    -0.000131957        0.0164285        0.127356
281760                 0.0171715      -0.0342938       6.2387e-05     0.000191311         0.685932       -0.722982     -0.000232889    -0.000200776
                    -0.000106312     0.000249061       -0.0707677        0.107358     -6.37589e-05     0.000187371        -0.958871       -0.211167
                        0.686069       -0.723078     -9.57483e-05     0.000343356       -0.0331675       0.0198788      -2.1678e-06    -0.000174711
                    -0.000251067     -0.00028328        -0.958872       -0.211707       2.5556e-05    -0.000131892         0.016502         0.12732
281762                  0.017163      -0.0343146      6.24966e-05      0.00019134         0.685634       -0.723263     -0.000232958     -0.00020055
                    -0.000106193     0.000249033       -0.0707044        0.107368     -6.39178e-05     0.000187359        -0.958986       -0.210657
                        0.685772       -0.723359     -9.55532e-05     0.000343484       -0.0331727       0.0198987     -2.35757e-06    -0.000174644
