! TOUCHSTONE file generated by CST MICROWAVE STUDIO
! Date and time: Tue Oct 14 07:25:15 2025
! Project name: Teste_Macro_Metasurface_Nanopilar.cst
! Parameters = {H=600; L_x=75; L_y=145; Lambda=1064; Max_L=200; Min_L=70; PathPara=1; Phi=0; Step_L=10; Theta=0; p=520; phaseX=180; phaseY=0}
! Header version: 2018
! Port assignment regex: !\s*Touchstone port\s*([0-9]+)\s*=\s*(CST MWS port|CST DS port)\s*([0-9]+|Zmin|Zmax)\s*\(\"(.*)\"\)(\s*mode\s*([0-9]+))?.*
! Touchstone port assignment:
! Touchstone port 1 = CST MWS port Zmax ("") mode 1
! Touchstone port 2 = CST MWS port Zmax ("") mode 2
! Touchstone port 3 = CST MWS port Zmin ("") mode 1
! Touchstone port 4 = CST MWS port Zmin ("") mode 2
! S-Parameters are not renormalized. Each port impedance will be approximated by the real part at minimum frequency. The values are described via the [Reference] keyword.
! Default impedance is overridden by [Reference]
[Version] 2.0
# GHz S RI R 376.73
[Number of Ports] 4
[Reference]
376.73 376.73 259.814 259.814 
[Number of Frequencies] 51
[Network Data]
281700                -0.0714217        0.160235     -0.000112259     0.000183418        -0.894508       -0.389008      0.000541363     0.000340484
                      5.4939e-05     0.000177035       -0.0100455       0.0957136      0.000154857     9.51535e-05         0.987422       -0.112035
                       -0.894309       -0.389009      0.000271384      8.2592e-05       -0.0704878        0.160946      0.000166525     -0.00038476
                     0.000200673     1.20323e-05         0.988188        -0.11227       4.6143e-05    -7.76418e-05        0.0311973       0.0911945
281702                -0.0713381         0.16025     -0.000112168     0.000183694        -0.894715       -0.388541      0.000542031     0.000339748
                     5.03012e-05      0.00018498       -0.0100099        0.095713      0.000154798     9.50039e-05         0.987381       -0.112398
                       -0.894513       -0.388544      0.000271454      8.2495e-05       -0.0703884        0.160967      0.000166085    -0.000384824
                     0.000254949     5.51149e-06         0.988147       -0.112634      4.61553e-05    -7.75896e-05        0.0312296       0.0911789
281704                -0.0712539        0.160265     -0.000112077     0.000183971         -0.89492       -0.388075      0.000542698     0.000339011
                     4.74734e-05     0.000189093      -0.00997433       0.0957123       0.00015474     9.48545e-05          0.98734       -0.112761
                       -0.894718       -0.388079      0.000271525     8.23979e-05        -0.070289        0.160988      0.000165645    -0.000384887
                     0.000274602     1.70688e-05         0.988106       -0.112998      4.61676e-05    -7.75375e-05        0.0312619       0.0911633
281706                -0.0711687        0.160279     -0.000111985     0.000184247        -0.895126       -0.387608      0.000543363     0.000338274
                     4.87014e-05     0.000187494      -0.00993876       0.0957117      0.000154682     9.47055e-05         0.987299       -0.113125
                       -0.894925       -0.387612      0.000271595     8.23009e-05       -0.0701896        0.161008      0.000165206     -0.00038495
                     0.000269354     1.15027e-05         0.988065       -0.113362      4.61799e-05    -7.74855e-05        0.0312942       0.0911477
281708                -0.0710821        0.160293     -0.000111893     0.000184523        -0.895332       -0.387141      0.000544026     0.000337536
                     5.55666e-05     0.000177103       -0.0099032        0.095711      0.000154624     9.45567e-05         0.987257       -0.113488
                       -0.895134       -0.387144      0.000271665     8.22037e-05       -0.0700902        0.161028      0.000164767    -0.000385012
                     0.000200619      1.1739e-05         0.988023       -0.113726      4.61923e-05    -7.74336e-05        0.0313265       0.0911321
281710                 -0.070993        0.160305     -0.000111801       0.0001848        -0.895537       -0.386675      0.000544687     0.000336797
                     6.59609e-05     0.000153303      -0.00986764       0.0957104      0.000154566     9.44082e-05         0.987216       -0.113851
                       -0.895347       -0.386674      0.000271735     8.21065e-05       -0.0699908        0.161049      0.000164329    -0.000385074
                     0.000211213     0.000108224         0.987982        -0.11409      4.62047e-05    -7.73819e-05        0.0313588       0.0911164
281712                 -0.070899        0.160313     -0.000111709     0.000185076        -0.895742       -0.386207      0.000545346     0.000336059
                     7.01912e-05     0.000114363      -0.00983208       0.0957097      0.000154508     9.42599e-05         0.987174       -0.114214
                       -0.895569       -0.386197      0.000271805     8.20092e-05       -0.0698914        0.161069      0.000163891    -0.000385135
                     0.000246711     0.000112514          0.98794       -0.114454      4.62172e-05    -7.73302e-05        0.0313911       0.0911008
281714                -0.0707977        0.160302     -0.000111616     0.000185351        -0.895947        -0.38574      0.000546003     0.000335319
                     5.70018e-05     7.11825e-05      -0.00979653        0.095709       0.00015445     9.41118e-05         0.987132       -0.114577
                       -0.895818       -0.385701      0.000271875     8.19119e-05        -0.069792        0.161089      0.000163453    -0.000385195
                     0.000257877     0.000108922         0.987898       -0.114818      4.62298e-05    -7.72786e-05        0.0314234       0.0910852
281716                -0.0707593        0.160247     -0.000111523     0.000185627        -0.896151       -0.385273      0.000546658     0.000334579
                     3.04436e-05     4.07849e-05      -0.00976097       0.0957083      0.000154393     9.39639e-05          0.98709       -0.114941
                       -0.896197       -0.385024      0.000271944     8.18145e-05       -0.0696926        0.161109      0.000163016    -0.000385255
                     0.000262292     0.000106597         0.987856       -0.115182      4.62425e-05    -7.72271e-05        0.0314556       0.0910695
281718                -0.0707332        0.160319      -0.00011143     0.000185903        -0.896355       -0.384806      0.000547312     0.000333839
                      4.2721e-06     2.66622e-05      -0.00972541       0.0957075      0.000154335      9.3816e-05         0.987048       -0.115304
                       -0.895737       -0.384851      0.000272013     8.17171e-05       -0.0695932        0.161129       0.00016258    -0.000385314
                     0.000264338     0.000105182         0.987814       -0.115546      4.62554e-05    -7.71756e-05        0.0314879       0.0910538
281720                 -0.070638        0.160361     -0.000111337     0.000186179        -0.896559       -0.384338      0.000547964     0.000333098
                    -1.48032e-05     2.22581e-05      -0.00968986       0.0957068      0.000154278      9.3668e-05         0.987006       -0.115667
                       -0.896172       -0.384403      0.000272082     8.16196e-05       -0.0694938        0.161149      0.000162144    -0.000385373
                     0.000265357     0.000104257         0.987771       -0.115909      4.62686e-05    -7.71242e-05        0.0315201       0.0910382
281722                -0.0705453        0.160383     -0.000111243     0.000186454        -0.896763       -0.383871      0.000548613     0.000332357
                    -2.69726e-05     2.18866e-05      -0.00965431        0.095706      0.000154221     9.35197e-05         0.986963        -0.11603
                       -0.896425       -0.383927      0.000272151     8.15221e-05       -0.0693944        0.161169      0.000161708    -0.000385431
                     0.000265867     0.000103598         0.987729       -0.116273      4.62822e-05    -7.70726e-05        0.0315524       0.0910225
281724                 -0.070456        0.160401      -0.00011115     0.000186729        -0.896967       -0.383403      0.000549261     0.000331615
                    -3.42243e-05     2.28205e-05      -0.00961876       0.0957053      0.000154163     9.33705e-05         0.986921       -0.116393
                       -0.896648       -0.383455       0.00027222     8.14245e-05        -0.069295        0.161189      0.000161273    -0.000385488
                     0.000266101     0.000103088         0.987686       -0.116637      4.62966e-05    -7.70204e-05        0.0315846       0.0910068
281726                -0.0703685        0.160416     -0.000111056     0.000187004         -0.89717       -0.382935      0.000549908     0.000330873
                    -3.82823e-05     2.40277e-05      -0.00958321       0.0957045      0.000154103     9.32185e-05         0.986878       -0.116756
                       -0.896862       -0.382985      0.000272288     8.13269e-05       -0.0691956        0.161209      0.000160838    -0.000385545
                     0.000266175     0.000102663         0.987644       -0.117001      4.63128e-05     -7.6966e-05        0.0316168        0.090991
281728                 -0.070282        0.160431     -0.000110961     0.000187279        -0.897373       -0.382467      0.000550552      0.00033013
                    -4.03143e-05     2.51795e-05      -0.00954766       0.0957037       0.00015403      9.3061e-05         0.986835       -0.117119
                       -0.897071       -0.382516      0.000272356     8.12292e-05       -0.0690962        0.161229      0.000160404    -0.000385601
                     0.000266153     0.000102289         0.987601       -0.117365      4.63302e-05    -7.68964e-05        0.0316491       0.0909753
281730                -0.0701961        0.160446     -0.000110867     0.000187554        -0.897576       -0.381998      0.000551194     0.000329387
                    -4.10619e-05     2.62012e-05      -0.00951211       0.0957029      0.000153945     9.29635e-05         0.986792       -0.117482
                       -0.897278       -0.382047      0.000272424     8.11314e-05       -0.0689966        0.161249       0.00015997    -0.000385657
                      0.00026607     0.000101944         0.987558       -0.117729      4.62983e-05    -7.68602e-05        0.0316813       0.0909596
281732                -0.0701105         0.16046     -0.000110773     0.000187829        -0.897778       -0.381531      0.000551835     0.000328643
                    -4.09914e-05        2.71e-05      -0.00947656       0.0957021      0.000153926     9.28229e-05         0.986749       -0.117845
                       -0.897483       -0.381578      0.000272491     8.10336e-05       -0.0688974        0.161268      0.000159536    -0.000385712
                     0.000265949     0.000101617         0.987515       -0.118093      4.63266e-05    -7.68228e-05        0.0317135       0.0909438
281734                -0.0700251        0.160474     -0.000110678     0.000188104        -0.897981       -0.381063      0.000552475     0.000327898
                    -4.03986e-05     2.79029e-05      -0.00944102       0.0957013      0.000153878     9.26707e-05         0.986706       -0.118208
                       -0.897687       -0.381109      0.000272559     8.09357e-05        -0.068798        0.161288      0.000159104    -0.000385766
                     0.000265802       0.0001013         0.987472       -0.118456      4.63447e-05    -7.67734e-05        0.0317457       0.0909281
281736                -0.0699398        0.160487     -0.000110583     0.000188378        -0.898183       -0.380595      0.000553113     0.000327159
                    -3.94733e-05     2.86372e-05      -0.00940547       0.0957004      0.000153824     9.25223e-05         0.986663       -0.118571
                       -0.897891       -0.380641      0.000272626     8.08378e-05       -0.0686986        0.161307      0.000158674    -0.000385824
                      0.00026564     0.000100988         0.987428        -0.11882      4.63598e-05    -7.67232e-05        0.0317779       0.0909123
281738                -0.0698546        0.160501     -0.000110488     0.000188653        -0.898385       -0.380126      0.000553743     0.000326412
                     -3.8339e-05     2.93247e-05      -0.00936993       0.0956996      0.000153769     9.23759e-05         0.986619       -0.118934
                       -0.898094       -0.380172      0.000272692     8.07399e-05       -0.0685992        0.161327      0.000158228    -0.000385872
                     0.000265467     0.000100679         0.987385       -0.119184      4.63741e-05    -7.66731e-05        0.0318101       0.0908965
281740                -0.0697694        0.160515     -0.000110393     0.000188927        -0.898586       -0.379658      0.000554376     0.000325665
                    -3.70769e-05     2.99815e-05      -0.00933439       0.0956987      0.000153715     9.22304e-05         0.986576       -0.119297
                       -0.898296       -0.379704      0.000272759     8.06418e-05       -0.0684999        0.161346      0.000157801    -0.000385924
                     0.000265287     0.000100371         0.987341       -0.119548      4.63879e-05    -7.66232e-05        0.0318422       0.0908807
281742                -0.0696843        0.160528     -0.000110297     0.000189201        -0.898788       -0.379189      0.000555007     0.000324919
                    -3.57404e-05      3.0619e-05      -0.00929885       0.0956978       0.00015366     9.20857e-05         0.986532        -0.11966
                       -0.898498       -0.379235      0.000272825     8.05438e-05       -0.0684005        0.161365       0.00015737    -0.000385975
                     0.000265104     0.000100063         0.987297       -0.119911      4.64015e-05    -7.65734e-05        0.0318744       0.0908649
281744                -0.0695992        0.160542     -0.000110202     0.000189475        -0.898989        -0.37872      0.000555636     0.000324172
                    -3.43652e-05     3.12453e-05      -0.00926331       0.0956969      0.000153605     9.19414e-05         0.986488       -0.120023
                         -0.8987       -0.378766      0.000272891     8.04456e-05       -0.0683011        0.161384      0.000156939    -0.000386027
                     0.000264918     9.97544e-05         0.987254       -0.120275       4.6415e-05    -7.65237e-05        0.0319066       0.0908491
281746                -0.0695141        0.160555     -0.000110106     0.000189748         -0.89919       -0.378251      0.000556264     0.000323425
                    -3.29744e-05     3.18655e-05      -0.00922777        0.095696       0.00015355     9.17975e-05         0.986444       -0.120386
                       -0.898902       -0.378297      0.000272957     8.03474e-05       -0.0682017        0.161404      0.000156508    -0.000386077
                      0.00026473     9.94442e-05          0.98721       -0.120639      4.64285e-05    -7.64742e-05        0.0319387       0.0908333
281748                 -0.069429        0.160569      -0.00011001     0.000190022         -0.89939       -0.377782      0.000556889     0.000322677
                    -3.15833e-05     3.24834e-05      -0.00919224       0.0956951      0.000153496      9.1654e-05           0.9864       -0.120749
                       -0.899103       -0.377828      0.000273022     8.02492e-05       -0.0681024        0.161423      0.000156077    -0.000386127
                     0.000264543     9.91325e-05         0.987165       -0.121002      4.64421e-05    -7.64248e-05        0.0319709       0.0908175
281750                -0.0693439        0.160582     -0.000109914     0.000190295        -0.899591       -0.377313      0.000557512     0.000321929
                    -3.02013e-05     3.31012e-05       -0.0091567       0.0956942      0.000153441     9.15108e-05         0.986356       -0.121112
                       -0.899304       -0.377359      0.000273087     8.01509e-05        -0.068003        0.161442      0.000155647    -0.000386176
                     0.000264355     9.88192e-05         0.987121       -0.121366      4.64556e-05    -7.63756e-05         0.032003       0.0908016
281752                -0.0692587        0.160596     -0.000109818     0.000190569        -0.899791       -0.376844      0.000558134      0.00032118
                    -2.88342e-05     3.37205e-05      -0.00912117       0.0956932      0.000153387     9.13678e-05         0.986312       -0.121475
                       -0.899505        -0.37689      0.000273152     8.00526e-05       -0.0679036        0.161461      0.000155217    -0.000386225
                     0.000264169     9.85045e-05         0.987077        -0.12173      4.64692e-05    -7.63265e-05        0.0320351       0.0907858
281754                -0.0691736        0.160609     -0.000109721     0.000190842        -0.899991       -0.376375      0.000558753     0.000320431
                     -2.7485e-05      3.4342e-05      -0.00908564       0.0956923      0.000153333     9.12251e-05         0.986267       -0.121838
                       -0.899705        -0.37642      0.000273216     7.99542e-05       -0.0678043        0.161479      0.000154787    -0.000386272
                     0.000263982     9.81882e-05         0.987032       -0.122093      4.64829e-05    -7.62775e-05        0.0320673       0.0907699
281756                -0.0690884        0.160622     -0.000109625     0.000191115         -0.90019       -0.375905      0.000559371     0.000319682
                    -2.61549e-05     3.49663e-05      -0.00905011       0.0956913       0.00015328     9.10826e-05         0.986222         -0.1222
                       -0.899906       -0.375951      0.000273281     7.98558e-05       -0.0677049        0.161498      0.000154357     -0.00038632
                     0.000263797     9.78705e-05         0.986987       -0.122457      4.64967e-05    -7.62286e-05        0.0320994        0.090754
281758                -0.0690033        0.160635     -0.000109528     0.000191387         -0.90039       -0.375435      0.000559987     0.000318932
                    -2.48439e-05     3.55937e-05      -0.00901458       0.0956903      0.000153226     9.09403e-05         0.986178       -0.122563
                       -0.900106       -0.375481      0.000273344     7.97573e-05       -0.0676055        0.161517      0.000153928    -0.000386366
                     0.000263613     9.75514e-05         0.986943       -0.122821      4.65105e-05    -7.61799e-05        0.0321315       0.0907381
281760                -0.0689181        0.160648     -0.000109431      0.00019166        -0.900589       -0.374966      0.000560601     0.000318182
                    -2.35509e-05      3.6224e-05      -0.00897905       0.0956893      0.000153173     9.07982e-05         0.986133       -0.122926
                       -0.900306       -0.375011      0.000273408     7.96587e-05       -0.0675062        0.161536      0.000153499    -0.000386412
                      0.00026343     9.72312e-05         0.986898       -0.123184      4.65244e-05    -7.61313e-05        0.0321636       0.0907222
281762                -0.0688329        0.160662     -0.000109334     0.000191932        -0.900788       -0.374496      0.000561213     0.000317431
                    -2.22745e-05     3.68572e-05      -0.00894352       0.0956883       0.00015312     9.06564e-05         0.986088       -0.123289
                       -0.900506       -0.374541      0.000273471     7.95601e-05       -0.0674068        0.161554      0.000153071    -0.000386457
