! TOUCHSTONE file generated by CST MICROWAVE STUDIO
! Date and time: Tue Oct 14 07:25:05 2025
! Project name: Teste_Macro_Metasurface_Nanopilar.cst
! Parameters = {H=600; L_x=75; L_y=75; Lambda=1064; Max_L=200; Min_L=70; PathPara=1; Phi=0; Step_L=10; Theta=0; p=520; phaseX=180; phaseY=0}
! Header version: 2018
! Port assignment regex: !\s*Touchstone port\s*([0-9]+)\s*=\s*(CST MWS port|CST DS port)\s*([0-9]+|Zmin|Zmax)\s*\(\"(.*)\"\)(\s*mode\s*([0-9]+))?.*
! Touchstone port assignment:
! Touchstone port 1 = CST MWS port Zmax ("") mode 1
! Touchstone port 2 = CST MWS port Zmax ("") mode 2
! Touchstone port 3 = CST MWS port Zmin ("") mode 1
! Touchstone port 4 = CST MWS port Zmin ("") mode 2
! S-Parameters are not renormalized. Each port impedance will be approximated by the real part at minimum frequency. The values are described via the [Reference] keyword.
! Default impedance is overridden by [Reference]
[Version] 2.0
# GHz S RI R 376.73
[Number of Ports] 4
[Reference]
376.73 376.73 259.814 259.814 
[Number of Frequencies] 51
[Network Data]
281700                -0.0611499        0.131184      0.000626575     1.10786e-05         0.969732        0.196047      -2.0347e-05    -3.08581e-05
                      0.00056414     6.20859e-05        -0.060676        0.131778      0.000127633    -2.09392e-05         0.969419        0.195561
                        0.969945        0.195698      6.33745e-05    -9.92541e-05       0.00535866        0.144658     -0.000632071    -0.000232704
                    -5.63303e-05     8.08976e-05          0.96965        0.195723     -0.000545023    -0.000223991       0.00477492        0.145022
281702                -0.0611059        0.131202      0.000626638     1.07245e-05         0.969802        0.195699     -2.02886e-05    -3.08513e-05
                     0.000564184     6.19214e-05       -0.0606316        0.131796      0.000127692    -2.10186e-05         0.969489        0.195214
                        0.970015         0.19535      6.34846e-05    -9.91757e-05       0.00541482        0.144654     -0.000632168    -0.000232685
                    -5.62737e-05     8.09468e-05         0.969721        0.195375     -0.000545149    -0.000223923       0.00483111        0.145018
281704                -0.0610619        0.131221      0.000626702     1.03703e-05         0.969873        0.195351     -2.02304e-05    -3.08445e-05
                     0.000564228     6.17573e-05       -0.0605872        0.131814       0.00012775     -2.1098e-05          0.96956        0.194866
                        0.970086        0.195002      6.35959e-05    -9.90949e-05       0.00547096        0.144649     -0.000632265    -0.000232667
                    -5.62171e-05      8.0996e-05         0.969791        0.195027     -0.000545274    -0.000223854        0.0048873        0.145014
281706                -0.0610179        0.131239      0.000626765     1.00159e-05         0.969943        0.195003     -2.01724e-05    -3.08376e-05
                     0.000564272     6.15935e-05       -0.0605429        0.131832      0.000127809    -2.11772e-05          0.96963        0.194518
                        0.970156        0.194654      6.37077e-05    -9.90098e-05       0.00552711        0.144645     -0.000632362    -0.000232648
                    -5.61604e-05     8.10452e-05         0.969861         0.19468       -0.0005454    -0.000223785       0.00494348        0.145009
281708                -0.0609739        0.131257      0.000626828     9.66153e-06         0.970013        0.194655     -2.01144e-05    -3.08308e-05
                     0.000564317     6.14302e-05       -0.0604985         0.13185      0.000127867    -2.12564e-05           0.9697        0.194171
                        0.970226        0.194306      6.38168e-05     -9.8919e-05       0.00558325        0.144641      -0.00063246    -0.000232629
                    -5.61037e-05     8.10945e-05         0.969931        0.194332     -0.000545525    -0.000223717       0.00499966        0.145005
281710                -0.0609298        0.131275      0.000626891     9.30706e-06         0.970083        0.194307     -2.00566e-05    -3.08239e-05
                     0.000564361     6.12672e-05       -0.0604541        0.131867      0.000127926    -2.13354e-05          0.96977        0.193823
                        0.970296        0.193958      6.39185e-05    -9.88245e-05        0.0056394        0.144637     -0.000632557    -0.000232609
                     -5.6047e-05     8.11437e-05         0.970002        0.193984      -0.00054565    -0.000223648       0.00505584        0.145001
281712                -0.0608858        0.131293      0.000626953     8.95253e-06         0.970153        0.193959      -1.9999e-05     -3.0817e-05
                     0.000564406     6.11047e-05       -0.0604097        0.131885      0.000127985    -2.14144e-05          0.96984        0.193475
                        0.970365         0.19361      6.40117e-05    -9.87329e-05       0.00569553        0.144632     -0.000632654    -0.000232589
                    -5.59903e-05     8.11929e-05         0.970071        0.193636     -0.000545775    -0.000223579       0.00511202        0.144996
281714                -0.0608418        0.131311      0.000627015     8.59794e-06         0.970223        0.193612     -1.99415e-05    -3.08101e-05
                      0.00056445     6.09425e-05       -0.0603653        0.131903      0.000128044    -2.14934e-05          0.96991        0.193127
                        0.970435        0.193262      6.41013e-05    -9.86485e-05       0.00575167        0.144628     -0.000632752    -0.000232569
                    -5.59335e-05     8.12421e-05         0.970141        0.193288       -0.0005459     -0.00022351       0.00516819        0.144992
281716                -0.0607978         0.13133      0.000627077      8.2433e-06         0.970293        0.193264     -1.98841e-05    -3.08032e-05
                     0.000564495     6.07807e-05       -0.0603209        0.131921      0.000128102    -2.15722e-05         0.969979        0.192779
                        0.970505        0.192914      6.41925e-05    -9.85699e-05        0.0058078        0.144624     -0.000632849    -0.000232548
                    -5.58767e-05     8.12913e-05         0.970211        0.192939     -0.000546025    -0.000223441       0.00522436        0.144988
281718                -0.0607537        0.131348      0.000627138     7.88862e-06         0.970362        0.192916     -1.98268e-05    -3.07963e-05
                      0.00056454     6.06193e-05       -0.0602765        0.131938      0.000128161    -2.16509e-05         0.970049        0.192431
                        0.970574        0.192566      6.42869e-05    -9.84939e-05       0.00586393        0.144619     -0.000632947    -0.000232527
                    -5.58199e-05     8.13405e-05          0.97028        0.192591      -0.00054615    -0.000223372       0.00528053        0.144983
281720                -0.0607097        0.131366      0.000627199      7.5339e-06         0.970432        0.192568     -1.97697e-05    -3.07894e-05
                     0.000564584     6.04583e-05       -0.0602321        0.131956      0.000128221    -2.17296e-05         0.970118        0.192084
                        0.970643        0.192218      6.43839e-05    -9.84183e-05       0.00592006        0.144615     -0.000633045    -0.000232505
                     -5.5763e-05     8.13897e-05          0.97035        0.192243     -0.000546274    -0.000223303       0.00533669        0.144979
281722                -0.0606656        0.131384       0.00062726     7.17915e-06         0.970501        0.192219     -1.97127e-05    -3.07825e-05
                     0.000564629     6.02977e-05       -0.0601877        0.131974       0.00012828    -2.18082e-05         0.970187        0.191736
                        0.970712         0.19187      6.44826e-05    -9.83423e-05       0.00597618        0.144611     -0.000633142    -0.000232484
                    -5.57061e-05     8.14389e-05         0.970419        0.191895     -0.000546399    -0.000223234       0.00539286        0.144974
281724                -0.0606216        0.131402      0.000627321     6.82438e-06          0.97057        0.191871     -1.96558e-05    -3.07756e-05
                     0.000564674     6.01375e-05       -0.0601433        0.131991      0.000128339    -2.18867e-05         0.970257        0.191388
                        0.970781        0.191522      6.45823e-05    -9.82656e-05       0.00603231        0.144606      -0.00063324    -0.000232462
                    -5.56492e-05     8.14881e-05         0.970488        0.191547     -0.000546523    -0.000223165       0.00544902         0.14497
281726                -0.0605775         0.13142      0.000627381     6.46961e-06         0.970639        0.191523     -1.95991e-05    -3.07686e-05
                     0.000564719     5.99776e-05       -0.0600988        0.132009      0.000128398    -2.19651e-05         0.970326         0.19104
                         0.97085        0.191173      6.46825e-05    -9.81883e-05       0.00608843        0.144602     -0.000633338    -0.000232439
                    -5.55923e-05     8.15373e-05         0.970557        0.191199     -0.000546647    -0.000223096       0.00550517        0.144965
281728                -0.0605334        0.131438      0.000627441     6.11484e-06         0.970708        0.191175     -1.95425e-05    -3.07617e-05
                     0.000564764     5.98182e-05       -0.0600544        0.132027      0.000128458    -2.20435e-05         0.970394        0.190692
                        0.970919        0.190825       6.4783e-05    -9.81103e-05       0.00614454        0.144597     -0.000633435    -0.000232416
                    -5.55353e-05     8.15865e-05         0.970626        0.190851     -0.000546771    -0.000223027       0.00556133        0.144961
281730                -0.0604894        0.131456      0.000627501     5.76007e-06         0.970777        0.190827      -1.9486e-05    -3.07548e-05
                      0.00056481     5.96591e-05         -0.06001        0.132044      0.000128517    -2.21217e-05         0.970463        0.190344
                        0.970988        0.190477      6.48837e-05    -9.80317e-05       0.00620066        0.144593     -0.000633533    -0.000232393
                    -5.54783e-05     8.16357e-05         0.970695        0.190502     -0.000546895    -0.000222957       0.00561748        0.144956
281732                -0.0604453        0.131474      0.000627561     5.40533e-06         0.970845        0.190479     -1.94296e-05    -3.07478e-05
                     0.000564855     5.95004e-05       -0.0599655        0.132062      0.000128577    -2.21999e-05         0.970532        0.189996
                        0.971056        0.190129      6.49843e-05    -9.79527e-05       0.00625677        0.144588     -0.000633631     -0.00023237
                    -5.54213e-05     8.16849e-05         0.970764        0.190154     -0.000547019    -0.000222888       0.00567363        0.144952
281734                -0.0604012        0.131492       0.00062762     5.05061e-06         0.970914        0.190131     -1.93733e-05    -3.07409e-05
                       0.0005649     5.93421e-05       -0.0599211        0.132079      0.000128636     -2.2278e-05           0.9706        0.189647
                        0.971125        0.189781       6.5085e-05    -9.78732e-05       0.00631288        0.144584     -0.000633729    -0.000232346
                    -5.53642e-05     8.17341e-05         0.970832        0.189806     -0.000547143    -0.000222818       0.00572977        0.144947
281736                -0.0603571         0.13151      0.000627679     4.69594e-06         0.970982        0.189782     -1.93172e-05    -3.07339e-05
                     0.000564946     5.91842e-05       -0.0598766        0.132097      0.000128696     -2.2356e-05         0.970669        0.189299
                        0.971193        0.189432      6.51855e-05    -9.77933e-05       0.00636898        0.144579     -0.000633827    -0.000232322
                    -5.53072e-05     8.17833e-05         0.970901        0.189458     -0.000547266    -0.000222749       0.00578592        0.144943
281738                 -0.060313        0.131528      0.000627738     4.34132e-06         0.971051        0.189434     -1.92612e-05     -3.0727e-05
                     0.000564991     5.90267e-05       -0.0598322        0.132115      0.000128756     -2.2434e-05         0.970737        0.188951
                        0.971261        0.189084      6.52859e-05     -9.7713e-05       0.00642509        0.144575     -0.000633925    -0.000232298
                    -5.52501e-05     8.18324e-05         0.970969        0.189109      -0.00054739    -0.000222679       0.00584206        0.144938
281740                -0.0602689        0.131546      0.000627797     3.98676e-06         0.971119        0.189086     -1.92053e-05      -3.072e-05
                     0.000565037     5.88696e-05       -0.0597877        0.132132      0.000128815    -2.25118e-05         0.970805        0.188603
                        0.971329        0.188736      6.53861e-05    -9.76324e-05       0.00648119         0.14457     -0.000634022    -0.000232273
                    -5.51929e-05     8.18816e-05         0.971037        0.188761     -0.000547513    -0.000222609       0.00589819        0.144933
281742                -0.0602248        0.131564      0.000627856     3.63227e-06         0.971187        0.188738     -1.91495e-05     -3.0713e-05
                     0.000565082     5.87128e-05       -0.0597432         0.13215      0.000128875    -2.25896e-05         0.970873        0.188255
                        0.971397        0.188387      6.54862e-05    -9.75515e-05       0.00653728        0.144566      -0.00063412    -0.000232248
                    -5.51358e-05     8.19307e-05         0.971105        0.188412     -0.000547636    -0.000222539       0.00595433        0.144929
281744                -0.0601807        0.131582      0.000627914     3.27787e-06         0.971255        0.188389     -1.90939e-05    -3.07061e-05
                     0.000565128     5.85565e-05       -0.0596987        0.132167      0.000128935    -2.26673e-05         0.970941        0.187907
                        0.971465        0.188039      6.55862e-05    -9.74703e-05       0.00659338        0.144561     -0.000634218    -0.000232222
                    -5.50786e-05     8.19799e-05         0.971173        0.188064     -0.000547759    -0.000222469       0.00601046        0.144924
281746                -0.0601366          0.1316      0.000627973     2.92356e-06         0.971323        0.188041     -1.90384e-05    -3.06991e-05
                     0.000565174     5.84005e-05       -0.0596543        0.132185      0.000128995    -2.27449e-05         0.971009        0.187558
                        0.971532         0.18769      6.56859e-05    -9.73888e-05       0.00664947        0.144556     -0.000634316    -0.000232196
                    -5.50214e-05      8.2029e-05         0.971241        0.187716     -0.000547882      -0.0002224       0.00606659        0.144919
281748                -0.0600925        0.131618      0.000628031     2.56935e-06          0.97139        0.187693      -1.8983e-05    -3.06921e-05
                      0.00056522     5.82449e-05       -0.0596098        0.132202      0.000129055    -2.28225e-05         0.971076         0.18721
                          0.9716        0.187342      6.57855e-05     -9.7307e-05       0.00670556        0.144552     -0.000634414     -0.00023217
                    -5.49641e-05     8.20782e-05         0.971308        0.187367     -0.000548005    -0.000222329       0.00612272        0.144915
281750                -0.0600483        0.131636      0.000628089     2.21525e-06         0.971458        0.187344     -1.89279e-05    -3.06852e-05
                     0.000565266     5.80897e-05       -0.0595653         0.13222      0.000129115    -2.28999e-05         0.971144        0.186862
                        0.971667        0.186994      6.58849e-05    -9.72249e-05       0.00676164        0.144547     -0.000634513    -0.000232143
                    -5.49068e-05     8.21273e-05         0.971376        0.187019     -0.000548128    -0.000222259       0.00617884         0.14491
281752                -0.0600042        0.131653      0.000628147     1.86126e-06         0.971525        0.186996     -1.88731e-05    -3.06782e-05
                     0.000565312     5.79349e-05       -0.0595208        0.132237      0.000129175    -2.29773e-05         0.971211        0.186514
                        0.971734        0.186645      6.59842e-05    -9.71426e-05       0.00681773        0.144542     -0.000634611    -0.000232116
                    -5.48495e-05     8.21765e-05         0.971443         0.18667     -0.000548251    -0.000222189       0.00623496        0.144905
281754                -0.0599601        0.131671      0.000628205      1.5074e-06         0.971593        0.186647     -1.88188e-05    -3.06713e-05
                     0.000565359     5.77806e-05       -0.0594763        0.132254      0.000129236    -2.30546e-05         0.971278        0.186165
                        0.971801        0.186297      6.60832e-05      -9.706e-05       0.00687381        0.144538      -0.00063471    -0.000232088
                    -5.47921e-05     8.22256e-05         0.971511        0.186322     -0.000548373    -0.000222119       0.00629108          0.1449
281756                -0.0599159        0.131689      0.000628262     1.15365e-06          0.97166        0.186299     -1.87662e-05     -3.0665e-05
                     0.000565405     5.76267e-05       -0.0594318        0.132272      0.000129296    -2.31318e-05         0.971345        0.185817
                        0.971868        0.185948      6.61821e-05    -9.69772e-05       0.00692989        0.144533     -0.000634812    -0.000232057
                    -5.47346e-05     8.22747e-05         0.971578        0.185973     -0.000548495    -0.000222048        0.0063472        0.144895
281758                -0.0598718        0.131707       0.00062832     8.00029e-07         0.971727         0.18595     -1.87181e-05    -3.06759e-05
                     0.000565452     5.74733e-05       -0.0593873        0.132289      0.000129356    -2.32088e-05         0.971412        0.185468
                        0.971935        0.185599      6.62809e-05    -9.68941e-05       0.00698596        0.144528     -0.000634921    -0.000231985
                    -5.46769e-05     8.23239e-05         0.971645        0.185625     -0.000548618    -0.000221978       0.00640331        0.144891
281760                -0.0598276        0.131725      0.000628377     4.46525e-07         0.971794        0.185602     -1.86438e-05     -3.0653e-05
                     0.000565499     5.73207e-05       -0.0593428        0.132307      0.000129417    -2.32856e-05         0.971479         0.18512
                        0.972002        0.185251      6.63794e-05    -9.68108e-05       0.00704203        0.144523      -0.00063498    -0.000232017
                    -5.46187e-05     8.23732e-05         0.971712        0.185276      -0.00054874    -0.000221907       0.00645941        0.144886
281762                -0.0597835        0.131743      0.000628435     9.31317e-08         0.971861        0.185253     -1.85923e-05    -3.06441e-05
                      0.00056555     5.71708e-05       -0.0592982        0.132324      0.000129477    -2.33626e-05         0.971546        0.184772
                        0.972069        0.184902      6.64778e-05    -9.67272e-05        0.0070981        0.144518     -0.000635088    -0.000231986
