! TOUCHSTONE file generated by CST MICROWAVE STUDIO
! Date and time: Tue Oct 14 07:30:31 2025
! Project name: Teste_Macro_Metasurface_Nanopilar.cst
! Parameters = {H=600; L_x=160; L_y=110; Lambda=1064; Max_L=200; Min_L=70; PathPara=1; Phi=0; Step_L=10; Theta=0; p=520; phaseX=180; phaseY=0}
! Header version: 2018
! Port assignment regex: !\s*Touchstone port\s*([0-9]+)\s*=\s*(CST MWS port|CST DS port)\s*([0-9]+|Zmin|Zmax)\s*\(\"(.*)\"\)(\s*mode\s*([0-9]+))?.*
! Touchstone port assignment:
! Touchstone port 1 = CST MWS port Zmax ("") mode 1
! Touchstone port 2 = CST MWS port Zmax ("") mode 2
! Touchstone port 3 = CST MWS port Zmin ("") mode 1
! Touchstone port 4 = CST MWS port Zmin ("") mode 2
! S-Parameters are not renormalized. Each port impedance will be approximated by the real part at minimum frequency. The values are described via the [Reference] keyword.
! Default impedance is overridden by [Reference]
[Version] 2.0
# GHz S RI R 376.73
[Number of Ports] 4
[Reference]
376.73 376.73 259.814 259.814 
[Number of Frequencies] 51
[Network Data]
281700                 -0.115796       0.0241835      0.000338754    -0.000144913        -0.977219        0.114458      7.92224e-05     6.26592e-05
                     0.000251474    -7.27722e-05        -0.150963       -0.274978      7.22431e-05     -0.00012014         0.538892        0.774952
                       -0.977002        0.114478      3.35774e-05    -0.000201329         0.116186     -0.00131731      5.54045e-05     0.000270811
                     3.70629e-05     0.000165736         0.539464        0.774979      0.000161502      0.00022992          0.20676        0.232324
281702                 -0.115768       0.0242107      0.000338785     -0.00014485        -0.977163        0.114967      7.88292e-05     6.20087e-05
                     0.000251664    -7.28061e-05        -0.151074       -0.274994      7.26762e-05    -0.000120729         0.539255        0.774671
                       -0.976944        0.114988      3.42046e-05    -0.000201668         0.116163     -0.00140669      5.61081e-05       0.0002723
                     3.71981e-05     0.000165773         0.539828        0.774701       0.00016201     0.000229549         0.206964        0.232231
281704                 -0.115741       0.0242378      0.000339001    -0.000145115        -0.977106        0.115476      7.84395e-05     6.13529e-05
                     0.000251852    -7.28408e-05        -0.151186       -0.275009      7.31021e-05    -0.000121313         0.539617         0.77439
                       -0.976887        0.115498      3.42059e-05    -0.000201662         0.116141     -0.00149603      5.68159e-05     0.000273802
                      3.7333e-05     0.000165807          0.54019         0.77442      0.000162505     0.000229178         0.207167        0.232137
281706                 -0.115714        0.024265      0.000339483    -0.000145837        -0.977048        0.115986      7.80535e-05      6.0691e-05
                     0.000252039    -7.28762e-05        -0.151297       -0.275023      7.35208e-05    -0.000121891          0.53998        0.774109
                       -0.976829        0.116008      3.33232e-05    -0.000201187         0.116118     -0.00158535      5.75277e-05     0.000275317
                     3.74676e-05     0.000165839          0.54055        0.774136      0.000162988     0.000228805         0.207371        0.232043
281708                 -0.115686       0.0242921      0.000340391    -0.000147181        -0.976991        0.116495       7.7671e-05     6.00226e-05
                     0.000252225    -7.29124e-05        -0.151408       -0.275037      7.39322e-05    -0.000122465         0.540342        0.773828
                        -0.97677        0.116517      3.11443e-05    -0.000200186         0.116095     -0.00167464      5.82428e-05     0.000276844
                     3.76018e-05     0.000165869         0.540907        0.773847      0.000163459     0.000228432         0.207575        0.231949
281710                 -0.115659       0.0243192      0.000342048    -0.000149323        -0.976933        0.117004      7.72919e-05     5.93469e-05
                     0.000252409    -7.29494e-05        -0.151518        -0.27505      7.43361e-05    -0.000123033         0.540704        0.773547
                       -0.976712        0.117027      2.70378e-05    -0.000198842         0.116072      -0.0017639      5.89609e-05     0.000278384
                     3.77356e-05     0.000165896         0.541261        0.773552      0.000163919      0.00022806         0.207779        0.231855
281712                 -0.115632       0.0243463      0.000345067    -0.000152333        -0.976875        0.117513      7.69162e-05     5.86634e-05
                     0.000252592    -7.29872e-05        -0.151628       -0.275062      7.47326e-05    -0.000123595         0.541066        0.773265
                       -0.976653        0.117537       2.0229e-05    -0.000197951         0.116049     -0.00185313      5.96813e-05     0.000279936
                     3.78691e-05     0.000165922         0.541614        0.773246      0.000164367     0.000227688         0.207982         0.23176
281714                 -0.115604       0.0243733      0.000350478    -0.000155797        -0.976816        0.118023      7.65439e-05     5.79713e-05
                     0.000252773    -7.30258e-05        -0.151737        -0.27507      7.51215e-05    -0.000124152         0.541428        0.772984
                       -0.976594        0.118046      1.04484e-05    -0.000199391         0.116026     -0.00194234      6.04035e-05     0.000281501
                     3.80022e-05     0.000165945         0.541966        0.772924      0.000164804     0.000227316         0.208186        0.231666
281716                 -0.115577       0.0244004      0.000359296    -0.000157997        -0.976758        0.118532      7.61749e-05     5.72699e-05
                     0.000252953    -7.30652e-05        -0.151847       -0.275072      7.55029e-05    -0.000124702          0.54179        0.772702
                       -0.976534        0.118556     -5.24642e-07    -0.000205632         0.116003     -0.00203151      6.11268e-05     0.000283079
                     3.81349e-05     0.000165966         0.542327        0.772579      0.000165229     0.000226946          0.20839        0.231571
281718                  -0.11555       0.0244274      0.000370524     -0.00015574        -0.976699        0.119041      7.58091e-05     5.65584e-05
                     0.000253132    -7.31055e-05        -0.151965        -0.27506      7.58767e-05    -0.000125247         0.542151         0.77242
                       -0.976475        0.119066     -8.51255e-06    -0.000216849          0.11598     -0.00212066      6.18505e-05     0.000284669
                     3.82671e-05     0.000165985         0.542715        0.772205      0.000165644     0.000226578         0.208593        0.231476
281720                 -0.115522       0.0244544      0.000379623    -0.000147822        -0.976639         0.11955      7.54465e-05     5.58359e-05
                     0.000253309    -7.31466e-05         -0.15213       -0.275048      7.62429e-05    -0.000125785         0.542513        0.772137
                       -0.976415        0.119575     -1.08191e-05    -0.000229297         0.115957     -0.00220978      6.25738e-05     0.000286271
                      3.8399e-05     0.000166001         0.543167        0.771819      0.000166048     0.000226211         0.208797        0.231381
281722                 -0.115495       0.0244814      0.000383208    -0.000138046         -0.97658        0.120059      7.50869e-05     5.51017e-05
                     0.000253485    -7.31886e-05        -0.152288       -0.275118      7.66015e-05    -0.000126317         0.542874        0.771855
                       -0.976355        0.120085     -8.88629e-06    -0.000239225         0.115934     -0.00229887      6.32959e-05     0.000287885
                     3.85304e-05     0.000166016         0.543692        0.771487      0.000166441     0.000225846         0.209001        0.231286
281724                 -0.115468       0.0245084      0.000382726    -0.000130339         -0.97652        0.120568      7.47305e-05     5.43549e-05
                     0.000253659    -7.32315e-05        -0.152383        -0.27517      7.69525e-05    -0.000126843         0.543235        0.771572
                       -0.976294        0.120594     -5.45045e-06    -0.000245787         0.115911     -0.00238794       6.4016e-05      0.00028951
                     3.86615e-05     0.000166028         0.544216        0.771258      0.000166824     0.000225483         0.209205         0.23119
281726                  -0.11544       0.0245353      0.000380831    -0.000125425         -0.97646        0.121077      7.43769e-05     5.35945e-05
                     0.000253833    -7.32753e-05        -0.152478       -0.275195      7.72958e-05    -0.000127363         0.543596        0.771289
                       -0.976234        0.121103     -2.12801e-06     -0.00024978         0.115887     -0.00247697      6.47331e-05     0.000291148
                     3.87921e-05     0.000166038         0.544668        0.771083      0.000167196     0.000225124         0.209408        0.231095
281728                 -0.115413       0.0245623       0.00037892    -0.000122545          -0.9764        0.121586      7.40263e-05     5.28197e-05
                     0.000254005      -7.332e-05        -0.152581       -0.275213      7.76316e-05    -0.000127875         0.543957        0.771006
                       -0.976173        0.121613      5.48641e-07    -0.000252149         0.115864     -0.00256598      6.54464e-05     0.000292796
                     3.89223e-05     0.000166046         0.545057        0.770898      0.000167559     0.000224767         0.209612        0.230999
281730                 -0.115386       0.0245892       0.00037742    -0.000120915        -0.976339        0.122095      7.36784e-05     5.20294e-05
                     0.000254175    -7.33657e-05        -0.152687       -0.275229      7.79598e-05    -0.000128382         0.544318        0.770723
                       -0.976111        0.122122      2.54152e-06    -0.000253546          0.11584     -0.00265496      6.61548e-05     0.000294455
                     3.90521e-05     0.000166051         0.545418        0.770685      0.000167912     0.000224413         0.209816        0.230903
281732                 -0.115358       0.0246161      0.000376366    -0.000120027        -0.976278        0.122604      7.33332e-05     5.12229e-05
                     0.000254345    -7.34123e-05        -0.152795       -0.275244      7.82805e-05    -0.000128881         0.544679        0.770439
                        -0.97605        0.122631      3.96402e-06    -0.000254362         0.115817     -0.00274391      6.68574e-05     0.000296124
                     3.91816e-05     0.000166055         0.545769        0.770448      0.000168255     0.000224062          0.21002        0.230807
281734                 -0.115331       0.0246429      0.000375685    -0.000119584        -0.976217        0.123113      7.29905e-05     5.03991e-05
                     0.000254513    -7.34599e-05        -0.152905       -0.275259      7.85937e-05    -0.000129374          0.54504        0.770155
                       -0.975988        0.123141      4.94921e-06    -0.000254821         0.115793     -0.00283282      6.75532e-05     0.000297803
                     3.93106e-05     0.000166056         0.546119        0.770196      0.000168589     0.000223715         0.210223        0.230711
281736                 -0.115304       0.0246698      0.000375289    -0.000119416        -0.976156        0.123622      7.26502e-05     4.95574e-05
                     0.000254679    -7.35085e-05        -0.153015       -0.275273      7.88994e-05    -0.000129861           0.5454        0.769871
                       -0.975926         0.12365      5.61108e-06    -0.000255055          0.11577     -0.00292172      6.82414e-05     0.000299491
                     3.94394e-05     0.000166055          0.54647        0.769934      0.000168914     0.000223371         0.210427        0.230614
281738                 -0.115276       0.0246966      0.000375103    -0.000119423        -0.976094        0.124131      7.23121e-05     4.86969e-05
                     0.000254845    -7.35581e-05        -0.153126       -0.275288      7.91977e-05    -0.000130341         0.545761        0.769587
                       -0.975864        0.124159      6.03829e-06     -0.00025514         0.115746     -0.00301058      6.89213e-05     0.000301188
                     3.95679e-05     0.000166052         0.546822        0.769664       0.00016923     0.000223032         0.210631        0.230518
281740                 -0.115249       0.0247234      0.000375071    -0.000119546        -0.976032         0.12464      7.19759e-05     4.78172e-05
                     0.000255009    -7.36088e-05        -0.153238       -0.275303      7.94888e-05    -0.000130814         0.546121        0.769302
                       -0.975801        0.124668      6.29723e-06    -0.000255126         0.115722     -0.00309941      6.95923e-05     0.000302892
                     3.96963e-05     0.000166046         0.547177         0.76939      0.000169538     0.000222696         0.210835        0.230421
281742                 -0.115221       0.0247502      0.000375149    -0.000119745         -0.97597        0.125149      7.16414e-05     4.69182e-05
                     0.000255172    -7.36605e-05        -0.153349       -0.275318      7.97725e-05     -0.00013128         0.546481        0.769017
                       -0.975737        0.125178      6.43693e-06    -0.000255042         0.115698     -0.00318821      7.02544e-05     0.000304602
                     3.98245e-05     0.000166037         0.547532        0.769113      0.000169837     0.000222365         0.211038        0.230324
281744                 -0.115194        0.024777      0.000375304    -0.000119996        -0.975907        0.125658      7.13081e-05         4.6e-05
                     0.000255332    -7.37133e-05        -0.153461       -0.275332      8.00491e-05     -0.00013174         0.546841        0.768732
                       -0.975677        0.125687      6.49343e-06    -0.000254909         0.115674     -0.00327699      7.09078e-05     0.000306318
                      3.9952e-05     0.000166024         0.547888        0.768833      0.000170128     0.000222037         0.211242        0.230227
281746                 -0.115167       0.0248038      0.000375514    -0.000120283        -0.975845        0.126167      7.09755e-05     4.50637e-05
                     0.000255491    -7.37667e-05        -0.153573       -0.275347      8.03186e-05    -0.000132193         0.547202        0.768447
                       -0.975613        0.126196      6.49314e-06    -0.000254742          0.11565     -0.00336573      7.15537e-05     0.000308038
                     4.00759e-05     0.000166006         0.548244        0.768551      0.000170412     0.000221715         0.211446         0.23013
281748                 -0.115139       0.0248305      0.000375762    -0.000120593        -0.975781        0.126676      7.06429e-05      4.4111e-05
                     0.000255647    -7.38194e-05        -0.153685       -0.275362       8.0581e-05     -0.00013264         0.547562        0.768161
                       -0.975549        0.126705      6.45546e-06     -0.00025455         0.115626     -0.00345445      7.21943e-05     0.000309762
                     4.01934e-05     0.000165988         0.548601        0.768268      0.000170687     0.000221396          0.21165        0.230033
281750                 -0.115112       0.0248573      0.000376034    -0.000120917        -0.975718        0.127184      7.03094e-05     4.31454e-05
                     0.000255803    -7.38686e-05        -0.153797       -0.275376      8.08366e-05     -0.00013308         0.547921        0.767876
                       -0.975485        0.127214      6.39461e-06    -0.000254342         0.115602     -0.00354313      7.28333e-05     0.000311487
                     4.03105e-05     0.000165975         0.548958        0.767984      0.000170956     0.000221083         0.211854        0.229936
281752                 -0.115084       0.0248839      0.000376322    -0.000121249        -0.975654        0.127693      6.99737e-05     4.21719e-05
                     0.000255965     -7.3919e-05         -0.15391       -0.275391      8.10853e-05    -0.000133514         0.548281         0.76759
                       -0.975421        0.127723      6.32099e-06    -0.000254124         0.115578     -0.00363179      7.34768e-05     0.000313213
                     4.04313e-05     0.000165962         0.549316          0.7677      0.000171217     0.000220774         0.212057        0.229838
281754                 -0.115057       0.0249106      0.000376618    -0.000121585        -0.975591        0.128202      6.96342e-05     4.11987e-05
                     0.000256127     -7.3976e-05        -0.154022       -0.275406      8.13273e-05    -0.000133941         0.548641        0.767304
                       -0.975357        0.128232      6.24219e-06    -0.000253898         0.115553     -0.00372042      7.41342e-05     0.000314938
                     4.05538e-05     0.000165945         0.549673        0.767414      0.000171472      0.00022047         0.212261         0.22974
281756                  -0.11503       0.0249373      0.000376919     -0.00012192        -0.975526        0.128711      6.92885e-05     4.02382e-05
                     0.000256285    -7.40357e-05        -0.154135        -0.27542      8.15627e-05    -0.000134362            0.549        0.767017
                       -0.975292         0.12874      6.16372e-06    -0.000253669         0.115529     -0.00380901      7.48196e-05     0.000316661
                     4.06763e-05     0.000165926          0.55003        0.767129      0.000171719      0.00022017         0.212465        0.229642
281758                 -0.115002       0.0249639      0.000377221    -0.000122253        -0.975462        0.129219      6.89335e-05     3.93087e-05
                      0.00025644    -7.40964e-05        -0.154247       -0.275435      8.17916e-05    -0.000134776         0.549359        0.766731
                       -0.975227        0.129249       6.0895e-06     -0.00025344         0.115505     -0.00389758       7.5554e-05     0.000318382
                     4.07984e-05     0.000165903         0.550387        0.766843      0.000171961     0.000219876         0.212669        0.229544
281760                 -0.114975       0.0249905       0.00037752    -0.000122581        -0.975397        0.129728      6.85646e-05     3.84378e-05
                     0.000256594    -7.41578e-05         -0.15436       -0.275449      8.20142e-05    -0.000135184         0.549718        0.766444
                       -0.975162        0.129758      6.02234e-06    -0.000253212          0.11548     -0.00398612      7.63688e-05     0.000320101
                     4.09199e-05     0.000165878         0.550743        0.766556      0.000172196     0.000219586         0.212872        0.229446
281762                 -0.114947       0.0250171      0.000377816    -0.000122902        -0.975332        0.130237       6.8176e-05     3.76661e-05
                     0.000256747    -7.42199e-05        -0.154472       -0.275464      8.22304e-05    -0.000135586         0.550077        0.766158
                       -0.975097        0.130267      5.96414e-06    -0.000252988         0.115456     -0.00407463      7.73108e-05      0.00032182
