! TOUCHSTONE file generated by CST MICROWAVE STUDIO
! Date and time: Tue Oct 14 07:25:24 2025
! Project name: Teste_Macro_Metasurface_Nanopilar.cst
! Parameters = {H=600; L_x=80; L_y=75; Lambda=1064; Max_L=200; Min_L=70; PathPara=1; Phi=0; Step_L=10; Theta=0; p=520; phaseX=180; phaseY=0}
! Header version: 2018
! Port assignment regex: !\s*Touchstone port\s*([0-9]+)\s*=\s*(CST MWS port|CST DS port)\s*([0-9]+|Zmin|Zmax)\s*\(\"(.*)\"\)(\s*mode\s*([0-9]+))?.*
! Touchstone port assignment:
! Touchstone port 1 = CST MWS port Zmax ("") mode 1
! Touchstone port 2 = CST MWS port Zmax ("") mode 2
! Touchstone port 3 = CST MWS port Zmin ("") mode 1
! Touchstone port 4 = CST MWS port Zmin ("") mode 2
! S-Parameters are not renormalized. Each port impedance will be approximated by the real part at minimum frequency. The values are described via the [Reference] keyword.
! Default impedance is overridden by [Reference]
[Version] 2.0
# GHz S RI R 376.73
[Number of Ports] 4
[Reference]
376.73 376.73 259.814 259.814 
[Number of Frequencies] 51
[Network Data]
281700                 -0.054604         0.12887     -1.82452e-05     0.000138083         0.974559        0.174575     -0.000153763     0.000296589
                      -0.0002463     0.000214705       -0.0482929        0.124428       -6.366e-05     0.000151233         0.981059         0.13678
                        0.974171        0.174781      -6.5187e-06     0.000150703       0.00632609        0.139819     -2.99882e-07     0.000237416
                    -0.000197686    -4.15138e-05         0.980966        0.136912      4.24306e-06     0.000192314        0.0123299        0.132919
281702                -0.0545604        0.128886     -1.84962e-05     0.000137955         0.974622        0.174225     -0.000153714     0.000296642
                    -0.000246606     0.000214753       -0.0482504        0.124442      -6.3837e-05     0.000151231         0.981109        0.136426
                        0.974234        0.174431      -6.4758e-06      0.00015062       0.00638018        0.139814      -2.9288e-07     0.000237549
                    -0.000198274    -4.17589e-05         0.981015        0.136558      4.19552e-06     0.000192319        0.0123812        0.132911
281704                -0.0545168        0.128901      -1.8747e-05     0.000137827         0.974685        0.173875     -0.000153664     0.000296694
                    -0.000246914     0.000214804       -0.0482078        0.124455     -6.40142e-05      0.00015123         0.981158        0.136073
                        0.974297        0.174081     -6.43294e-06     0.000150537       0.00643426        0.139809     -2.85851e-07     0.000237682
                     -0.00019887    -4.20003e-05         0.981065        0.136205      4.14782e-06     0.000192324        0.0124324        0.132903
281706                -0.0544732        0.128916     -1.89977e-05     0.000137699         0.974748        0.173525     -0.000153615     0.000296746
                    -0.000247226      0.00021486       -0.0481653        0.124468     -6.41915e-05     0.000151229         0.981208        0.135719
                        0.974361         0.17373      -6.3901e-06     0.000150454       0.00648833        0.139803     -2.78794e-07     0.000237815
                    -0.000199475     -4.2238e-05         0.981114        0.135851      4.09997e-06      0.00019233        0.0124837        0.132895
281708                -0.0544296        0.128931     -1.92483e-05     0.000137572         0.974811        0.173174     -0.000153565     0.000296798
                    -0.000247541      0.00021492       -0.0481227        0.124481     -6.43688e-05     0.000151228         0.981257        0.135366
                        0.974424         0.17338     -6.34728e-06     0.000150372        0.0065424        0.139798     -2.71707e-07     0.000237949
                    -0.000200088    -4.24718e-05         0.981163        0.135497      4.05196e-06     0.000192335        0.0125349        0.132888
281710                -0.0543859        0.128947     -1.94988e-05     0.000137446         0.974873        0.172824     -0.000153516     0.000296851
                    -0.000247858     0.000214984       -0.0480801        0.124494     -6.45463e-05     0.000151228         0.981306        0.135012
                        0.974486         0.17303      -6.3045e-06      0.00015029       0.00659647        0.139792     -2.64591e-07     0.000238082
                    -0.000200708    -4.27017e-05         0.981213        0.135144      4.00379e-06     0.000192341        0.0125862         0.13288
281712                -0.0543423        0.128962     -1.97492e-05      0.00013732         0.974936        0.172474     -0.000153466     0.000296903
                    -0.000248179     0.000215053       -0.0480376        0.124507     -6.47239e-05     0.000151228         0.981355        0.134659
                        0.974549        0.172679     -6.26174e-06     0.000150208       0.00665054        0.139787     -2.57447e-07     0.000238215
                    -0.000201336    -4.29276e-05         0.981262         0.13479      3.95547e-06     0.000192347        0.0126374        0.132872
281714                -0.0542987        0.128977     -1.99996e-05     0.000137195         0.974998        0.172124     -0.000153416     0.000296954
                    -0.000248502     0.000215125        -0.047995         0.12452     -6.49016e-05     0.000151228         0.981404        0.134305
                        0.974612        0.172329     -6.21901e-06     0.000150126        0.0067046        0.139781     -2.50278e-07     0.000238348
                    -0.000201973    -4.31496e-05         0.981311        0.134436      3.90698e-06     0.000192353        0.0126886        0.132864
281716                 -0.054255        0.128992     -2.02499e-05      0.00013707          0.97506        0.171774     -0.000153367     0.000297006
                    -0.000248828     0.000215202       -0.0479524        0.124534     -6.50795e-05     0.000151229         0.981453        0.133951
                        0.974674        0.171979     -6.17631e-06     0.000150044       0.00675866        0.139776     -2.43088e-07     0.000238481
                    -0.000202616    -4.33675e-05         0.981359        0.134082      3.85835e-06      0.00019236        0.0127398        0.132856
281718                -0.0542114        0.129008     -2.05002e-05     0.000136946         0.975122        0.171424     -0.000153317     0.000297058
                    -0.000249156     0.000215283       -0.0479098        0.124547     -6.52574e-05     0.000151231         0.981502        0.133598
                        0.974736        0.171628     -6.13364e-06     0.000149962       0.00681272         0.13977     -2.35891e-07     0.000238614
                    -0.000203268    -4.35813e-05         0.981408        0.133729      3.80955e-06     0.000192366         0.012791        0.132848
281720                -0.0541678        0.129023     -2.07505e-05     0.000136822         0.975184        0.171073     -0.000153268     0.000297109
                    -0.000249488     0.000215369       -0.0478673         0.12456     -6.54354e-05     0.000151233         0.981551        0.133244
                        0.974799        0.171278       -6.091e-06     0.000149881       0.00686677        0.139765     -2.28722e-07     0.000238747
                    -0.000203926     -4.3791e-05         0.981456        0.133375      3.76059e-06     0.000192373        0.0128423         0.13284
281722                -0.0541241        0.129038     -2.10007e-05       0.0001367         0.975246        0.170723     -0.000153219      0.00029716
                    -0.000249822     0.000215459       -0.0478247        0.124573     -6.56135e-05     0.000151235         0.981599         0.13289
                        0.974861        0.170928     -6.04839e-06       0.0001498       0.00692082        0.139759     -2.21682e-07     0.000238879
                    -0.000204592    -4.39965e-05         0.981505        0.133021      3.71148e-06      0.00019238        0.0128935        0.132831
281724                -0.0540805        0.129053     -2.12509e-05     0.000136577         0.975308        0.170373      -0.00015317     0.000297212
                    -0.000250159     0.000215553       -0.0477821        0.124586     -6.57918e-05     0.000151238         0.981647        0.132537
                        0.974923        0.170577     -6.00582e-06     0.000149719       0.00697486        0.139754     -2.15136e-07     0.000239012
                    -0.000205266    -4.41978e-05         0.981553        0.132667       3.6622e-06     0.000192388        0.0129447        0.132823
281726                -0.0540368        0.129068     -2.15011e-05     0.000136456         0.975369        0.170023     -0.000153122     0.000297264
                    -0.000250499     0.000215651       -0.0477395        0.124599     -6.59701e-05     0.000151241         0.981696        0.132183
                        0.974984        0.170227     -5.96328e-06     0.000149638       0.00702891        0.139748     -2.10459e-07     0.000239145
                    -0.000205946    -4.43948e-05         0.981601        0.132313      3.61277e-06     0.000192395        0.0129959        0.132815
281728                -0.0539931        0.129083     -2.17514e-05     0.000136335         0.975431        0.169672     -0.000153077     0.000297319
                    -0.000250841     0.000215754       -0.0476969        0.124612     -6.61485e-05     0.000151245         0.981744        0.131829
                        0.975046        0.169876     -5.92077e-06     0.000149557       0.00708295        0.139742      -2.0262e-07     0.000239283
                    -0.000206634    -4.45875e-05         0.981649        0.131959      3.56317e-06     0.000192403         0.013047        0.132807
281730                -0.0539495        0.129099     -2.20016e-05     0.000136215         0.975492        0.169322     -0.000153024     0.000297383
                    -0.000251186     0.000215861       -0.0476543        0.124625      -6.6327e-05     0.000151249         0.981792        0.131475
                        0.975108        0.169526      -5.8783e-06     0.000149477       0.00713698        0.139737     -1.91988e-07     0.000239416
                    -0.000207329    -4.47758e-05         0.981697        0.131605      3.51342e-06     0.000192411        0.0130982        0.132799
281732                -0.0539058        0.129114     -2.22518e-05     0.000136095         0.975553        0.168971     -0.000152958     0.000297432
                    -0.000251534     0.000215972       -0.0476117        0.124638     -6.65056e-05     0.000151254         0.981839        0.131122
                        0.975169        0.169175     -5.83585e-06     0.000149397       0.00719101        0.139731     -1.83617e-07     0.000239548
                    -0.000208031    -4.49596e-05         0.981745        0.131252       3.4635e-06      0.00019242        0.0131494        0.132791
281734                -0.0538622        0.129129      -2.2502e-05     0.000135976         0.975614        0.168621     -0.000152906     0.000297476
                    -0.000251884     0.000216088       -0.0475691        0.124651     -6.66843e-05     0.000151259         0.981887        0.130768
                         0.97523        0.168825     -5.79341e-06     0.000149317       0.00724504        0.139725     -1.75719e-07      0.00023968
                    -0.000208741    -4.51388e-05         0.981793        0.130898      3.41341e-06     0.000192429        0.0132006        0.132783
281736                -0.0538185        0.129144     -2.27522e-05     0.000135858         0.975675        0.168271     -0.000152855     0.000297524
                    -0.000252236     0.000216208       -0.0475265        0.124664     -6.68631e-05     0.000151264         0.981935        0.130414
                        0.975292        0.168474     -5.75097e-06     0.000149237       0.00729907         0.13972     -1.67902e-07     0.000239812
                    -0.000209457    -4.53132e-05          0.98184        0.130544      3.36316e-06     0.000192437        0.0132518        0.132774
281738                -0.0537748        0.129159     -2.30023e-05      0.00013574         0.975736         0.16792     -0.000152805     0.000297573
                    -0.000252592     0.000216333       -0.0474839        0.124677     -6.70419e-05     0.000151271         0.981982         0.13006
                        0.975353        0.168123     -5.70846e-06     0.000149158       0.00735309        0.139714     -1.60074e-07     0.000239945
                    -0.000210181    -4.54826e-05         0.981887         0.13019      3.31274e-06     0.000192447         0.013303        0.132766
281740                -0.0537311        0.129174     -2.32522e-05     0.000135623         0.975797         0.16757     -0.000152754     0.000297622
                    -0.000252949     0.000216464       -0.0474413        0.124689     -6.72209e-05     0.000151277         0.982029        0.129706
                        0.975414        0.167773     -5.66581e-06     0.000149078       0.00740711        0.139708     -1.52205e-07     0.000240078
                    -0.000210913    -4.56464e-05         0.981935        0.129836      3.26216e-06     0.000192456        0.0133541        0.132758
281742                -0.0536875        0.129189     -2.35017e-05     0.000135506         0.975857        0.167219     -0.000152703     0.000297671
                    -0.000253309     0.000216599       -0.0473986        0.124702     -6.73999e-05     0.000151285         0.982077        0.129352
                        0.975474        0.167422     -5.62282e-06     0.000148999       0.00746113        0.139702     -1.44282e-07      0.00024021
                    -0.000211654    -4.58038e-05         0.981982        0.129482      3.21139e-06     0.000192466        0.0134053         0.13275
281744                -0.0536438        0.129204     -2.37501e-05     0.000135389         0.975918        0.166869     -0.000152652     0.000297721
                    -0.000253671     0.000216742        -0.047356        0.124715     -6.75789e-05     0.000151293         0.982124        0.128999
                        0.975535        0.167071       -5.579e-06     0.000148919       0.00751514        0.139696     -1.36298e-07     0.000240343
                    -0.000212407    -4.59524e-05         0.982029        0.129128      3.16045e-06     0.000192476        0.0134564        0.132741
281746                -0.0536001        0.129219     -2.39956e-05      0.00013527         0.975978        0.166518     -0.000152601      0.00029777
                    -0.000254034     0.000216896       -0.0473134        0.124728     -6.77581e-05     0.000151301          0.98217        0.128645
                        0.975596        0.166721     -5.53291e-06     0.000148839       0.00756915        0.139691     -1.28249e-07     0.000240475
                    -0.000213177    -4.60859e-05         0.982076        0.128774      3.10933e-06     0.000192486        0.0135076        0.132733
281748                -0.0535564        0.129234     -2.42285e-05     0.000135143         0.976038        0.166168      -0.00015255      0.00029782
                    -0.000254393     0.000217081       -0.0472708        0.124741     -6.79372e-05      0.00015131         0.982217        0.128291
                        0.975656         0.16637     -5.47719e-06     0.000148756       0.00762316        0.139685     -1.20131e-07     0.000240607
                    -0.000213999    -4.61725e-05         0.982122         0.12842      3.05801e-06     0.000192497        0.0135587        0.132725
281750                 -0.053513         0.12925     -2.55385e-05     0.000135699         0.976098        0.165817     -0.000152498     0.000297869
                    -0.000254083     0.000218741       -0.0472279        0.124754     -6.81165e-05      0.00015132         0.982264        0.127937
                        0.975716        0.166019     -5.93029e-06     0.000148227       0.00767716        0.139679     -1.11942e-07      0.00024074
                     -0.00021646    -4.33841e-05         0.982168        0.128064      3.00647e-06     0.000192507        0.0136099        0.132716
281752                 -0.053469        0.129264     -2.48045e-05      0.00013497         0.976158        0.165467     -0.000152446     0.000297918
                    -0.000255177      0.00021721       -0.0471855        0.124767     -6.82957e-05     0.000151331          0.98231        0.127583
                        0.975776        0.165668     -5.45401e-06     0.000148619       0.00773116        0.139673     -1.03678e-07     0.000240872
                    -0.000215218    -4.67352e-05         0.982215        0.127711       2.9547e-06     0.000192519         0.013661        0.132708
281754                -0.0534253        0.129279     -2.50401e-05     0.000134847         0.976218        0.165116     -0.000152394     0.000297967
                    -0.000255543     0.000217414       -0.0471428        0.124779      -6.8475e-05     0.000151343         0.982357        0.127229
                        0.975836        0.165317     -5.39932e-06     0.000148538       0.00778515        0.139667     -9.53378e-08     0.000241004
                    -0.000216074    -4.68016e-05         0.982262        0.127357      2.90264e-06      0.00019253        0.0137122          0.1327
281756                -0.0533816        0.129294     -2.52871e-05     0.000134733         0.976278        0.164765     -0.000152342     0.000298016
                    -0.000255918      0.00021759       -0.0471002        0.124792     -6.86543e-05     0.000151357         0.982403        0.126875
                        0.975896        0.164967     -5.35443e-06     0.000148459       0.00783915        0.139661     -8.69177e-08     0.000241136
                    -0.000216879    -4.69122e-05         0.982308        0.127003      2.85018e-06     0.000192543        0.0137633        0.132691
281758                -0.0533379        0.129309     -2.55374e-05     0.000134622         0.976337        0.164415      -0.00015229     0.000298065
                    -0.000256298     0.000217763       -0.0470575        0.124805     -6.88333e-05     0.000151373         0.982449        0.126521
                        0.975956        0.164616     -5.31221e-06     0.000148382       0.00789314        0.139655     -7.84154e-08     0.000241269
                    -0.000217676    -4.70304e-05         0.982354        0.126649      2.79708e-06     0.000192555        0.0138144        0.132683
281760                -0.0532942        0.129324     -2.57891e-05     0.000134513         0.976396        0.164064     -0.000152237     0.000298114
                     -0.00025668     0.000217938       -0.0470149        0.124818     -6.90119e-05     0.000151396         0.982495        0.126167
                        0.976016        0.164265     -5.27125e-06     0.000148305       0.00794713        0.139649     -6.98283e-08     0.000241401
                    -0.000218474    -4.71489e-05           0.9824        0.126295      2.74255e-06      0.00019257        0.0138655        0.132674
281762                -0.0532505        0.129339     -2.60417e-05     0.000134404         0.976456        0.163713     -0.000152185     0.000298162
                    -0.000257066     0.000218115       -0.0469722         0.12483     -6.91875e-05     0.000151447         0.982541        0.125813
                        0.976075        0.163914     -5.23108e-06     0.000148228       0.00800112        0.139643     -6.11537e-08     0.000241533
