! TOUCHSTONE file generated by CST MICROWAVE STUDIO
! Date and time: Tue Oct 14 07:30:20 2025
! Project name: Teste_Macro_Metasurface_Nanopilar.cst
! Parameters = {H=600; L_x=155; L_y=165; Lambda=1064; Max_L=200; Min_L=70; PathPara=1; Phi=0; Step_L=10; Theta=0; p=520; phaseX=180; phaseY=0}
! Header version: 2018
! Port assignment regex: !\s*Touchstone port\s*([0-9]+)\s*=\s*(CST MWS port|CST DS port)\s*([0-9]+|Zmin|Zmax)\s*\(\"(.*)\"\)(\s*mode\s*([0-9]+))?.*
! Touchstone port assignment:
! Touchstone port 1 = CST MWS port Zmax ("") mode 1
! Touchstone port 2 = CST MWS port Zmax ("") mode 2
! Touchstone port 3 = CST MWS port Zmin ("") mode 1
! Touchstone port 4 = CST MWS port Zmin ("") mode 2
! S-Parameters are not renormalized. Each port impedance will be approximated by the real part at minimum frequency. The values are described via the [Reference] keyword.
! Default impedance is overridden by [Reference]
[Version] 2.0
# GHz S RI R 376.73
[Number of Ports] 4
[Reference]
376.73 376.73 259.814 259.814 
[Number of Frequencies] 51
[Network Data]
281700                 -0.169875     -0.00710431      0.000220988    -0.000366929          0.73446          0.6507      0.000289451    -0.000250165
                     0.000239542    -0.000443764        -0.172436       0.0140592      0.000117764    -0.000215583         0.644466        0.738745
                         0.73468        0.650839       0.00012353    -0.000189502        0.0272171        0.163716      0.000635031    -0.000325221
                     0.000306036    -0.000178798         0.643854          0.7388      0.000436574      -0.0004359       -0.0367937        0.163877
281702                 -0.169879      -0.0070814      0.000222461    -0.000368025         0.734735        0.650391      0.000289323    -0.000250235
                     0.000239413    -0.000444037        -0.172428       0.0140756      0.000117376    -0.000215958         0.644787        0.738468
                        0.734953         0.65053      0.000124607    -0.000189105        0.0273341        0.163701      0.000634897    -0.000325591
                     0.000306086    -0.000178999         0.644174        0.738523      0.000436808    -0.000436266       -0.0366657        0.163901
281704                 -0.169883     -0.00705849      0.000225887     -0.00037382          0.73501        0.650082      0.000289194    -0.000250306
                     0.000239283    -0.000444309         -0.17242        0.014092      0.000116989    -0.000216331         0.645107         0.73819
                        0.735227         0.65022      0.000125834    -0.000188074         0.027451        0.163686      0.000634763     -0.00032596
                     0.000306136    -0.000179201         0.644494        0.738246      0.000437042     -0.00043663       -0.0365376        0.163925
281706                 -0.169888     -0.00703556       0.00020945    -0.000375205         0.735285        0.649773      0.000289065    -0.000250376
                     0.000239153    -0.000444577        -0.172413       0.0141084      0.000116604    -0.000216702         0.645428        0.737912
                        0.735501         0.64991      0.000126789    -0.000185891        0.0275679        0.163671      0.000634629     -0.00032633
                     0.000306186    -0.000179403         0.644814        0.737969      0.000437275    -0.000436993       -0.0364096        0.163949
281708                 -0.169892     -0.00701262      0.000212966    -0.000368839         0.735559        0.649463      0.000288936    -0.000250445
                     0.000239023    -0.000444843        -0.172405       0.0141248      0.000116221    -0.000217072         0.645748        0.737634
                        0.735774        0.649601       0.00012603    -0.000182428        0.0276848        0.163655      0.000634496    -0.000326699
                     0.000306235    -0.000179605         0.645133        0.737691      0.000437508    -0.000437354       -0.0362815        0.163972
281710                 -0.169896     -0.00698968      0.000214583    -0.000368222         0.735833        0.649153      0.000288807    -0.000250515
                     0.000238893    -0.000445107        -0.172398       0.0141412      0.000115839    -0.000217441         0.646068        0.737355
                        0.736047        0.649291      0.000122133    -0.000180029        0.0278017         0.16364      0.000634362    -0.000327069
                     0.000306283    -0.000179808         0.645453        0.737414       0.00043774    -0.000437714       -0.0361535        0.163996
281712                   -0.1699     -0.00696672      0.000215276    -0.000368239         0.736108        0.648844      0.000288678    -0.000250584
                     0.000238763    -0.000445368         -0.17239       0.0141577       0.00011546    -0.000217808         0.646388        0.737077
                         0.73632        0.648981      0.000117834    -0.000181298        0.0279185        0.163624      0.000634228    -0.000327438
                     0.000306331    -0.000180011         0.645773        0.737136       0.00043797    -0.000438072       -0.0360254        0.164019
281714                 -0.169904     -0.00694376      0.000215616    -0.000368405         0.736382        0.648534      0.000288549    -0.000250653
                     0.000238633    -0.000445627        -0.172383       0.0141741      0.000115081    -0.000218173         0.646708        0.736798
                        0.736593         0.64867      0.000115863    -0.000184147        0.0280354        0.163609      0.000634095    -0.000327807
                     0.000306379    -0.000180215         0.646092        0.736858      0.000438201    -0.000438428       -0.0358974        0.164043
281716                 -0.169909     -0.00692078      0.000215789    -0.000368623         0.736655        0.648224       0.00028842    -0.000250721
                     0.000238503    -0.000445883        -0.172375       0.0141905      0.000114705    -0.000218537         0.647028         0.73652
                        0.736866         0.64836      0.000115494    -0.000186584        0.0281522        0.163593      0.000633961    -0.000328176
                     0.000306426    -0.000180418         0.646411        0.736581       0.00043843    -0.000438783       -0.0357693        0.164066
281718                 -0.169913     -0.00689779      0.000215871    -0.000368863         0.736929        0.647914       0.00028829    -0.000250789
                     0.000238374    -0.000446137        -0.172367        0.014207       0.00011433    -0.000218899         0.647348        0.736241
                        0.737139         0.64805      0.000115732    -0.000188353         0.028269        0.163577      0.000633828    -0.000328544
                     0.000306473    -0.000180623          0.64673        0.736303      0.000438658    -0.000439135       -0.0356413        0.164089
281720                 -0.169917     -0.00687479      0.000215898    -0.000369114         0.737203        0.647604      0.000288161    -0.000250857
                     0.000238245    -0.000446389         -0.17236       0.0142235      0.000113956     -0.00021926         0.647668        0.735962
                        0.737411        0.647739      0.000116142    -0.000189645        0.0283858        0.163561      0.000633694    -0.000328913
                     0.000306519    -0.000180827         0.647049        0.736025      0.000438886    -0.000439487       -0.0355133        0.164112
281722                 -0.169921     -0.00685179      0.000215889    -0.000369372         0.737476        0.647293      0.000288032    -0.000250924
                     0.000238116    -0.000446638        -0.172352       0.0142399      0.000113584    -0.000219619         0.647987        0.735683
                        0.737684        0.647428      0.000116578    -0.000190634        0.0285025        0.163545      0.000633561    -0.000329281
                     0.000306565    -0.000181032         0.647368        0.735746      0.000439113    -0.000439837       -0.0353853        0.164135
281724                 -0.169926     -0.00682877      0.000215854    -0.000369633          0.73775        0.646983      0.000287903     -0.00025099
                     0.000237989    -0.000446885        -0.172345       0.0142564      0.000113214    -0.000219976         0.648306        0.735404
                        0.737956        0.647118      0.000116992    -0.000191433        0.0286193        0.163529      0.000633427    -0.000329648
                      0.00030661    -0.000181237         0.647687        0.735468       0.00043934    -0.000440185       -0.0352572        0.164158
281726                  -0.16993     -0.00680574      0.000215802    -0.000369897         0.738023        0.646672      0.000287774    -0.000251056
                     0.000237861     -0.00044713        -0.172337       0.0142729      0.000112846    -0.000220332         0.648625        0.735125
                        0.738228        0.646807      0.000117375    -0.000192109         0.028736        0.163513      0.000633293    -0.000330016
                     0.000306655    -0.000181442         0.648005         0.73519      0.000439565    -0.000440531       -0.0351292        0.164181
281728                 -0.169934     -0.00678271      0.000215738    -0.000370163         0.738296        0.646362      0.000287646    -0.000251121
                     0.000237735    -0.000447373         -0.17233       0.0142894      0.000112479    -0.000220687         0.648944        0.734845
                          0.7385        0.646496      0.000117727    -0.000192702        0.0288527        0.163497       0.00063316    -0.000330383
                     0.000306699    -0.000181648         0.648324        0.734911       0.00043979    -0.000440876       -0.0350012        0.164204
281730                 -0.169938     -0.00675966      0.000215663    -0.000370429         0.738569        0.646051      0.000287518    -0.000251187
                      0.00023761    -0.000447614        -0.172322       0.0143059      0.000112114    -0.000221039         0.649263        0.734566
                        0.738772        0.646185      0.000118052    -0.000193238        0.0289694        0.163481      0.000633026    -0.000330749
                     0.000306743    -0.000181853         0.648642        0.734632      0.000440014    -0.000441219       -0.0348732        0.164226
281732                 -0.169943      -0.0067366      0.000215581    -0.000370697         0.738841         0.64574       0.00028739    -0.000251252
                     0.000237485    -0.000447854        -0.172315       0.0143224       0.00011175    -0.000221391         0.649582        0.734286
                        0.739044        0.645873      0.000118354    -0.000193734        0.0290861        0.163464      0.000632892    -0.000331115
                     0.000306786    -0.000182059          0.64896        0.734354      0.000440237    -0.000441561       -0.0347452        0.164249
281734                 -0.169947     -0.00671354      0.000215494    -0.000370965         0.739114        0.645429      0.000287263    -0.000251317
                     0.000237361    -0.000448092        -0.172307       0.0143389      0.000111388     -0.00022174         0.649901        0.734006
                        0.739316        0.645562       0.00011864    -0.000194201        0.0292028        0.163448      0.000632757    -0.000331481
                     0.000306829    -0.000182266         0.649279        0.734075      0.000440459    -0.000441901       -0.0346172        0.164271
281736                 -0.169951     -0.00669046      0.000215402    -0.000371234         0.739387        0.645118      0.000287136    -0.000251383
                     0.000237238    -0.000448328          -0.1723       0.0143554      0.000111028    -0.000222088         0.650219        0.733726
                        0.739587        0.645251      0.000118912    -0.000194649        0.0293194        0.163432      0.000632623    -0.000331846
                     0.000306872    -0.000182473         0.649596        0.733796      0.000440681     -0.00044224       -0.0344892        0.164294
281738                 -0.169955     -0.00666738      0.000215309    -0.000371504         0.739659        0.644807       0.00028701    -0.000251449
                     0.000237116    -0.000448564        -0.172292        0.014372       0.00011067    -0.000222435         0.650538        0.733446
                        0.739858        0.644939      0.000119177    -0.000195083         0.029436        0.163415      0.000632488    -0.000332211
                     0.000306915     -0.00018268         0.649914        0.733517      0.000440901    -0.000442577       -0.0343612        0.164316
281740                  -0.16996     -0.00664428      0.000215216    -0.000371774         0.739931        0.644496      0.000286883    -0.000251516
                     0.000236994    -0.000448801        -0.172285       0.0143885      0.000110313     -0.00022278         0.650856        0.733166
                         0.74013        0.644627       0.00011944     -0.00019551        0.0295526        0.163398      0.000632353    -0.000332576
                     0.000306959    -0.000182889         0.650232        0.733237      0.000441121    -0.000442912       -0.0342332        0.164338
281742                 -0.169964     -0.00662118      0.000215125    -0.000372045         0.740203        0.644184      0.000286757    -0.000251584
                     0.000236871    -0.000449039        -0.172277       0.0144051      0.000109957    -0.000223123         0.651174        0.732886
                        0.740401        0.644316      0.000119711    -0.000195936        0.0296692        0.163382      0.000632217     -0.00033294
                     0.000307006    -0.000183101          0.65055        0.732958       0.00044134    -0.000443246       -0.0341052         0.16436
281744                 -0.169968     -0.00659807      0.000215045    -0.000372319         0.740475        0.643873      0.000286631    -0.000251654
                     0.000236745    -0.000449285         -0.17227       0.0144216      0.000109604    -0.000223465         0.651492        0.732605
                        0.740672        0.644004      0.000120008    -0.000196373        0.0297858        0.163365      0.000632081    -0.000333303
                     0.000307058     -0.00018332         0.650867        0.732678      0.000441559    -0.000443578       -0.0339772        0.164382
281746                 -0.169972     -0.00657496      0.000214992    -0.000372596         0.740747        0.643561      0.000286506    -0.000251724
                     0.000236605    -0.000449552        -0.172263       0.0144382      0.000109252    -0.000223806          0.65181        0.732325
                        0.740942        0.643692      0.000120383    -0.000196846        0.0299023        0.163348      0.000631945    -0.000333666
                     0.000307125    -0.000183566         0.651184        0.732399      0.000441777    -0.000443908       -0.0338493        0.164404
281748                 -0.169977     -0.00655189       0.00021505    -0.000372888         0.741018         0.64325      0.000286382    -0.000251795
                     0.000236348    -0.000449953        -0.172255       0.0144548      0.000108903    -0.000224145         0.652127        0.732044
                        0.741213         0.64338      0.000121063    -0.000197462        0.0300189        0.163331      0.000631808    -0.000334028
                     0.000307152    -0.000184049         0.651501        0.732118      0.000441994    -0.000444237       -0.0337213        0.164426
281750                 -0.169981     -0.00652846      0.000218405    -0.000373732          0.74129        0.642938      0.000286259    -0.000251865
                     0.000236537    -0.000449464        -0.172247       0.0144712      0.000108556    -0.000224482         0.652445        0.731763
                        0.741484        0.643067      0.000129106    -0.000199168        0.0301354        0.163314      0.000631671    -0.000334389
                     0.000306894    -0.000183852          0.65182        0.731844      0.000442211    -0.000444563       -0.0335933        0.164448
281752                 -0.169985     -0.00650542      0.000213987    -0.000373326         0.741561        0.642626      0.000286137    -0.000251935
                     0.000236384    -0.000449977         -0.17224        0.014488      0.000108216    -0.000224821         0.652762        0.731482
                        0.741754        0.642755      0.000119114    -0.000196847        0.0302519        0.163297      0.000631535    -0.000334748
                     0.000307055    -0.000184047         0.652136         0.73156      0.000442431    -0.000444885       -0.0334654         0.16447
281754                  -0.16999     -0.00648228      0.000214105    -0.000373624         0.741833        0.642314      0.000286014    -0.000252003
                     0.000236259    -0.000450249        -0.172233       0.0145046      0.000107775    -0.000225139          0.65308        0.731201
                        0.742024        0.642443      0.000119976    -0.000197673        0.0303683         0.16328      0.000631401    -0.000335108
                     0.000307123    -0.000184257         0.652452         0.73128      0.000442604    -0.000445366       -0.0333374        0.164491
281756                 -0.169994     -0.00645911      0.000214055    -0.000373903         0.742104        0.642002       0.00028589    -0.000252072
                     0.000236145    -0.000450488        -0.172225       0.0145212      0.000107502    -0.000225479         0.653397         0.73092
                        0.742295         0.64213      0.000120362    -0.000198169        0.0304848        0.163263      0.000631265    -0.000335471
                     0.000307172    -0.000184463         0.652769           0.731      0.000442842     -0.00044555       -0.0332094        0.164513
281758                 -0.169998     -0.00643593      0.000213966    -0.000374177         0.742375        0.641689      0.000285766    -0.000252139
                     0.000236037    -0.000450717        -0.172218       0.0145378      0.000107164    -0.000225811         0.653714        0.730638
                        0.742564        0.641818      0.000120636    -0.000198594        0.0306013        0.163245      0.000631128    -0.000335833
                     0.000307214    -0.000184666         0.653085        0.730719      0.000443058    -0.000445867       -0.0330815        0.164534
281760                 -0.170003     -0.00641274      0.000213861     -0.00037445         0.742645        0.641377      0.000285642    -0.000252207
                     0.000235932    -0.000450941        -0.172211       0.0145544      0.000106825     -0.00022614         0.654031        0.730357
                        0.742834        0.641505      0.000120866    -0.000198992        0.0307177        0.163228       0.00063099    -0.000336194
                     0.000307253    -0.000184866         0.653402        0.730439      0.000443271    -0.000446186       -0.0329535        0.164555
281762                 -0.170007     -0.00638953      0.000213748    -0.000374722         0.742916        0.641064      0.000285517    -0.000252275
                      0.00023583    -0.000451161        -0.172203       0.0145711      0.000106486    -0.000226468         0.654347        0.730075
                        0.743104        0.641192      0.000121073    -0.000199377        0.0308341        0.163211      0.000630851    -0.000336555
