! TOUCHSTONE file generated by CST MICROWAVE STUDIO
! Date and time: Tue Oct 14 07:27:00 2025
! Project name: Teste_Macro_Metasurface_Nanopilar.cst
! Parameters = {H=600; L_x=105; L_y=85; Lambda=1064; Max_L=200; Min_L=70; PathPara=1; Phi=0; Step_L=10; Theta=0; p=520; phaseX=180; phaseY=0}
! Header version: 2018
! Port assignment regex: !\s*Touchstone port\s*([0-9]+)\s*=\s*(CST MWS port|CST DS port)\s*([0-9]+|Zmin|Zmax)\s*\(\"(.*)\"\)(\s*mode\s*([0-9]+))?.*
! Touchstone port assignment:
! Touchstone port 1 = CST MWS port Zmax ("") mode 1
! Touchstone port 2 = CST MWS port Zmax ("") mode 2
! Touchstone port 3 = CST MWS port Zmin ("") mode 1
! Touchstone port 4 = CST MWS port Zmin ("") mode 2
! S-Parameters are not renormalized. Each port impedance will be approximated by the real part at minimum frequency. The values are described via the [Reference] keyword.
! Default impedance is overridden by [Reference]
[Version] 2.0
# GHz S RI R 376.73
[Number of Ports] 4
[Reference]
376.73 376.73 259.814 259.814 
[Number of Frequencies] 51
[Network Data]
281700                -0.0105847       0.0913821      -0.00052674    -0.000335726         0.985957       -0.132209     -0.000127436    -0.000358585
                    -0.000444705    -0.000355471     -0.000759461       0.0161903      5.75191e-06    -0.000171706         0.865728       -0.496432
                        0.986256       -0.132047     -9.76196e-05    -0.000123152        0.0340889       0.0855581      3.55852e-05    -0.000805548
                    -6.33104e-05     -0.00013261         0.866101       -0.496542      0.000116528    -0.000614316        0.0141014      0.00809034
281702                -0.0105503       0.0913808     -0.000526753     -0.00033545         0.985908       -0.132574     -0.000127578    -0.000358287
                    -0.000444805    -0.000355227     -0.000750285       0.0161794       5.6753e-06    -0.000171717         0.865534       -0.496772
                        0.986207       -0.132412     -9.76522e-05    -0.000123098        0.0341187       0.0855406      3.53812e-05    -0.000805418
                    -6.33657e-05     -0.00013258         0.865906       -0.496882       0.00011632    -0.000614292        0.0140935      0.00808169
281704                 -0.010516       0.0913796     -0.000526765    -0.000335174         0.985859        -0.13294     -0.000127721     -0.00035799
                    -0.000444905    -0.000354982     -0.000741115       0.0161685      5.59867e-06    -0.000171728         0.865339       -0.497111
                        0.986159       -0.132778     -9.76848e-05    -0.000123045        0.0341486       0.0855232      3.51774e-05    -0.000805287
                    -6.34211e-05    -0.000132551         0.865712       -0.497221      0.000116112    -0.000614268        0.0140856      0.00807305
281706                -0.0104816       0.0913784     -0.000526776    -0.000334898          0.98581       -0.133305     -0.000127863    -0.000357692
                    -0.000445005    -0.000354737     -0.000731953       0.0161576      5.52201e-06    -0.000171739         0.865144        -0.49745
                         0.98611       -0.133143     -9.77174e-05    -0.000122992        0.0341784       0.0855058       3.4974e-05    -0.000805156
                    -6.34766e-05    -0.000132521         0.865517        -0.49756      0.000115904    -0.000614244        0.0140777      0.00806441
281708                -0.0104473       0.0913771     -0.000526788    -0.000334622         0.985761        -0.13367     -0.000128004    -0.000357393
                    -0.000445104    -0.000354493     -0.000722798       0.0161468      5.44533e-06     -0.00017175         0.864949       -0.497789
                        0.986061       -0.133508       -9.775e-05    -0.000122938        0.0342083       0.0854883      3.47708e-05    -0.000805024
                    -6.35322e-05    -0.000132491         0.865322         -0.4979      0.000115696     -0.00061422        0.0140698      0.00805579
281710                -0.0104129       0.0913758     -0.000526799    -0.000334347         0.985712       -0.134036     -0.000128145    -0.000357094
                    -0.000445204    -0.000354248      -0.00071365       0.0161359      5.36862e-06    -0.000171761         0.864754       -0.498129
                        0.986012       -0.133873     -9.77827e-05    -0.000122885        0.0342381       0.0854708      3.45679e-05    -0.000804892
                    -6.35879e-05    -0.000132462         0.865126       -0.498239      0.000115488    -0.000614196         0.014062      0.00804718
281712                -0.0103786       0.0913745      -0.00052681    -0.000334071         0.985662       -0.134401     -0.000128286    -0.000356795
                    -0.000445304    -0.000354004      -0.00070451        0.016125      5.29189e-06    -0.000171772         0.864558       -0.498468
                        0.985962       -0.134239     -9.78154e-05    -0.000122832        0.0342679       0.0854533      3.43653e-05     -0.00080476
                    -6.36436e-05    -0.000132432         0.864931       -0.498578       0.00011528    -0.000614171        0.0140541      0.00803857
281714                -0.0103443       0.0913732      -0.00052682    -0.000333796         0.985613       -0.134766     -0.000128427    -0.000356495
                    -0.000445403    -0.000353759     -0.000695377       0.0161141      5.21513e-06    -0.000171782         0.864363       -0.498807
                        0.985913       -0.134604     -9.78481e-05    -0.000122779        0.0342977       0.0854358      3.41629e-05    -0.000804627
                    -6.36994e-05    -0.000132402         0.864736       -0.498917      0.000115072    -0.000614147        0.0140462      0.00802997
281716                -0.0103099       0.0913719     -0.000526831    -0.000333521         0.985563       -0.135132     -0.000128567    -0.000356194
                    -0.000445503    -0.000353515     -0.000686251       0.0161032      5.13835e-06    -0.000171793         0.864167       -0.499146
                        0.985864       -0.134969     -9.78808e-05    -0.000122726        0.0343275       0.0854183      3.39609e-05    -0.000804493
                    -6.37552e-05    -0.000132373          0.86454       -0.499256      0.000114864    -0.000614122        0.0140383      0.00802138
281718                -0.0102756       0.0913706     -0.000526841    -0.000333246         0.985513       -0.135497     -0.000128707    -0.000355893
                    -0.000445602     -0.00035327     -0.000677133       0.0160923      5.06155e-06    -0.000171804         0.863971       -0.499484
                        0.985814       -0.135334     -9.79136e-05    -0.000122673        0.0343573       0.0854008      3.37591e-05    -0.000804359
                     -6.3811e-05    -0.000132343         0.864344       -0.499595      0.000114656    -0.000614098        0.0140304       0.0080128
281720                -0.0102413       0.0913693      -0.00052685    -0.000332971         0.985463       -0.135862     -0.000128847    -0.000355592
                    -0.000445701    -0.000353026     -0.000668022       0.0160814      4.98472e-06    -0.000171814         0.863775       -0.499823
                        0.985764       -0.135699     -9.79463e-05     -0.00012262        0.0343871       0.0853833      3.35576e-05    -0.000804225
                    -6.38669e-05    -0.000132314         0.864148       -0.499934      0.000114448    -0.000614073        0.0140224      0.00800423
281722                -0.0102069       0.0913679      -0.00052686    -0.000332697         0.985413       -0.136227     -0.000128986     -0.00035529
                      -0.0004458    -0.000352781     -0.000658918       0.0160705      4.90786e-06    -0.000171825         0.863579       -0.500162
                        0.985714       -0.136065     -9.79791e-05    -0.000122567        0.0344168       0.0853658      3.33564e-05     -0.00080409
                    -6.39227e-05    -0.000132284         0.863952       -0.500273       0.00011424    -0.000614048        0.0140145      0.00799567
281724                -0.0101726       0.0913666     -0.000526869    -0.000332422         0.985363       -0.136593     -0.000129125    -0.000354988
                      -0.0004459    -0.000352537     -0.000649822       0.0160595      4.83098e-06    -0.000171835         0.863383         -0.5005
                        0.985664        -0.13643     -9.80118e-05    -0.000122514        0.0344466       0.0853482      3.31555e-05    -0.000803955
                    -6.39786e-05    -0.000132255         0.863756       -0.500612      0.000114032    -0.000614024        0.0140066      0.00798711
281726                -0.0101383       0.0913652     -0.000526878    -0.000332148         0.985313       -0.136958     -0.000129264    -0.000354685
                    -0.000445999    -0.000352292     -0.000640733       0.0160486      4.75407e-06    -0.000171846         0.863187       -0.500839
                        0.985614       -0.136795     -9.80445e-05    -0.000122461        0.0344763       0.0853307      3.29549e-05     -0.00080382
                    -6.40344e-05    -0.000132226          0.86356        -0.50095      0.000113824    -0.000613999        0.0139987      0.00797856
281728                -0.0101039       0.0913638     -0.000526887    -0.000331874         0.985262       -0.137323     -0.000129402    -0.000354382
                    -0.000446098    -0.000352047     -0.000631651       0.0160377      4.67714e-06    -0.000171856          0.86299       -0.501177
                        0.985564        -0.13716     -9.80773e-05    -0.000122409        0.0345061       0.0853131      3.27546e-05    -0.000803683
                    -6.40903e-05    -0.000132196         0.863364       -0.501289      0.000113616    -0.000613974        0.0139907      0.00797003
281730                -0.0100696       0.0913624     -0.000526895      -0.0003316         0.985211       -0.137688      -0.00012954    -0.000354078
                    -0.000446197    -0.000351803     -0.000622576       0.0160268      4.60019e-06    -0.000171866         0.862794       -0.501516
                        0.985513       -0.137525       -9.811e-05    -0.000122356        0.0345358       0.0852955      3.25546e-05    -0.000803547
                    -6.41461e-05    -0.000132167         0.863167       -0.501627      0.000113408    -0.000613949        0.0139828       0.0079615
281732                -0.0100353        0.091361     -0.000526903    -0.000331326         0.985161       -0.138053     -0.000129678    -0.000353774
                    -0.000446296    -0.000351558     -0.000613509       0.0160158       4.5232e-06    -0.000171877         0.862597       -0.501854
                        0.985463        -0.13789     -9.81427e-05    -0.000122303        0.0345655       0.0852779      3.23548e-05     -0.00080341
                    -6.42018e-05    -0.000132138          0.86297       -0.501966        0.0001132    -0.000613923        0.0139749      0.00795298
281734                 -0.010001       0.0913596     -0.000526911    -0.000331053          0.98511       -0.138418     -0.000129815    -0.000353469
                    -0.000446394    -0.000351313     -0.000604449       0.0160049       4.4462e-06    -0.000171887           0.8624       -0.502192
                        0.985412       -0.138255     -9.81754e-05    -0.000122251        0.0345953       0.0852603      3.21554e-05    -0.000803273
                    -6.42576e-05    -0.000132109         0.862774       -0.502304      0.000112992    -0.000613898        0.0139669      0.00794447
281736               -0.00996665       0.0913581     -0.000526918    -0.000330779         0.985059       -0.138784     -0.000129953    -0.000353164
                    -0.000446493    -0.000351069     -0.000595397       0.0159939      4.36916e-06    -0.000171897         0.862203       -0.502531
                        0.985361        -0.13862      -9.8208e-05    -0.000122198         0.034625       0.0852427      3.19563e-05    -0.000803135
                    -6.43132e-05     -0.00013208         0.862577       -0.502642      0.000112784    -0.000613873        0.0139589      0.00793596
281738               -0.00993233       0.0913567     -0.000526925    -0.000330506         0.985008       -0.139149     -0.000130089    -0.000352858
                    -0.000446592    -0.000350824     -0.000586351        0.015983       4.2921e-06    -0.000171907         0.862006       -0.502869
                         0.98531       -0.138985     -9.82407e-05    -0.000122146        0.0346547       0.0852251      3.17575e-05    -0.000802997
                    -6.43689e-05     -0.00013205          0.86238       -0.502981      0.000112576    -0.000613848         0.013951      0.00792747
281740               -0.00989802       0.0913552     -0.000526932    -0.000330233         0.984956       -0.139514     -0.000130226    -0.000352552
                     -0.00044669    -0.000350579     -0.000577314        0.015972      4.21501e-06    -0.000171917         0.861809       -0.503207
                        0.985259        -0.13935     -9.82733e-05    -0.000122094        0.0346844       0.0852075      3.15589e-05    -0.000802858
                    -6.44245e-05    -0.000132021         0.862182       -0.503319      0.000112368    -0.000613822         0.013943      0.00791898
281742                -0.0098637       0.0913537     -0.000526939     -0.00032996         0.984905       -0.139879     -0.000130362    -0.000352246
                    -0.000446789    -0.000350334     -0.000568283       0.0159611       4.1379e-06    -0.000171927         0.861611       -0.503545
                        0.985208       -0.139715     -9.83059e-05    -0.000122042         0.034714       0.0851899      3.13607e-05    -0.000802719
                      -6.448e-05    -0.000131992         0.861985       -0.503657       0.00011216    -0.000613797        0.0139351       0.0079105
281744               -0.00982939       0.0913522     -0.000526945    -0.000329687         0.984853       -0.140244     -0.000130498    -0.000351939
                    -0.000446887    -0.000350089      -0.00055926       0.0159501      4.06076e-06    -0.000171937         0.861414       -0.503882
                        0.985156        -0.14008     -9.83384e-05    -0.000121989        0.0347437       0.0851722      3.11628e-05     -0.00080258
                    -6.45355e-05    -0.000131963         0.861788       -0.503995      0.000111952    -0.000613771        0.0139271      0.00790204
281746               -0.00979508       0.0913507     -0.000526951    -0.000329415         0.984802       -0.140609     -0.000130634    -0.000351631
                    -0.000446985    -0.000349844     -0.000550244       0.0159391       3.9836e-06    -0.000171947         0.861216        -0.50422
                        0.985105       -0.140445     -9.83709e-05    -0.000121937        0.0347734       0.0851546      3.09652e-05     -0.00080244
                    -6.45909e-05    -0.000131934          0.86159       -0.504333      0.000111744    -0.000613745        0.0139191      0.00789358
281748               -0.00976077       0.0913492     -0.000526957    -0.000329142          0.98475       -0.140974     -0.000130769    -0.000351323
                    -0.000447084    -0.000349598     -0.000541235       0.0159282       3.9064e-06    -0.000171957         0.861018       -0.504558
                        0.985053        -0.14081     -9.84034e-05    -0.000121885         0.034803       0.0851369      3.07679e-05    -0.000802299
                    -6.46462e-05    -0.000131905         0.861392       -0.504671      0.000111536     -0.00061372        0.0139111      0.00788512
281750               -0.00972646       0.0913477     -0.000526962     -0.00032887         0.984698       -0.141339     -0.000130904    -0.000351015
                    -0.000447182    -0.000349353     -0.000532234       0.0159172      3.82918e-06    -0.000171967          0.86082       -0.504896
                        0.985001       -0.141175     -9.84358e-05    -0.000121833        0.0348327       0.0851192       3.0571e-05    -0.000802158
                    -6.47016e-05    -0.000131876         0.861194       -0.505008      0.000111328    -0.000613694        0.0139031      0.00787668
281752               -0.00969216       0.0913462     -0.000526968    -0.000328598         0.984646       -0.141704     -0.000131039    -0.000350706
                     -0.00044728    -0.000349108      -0.00052324       0.0159062      3.75194e-06    -0.000171977         0.860622       -0.505233
                         0.98495        -0.14154     -9.84682e-05    -0.000121781        0.0348623       0.0851016      3.03743e-05    -0.000802017
                    -6.47568e-05    -0.000131846         0.860996       -0.505346      0.000111121    -0.000613668        0.0138951      0.00786825
281754               -0.00965785       0.0913446     -0.000526973    -0.000328326         0.984593       -0.142069     -0.000131174    -0.000350396
                    -0.000447378    -0.000348862     -0.000514253       0.0158952      3.67466e-06    -0.000171986         0.860424       -0.505571
                        0.984898       -0.141905     -9.85005e-05     -0.00012173         0.034892       0.0850839       3.0178e-05    -0.000801876
                     -6.4812e-05    -0.000131817         0.860798       -0.505684      0.000110913    -0.000613642        0.0138871      0.00785982
281756               -0.00962355        0.091343     -0.000526977    -0.000328054         0.984541       -0.142434     -0.000131308    -0.000350086
                    -0.000447476    -0.000348617     -0.000505274       0.0158842      3.59736e-06    -0.000171996         0.860226       -0.505908
                        0.984845       -0.142269     -9.85328e-05    -0.000121678        0.0349216       0.0850662      2.99819e-05    -0.000801734
                    -6.48671e-05    -0.000131788           0.8606       -0.506021      0.000110705    -0.000613616        0.0138791      0.00785141
281758               -0.00958925       0.0913415     -0.000526981    -0.000327782         0.984489       -0.142799     -0.000131442    -0.000349776
                    -0.000447573    -0.000348371     -0.000496302       0.0158732      3.52003e-06    -0.000172006         0.860027       -0.506245
                        0.984793       -0.142634      -9.8565e-05    -0.000121626        0.0349512       0.0850484      2.97862e-05    -0.000801591
                    -6.49221e-05    -0.000131759         0.860401       -0.506359      0.000110497     -0.00061359        0.0138711        0.007843
281760               -0.00955495       0.0913399     -0.000526986    -0.000327511         0.984436       -0.143163     -0.000131576    -0.000349465
                    -0.000447671    -0.000348125     -0.000487338       0.0158622      3.44267e-06    -0.000172015         0.859829       -0.506583
                         0.98474       -0.142999     -9.85972e-05    -0.000121575        0.0349808       0.0850307      2.95908e-05    -0.000801448
                    -6.49771e-05     -0.00013173         0.860203       -0.506696      0.000110289    -0.000613564        0.0138631       0.0078346
281762               -0.00952066       0.0913383     -0.000526989    -0.000327239         0.984383       -0.143528      -0.00013171    -0.000349153
                    -0.000447769    -0.000347879      -0.00047838       0.0158512      3.36529e-06    -0.000172025          0.85963        -0.50692
                        0.984688       -0.143364     -9.86292e-05    -0.000121523        0.0350104        0.085013      2.93958e-05    -0.000801305
