! TOUCHSTONE file generated by CST MICROWAVE STUDIO
! Date and time: Tue Oct 14 07:29:07 2025
! Project name: Teste_Macro_Metasurface_Nanopilar.cst
! Parameters = {H=600; L_x=135; L_y=185; Lambda=1064; Max_L=200; Min_L=70; PathPara=1; Phi=0; Step_L=10; Theta=0; p=520; phaseX=180; phaseY=0}
! Header version: 2018
! Port assignment regex: !\s*Touchstone port\s*([0-9]+)\s*=\s*(CST MWS port|CST DS port)\s*([0-9]+|Zmin|Zmax)\s*\(\"(.*)\"\)(\s*mode\s*([0-9]+))?.*
! Touchstone port assignment:
! Touchstone port 1 = CST MWS port Zmax ("") mode 1
! Touchstone port 2 = CST MWS port Zmax ("") mode 2
! Touchstone port 3 = CST MWS port Zmin ("") mode 1
! Touchstone port 4 = CST MWS port Zmin ("") mode 2
! S-Parameters are not renormalized. Each port impedance will be approximated by the real part at minimum frequency. The values are described via the [Reference] keyword.
! Default impedance is overridden by [Reference]
[Version] 2.0
# GHz S RI R 376.73
[Number of Ports] 4
[Reference]
376.73 376.73 259.814 259.814 
[Number of Frequencies] 51
[Network Data]
281700                 -0.171888      -0.0118289      -9.2741e-05     0.000190423         0.813088        0.548735      0.000347156    -0.000606867
                     0.000113104     -0.00010747        -0.556035       -0.513679      0.000409901    -0.000577769         0.547226         0.17103
                        0.813971         0.54854      0.000229391    -0.000486467        0.0745279        0.150795        -9.41e-05    -0.000511611
                     0.000936417    -0.000731093         0.547689        0.171766       0.00017207    -0.000235406         0.672209       -0.283621
281702                 -0.171898      -0.0118076     -9.41746e-05     0.000192391         0.813318        0.548392      0.000346397    -0.000607503
                     0.000124594    -9.12903e-05        -0.557333       -0.513389      0.000411995    -0.000579076          0.54633        0.169862
                        0.814207        0.548201        0.0002293    -0.000486325        0.0746404        0.150749     -9.46763e-05    -0.000512132
                     0.000949956    -0.000749897         0.546763        0.170628      0.000174744    -0.000234761         0.672193       -0.285524
281704                 -0.171908      -0.0117863     -9.56572e-05     0.000194039         0.813547        0.548049      0.000345631    -0.000608144
                     0.000122963    -6.24361e-05        -0.558632       -0.513094      0.000414143    -0.000580394         0.545428        0.168697
                        0.814443        0.547862      0.000229233    -0.000486125        0.0747528        0.150703      -9.5237e-05    -0.000512667
                     0.000952231    -0.000772917         0.545833         0.16949      0.000177443    -0.000234015         0.672169        -0.28743
281706                 -0.171918       -0.011765     -9.71583e-05     0.000195416         0.813776        0.547706      0.000344854    -0.000608791
                     9.59064e-05    -4.22794e-05        -0.559932       -0.512795      0.000416352    -0.000581723          0.54452        0.167536
                        0.814679        0.547523      0.000229199    -0.000485849        0.0748651        0.150657     -9.57763e-05     -0.00051322
                      0.00094421    -0.000790769         0.544899         0.16835      0.000180164    -0.000233154         0.672138       -0.289341
281708                 -0.171929      -0.0117437     -9.86578e-05     0.000196562         0.814006        0.547363      0.000344065    -0.000609446
                     6.81801e-05    -4.85517e-05        -0.561235       -0.512492      0.000418631    -0.000583064         0.543607        0.166377
                        0.814914        0.547184      0.000229212    -0.000485473        0.0749773        0.150611     -9.62853e-05    -0.000513796
                     0.000933066    -0.000800088         0.543963        0.167211      0.000182904    -0.000232166         0.672099       -0.291256
281710                 -0.171939      -0.0117224     -0.000100143     0.000197512         0.814235        0.547019       0.00034326    -0.000610109
                     5.56512e-05    -6.35179e-05         -0.56254       -0.512184      0.000420989    -0.000584416         0.542687        0.165222
                        0.815149        0.546845      0.000229294    -0.000484963        0.0750894        0.150564     -9.67501e-05    -0.000514405
                     0.000923614    -0.000803331         0.543022        0.166071      0.000185659    -0.000231034         0.672053       -0.293175
281712                 -0.171949      -0.0117011     -0.000101605     0.000198293         0.814464        0.546675      0.000342437    -0.000610784
                     5.22051e-05    -7.60992e-05        -0.563846       -0.511872      0.000423442    -0.000585781         0.541761        0.164069
                        0.815383        0.546505      0.000229482    -0.000484267        0.0752014        0.150518     -9.71485e-05     -0.00051506
                        0.000917    -0.000803539         0.542077        0.164931      0.000188422    -0.000229735         0.671999       -0.295098
281714                  -0.17196      -0.0116798     -0.000103039      0.00019893         0.814693        0.546331      0.000341587    -0.000611471
                     5.23426e-05    -8.52702e-05        -0.565154       -0.511555      0.000426004    -0.000587157         0.540829         0.16292
                        0.815617        0.546167      0.000229844    -0.000483303        0.0753134        0.150472     -9.74415e-05    -0.000515783
                     0.000912836    -0.000802544         0.541129         0.16379      0.000191185    -0.000228246         0.671938       -0.297024
281716                  -0.17197      -0.0116585     -0.000104442     0.000199442         0.814921        0.545986      0.000340704    -0.000612175
                     5.37629e-05    -9.19906e-05        -0.566464       -0.511233      0.000428697    -0.000588543         0.539891        0.161773
                        0.815849        0.545828      0.000230509    -0.000481935        0.0754252        0.150426     -9.75548e-05     -0.00051661
                     0.000910475    -0.000801215         0.540176        0.162649      0.000193933    -0.000226533         0.671869       -0.298955
281718                  -0.17198      -0.0116372     -0.000105814     0.000199845          0.81515        0.545642      0.000339772    -0.000612896
                     5.56097e-05    -9.71093e-05        -0.567775       -0.510907      0.000431549    -0.000589939         0.538947        0.160629
                        0.816082        0.545489      0.000231761    -0.000479931        0.0755371         0.15038     -9.73294e-05    -0.000517603
                     0.000909382    -0.000799922         0.539219        0.161508      0.000196647    -0.000224557         0.671792       -0.300889
281720                  -0.17199      -0.0116159     -0.000107153     0.000200154         0.815379        0.545297      0.000338772    -0.000613635
                     5.75658e-05    -0.000101179        -0.569089       -0.510577      0.000434597    -0.000591341         0.537996        0.159488
                        0.816313         0.54515      0.000234316     -0.00047689        0.0756488        0.150334     -9.63599e-05    -0.000518869
                     0.000909177    -0.000798803         0.538257        0.160367      0.000199299    -0.000222266         0.671708       -0.302828
281722                    -0.172      -0.0115946     -0.000108461     0.000200381         0.815608        0.544952      0.000337672    -0.000614385
                     5.95156e-05    -0.000104545        -0.570404       -0.510242       0.00043789    -0.000592743          0.53704         0.15835
                        0.816543        0.544812      0.000240346    -0.000472321        0.0757605        0.150288     -9.32961e-05    -0.000520451
                     0.000909603    -0.000797896         0.537291        0.159227      0.000201843    -0.000219595         0.671617        -0.30477
281724                 -0.172011      -0.0115733     -0.000109737     0.000200535         0.815836        0.544607      0.000336423    -0.000615126
                     6.14208e-05    -0.000107426        -0.571721       -0.509902        0.0004415    -0.000594135         0.536077        0.157215
                        0.816772        0.544473      0.000257429    -0.000468979        0.0758722        0.150242     -8.19194e-05    -0.000518652
                     0.000910482    -0.000797198         0.536321        0.158086       0.00020421    -0.000216459         0.671518       -0.306716
281726                 -0.172021      -0.0115521     -0.000110984     0.000200626         0.816065        0.544261      0.000334955    -0.000615793
                     6.32736e-05    -0.000109962        -0.573039       -0.509558      0.000445525    -0.000595501         0.535109        0.156083
                           0.817        0.544134      0.000282542    -0.000500897        0.0759839        0.150196     -9.51451e-05    -0.000487618
                     0.000911696    -0.000796691         0.535346        0.156946      0.000206292    -0.000212752         0.671412       -0.308666
281728                 -0.172031      -0.0115308     -0.000112202      0.00020066         0.816293        0.543916      0.000333201     -0.00061623
                      6.5078e-05    -0.000112249        -0.574359       -0.509209      0.000450115    -0.000596808         0.534134        0.154954
                        0.817226        0.543795      0.000249304    -0.000526222        0.0760955         0.15015     -0.000109407     -0.00050379
                     0.000913162    -0.000796354         0.534365        0.155807      0.000207912     -0.00020834         0.671297       -0.310619
281730                 -0.172041      -0.0115096     -0.000113393     0.000200644         0.816521         0.54357      0.000331217    -0.000616123
                      6.6842e-05    -0.000114352        -0.575681       -0.508855      0.000455496    -0.000597997         0.533153        0.153827
                        0.817451        0.543455      0.000232823    -0.000517888        0.0762071        0.150104     -0.000109546    -0.000509753
                     0.000914819    -0.000796166          0.53338        0.154668      0.000208777    -0.000203066         0.671176       -0.312577
281732                 -0.172051      -0.0114884     -0.000114558     0.000200584          0.81675        0.543224      0.000329474    -0.000615144
                     6.85743e-05    -0.000116317        -0.577005       -0.508496      0.000462041    -0.000598947         0.532165        0.152703
                        0.817673        0.543114      0.000227891    -0.000511504        0.0763186        0.150058      -0.00010949    -0.000512384
                     0.000916625    -0.000796105          0.53239         0.15353      0.000208399    -0.000196783         0.671047       -0.314538
281734                 -0.172061      -0.0114672     -0.000115699     0.000200484         0.816978        0.542878      0.000328801    -0.000613642
                     7.02835e-05     -0.00011818        -0.578331       -0.508133      0.000470388    -0.000599398         0.531172        0.151582
                        0.817895        0.542772      0.000225952      -0.0005077        0.0764302        0.150012     -0.000109672    -0.000513936
                     0.000918548    -0.000796157         0.531394        0.152392      0.000205953    -0.000189447          0.67091       -0.316503
281736                 -0.172071       -0.011446     -0.000116817     0.000200349         0.817206        0.542533      0.000329218    -0.000612704
                     7.19771e-05    -0.000119964        -0.579658       -0.507765      0.000481726    -0.000598725         0.530172        0.150463
                        0.818114        0.542427      0.000224972    -0.000505323        0.0765417        0.149965     -0.000110026    -0.000515019
                     0.000920565    -0.000796307         0.530393        0.151256      0.000200107    -0.000181422         0.670766       -0.318472
281738                 -0.172081      -0.0114249     -0.000117913     0.000200183         0.817434        0.542187      0.000329842    -0.000612726
                     7.36619e-05    -0.000121689        -0.580986       -0.507392      0.000498476    -0.000595163         0.529165        0.149347
                        0.818333         0.54208      0.000224365    -0.000503752        0.0766532        0.149919     -0.000110498    -0.000515855
                     0.000922657    -0.000796542         0.529387        0.150121      0.000189001    -0.000174222         0.670614       -0.320445
281740                  -0.17209      -0.0114037     -0.000118989      0.00019999         0.817662         0.54184      0.000330139     -0.00061332
                     7.53434e-05     -0.00012337        -0.582317       -0.507014        0.0005259    -0.000582479         0.528153        0.148234
                        0.818552        0.541731      0.000223924    -0.000502672        0.0767646        0.149872     -0.000111052    -0.000516544
                      0.00092481    -0.000796854         0.528376        0.148987       0.00017126    -0.000171827         0.670455       -0.322422
281742                 -0.172099      -0.0113826     -0.000120047     0.000199772         0.817889        0.541494      0.000330075    -0.000614113
                     7.70265e-05    -0.000125019        -0.583649       -0.506631      0.000570704    -0.000530878         0.527134        0.147123
                        0.818771        0.541379      0.000223562    -0.000501911        0.0768761        0.149826     -0.000111669    -0.000517134
                     0.000927011    -0.000797234         0.527358        0.147855      0.000149623    -0.000180815         0.670289       -0.324402
281744                 -0.172108      -0.0113614     -0.000121087     0.000199534         0.818117        0.541148      0.000329752    -0.000614933
                     7.87151e-05    -0.000126646        -0.584983       -0.506243      0.000502074     -0.00035976         0.526109        0.146015
                         0.81899        0.541025      0.000223236    -0.000501367        0.0769875        0.149779     -0.000112338    -0.000517652
                     0.000929251    -0.000797677         0.526335        0.146723      0.000134394    -0.000204029         0.670115       -0.326387
281746                 -0.172117        -0.01134     -0.000122111     0.000199279         0.818344        0.540802      0.000329261     -0.00061572
                     8.04122e-05     -0.00012826        -0.586319        -0.50585      0.000324307    -0.000476273         0.525077        0.144909
                        0.819211        0.540669      0.000222925     -0.00050098         0.077099        0.149733     -0.000113054    -0.000518112
                     0.000931521    -0.000798178         0.525307        0.145594      0.000134948    -0.000232404         0.669933       -0.328375
281748                 -0.172124      -0.0113177     -0.000123122     0.000199011         0.818571        0.540456       0.00032866    -0.000616459
                       8.212e-05    -0.000129867        -0.587656       -0.505452       0.00035029    -0.000560796         0.524039        0.143806
                        0.819434        0.540312      0.000222616    -0.000500709        0.0772104        0.149686     -0.000113816    -0.000518523
                     0.000933812    -0.000798732         0.524272        0.144466      0.000148012    -0.000254058         0.669744       -0.330367
281750                 -0.172131      -0.0112929      -0.00012412     0.000198732         0.818798        0.540109      0.000327986    -0.000617151
                     8.38398e-05    -0.000131475        -0.588995       -0.505049      0.000375621    -0.000588236         0.522994        0.142705
                        0.819658        0.539954      0.000222298    -0.000500529        0.0773217        0.149639     -0.000114629    -0.000518888
                     0.000936117     -0.00079934         0.523232         0.14334      0.000164852    -0.000266211         0.669548       -0.332363
281752                 -0.172141      -0.0112646     -0.000125108     0.000198448         0.819025        0.539763      0.000327259    -0.000617799
                     8.55716e-05    -0.000133091        -0.590336        -0.50464      0.000391736    -0.000600926         0.521943        0.141607
                        0.819883        0.539597      0.000221964    -0.000500422        0.0774331        0.149592     -0.000115501     -0.00051921
                     0.000938426         -0.0008         0.522186        0.142215      0.000180492    -0.000271761         0.669344       -0.334363
281754                 -0.172156      -0.0112383     -0.000126089     0.000198164         0.819252        0.539417      0.000326491    -0.000618409
                     8.73141e-05    -0.000134721        -0.591678       -0.504226      0.000402537    -0.000608708         0.520885        0.140511
                        0.820109        0.539239      0.000221605    -0.000500375        0.0775445        0.149545     -0.000116444    -0.000519489
                     0.000940731    -0.000800715         0.521134        0.141092      0.000193647    -0.000273805         0.669133       -0.336367
281756                 -0.172172      -0.0112179     -0.000127066     0.000197886         0.819478         0.53907      0.000325687    -0.000618982
                     8.90641e-05    -0.000136374        -0.593023       -0.503807      0.000410204    -0.000614534         0.519821        0.139417
                        0.820336        0.538883      0.000221209    -0.000500381        0.0776558        0.149498     -0.000117484    -0.000519726
                     0.000943019    -0.000801489         0.520076         0.13997      0.000204484    -0.000274284         0.668915       -0.338375
281758                 -0.172185      -0.0111992     -0.000128043     0.000197626         0.819705        0.538724      0.000324852    -0.000619522
                     9.08157e-05     -0.00013806        -0.594369       -0.503382      0.000415815    -0.000619555          0.51875        0.138326
                        0.820562        0.538527      0.000220761    -0.000500435        0.0777671         0.14945     -0.000118655    -0.000519925
                     0.000945276    -0.000802332         0.519013        0.138849      0.000213478    -0.000274269          0.66869       -0.340387
281760                 -0.172196        -0.01118     -0.000129026     0.000197396          0.81993        0.538378      0.000323983    -0.000620028
                      9.2559e-05    -0.000139793        -0.595717       -0.502952      0.000419889    -0.000624331         0.517672        0.137237
                        0.820788        0.538171      0.000220239    -0.000500533        0.0778784        0.149403     -0.000120013    -0.000520103
                      0.00094748    -0.000803257         0.517943        0.137729      0.000221045    -0.000274375         0.668457       -0.342403
281762                 -0.172206      -0.0111603     -0.000130024     0.000197219         0.820156        0.538031      0.000323077      -0.0006205
                      9.4278e-05    -0.000141591        -0.597068       -0.502516      0.000422608    -0.000629208         0.516588         0.13615
                        0.821013        0.537817      0.000219605    -0.000500673        0.0779897        0.149355     -0.000121645    -0.000520309
