! TOUCHSTONE file generated by CST MICROWAVE STUDIO
! Date and time: Tue Oct 14 07:32:16 2025
! Project name: Teste_Macro_Metasurface_Nanopilar.cst
! Parameters = {H=600; L_x=185; L_y=185; Lambda=1064; Max_L=200; Min_L=70; PathPara=1; Phi=0; Step_L=10; Theta=0; p=520; phaseX=180; phaseY=0}
! Header version: 2018
! Port assignment regex: !\s*Touchstone port\s*([0-9]+)\s*=\s*(CST MWS port|CST DS port)\s*([0-9]+|Zmin|Zmax)\s*\(\"(.*)\"\)(\s*mode\s*([0-9]+))?.*
! Touchstone port assignment:
! Touchstone port 1 = CST MWS port Zmax ("") mode 1
! Touchstone port 2 = CST MWS port Zmax ("") mode 2
! Touchstone port 3 = CST MWS port Zmin ("") mode 1
! Touchstone port 4 = CST MWS port Zmin ("") mode 2
! S-Parameters are not renormalized. Each port impedance will be approximated by the real part at minimum frequency. The values are described via the [Reference] keyword.
! Default impedance is overridden by [Reference]
[Version] 2.0
# GHz S RI R 376.73
[Number of Ports] 4
[Reference]
376.73 376.73 259.814 259.814 
[Number of Frequencies] 51
[Network Data]
281700                  -0.37936       -0.221105     -4.97713e-05     9.38502e-05         0.858166        0.244882     -1.96778e-05    -0.000658053
                     -0.00011731     0.000240332         -0.37868       -0.220656      0.000354923    -0.000801863         0.858937        0.243038
                        0.857716        0.244799      0.000383342    -0.000727817          0.43695       0.0168512     -0.000153291    -0.000630747
                     3.52298e-05    -0.000835742         0.858748        0.242678      2.29642e-05     -0.00070785         0.436271       0.0150893
281702                 -0.379409       -0.220949     -4.94498e-05     9.42027e-05         0.858299        0.244493     -2.00519e-05    -0.000658473
                    -0.000116904     0.000240199        -0.378728         -0.2205       0.00035454    -0.000801973         0.859068         0.24265
                        0.857849        0.244411      0.000382975    -0.000727858         0.436923       0.0166014     -0.000153362    -0.000630561
                     3.50456e-05    -0.000835866          0.85888        0.242289      2.25964e-05    -0.000707599         0.436243       0.0148401
281704                 -0.379457       -0.220792     -4.91308e-05     9.45565e-05         0.858431        0.244105       -2.043e-05    -0.000658897
                    -0.000116497     0.000240065        -0.378777       -0.220344      0.000354158    -0.000802083           0.8592        0.242261
                        0.857982        0.244023      0.000382607    -0.000727899         0.436896       0.0163516     -0.000153434    -0.000630376
                     3.48608e-05     -0.00083599         0.859011          0.2419       2.2229e-05    -0.000707348         0.436215       0.0145909
281706                 -0.379506       -0.220636     -4.88141e-05     9.49114e-05         0.858563        0.243716     -2.08116e-05    -0.000659324
                     -0.00011609     0.000239931        -0.378825       -0.220187      0.000353775    -0.000802194         0.859331        0.241873
                        0.858114        0.243635      0.000382238    -0.000727941         0.436868       0.0161019     -0.000153505     -0.00063019
                     3.46755e-05    -0.000836113         0.859142        0.241511      2.18617e-05    -0.000707097         0.436186       0.0143418
281708                 -0.379555        -0.22048     -4.84999e-05     9.52675e-05         0.858695        0.243328     -2.11962e-05    -0.000659753
                    -0.000115682     0.000239798        -0.378874       -0.220031      0.000353394    -0.000802304         0.859462        0.241484
                        0.858247        0.243247      0.000381869    -0.000727983         0.436841       0.0158522     -0.000153577    -0.000630004
                     3.44897e-05    -0.000836236         0.859273        0.241122      2.14948e-05    -0.000706847         0.436158       0.0140928
281710                 -0.379603       -0.220323     -4.81881e-05     9.56246e-05         0.858826        0.242939     -2.15829e-05    -0.000660185
                    -0.000115274     0.000239664        -0.378922       -0.219875      0.000353012    -0.000802414         0.859593        0.241096
                        0.858379        0.242859      0.000381498    -0.000728026         0.436813       0.0156026     -0.000153647    -0.000629818
                     3.43034e-05    -0.000836358         0.859403        0.240733      2.11282e-05    -0.000706597         0.436129       0.0138438
281712                 -0.379652       -0.220167     -4.78788e-05     9.59829e-05         0.858958        0.242551     -2.19713e-05    -0.000660618
                    -0.000114865      0.00023953        -0.378971       -0.219719       0.00035263    -0.000802525         0.859723        0.240707
                        0.858511        0.242471      0.000381127    -0.000728069         0.436786       0.0153531     -0.000153717    -0.000629631
                     3.41165e-05     -0.00083648         0.859534        0.240344      2.07619e-05    -0.000706348           0.4361       0.0135949
281714                   -0.3797       -0.220011      -4.7572e-05     9.63422e-05         0.859089        0.242162     -2.23606e-05    -0.000661052
                    -0.000114455     0.000239397        -0.379019       -0.219563      0.000352249    -0.000802635         0.859854        0.240319
                        0.858643        0.242082      0.000380755    -0.000728112         0.436758       0.0151037     -0.000153785    -0.000629444
                     3.39291e-05      -0.0008366         0.859664        0.239955      2.03958e-05    -0.000706099         0.436072        0.013346
281716                 -0.379748       -0.219855     -4.72678e-05     9.67025e-05          0.85922        0.241774     -2.27505e-05    -0.000661488
                    -0.000114045     0.000239263        -0.379067       -0.219407      0.000351868    -0.000802745         0.859984         0.23993
                        0.858774        0.241694      0.000380382    -0.000728155          0.43673       0.0148543     -0.000153851    -0.000629258
                     3.37412e-05    -0.000836721         0.859794        0.239566      2.00301e-05     -0.00070585         0.436043       0.0130973
281718                 -0.379797       -0.219699      -4.6966e-05     9.70639e-05         0.859351        0.241385     -2.31404e-05    -0.000661926
                    -0.000113634     0.000239129        -0.379116       -0.219251      0.000351487    -0.000802855         0.860114        0.239542
                        0.858906        0.241306      0.000380008    -0.000728199         0.436702       0.0146049     -0.000153915    -0.000629072
                     3.35528e-05    -0.000836841         0.859924        0.239177      1.96648e-05    -0.000705602         0.436014       0.0128485
281720                 -0.379845       -0.219543     -4.66668e-05     9.74261e-05         0.859481        0.240996     -2.35303e-05    -0.000662365
                    -0.000113223     0.000238995        -0.379164       -0.219095      0.000351106    -0.000802965         0.860244        0.239153
                        0.859037        0.240918      0.000379634    -0.000728244         0.436674       0.0143557     -0.000153977    -0.000628886
                     3.33639e-05     -0.00083696         0.860053        0.238788      1.92997e-05    -0.000705355         0.435985       0.0125999
281722                 -0.379894       -0.219387     -4.63702e-05     9.77893e-05         0.859612        0.240608     -2.39197e-05    -0.000662807
                    -0.000112812     0.000238861        -0.379212        -0.21894      0.000350725    -0.000803074         0.860373        0.238765
                        0.859168         0.24053      0.000379258    -0.000728288         0.436646       0.0141065     -0.000154037    -0.000628702
                     3.31744e-05    -0.000837079         0.860182        0.238398       1.8935e-05    -0.000705108         0.435956       0.0123513
281724                 -0.379942       -0.219231     -4.60762e-05     9.81534e-05         0.859742        0.240219     -2.43086e-05     -0.00066325
                    -0.000112399     0.000238727         -0.37926       -0.218784      0.000350345    -0.000803184         0.860503        0.238376
                        0.859299        0.240141      0.000378882    -0.000728333         0.436618       0.0138574     -0.000154095     -0.00062852
                     3.29845e-05    -0.000837197         0.860311        0.238009      1.85706e-05    -0.000704861         0.435926       0.0121028
281726                  -0.37999       -0.219075     -4.57848e-05     9.85183e-05         0.859872         0.23983     -2.46968e-05    -0.000663695
                    -0.000111987     0.000238593        -0.379308       -0.218628      0.000349964    -0.000803294         0.860632        0.237987
                        0.859429        0.239753      0.000378504    -0.000728379          0.43659       0.0136083     -0.000154151    -0.000628339
                      3.2794e-05    -0.000837314          0.86044         0.23762      1.82065e-05    -0.000704615         0.435897       0.0118543
281728                 -0.380038       -0.218919     -4.54961e-05      9.8884e-05         0.860001        0.239441     -2.50842e-05    -0.000664142
                    -0.000111574     0.000238459        -0.379356       -0.218472      0.000349584    -0.000803403         0.860761        0.237598
                        0.859559        0.239365      0.000378126    -0.000728424         0.436561       0.0133593     -0.000154205     -0.00062816
                      3.2603e-05    -0.000837431         0.860569        0.237231      1.78428e-05    -0.000704369         0.435868       0.0116059
281730                 -0.380086       -0.218763     -4.52099e-05     9.92505e-05         0.860131        0.239053     -2.54707e-05    -0.000664591
                     -0.00011116     0.000238325        -0.379404       -0.218317      0.000349204    -0.000803512         0.860889         0.23721
                        0.859689        0.238976      0.000377746    -0.000728471         0.436533       0.0131104     -0.000154258    -0.000627983
                     3.24116e-05    -0.000837547         0.860697        0.236841      1.74795e-05    -0.000704124         0.435838       0.0113576
281732                 -0.380135       -0.218607     -4.49265e-05     9.96177e-05          0.86026        0.238664     -2.58564e-05    -0.000665043
                    -0.000110746      0.00023819        -0.379452       -0.218161      0.000348824    -0.000803621         0.861018        0.236821
                        0.859819        0.238588      0.000377366    -0.000728517         0.436504       0.0128615      -0.00015431    -0.000627809
                     3.22196e-05    -0.000837663         0.860825        0.236452      1.71166e-05    -0.000703879         0.435808       0.0111093
281734                 -0.380183       -0.218451     -4.46457e-05     9.99857e-05         0.860389        0.238275     -2.62411e-05    -0.000665496
                    -0.000110332     0.000238055          -0.3795       -0.218006      0.000348444     -0.00080373         0.861146        0.236432
                        0.859949        0.238199      0.000376985    -0.000728564         0.436475       0.0126127      -0.00015436    -0.000627636
                     3.20271e-05    -0.000837778         0.860953        0.236063       1.6754e-05    -0.000703635         0.435779       0.0108611
281736                 -0.380231       -0.218296     -4.43676e-05     0.000100354         0.860518        0.237886     -2.66248e-05    -0.000665952
                    -0.000109917     0.000237921        -0.379548        -0.21785      0.000348065    -0.000803839         0.861274        0.236043
                        0.860078        0.237811      0.000376603    -0.000728612         0.436447        0.012364     -0.000154409    -0.000627465
                     3.18341e-05    -0.000837893         0.861081        0.235673      1.63917e-05    -0.000703391         0.435749        0.010613
281738                 -0.380279        -0.21814     -4.40922e-05     0.000100724         0.860647        0.237497     -2.70076e-05    -0.000666411
                    -0.000109502     0.000237786        -0.379596       -0.217695      0.000347685    -0.000803948         0.861402        0.235654
                        0.860207        0.237422      0.000376219    -0.000728659         0.436418       0.0121153     -0.000154457    -0.000627297
                     3.16407e-05    -0.000838006         0.861208        0.235284      1.60299e-05    -0.000703148         0.435719        0.010365
281740                 -0.380327       -0.217984     -4.38195e-05     0.000101093         0.860775        0.237108     -2.73894e-05    -0.000666871
                    -0.000109086      0.00023765        -0.379644       -0.217539      0.000347306    -0.000804056         0.861529        0.235266
                        0.860336        0.237034      0.000375835    -0.000728708         0.436389       0.0118667     -0.000154504     -0.00062713
                     3.14467e-05     -0.00083812         0.861336        0.234894      1.56685e-05    -0.000702905         0.435689        0.010117
281742                 -0.380375       -0.217829     -4.35496e-05     0.000101464         0.860903        0.236719     -2.77702e-05    -0.000667334
                    -0.000108671     0.000237515        -0.379692       -0.217384      0.000346926    -0.000804165         0.861657        0.234877
                        0.860465        0.236645      0.000375449    -0.000728756          0.43636       0.0116182     -0.000154551    -0.000626965
                     3.12523e-05    -0.000838232         0.861463        0.234505      1.53074e-05    -0.000702662         0.435659      0.00986903
281744                 -0.380423       -0.217673     -4.32824e-05     0.000101835         0.861031         0.23633       -2.815e-05      -0.0006678
                    -0.000108254     0.000237379         -0.37974       -0.217229      0.000346547    -0.000804273         0.861784        0.234488
                        0.860593        0.236257      0.000375063    -0.000728805         0.436331       0.0113697     -0.000154596    -0.000626803
                     3.10573e-05    -0.000838344          0.86159        0.234116      1.49468e-05     -0.00070242         0.435629      0.00962116
281746                 -0.380471       -0.217518      -4.3018e-05     0.000102206         0.861159        0.235941     -2.85288e-05    -0.000668267
                    -0.000107838     0.000237243        -0.379787       -0.217073      0.000346168    -0.000804381         0.861911        0.234099
                        0.860721        0.235868      0.000374676    -0.000728855         0.436301       0.0111213     -0.000154641    -0.000626642
                     3.08619e-05    -0.000838456         0.861716        0.233726      1.45866e-05    -0.000702179         0.435598      0.00937336
281748                 -0.380518       -0.217362     -4.27564e-05     0.000102578         0.861286        0.235552     -2.89066e-05    -0.000668737
                    -0.000107421     0.000237107        -0.379835       -0.216918      0.000345789    -0.000804489         0.862037         0.23371
                        0.860849         0.23548      0.000374287    -0.000728905         0.436272       0.0108729     -0.000154685    -0.000626482
                      3.0666e-05    -0.000838566         0.861843        0.233337      1.42267e-05    -0.000701938         0.435568      0.00912562
281750                 -0.380566       -0.217207     -4.24975e-05      0.00010295         0.861414        0.235163     -2.92834e-05     -0.00066921
                    -0.000107004     0.000236971        -0.379883       -0.216763      0.000345411    -0.000804597         0.862164        0.233321
                        0.860977        0.235091      0.000373897    -0.000728955         0.436243       0.0106247     -0.000154728    -0.000626325
                     3.04695e-05    -0.000838676         0.861969        0.232947      1.38673e-05    -0.000701697         0.435538      0.00887795
281752                 -0.380614       -0.217052     -4.22414e-05     0.000103323         0.861541        0.234774     -2.96592e-05    -0.000669684
                    -0.000106587     0.000236834         -0.37993       -0.216608      0.000345032    -0.000804704          0.86229        0.232932
                        0.861105        0.234702      0.000373506    -0.000729006         0.436213       0.0103764      -0.00015477    -0.000626169
                     3.02726e-05    -0.000838786         0.862095        0.232557      1.35083e-05    -0.000701457         0.435507      0.00863034
281754                 -0.380662       -0.216896     -4.19882e-05     0.000103696         0.861667        0.234385      -3.0034e-05    -0.000670161
                     -0.00010617     0.000236697        -0.379978       -0.216453      0.000344654    -0.000804812         0.862416        0.232543
                        0.861232        0.234313      0.000373115    -0.000729057         0.436184       0.0101283     -0.000154812    -0.000626015
                     3.00751e-05    -0.000838895         0.862221        0.232168      1.31498e-05    -0.000701217         0.435476       0.0083828
281756                 -0.380709       -0.216741     -4.17377e-05     0.000104069         0.861794        0.233996     -3.04078e-05    -0.000670641
                    -0.000105752     0.000236559        -0.380026       -0.216298      0.000344275    -0.000804919         0.862542        0.232154
                        0.861359        0.233925      0.000372722    -0.000729109         0.436154      0.00988022     -0.000154853    -0.000625862
                     2.98772e-05    -0.000839003         0.862346        0.231778      1.27916e-05    -0.000700978         0.435446      0.00813532
281758                 -0.380757       -0.216586     -4.14901e-05     0.000104443          0.86192        0.233607     -3.07806e-05    -0.000671122
                    -0.000105335     0.000236422        -0.380073       -0.216143      0.000343897    -0.000805026         0.862668        0.231764
                        0.861486        0.233536      0.000372327    -0.000729161         0.436124       0.0096322     -0.000154893    -0.000625711
                     2.96786e-05    -0.000839111         0.862471        0.231389      1.24339e-05    -0.000700739         0.435415      0.00788791
281760                 -0.380805       -0.216431     -4.12453e-05     0.000104817         0.862047        0.233218     -3.11525e-05    -0.000671606
                    -0.000104919     0.000236283        -0.380121       -0.215988      0.000343519    -0.000805133         0.862793        0.231375
                        0.861613        0.233147      0.000371932    -0.000729213         0.436094      0.00938425     -0.000154933    -0.000625562
                     2.94794e-05    -0.000839218         0.862597        0.230999      1.20767e-05      -0.0007005         0.435384      0.00764056
281762                 -0.380852       -0.216276     -4.10034e-05     0.000105191         0.862173        0.232828     -3.15234e-05    -0.000672092
                    -0.000104505     0.000236144        -0.380168       -0.215833      0.000343141     -0.00080524         0.862918        0.230986
                        0.861739        0.232758      0.000371535    -0.000729266         0.436064      0.00913636     -0.000154972    -0.000625414
