! TOUCHSTONE file generated by CST MICROWAVE STUDIO
! Date and time: Tue Oct 14 07:28:42 2025
! Project name: Teste_Macro_Metasurface_Nanopilar.cst
! Parameters = {H=600; L_x=130; L_y=140; Lambda=1064; Max_L=200; Min_L=70; PathPara=1; Phi=0; Step_L=10; Theta=0; p=520; phaseX=180; phaseY=0}
! Header version: 2018
! Port assignment regex: !\s*Touchstone port\s*([0-9]+)\s*=\s*(CST MWS port|CST DS port)\s*([0-9]+|Zmin|Zmax)\s*\(\"(.*)\"\)(\s*mode\s*([0-9]+))?.*
! Touchstone port assignment:
! Touchstone port 1 = CST MWS port Zmax ("") mode 1
! Touchstone port 2 = CST MWS port Zmax ("") mode 2
! Touchstone port 3 = CST MWS port Zmin ("") mode 1
! Touchstone port 4 = CST MWS port Zmin ("") mode 2
! S-Parameters are not renormalized. Each port impedance will be approximated by the real part at minimum frequency. The values are described via the [Reference] keyword.
! Default impedance is overridden by [Reference]
[Version] 2.0
# GHz S RI R 376.73
[Number of Ports] 4
[Reference]
376.73 376.73 259.814 259.814 
[Number of Frequencies] 51
[Network Data]
281700                -0.0973324       -0.157696     -0.000468315    -0.000678606         0.217393        0.953744      0.000925934    -0.000377195
                    -0.000415525    -0.000614288       -0.0718395       -0.112808       0.00091227    -2.78167e-07       -0.0866902        0.981752
                        0.217814        0.952751      0.000842948     4.43586e-05       -0.0182265        0.183559     -9.05541e-05     0.000840766
                     0.000887223    -0.000375338       -0.0865307        0.982096     -5.73916e-05     0.000852043       -0.0891175        0.098975
281702                -0.0973872       -0.157688     -0.000468664    -0.000678356         0.217817        0.953643       0.00092587     -0.00037763
                     -0.00041575    -0.000614019       -0.0718807       -0.112803      0.000912414     -6.1944e-07       -0.0862449        0.981789
                        0.218237        0.952648       0.00084298     4.40186e-05       -0.0181155        0.183592     -9.01443e-05     0.000840783
                     0.000887182    -0.000375552       -0.0860848        0.982133     -5.68757e-05     0.000852012       -0.0890678       0.0990443
281704                -0.0974421        -0.15768     -0.000469014    -0.000678105         0.218241        0.953543      0.000925806    -0.000378065
                    -0.000415975    -0.000613749        -0.071922       -0.112799       0.00091256    -9.60087e-07       -0.0857995        0.981826
                         0.21866        0.952545      0.000843011     4.36779e-05       -0.0180044        0.183625     -8.97347e-05       0.0008408
                     0.000887141    -0.000375765        -0.085639         0.98217     -5.63598e-05      0.00085198        -0.089018       0.0991136
281706                 -0.097497       -0.157673     -0.000469365    -0.000677855         0.218664        0.953442      0.000925742      -0.0003785
                    -0.000416199    -0.000613478       -0.0719633       -0.112794      0.000912705    -1.30011e-06       -0.0853541        0.981863
                        0.219084        0.952442      0.000843043     4.33365e-05       -0.0178934        0.183658     -8.93251e-05     0.000840817
                       0.0008871    -0.000375978       -0.0851931        0.982207     -5.58441e-05     0.000851948       -0.0889682       0.0991829
281708                -0.0975518       -0.157665     -0.000469715    -0.000677605         0.219088        0.953341      0.000925677    -0.000378935
                    -0.000416423    -0.000613208       -0.0720046       -0.112789      0.000912851    -1.63952e-06       -0.0849088        0.981899
                        0.219507        0.952339      0.000843075     4.29944e-05       -0.0177822        0.183691     -8.89155e-05     0.000840834
                     0.000887059    -0.000376191       -0.0847472        0.982244     -5.53286e-05     0.000851916       -0.0889183       0.0992521
281710                -0.0976067       -0.157657     -0.000470066    -0.000677354         0.219512         0.95324      0.000925612     -0.00037937
                    -0.000416647    -0.000612937       -0.0720459       -0.112785      0.000912997    -1.97836e-06       -0.0844634        0.981936
                         0.21993        0.952235      0.000843108     4.26516e-05       -0.0176711        0.183724      -8.8506e-05     0.000840852
                     0.000887019    -0.000376403       -0.0843013        0.982281     -5.48131e-05     0.000851883       -0.0888683       0.0993213
281712                -0.0976616       -0.157649     -0.000470418    -0.000677104         0.219935        0.953139      0.000925546    -0.000379805
                    -0.000416871    -0.000612666       -0.0720872        -0.11278      0.000913144    -2.31666e-06        -0.084018        0.981972
                        0.220353        0.952132       0.00084314      4.2308e-05       -0.0175599        0.183757     -8.80965e-05      0.00084087
                     0.000886979    -0.000376615       -0.0838554        0.982317     -5.42977e-05      0.00085185       -0.0888183       0.0993905
281714                -0.0977165       -0.157642      -0.00047077    -0.000676853         0.220359        0.953037       0.00092548     -0.00038024
                    -0.000417094    -0.000612394       -0.0721285       -0.112775      0.000913291    -2.65445e-06       -0.0835726        0.982008
                        0.220776        0.952028      0.000843173     4.19638e-05       -0.0174487        0.183789      -8.7687e-05     0.000840888
                     0.000886939    -0.000376827       -0.0834095        0.982353     -5.37824e-05     0.000851816       -0.0887683       0.0994597
281716                -0.0977713       -0.157634     -0.000471122    -0.000676602         0.220782        0.952936      0.000925413    -0.000380675
                    -0.000417317    -0.000612122       -0.0721698        -0.11277      0.000913437    -2.99178e-06       -0.0831272        0.982043
                        0.221199        0.951924      0.000843206     4.16189e-05       -0.0173375        0.183822     -8.72775e-05     0.000840907
                       0.0008869    -0.000377039       -0.0829636         0.98239     -5.32672e-05     0.000851782       -0.0887182       0.0995288
281718                -0.0978262       -0.157626     -0.000471474    -0.000676351         0.221205        0.952834      0.000925346     -0.00038111
                     -0.00041754     -0.00061185       -0.0722111       -0.112766      0.000913584     -3.3287e-06       -0.0826817        0.982079
                        0.221622        0.951819      0.000843239     4.12733e-05       -0.0172262        0.183854      -8.6868e-05     0.000840926
                     0.000886861     -0.00037725       -0.0825177        0.982425     -5.27519e-05     0.000851747       -0.0886681       0.0995979
281720                -0.0978811       -0.157618     -0.000471827      -0.0006761         0.221629        0.952732      0.000925279    -0.000381546
                    -0.000417762    -0.000611578       -0.0722524       -0.112761      0.000913731    -3.66525e-06       -0.0822363        0.982114
                        0.222045        0.951715      0.000843273     4.09269e-05       -0.0171149        0.183887     -8.64584e-05     0.000840945
                     0.000886822    -0.000377461       -0.0820717        0.982461     -5.22366e-05     0.000851712       -0.0886179        0.099667
281722                 -0.097936        -0.15761      -0.00047218    -0.000675849         0.222052        0.952629      0.000925211    -0.000381981
                    -0.000417984    -0.000611305       -0.0722937       -0.112756      0.000913877    -4.00147e-06       -0.0817908        0.982149
                        0.222467         0.95161      0.000843307     4.05799e-05       -0.0170035        0.183919     -8.60488e-05     0.000840964
                     0.000886783    -0.000377672       -0.0816258        0.982496     -5.17211e-05     0.000851677       -0.0885677       0.0997361
281724                -0.0979909       -0.157603     -0.000472534    -0.000675598         0.222475        0.952527      0.000925143    -0.000382416
                    -0.000418206    -0.000611032        -0.072335       -0.112751      0.000914023     -4.3374e-06       -0.0813454        0.982184
                         0.22289        0.951505      0.000843341     4.02322e-05       -0.0168921        0.183952     -8.56392e-05     0.000840984
                     0.000886745    -0.000377883       -0.0811798        0.982532     -5.12052e-05     0.000851641       -0.0885174       0.0998051
281726                -0.0980458       -0.157595     -0.000472888    -0.000675346         0.222898        0.952424      0.000925074    -0.000382852
                    -0.000418427    -0.000610758       -0.0723764       -0.112747       0.00091417    -4.67307e-06       -0.0808999        0.982219
                        0.223313          0.9514      0.000843375     3.98837e-05       -0.0167807        0.183984     -8.52295e-05     0.000841005
                     0.000886707    -0.000378093       -0.0807339        0.982567     -5.06887e-05     0.000851606        -0.088467       0.0998742
281728                -0.0981007       -0.157587     -0.000473242    -0.000675095         0.223322        0.952322      0.000925005    -0.000383287
                    -0.000418648    -0.000610485       -0.0724177       -0.112742      0.000914316    -5.00853e-06       -0.0804544        0.982253
                        0.223735        0.951295      0.000843409     3.95346e-05       -0.0166693        0.184016     -8.48197e-05     0.000841025
                     0.000886669    -0.000378303       -0.0802879        0.982601     -5.01714e-05     0.000851569       -0.0884166       0.0999431
281730                -0.0981556       -0.157579     -0.000473596    -0.000674843         0.223745        0.952219      0.000924935    -0.000383723
                    -0.000418869    -0.000610211        -0.072459       -0.112737      0.000914461    -5.34381e-06       -0.0800089        0.982287
                        0.224158         0.95119      0.000843444     3.91847e-05       -0.0165578        0.184048     -8.44098e-05     0.000841046
                     0.000886632    -0.000378513       -0.0798419        0.982636     -4.96529e-05     0.000851532       -0.0883662        0.100012
281732                -0.0982106       -0.157571     -0.000473951    -0.000674592         0.224168        0.952115      0.000924865    -0.000384158
                    -0.000419089    -0.000609936       -0.0725003       -0.112732      0.000914607    -5.67894e-06       -0.0795635        0.982322
                         0.22458        0.951084      0.000843479     3.88342e-05       -0.0164462        0.184081     -8.39998e-05     0.000841067
                     0.000886595    -0.000378723       -0.0793959         0.98267     -4.91332e-05     0.000851493       -0.0883157        0.100081
281734                -0.0982655       -0.157563     -0.000474307     -0.00067434         0.224591        0.952012      0.000924794    -0.000384594
                    -0.000419309    -0.000609661       -0.0725417       -0.112727      0.000914752    -6.01394e-06       -0.0791179        0.982355
                        0.225003        0.950978      0.000843514     3.84829e-05       -0.0163347        0.184113     -8.35897e-05     0.000841089
                     0.000886558    -0.000378932       -0.0789499        0.982705     -4.86129e-05     0.000851451       -0.0882652         0.10015
281736                -0.0983204       -0.157555     -0.000474662    -0.000674088         0.225014        0.951909      0.000924723    -0.000385029
                    -0.000419528    -0.000609386        -0.072583       -0.112722      0.000914897    -6.34884e-06       -0.0786724        0.982389
                        0.225425        0.950872      0.000843549     3.81309e-05       -0.0162231        0.184145     -8.31794e-05     0.000841111
                     0.000886522    -0.000379141       -0.0785038        0.982739      -4.8093e-05     0.000851407       -0.0882146        0.100219
281738                -0.0983753       -0.157547     -0.000475018    -0.000673836         0.225436        0.951805      0.000924651    -0.000385465
                    -0.000419748    -0.000609111       -0.0726243       -0.112718      0.000915042    -6.68367e-06       -0.0782269        0.982423
                        0.225848        0.950766      0.000843585     3.77783e-05       -0.0161115        0.184176      -8.2769e-05     0.000841133
                     0.000886486     -0.00037935       -0.0780578        0.982772     -4.75748e-05      0.00085136       -0.0881639        0.100288
281740                -0.0984302       -0.157539     -0.000475374    -0.000673584         0.225859        0.951701      0.000924579      -0.0003859
                    -0.000419966    -0.000608835       -0.0726657       -0.112713      0.000915187    -7.01845e-06       -0.0777814        0.982456
                         0.22627         0.95066      0.000843621     3.74249e-05       -0.0159998        0.184208     -8.23584e-05     0.000841156
                      0.00088645    -0.000379558       -0.0776118        0.982806     -4.70587e-05     0.000851312       -0.0881132        0.100357
281742                -0.0984852       -0.157531     -0.000475731    -0.000673331         0.226282        0.951597      0.000924506    -0.000386336
                    -0.000420185    -0.000608559        -0.072707       -0.112708      0.000915331     -7.3532e-06       -0.0773358        0.982489
                        0.226692        0.950553      0.000843657     3.70708e-05       -0.0158881         0.18424     -8.19476e-05     0.000841178
                     0.000886415    -0.000379767       -0.0771657        0.982839     -4.65445e-05     0.000851263       -0.0880625        0.100425
281744                -0.0985401       -0.157523     -0.000476088    -0.000673079         0.226705        0.951492      0.000924433    -0.000386772
                    -0.000420403    -0.000608283       -0.0727483       -0.112703      0.000915475    -7.68795e-06       -0.0768903        0.982522
                        0.227114        0.950446      0.000843693     3.67161e-05       -0.0157764        0.184272     -8.15367e-05     0.000841202
                      0.00088638    -0.000379975       -0.0767197        0.982873     -4.60317e-05     0.000851215       -0.0880117        0.100494
281746                -0.0985951       -0.157515     -0.000476445    -0.000672826         0.227128        0.951388       0.00092436    -0.000387207
                     -0.00042062    -0.000608007       -0.0727897       -0.112698      0.000915619     -8.0227e-06       -0.0764447        0.982554
                        0.227537        0.950339      0.000843729     3.63606e-05       -0.0156646        0.184303     -8.11255e-05     0.000841225
                     0.000886345    -0.000380183       -0.0762736        0.982905     -4.55196e-05     0.000851167       -0.0879608        0.100563
281748                  -0.09865       -0.157507     -0.000476803    -0.000672573          0.22755        0.951283      0.000924286    -0.000387643
                    -0.000420837     -0.00060773        -0.072831       -0.112693      0.000915763    -8.35748e-06       -0.0759991        0.982587
                        0.227959        0.950232      0.000843766     3.60044e-05       -0.0155528        0.184335      -8.0714e-05     0.000841249
                     0.000886311     -0.00038039       -0.0758275        0.982938     -4.50078e-05      0.00085112       -0.0879099        0.100632
281750                 -0.098705       -0.157499     -0.000477161    -0.000672321         0.227973        0.951178      0.000924211    -0.000388078
                    -0.000421054    -0.000607452       -0.0728724       -0.112688      0.000915906     -8.6923e-06       -0.0755536        0.982619
                        0.228381        0.950125      0.000843802     3.56475e-05        -0.015441        0.184367     -8.03023e-05     0.000841273
                     0.000886277    -0.000380598       -0.0753814        0.982971     -4.44962e-05     0.000851072        -0.087859          0.1007
281752                -0.0987599       -0.157491     -0.000477519    -0.000672067         0.228395        0.951073      0.000924136    -0.000388514
                     -0.00042127    -0.000607175       -0.0729137       -0.112683      0.000916049    -9.02719e-06        -0.075108        0.982651
                        0.228803        0.950017      0.000843839     3.52899e-05       -0.0153291        0.184398     -7.98903e-05     0.000841298
                     0.000886243    -0.000380805       -0.0749353        0.983003     -4.39845e-05     0.000851024        -0.087808        0.100769
281754                -0.0988149       -0.157483     -0.000477878    -0.000671814         0.228818        0.950968       0.00092406     -0.00038895
                    -0.000421485    -0.000606897       -0.0729551       -0.112678      0.000916191    -9.36216e-06       -0.0746624        0.982683
                        0.229225         0.94991      0.000843876     3.49317e-05       -0.0152172        0.184429     -7.94779e-05     0.000841323
                      0.00088621    -0.000381012       -0.0744892        0.983035     -4.34728e-05     0.000850977       -0.0877569        0.100838
281756                -0.0988698       -0.157475     -0.000478237    -0.000671561          0.22924        0.950863      0.000923984    -0.000389385
                    -0.000421701    -0.000606619       -0.0729965       -0.112673      0.000916334    -9.69723e-06       -0.0742168        0.982715
                        0.229646        0.949802      0.000843913     3.45727e-05       -0.0151053        0.184461     -7.90652e-05     0.000841348
                     0.000886178    -0.000381218       -0.0740431        0.983067     -4.29609e-05     0.000850928       -0.0877058        0.100906
281758                -0.0989248       -0.157467     -0.000478596    -0.000671307         0.229663        0.950757      0.000923907    -0.000389821
                    -0.000421915    -0.000606341       -0.0730378       -0.112668      0.000916476    -1.00324e-05       -0.0737712        0.982746
                        0.230068        0.949693      0.000843951     3.42129e-05       -0.0149933        0.184492      -7.8652e-05     0.000841373
                     0.000886145    -0.000381425        -0.073597        0.983099     -4.24489e-05      0.00085088       -0.0876547        0.100975
281760                -0.0989798       -0.157459     -0.000478956    -0.000671054         0.230085        0.950651      0.000923829    -0.000390256
                    -0.000422129    -0.000606062       -0.0730792       -0.112663      0.000916618    -1.03678e-05       -0.0733255        0.982777
                         0.23049        0.949585      0.000843988     3.38525e-05       -0.0148813        0.184523     -7.82384e-05     0.000841399
                     0.000886114    -0.000381631       -0.0731509        0.983131     -4.19368e-05     0.000850831       -0.0876035        0.101043
281762                -0.0990347       -0.157451     -0.000479316      -0.0006708         0.230507        0.950545      0.000923751    -0.000390691
                    -0.000422343    -0.000605783       -0.0731206       -0.112658      0.000916759    -1.07034e-05       -0.0728799        0.982808
                        0.230912        0.949477      0.000844026     3.34914e-05       -0.0147693        0.184554     -7.78242e-05     0.000841425
