! TOUCHSTONE file generated by CST MICROWAVE STUDIO
! Date and time: Tue Oct 14 07:27:27 2025
! Project name: Teste_Macro_Metasurface_Nanopilar.cst
! Parameters = {H=600; L_x=110; L_y=150; Lambda=1064; Max_L=200; Min_L=70; PathPara=1; Phi=0; Step_L=10; Theta=0; p=520; phaseX=180; phaseY=0}
! Header version: 2018
! Port assignment regex: !\s*Touchstone port\s*([0-9]+)\s*=\s*(CST MWS port|CST DS port)\s*([0-9]+|Zmin|Zmax)\s*\(\"(.*)\"\)(\s*mode\s*([0-9]+))?.*
! Touchstone port assignment:
! Touchstone port 1 = CST MWS port Zmax ("") mode 1
! Touchstone port 2 = CST MWS port Zmax ("") mode 2
! Touchstone port 3 = CST MWS port Zmin ("") mode 1
! Touchstone port 4 = CST MWS port Zmin ("") mode 2
! S-Parameters are not renormalized. Each port impedance will be approximated by the real part at minimum frequency. The values are described via the [Reference] keyword.
! Default impedance is overridden by [Reference]
[Version] 2.0
# GHz S RI R 376.73
[Number of Ports] 4
[Reference]
376.73 376.73 259.814 259.814 
[Number of Frequencies] 51
[Network Data]
281700                -0.0934062       -0.169434     -0.000208738     0.000212246         0.196723        0.956023      2.23388e-05     -0.00017489
                    -0.000121619     0.000349053        -0.147004       0.0275553     -0.000127184    -3.00217e-05        -0.964786       -0.169145
                        0.197978        0.955972     -0.000118094    -2.19719e-05       -0.0175924        0.191899      0.000273627    -0.000226955
                     1.80822e-05    -0.000177454        -0.964653       -0.168892      0.000125792     -0.00022696         0.126565       0.0765468
281702                -0.0934667       -0.169428     -0.000208492     0.000212487         0.197151         0.95593      2.21193e-05    -0.000174946
                    -0.000121584     0.000349164        -0.146976       0.0276026     -0.000127165    -2.98975e-05        -0.964878       -0.168638
                        0.198407        0.955879     -0.000118112    -2.18959e-05       -0.0174776        0.191933      0.000273744    -0.000226949
                     1.78798e-05    -0.000177333        -0.964744       -0.168384      0.000125718    -0.000226885         0.126602       0.0764477
281704                -0.0935272       -0.169422     -0.000208247     0.000212727          0.19758        0.955837      2.18997e-05    -0.000175002
                    -0.000121549     0.000349275        -0.146948       0.0276499     -0.000127147    -2.97732e-05        -0.964969        -0.16813
                        0.198835        0.955786      -0.00011813    -2.18198e-05       -0.0173627        0.191967      0.000273861    -0.000226943
                     1.76773e-05    -0.000177211        -0.964836       -0.167876      0.000125645    -0.000226811          0.12664       0.0763487
281706                -0.0935877       -0.169415     -0.000208001     0.000212967         0.198008        0.955743      2.16799e-05    -0.000175057
                    -0.000121514     0.000349386         -0.14692       0.0276971     -0.000127128    -2.96486e-05         -0.96506       -0.167622
                        0.199263        0.955692     -0.000118148    -2.17437e-05       -0.0172478        0.192001      0.000273978    -0.000226938
                     1.74748e-05    -0.000177089        -0.964927       -0.167368      0.000125572    -0.000226737         0.126677       0.0762497
281708                -0.0936482       -0.169409     -0.000207755     0.000213207         0.198437         0.95565      2.14601e-05    -0.000175112
                    -0.000121479     0.000349496        -0.146892       0.0277443     -0.000127109     -2.9524e-05        -0.965151       -0.167114
                        0.199691        0.955599     -0.000118165    -2.16677e-05       -0.0171329        0.192035      0.000274096    -0.000226933
                     1.72724e-05    -0.000176967        -0.965017        -0.16686        0.0001255    -0.000226664         0.126715       0.0761506
281710                -0.0937087       -0.169403     -0.000207509     0.000213446         0.198866        0.955556      2.12402e-05    -0.000175167
                    -0.000121444     0.000349606        -0.146864       0.0277915      -0.00012709    -2.93992e-05        -0.965241       -0.166605
                        0.200118        0.955505     -0.000118182    -2.15916e-05        -0.017018        0.192069      0.000274213     -0.00022693
                     1.70699e-05    -0.000176844        -0.965108       -0.166352      0.000125428    -0.000226591         0.126752       0.0760515
281712                -0.0937692       -0.169397     -0.000207262     0.000213685         0.199294        0.955462      2.10203e-05    -0.000175221
                    -0.000121409     0.000349715        -0.146835       0.0278387     -0.000127071    -2.92743e-05        -0.965331       -0.166097
                        0.200546        0.955411       -0.0001182    -2.15155e-05        -0.016903        0.192102      0.000274331    -0.000226927
                     1.68674e-05    -0.000176721        -0.965198       -0.165844      0.000125356    -0.000226518         0.126789       0.0759524
281714                -0.0938298        -0.16939     -0.000207016     0.000213924         0.199722        0.955368      2.08002e-05    -0.000175274
                    -0.000121375     0.000349823        -0.146807       0.0278858     -0.000127051    -2.91492e-05        -0.965421       -0.165589
                        0.200974        0.955317     -0.000118217    -2.14394e-05        -0.016788        0.192136      0.000274451    -0.000226926
                     1.66649e-05    -0.000176598        -0.965288       -0.165336      0.000125284    -0.000226445         0.126826       0.0758533
281716                -0.0938903       -0.169384     -0.000206769     0.000214163         0.200151        0.955274        2.058e-05    -0.000175328
                     -0.00012134     0.000349931        -0.146779        0.027933     -0.000127032     -2.9024e-05        -0.965511       -0.165081
                        0.201402        0.955223     -0.000118234    -2.13632e-05       -0.0166729         0.19217      0.000274574    -0.000226926
                     1.64624e-05    -0.000176474        -0.965378       -0.164828      0.000125212    -0.000226372         0.126863       0.0757541
281718                -0.0939508       -0.169378     -0.000206522     0.000214401         0.200579        0.955179      2.03597e-05    -0.000175381
                    -0.000121305     0.000350039        -0.146751       0.0279801     -0.000127013    -2.88987e-05          -0.9656       -0.164573
                        0.201829        0.955128     -0.000118251    -2.12871e-05       -0.0165578        0.192203      0.000274702    -0.000226922
                     1.62599e-05     -0.00017635        -0.965467        -0.16432      0.000125141      -0.0002263           0.1269       0.0756549
281720                -0.0940113       -0.169371     -0.000206275      0.00021464         0.201007        0.955085      2.01387e-05    -0.000175435
                    -0.000121271     0.000350146        -0.146723       0.0280272     -0.000126993    -2.87733e-05        -0.965689       -0.164064
                        0.202257        0.955033     -0.000118268     -2.1211e-05       -0.0164427        0.192237      0.000274827    -0.000226908
                     1.60575e-05    -0.000176225        -0.965557       -0.163812       0.00012507    -0.000226228         0.126937       0.0755558
281722                -0.0940719       -0.169365     -0.000206028     0.000214878         0.201436         0.95499      1.98975e-05    -0.000175471
                    -0.000121236     0.000350253        -0.146694       0.0280742     -0.000126974    -2.86477e-05        -0.965778       -0.163556
                        0.202685        0.954939     -0.000118285    -2.11349e-05       -0.0163275         0.19227      0.000274941    -0.000226896
                      1.5855e-05    -0.000176101        -0.965646       -0.163304      0.000124999    -0.000226157         0.126974       0.0754566
281724                -0.0941324       -0.169359      -0.00020578     0.000215115         0.201864        0.954895      1.96999e-05    -0.000175532
                    -0.000121201     0.000350359        -0.146666       0.0281213     -0.000126954     -2.8522e-05        -0.965867       -0.163047
                        0.203112        0.954843     -0.000118301    -2.10587e-05       -0.0162123        0.192304      0.000275054    -0.000226891
                     1.56526e-05    -0.000175975        -0.965734       -0.162795      0.000124929    -0.000226085         0.127011       0.0753573
281726                -0.0941929       -0.169352     -0.000205533     0.000215353         0.202292          0.9548      1.94795e-05    -0.000175585
                    -0.000121167     0.000350464        -0.146638       0.0281683     -0.000126935    -2.83962e-05        -0.965955       -0.162539
                         0.20354        0.954748     -0.000118318    -2.09826e-05       -0.0160971        0.192337      0.000275169    -0.000226888
                     1.54502e-05     -0.00017585        -0.965823       -0.162287      0.000124859    -0.000226014         0.127047       0.0752581
281728                -0.0942535       -0.169346     -0.000205285      0.00021559          0.20272        0.954704      1.92591e-05    -0.000175636
                    -0.000121132      0.00035057        -0.146609       0.0282153     -0.000126915    -2.82703e-05        -0.966043        -0.16203
                        0.203967        0.954653     -0.000118334    -2.09064e-05       -0.0159818         0.19237      0.000275284    -0.000226887
                     1.52478e-05    -0.000175724        -0.965911       -0.161778      0.000124789    -0.000225943         0.127084       0.0751588
281730                 -0.094314        -0.16934     -0.000205037     0.000215826         0.203148        0.954608      1.90387e-05    -0.000175687
                    -0.000121097     0.000350674        -0.146581       0.0282623     -0.000126895    -2.81443e-05        -0.966131       -0.161522
                        0.204395        0.954557     -0.000118351    -2.08302e-05       -0.0158665        0.192403      0.000275401    -0.000226886
                     1.50454e-05    -0.000175598        -0.965999        -0.16127      0.000124719    -0.000225872          0.12712       0.0750595
281732                -0.0943746       -0.169333     -0.000204789     0.000216063         0.203576        0.954513      1.88183e-05    -0.000175737
                    -0.000121063     0.000350779        -0.146553       0.0283092     -0.000126875    -2.80182e-05        -0.966219       -0.161013
                        0.204822        0.954461     -0.000118367    -2.07541e-05       -0.0157512        0.192436      0.000275518    -0.000226886
                      1.4843e-05    -0.000175471        -0.966086       -0.160762       0.00012465    -0.000225801         0.127157       0.0749602
281734                -0.0944351       -0.169327      -0.00020454     0.000216299         0.204004        0.954417      1.85979e-05    -0.000175786
                    -0.000121028     0.000350882        -0.146524       0.0283562     -0.000126855     -2.7892e-05        -0.966306       -0.160505
                        0.205249        0.954365     -0.000118383    -2.06779e-05       -0.0156358        0.192469      0.000275635    -0.000226887
                     1.46407e-05    -0.000175344        -0.966174       -0.160253       0.00012458    -0.000225731         0.127193       0.0748609
281736                -0.0944957        -0.16932     -0.000204292     0.000216535         0.204432         0.95432      1.83775e-05    -0.000175836
                    -0.000120993     0.000350986        -0.146496       0.0284031     -0.000126835    -2.77658e-05        -0.966393       -0.159996
                        0.205677        0.954269     -0.000118399    -2.06017e-05       -0.0155203        0.192502      0.000275752    -0.000226887
                     1.44384e-05    -0.000175217        -0.966261       -0.159744      0.000124512     -0.00022566         0.127229       0.0747615
281738                -0.0945562       -0.169314     -0.000204043     0.000216771          0.20486        0.954224      1.81571e-05    -0.000175885
                    -0.000120959     0.000351089        -0.146468         0.02845     -0.000126815    -2.76395e-05         -0.96648       -0.159487
                        0.206104        0.954172     -0.000118415    -2.05255e-05       -0.0154049        0.192535       0.00027587    -0.000226888
                     1.42362e-05    -0.000175089        -0.966347       -0.159236      0.000124443     -0.00022559         0.127265       0.0746622
281740                -0.0946168       -0.169307     -0.000203794     0.000217007         0.205288        0.954127      1.79367e-05    -0.000175933
                    -0.000120924     0.000351191        -0.146439       0.0284969     -0.000126795    -2.75133e-05        -0.966566       -0.158978
                        0.206531        0.954076     -0.000118431    -2.04492e-05       -0.0152894        0.192568      0.000275988     -0.00022689
                      1.4034e-05    -0.000174962        -0.966434       -0.158727      0.000124375    -0.000225519         0.127301       0.0745628
281742                -0.0946774       -0.169301     -0.000203545     0.000217242         0.205716         0.95403      1.77164e-05    -0.000175981
                    -0.000120889     0.000351293        -0.146411       0.0285437     -0.000126775    -2.73874e-05        -0.966652       -0.158469
                        0.206958        0.953979     -0.000118447     -2.0373e-05       -0.0151739        0.192601      0.000276105    -0.000226892
                     1.38318e-05    -0.000174833         -0.96652       -0.158218      0.000124307    -0.000225448         0.127337       0.0744634
281744                 -0.094738       -0.169294     -0.000203296     0.000217477         0.206143        0.953933      1.74961e-05    -0.000176029
                    -0.000120854     0.000351394        -0.146382       0.0285906     -0.000126754    -2.72627e-05        -0.966738        -0.15796
                        0.207385        0.953882     -0.000118463    -2.02966e-05       -0.0150583        0.192634      0.000276223    -0.000226895
                     1.36297e-05    -0.000174705        -0.966606        -0.15771      0.000124239    -0.000225373         0.127373       0.0743639
281746                -0.0947985       -0.169288     -0.000203046     0.000217712         0.206571        0.953836      1.72758e-05    -0.000176076
                     -0.00012082     0.000351496        -0.146354       0.0286374     -0.000126732    -2.71482e-05        -0.966824       -0.157451
                        0.207812        0.953785     -0.000118478    -2.02202e-05       -0.0149427        0.192666      0.000276341    -0.000226897
                     1.34276e-05    -0.000174576        -0.966692       -0.157201       0.00012417    -0.000225264         0.127409       0.0742645
281748                -0.0948591       -0.169281     -0.000202797     0.000217946         0.206999        0.953739      1.70555e-05    -0.000176123
                    -0.000120785     0.000351596        -0.146325       0.0286842     -0.000126711    -2.69918e-05        -0.966909       -0.156942
                        0.208239        0.953687     -0.000118494    -2.01435e-05       -0.0148271        0.192699      0.000276458    -0.000226901
                     1.32255e-05    -0.000174447        -0.966777       -0.156692      0.000124103    -0.000225273         0.127445        0.074165
281750                -0.0949197       -0.169274     -0.000202547     0.000218179         0.207426        0.953641      1.68353e-05     -0.00017617
                     -0.00012075     0.000351696        -0.146297       0.0287309     -0.000126692    -2.68718e-05        -0.966994       -0.156433
                        0.208666         0.95359      -0.00011851     -2.0066e-05       -0.0147114        0.192731      0.000276576    -0.000226905
                     1.30235e-05    -0.000174317        -0.966862       -0.156183      0.000124036     -0.00022519         0.127481       0.0740655
281752                -0.0949803       -0.169268     -0.000202297      0.00021841         0.207854        0.953544      1.66152e-05    -0.000176216
                    -0.000120715     0.000351796        -0.146268       0.0287777     -0.000126672    -2.67462e-05        -0.967079       -0.155924
                        0.209093        0.953492     -0.000118524    -1.99859e-05       -0.0145957        0.192764      0.000276693    -0.000226909
                     1.28216e-05    -0.000174188        -0.966947       -0.155674       0.00012397    -0.000225118         0.127516        0.073966
281754                -0.0950409       -0.169261     -0.000202035     0.000218642         0.208281        0.953446      1.63952e-05    -0.000176262
                     -0.00012068     0.000351895         -0.14624       0.0288244     -0.000126652    -2.66196e-05        -0.967164       -0.155415
                         0.20952        0.953394     -0.000118524    -1.99101e-05       -0.0144799        0.192796      0.000276811    -0.000226914
                     1.26196e-05    -0.000174057        -0.967032       -0.155165      0.000123903    -0.000225048         0.127552       0.0738665
281756                -0.0951015       -0.169254     -0.000201788     0.000218885         0.208709        0.953347      1.61752e-05    -0.000176308
                    -0.000120645     0.000351994        -0.146211       0.0288711     -0.000126631    -2.64925e-05        -0.967248       -0.154906
                        0.209947        0.953296     -0.000118547    -1.98441e-05       -0.0143641        0.192828      0.000276928    -0.000226919
                     1.24178e-05    -0.000173927        -0.967116       -0.154656      0.000123837     -0.00022498         0.127587        0.073767
281758                -0.0951621       -0.169248      -0.00020154     0.000219119         0.209136        0.953249      1.59553e-05    -0.000176354
                     -0.00012061     0.000352092        -0.146183       0.0289178      -0.00012661    -2.63652e-05        -0.967332       -0.154397
                        0.210373        0.953198     -0.000118564    -1.97676e-05       -0.0142483        0.192861      0.000277046    -0.000226925
                     1.22159e-05    -0.000173796        -0.967201       -0.154147      0.000123771    -0.000224911         0.127623       0.0736674
281760                -0.0952227       -0.169241      -0.00020129     0.000219351         0.209564        0.953151      1.57355e-05    -0.000176399
                    -0.000120575      0.00035219        -0.146154       0.0289645     -0.000126589    -2.62377e-05        -0.967416       -0.153887
                          0.2108        0.953099      -0.00011858    -1.96911e-05       -0.0141325        0.192893      0.000277163    -0.000226931
                     1.20141e-05    -0.000173665        -0.967284       -0.153638      0.000123705    -0.000224844         0.127658       0.0735678
281762                -0.0952833       -0.169234     -0.000201039     0.000219584         0.209991        0.953052      1.55159e-05    -0.000176443
                     -0.00012054     0.000352287        -0.146125       0.0290111     -0.000126568    -2.61101e-05        -0.967499       -0.153378
                        0.211227           0.953     -0.000118595    -1.96149e-05       -0.0140166        0.192925       0.00027728    -0.000226937
