! TOUCHSTONE file generated by CST MICROWAVE STUDIO
! Date and time: Tue Oct 14 07:28:34 2025
! Project name: Teste_Macro_Metasurface_Nanopilar.cst
! Parameters = {H=600; L_x=130; L_y=90; Lambda=1064; Max_L=200; Min_L=70; PathPara=1; Phi=0; Step_L=10; Theta=0; p=520; phaseX=180; phaseY=0}
! Header version: 2018
! Port assignment regex: !\s*Touchstone port\s*([0-9]+)\s*=\s*(CST MWS port|CST DS port)\s*([0-9]+|Zmin|Zmax)\s*\(\"(.*)\"\)(\s*mode\s*([0-9]+))?.*
! Touchstone port assignment:
! Touchstone port 1 = CST MWS port Zmax ("") mode 1
! Touchstone port 2 = CST MWS port Zmax ("") mode 2
! Touchstone port 3 = CST MWS port Zmin ("") mode 1
! Touchstone port 4 = CST MWS port Zmin ("") mode 2
! S-Parameters are not renormalized. Each port impedance will be approximated by the real part at minimum frequency. The values are described via the [Reference] keyword.
! Default impedance is overridden by [Reference]
[Version] 2.0
# GHz S RI R 376.73
[Number of Ports] 4
[Reference]
376.73 376.73 259.814 259.814 
[Number of Frequencies] 51
[Network Data]
281700                 0.0269976       0.0229207      0.000265581    -0.000384295         0.862488       -0.500815     -0.000135817      0.00017427
                     0.000334035    -0.000317648        -0.128616        0.108287      -0.00012117    -0.000228649        -0.817996       -0.533752
                        0.862836       -0.500601      -7.2787e-05    -0.000176495        0.0064233       0.0354045      0.000206207     0.000391457
                     -0.00020537     0.000269629        -0.817968       -0.533547      0.000253262     0.000406281       -0.0486261        0.160605
281702                  0.027011       0.0229007      0.000265315    -0.000384518         0.862292       -0.501153     -0.000135734     0.000174384
                     0.000333896    -0.000317879        -0.128556        0.108333     -0.000121286    -0.000228532        -0.818279       -0.533323
                         0.86264       -0.500939     -7.30183e-05     -0.00017641       0.00642686       0.0354012      0.000206272     0.000391522
                     -0.00020528     0.000269797        -0.818251       -0.533119      0.000253332     0.000406308       -0.0485235        0.160619
281704                 0.0270243       0.0228807      0.000265049    -0.000384741         0.862096        -0.50149      -0.00013565     0.000174499
                     0.000333756     -0.00031811        -0.128496        0.108379     -0.000121402    -0.000228415        -0.818561       -0.532894
                        0.862444       -0.501277     -7.32497e-05    -0.000176324       0.00643041       0.0353979      0.000206336     0.000391588
                    -0.000205189     0.000269965        -0.818533        -0.53269      0.000253402     0.000406335       -0.0484209        0.160633
281706                 0.0270377       0.0228607      0.000264783    -0.000384964         0.861899       -0.501827     -0.000135567     0.000174613
                     0.000333616     -0.00031834        -0.128436        0.108424     -0.000121518    -0.000228298        -0.818843       -0.532465
                        0.862248       -0.501614     -7.34811e-05    -0.000176239       0.00643396       0.0353947      0.000206401     0.000391654
                    -0.000205099     0.000270133        -0.818815       -0.532261      0.000253472     0.000406362       -0.0483183        0.160647
281708                  0.027051       0.0228407      0.000264516    -0.000385187         0.861703       -0.502165     -0.000135484     0.000174727
                     0.000333475    -0.000318571        -0.128376         0.10847     -0.000121634    -0.000228181        -0.819125       -0.532036
                        0.862052       -0.501952     -7.37125e-05    -0.000176153       0.00643751       0.0353914      0.000206466      0.00039172
                    -0.000205008     0.000270301        -0.819097       -0.531832      0.000253543      0.00040639       -0.0482157        0.160661
281710                 0.0270643       0.0228207      0.000264249    -0.000385409         0.861506       -0.502502       -0.0001354     0.000174842
                     0.000333335    -0.000318801        -0.128316        0.108515     -0.000121749    -0.000228064        -0.819406       -0.531607
                        0.861856       -0.502289     -7.39438e-05    -0.000176067       0.00644106       0.0353882      0.000206531     0.000391786
                    -0.000204918     0.000270468        -0.819379       -0.531402      0.000253613     0.000406417       -0.0481131        0.160675
281712                 0.0270776       0.0228007      0.000263982    -0.000385632         0.861309       -0.502839     -0.000135317     0.000174956
                     0.000333194    -0.000319031        -0.128256        0.108561     -0.000121865    -0.000227947        -0.819688       -0.531178
                        0.861659       -0.502627     -7.41753e-05    -0.000175981        0.0064446       0.0353849      0.000206595     0.000391852
                    -0.000204827     0.000270636         -0.81966       -0.530973      0.000253684     0.000406445       -0.0480105        0.160688
281714                 0.0270909       0.0227807      0.000263715    -0.000385854         0.861112       -0.503176     -0.000135233      0.00017507
                     0.000333053    -0.000319261        -0.128196        0.108606      -0.00012198     -0.00022783        -0.819969       -0.530748
                        0.861463       -0.502964     -7.44067e-05    -0.000175894       0.00644815       0.0353817       0.00020666     0.000391918
                    -0.000204737     0.000270804        -0.819941       -0.530543      0.000253755     0.000406473       -0.0479079        0.160702
281716                 0.0271041       0.0227607      0.000263447    -0.000386077         0.860915       -0.503513     -0.000135149     0.000175185
                     0.000332911    -0.000319491        -0.128136        0.108651     -0.000122095    -0.000227712         -0.82025       -0.530318
                        0.861266       -0.503301     -7.46381e-05    -0.000175808       0.00645169       0.0353784      0.000206725     0.000391984
                    -0.000204646     0.000270972        -0.820222       -0.530113      0.000253826       0.0004065       -0.0478053        0.160716
281718                 0.0271174       0.0227407      0.000263179    -0.000386299         0.860718        -0.50385     -0.000135065     0.000175299
                      0.00033277    -0.000319721        -0.128076        0.108697      -0.00012221    -0.000227595        -0.820531       -0.529888
                        0.861069       -0.503638     -7.48695e-05    -0.000175721       0.00645523       0.0353752       0.00020679      0.00039205
                    -0.000204555     0.000271139        -0.820503       -0.529683      0.000253896     0.000406528       -0.0477027        0.160729
281720                 0.0271307       0.0227206      0.000262911    -0.000386521          0.86052       -0.504187     -0.000134982     0.000175414
                     0.000332628     -0.00031995        -0.128016        0.108742     -0.000122325    -0.000227477        -0.820811       -0.529458
                        0.860872       -0.503975      -7.5101e-05    -0.000175635       0.00645876        0.035372      0.000206854     0.000392116
                    -0.000204464     0.000271307        -0.820783       -0.529253      0.000253967     0.000406556       -0.0476001        0.160742
281722                 0.0271439       0.0227006      0.000262642    -0.000386743         0.860323       -0.504523     -0.000134898     0.000175528
                     0.000332486    -0.000320179        -0.127956        0.108787      -0.00012244     -0.00022736        -0.821092       -0.529028
                        0.860675       -0.504312     -7.53324e-05    -0.000175548        0.0064623       0.0353688      0.000206919     0.000392182
                    -0.000204373     0.000271475        -0.821064       -0.528823      0.000254038     0.000406584       -0.0474975        0.160756
281724                 0.0271571       0.0226806      0.000262373    -0.000386964         0.860125        -0.50486     -0.000134813     0.000175643
                     0.000332343    -0.000320409        -0.127896        0.108833     -0.000122555    -0.000227242        -0.821372       -0.528598
                        0.860477       -0.504649     -7.55639e-05    -0.000175461       0.00646583       0.0353655      0.000206984     0.000392249
                    -0.000204282     0.000271642        -0.821344       -0.528393       0.00025411     0.000406612       -0.0473949        0.160769
281726                 0.0271704       0.0226605      0.000262104    -0.000387186         0.859928       -0.505197     -0.000134729     0.000175757
                     0.000332201    -0.000320638        -0.127836        0.108878     -0.000122669    -0.000227125        -0.821652       -0.528167
                         0.86028       -0.504986     -7.57954e-05    -0.000175373       0.00646936       0.0353623      0.000207049     0.000392315
                    -0.000204191      0.00027181        -0.821624       -0.527962      0.000254181     0.000406641       -0.0472923        0.160782
281728                 0.0271836       0.0226404      0.000261834    -0.000387407          0.85973       -0.505533     -0.000134645     0.000175872
                     0.000332058    -0.000320867        -0.127776        0.108923     -0.000122784    -0.000227007        -0.821931       -0.527737
                        0.860082       -0.505323     -7.60269e-05    -0.000175286       0.00647289       0.0353591      0.000207113     0.000392381
                    -0.000204099     0.000271977        -0.821903       -0.527531      0.000254252     0.000406669       -0.0471897        0.160795
281730                 0.0271968       0.0226204      0.000261565    -0.000387628         0.859532        -0.50587     -0.000134561     0.000175986
                     0.000331915    -0.000321096        -0.127715        0.108968     -0.000122898    -0.000226889        -0.822211       -0.527306
                        0.859885        -0.50566     -7.62584e-05    -0.000175199       0.00647642       0.0353559      0.000207178     0.000392448
                    -0.000204008     0.000272145        -0.822183         -0.5271      0.000254323     0.000406697       -0.0470871        0.160809
281732                   0.02721       0.0226003      0.000261295    -0.000387849         0.859334       -0.506206     -0.000134476     0.000176101
                     0.000331771    -0.000321324        -0.127655        0.109013     -0.000123012    -0.000226772         -0.82249       -0.526875
                        0.859687       -0.505996     -7.64899e-05    -0.000175111       0.00647994       0.0353527      0.000207243     0.000392515
                    -0.000203917     0.000272312        -0.822462       -0.526669      0.000254395     0.000406726       -0.0469845        0.160822
281734                 0.0272232       0.0225802      0.000261024     -0.00038807         0.859135       -0.506542     -0.000134392     0.000176216
                     0.000331628    -0.000321553        -0.127595        0.109059     -0.000123126    -0.000226654        -0.822769       -0.526444
                        0.859489       -0.506333     -7.67215e-05    -0.000175023       0.00648347       0.0353495      0.000207308     0.000392581
                    -0.000203825     0.000272479        -0.822741       -0.526238      0.000254466     0.000406754       -0.0468819        0.160834
281736                 0.0272363       0.0225601      0.000260754    -0.000388291         0.858937       -0.506878     -0.000134307     0.000176331
                     0.000331484    -0.000321781        -0.127535        0.109104     -0.000123239    -0.000226536        -0.823048       -0.526013
                        0.859291       -0.506669     -7.69531e-05    -0.000174935       0.00648699       0.0353463      0.000207373     0.000392649
                    -0.000203734     0.000272647         -0.82302       -0.525807      0.000254538     0.000406783       -0.0467793        0.160847
281738                 0.0272495         0.02254      0.000260483    -0.000388511         0.858738       -0.507215     -0.000134222     0.000176446
                      0.00033134    -0.000322009        -0.127474        0.109149     -0.000123353    -0.000226418        -0.823326       -0.525581
                        0.859092       -0.507006     -7.71848e-05    -0.000174847       0.00649051       0.0353431      0.000207439     0.000392717
                    -0.000203642     0.000272814        -0.823298       -0.525376       0.00025461     0.000406812       -0.0466767         0.16086
281740                 0.0272627       0.0225199      0.000260211    -0.000388732          0.85854       -0.507551     -0.000134136     0.000176564
                     0.000331195    -0.000322237        -0.127414        0.109194     -0.000123466      -0.0002263        -0.823605        -0.52515
                        0.858894       -0.507342     -7.74165e-05    -0.000174759       0.00649402       0.0353399      0.000207506     0.000392787
                     -0.00020355     0.000272981        -0.823576       -0.524944      0.000254681     0.000406841       -0.0465741        0.160873
281742                 0.0272758       0.0224998       0.00025994    -0.000388952         0.858341       -0.507887     -0.000134045     0.000176693
                     0.000331051    -0.000322465        -0.127354        0.109239     -0.000123579    -0.000226182        -0.823883       -0.524718
                        0.858695       -0.507678     -7.76483e-05    -0.000174671       0.00649754       0.0353367      0.000207584     0.000392872
                    -0.000203459     0.000273148        -0.823854       -0.524512      0.000254753      0.00040687       -0.0464715        0.160885
281744                 0.0272889       0.0224797      0.000259668    -0.000389172         0.858142       -0.508223     -0.000133975     0.000176769
                     0.000330906    -0.000322693        -0.127293        0.109284     -0.000123692    -0.000226064        -0.824161       -0.524286
                        0.858497       -0.508014     -7.78803e-05    -0.000174583       0.00650105       0.0353335      0.000207615     0.000392888
                    -0.000203367     0.000273315        -0.824132        -0.52408      0.000254825     0.000406899       -0.0463689        0.160898
281746                 0.0273021       0.0224596      0.000259396    -0.000389392         0.857943       -0.508558     -0.000133886     0.000176894
                      0.00033076    -0.000322921        -0.127233        0.109329     -0.000123805    -0.000225946        -0.824438       -0.523854
                        0.858298        -0.50835     -7.81124e-05    -0.000174494       0.00650456       0.0353303      0.000207689      0.00039297
                    -0.000203275     0.000273483         -0.82441       -0.523648      0.000254896     0.000406928       -0.0462664        0.160911
281748                 0.0273152       0.0224395      0.000259123    -0.000389611         0.857743       -0.508894       -0.0001338     0.000177011
                     0.000330615    -0.000323149        -0.127173        0.109373     -0.000123917    -0.000225828        -0.824716       -0.523422
                        0.858099       -0.508686      -7.8345e-05    -0.000174406       0.00650807       0.0353271      0.000207755     0.000393039
                    -0.000203183      0.00027365        -0.824687       -0.523216      0.000254967     0.000406958       -0.0461638        0.160923
281750                 0.0273283       0.0224193       0.00025885     -0.00038983         0.857544        -0.50923     -0.000133715     0.000177127
                     0.000330469    -0.000323379        -0.127112        0.109418     -0.000124026    -0.000225712        -0.824993        -0.52299
                          0.8579       -0.509022     -7.85783e-05    -0.000174317       0.00651157        0.035324      0.000207821     0.000393107
                    -0.000203091     0.000273818        -0.824965       -0.522784      0.000255031     0.000406991       -0.0460612        0.160935
281752                 0.0273414       0.0223992      0.000258576    -0.000390047         0.857345       -0.509565     -0.000133629     0.000177242
                     0.000330322    -0.000323624        -0.127052        0.109463     -0.000124147     -0.00022559         -0.82527       -0.522557
                        0.857701       -0.509358     -7.88143e-05    -0.000174229       0.00651509       0.0353208      0.000207886     0.000393175
                       -0.000203     0.000273991        -0.825241       -0.522351      0.000255123     0.000407011       -0.0459586        0.160948
281754                 0.0273544        0.022379      0.000258297    -0.000390253         0.857145       -0.509901     -0.000133544     0.000177357
                     0.000330181    -0.000323813        -0.126991        0.109508     -0.000124257    -0.000225473        -0.825547       -0.522125
                        0.857502       -0.509694     -7.90696e-05    -0.000174145       0.00651859       0.0353176       0.00020795     0.000393242
                    -0.000202905     0.000274143        -0.825518       -0.521918       0.00025519     0.000407043        -0.045856         0.16096
281756                 0.0273675       0.0223589      0.000258037    -0.000390507         0.856945       -0.510236     -0.000133458     0.000177471
                     0.000330033    -0.000324047        -0.126931        0.109553     -0.000124369    -0.000225355        -0.825823       -0.521692
                        0.857302        -0.51003     -7.92382e-05    -0.000174042       0.00652209       0.0353145      0.000208015     0.000393309
                    -0.000202813     0.000274314        -0.825795       -0.521485      0.000255262     0.000407073       -0.0457534        0.160972
281758                 0.0273806       0.0223387       0.00025776    -0.000390716         0.856745       -0.510572     -0.000133373     0.000177586
                     0.000329886    -0.000324276         -0.12687        0.109597     -0.000124481    -0.000225236          -0.8261       -0.521259
                        0.857103       -0.510365     -7.94882e-05    -0.000173957       0.00652559       0.0353113       0.00020808     0.000393377
                    -0.000202721     0.000274481        -0.826071       -0.521052      0.000255334     0.000407103       -0.0456508        0.160984
281760                 0.0273936       0.0223186      0.000257484    -0.000390933         0.856545       -0.510907     -0.000133287     0.000177701
                     0.000329739    -0.000324503         -0.12681        0.109642     -0.000124592    -0.000225118        -0.826376       -0.520826
                        0.856903       -0.510701     -7.97237e-05    -0.000173868       0.00652909       0.0353082      0.000208145     0.000393444
                    -0.000202629     0.000274648        -0.826347       -0.520619      0.000255406     0.000407133       -0.0455483        0.160996
281762                 0.0274067       0.0222984       0.00025721     -0.00039115         0.856345       -0.511242     -0.000133202     0.000177815
                     0.000329591    -0.000324729        -0.126749        0.109686     -0.000124704       -0.000225        -0.826651       -0.520393
                        0.856703       -0.511036     -7.99571e-05    -0.000173779       0.00653259        0.035305      0.000208209     0.000393511
