! TOUCHSTONE file generated by CST MICROWAVE STUDIO
! Date and time: Tue Oct 14 07:28:32 2025
! Project name: Teste_Macro_Metasurface_Nanopilar.cst
! Parameters = {H=600; L_x=130; L_y=70; Lambda=1064; Max_L=200; Min_L=70; PathPara=1; Phi=0; Step_L=10; Theta=0; p=520; phaseX=180; phaseY=0}
! Header version: 2018
! Port assignment regex: !\s*Touchstone port\s*([0-9]+)\s*=\s*(CST MWS port|CST DS port)\s*([0-9]+|Zmin|Zmax)\s*\(\"(.*)\"\)(\s*mode\s*([0-9]+))?.*
! Touchstone port assignment:
! Touchstone port 1 = CST MWS port Zmax ("") mode 1
! Touchstone port 2 = CST MWS port Zmax ("") mode 2
! Touchstone port 3 = CST MWS port Zmin ("") mode 1
! Touchstone port 4 = CST MWS port Zmin ("") mode 2
! S-Parameters are not renormalized. Each port impedance will be approximated by the real part at minimum frequency. The values are described via the [Reference] keyword.
! Default impedance is overridden by [Reference]
[Version] 2.0
# GHz S RI R 376.73
[Number of Ports] 4
[Reference]
376.73 376.73 259.814 259.814 
[Number of Frequencies] 51
[Network Data]
281700                -0.0376707        0.118271     -2.80267e-06    -0.000705567         0.990546       0.0572727     -6.88427e-05     0.000365624
                     6.56928e-05    -0.000870034        -0.127396       -0.036704       0.00036219      0.00027604         0.311878       -0.936326
                        0.990902       0.0575784      0.000361907     0.000193908        0.0236952        0.121898     -0.000735123    -0.000271557
                    -4.24643e-05     0.000405898         0.311621        -0.93637     -0.000817167    -0.000171095        -0.123839      -0.0457454
281702                -0.0376298         0.11828     -3.45933e-06    -0.000705629         0.990567       0.0569139     -6.87493e-05     0.000365677
                     6.52656e-05    -0.000870242        -0.127418      -0.0366693      0.000362354     0.000275849         0.311464       -0.936462
                        0.990924       0.0572194      0.000361817     0.000193627        0.0237417        0.121886     -0.000735298    -0.000271398
                    -4.23572e-05     0.000405929         0.311208       -0.936506     -0.000817234    -0.000170975        -0.123876      -0.0456768
281704                -0.0375889         0.11829     -4.11646e-06    -0.000705691         0.990588       0.0565551     -6.86557e-05     0.000365729
                     6.48383e-05     -0.00087045        -0.127439      -0.0366346      0.000362519     0.000275659         0.311051       -0.936598
                        0.990945       0.0568605      0.000361727     0.000193347        0.0237883        0.121874     -0.000735473    -0.000271238
                    -4.22501e-05      0.00040596         0.310794       -0.936641       -0.0008173    -0.000170856        -0.123913      -0.0456081
281706                 -0.037548          0.1183     -4.77404e-06    -0.000705752         0.990609       0.0561963      -6.8562e-05     0.000365782
                     6.44108e-05    -0.000870658        -0.127461      -0.0365998      0.000362683     0.000275467         0.310637       -0.936733
                        0.990966       0.0565015      0.000361637     0.000193066        0.0238348        0.121861     -0.000735648    -0.000271079
                    -4.21431e-05     0.000405991          0.31038       -0.936776     -0.000817366    -0.000170737         -0.12395      -0.0455394
281708                -0.0375071         0.11831     -5.43208e-06    -0.000705813          0.99063       0.0558374     -6.84682e-05     0.000365834
                     6.39832e-05    -0.000870866        -0.127482      -0.0365651      0.000362847     0.000275276         0.310223       -0.936868
                        0.990987       0.0561425      0.000361546     0.000192785        0.0238813        0.121849     -0.000735823    -0.000270919
                    -4.20362e-05     0.000406021         0.309967       -0.936911     -0.000817433    -0.000170617        -0.123987      -0.0454706
281710                -0.0374662        0.118319     -6.09057e-06    -0.000705874         0.990651       0.0554786     -6.83743e-05     0.000365887
                     6.35554e-05    -0.000871073        -0.127503      -0.0365303      0.000363012     0.000275085         0.309809       -0.937003
                        0.991008       0.0557835      0.000361454     0.000192504        0.0239278        0.121837     -0.000735997    -0.000270759
                    -4.19293e-05     0.000406052         0.309553       -0.937046     -0.000817499    -0.000170498        -0.124024      -0.0454019
281712                -0.0374253        0.118329     -6.74951e-06    -0.000705934         0.990671       0.0551197     -6.82803e-05     0.000365939
                     6.31274e-05    -0.000871281        -0.127525      -0.0364955      0.000363176     0.000274893         0.309396       -0.937138
                        0.991029       0.0554245      0.000361362     0.000192223        0.0239744        0.121825     -0.000736172    -0.000270599
                    -4.18226e-05     0.000406082         0.309139       -0.937181     -0.000817566    -0.000170379        -0.124061      -0.0453331
281714                -0.0373844        0.118339      -7.4089e-06    -0.000705994         0.990692       0.0547609     -6.81861e-05     0.000365992
                     6.26993e-05    -0.000871488        -0.127546      -0.0364608       0.00036334     0.000274701         0.308982       -0.937273
                        0.991049       0.0550655       0.00036127     0.000191942        0.0240209        0.121812     -0.000736346    -0.000270439
                    -4.17159e-05     0.000406112         0.308725       -0.937316     -0.000817632     -0.00017026        -0.124098      -0.0452643
281716                -0.0373435        0.118348     -8.06874e-06    -0.000706053         0.990712        0.054402     -6.80918e-05     0.000366044
                      6.2271e-05    -0.000871695        -0.127568       -0.036426      0.000363504     0.000274509         0.308568       -0.937407
                         0.99107       0.0547065      0.000361178      0.00019166        0.0240674          0.1218      -0.00073652    -0.000270279
                    -4.16094e-05     0.000406142         0.308311        -0.93745     -0.000817699    -0.000170141        -0.124135      -0.0451954
281718                -0.0373026        0.118358     -8.72903e-06    -0.000706112         0.990732       0.0540431     -6.79974e-05     0.000366097
                     6.18425e-05    -0.000871901        -0.127589      -0.0363912      0.000363668     0.000274316         0.308154       -0.937542
                         0.99109       0.0543475      0.000361085     0.000191378        0.0241139        0.121788     -0.000736694    -0.000270118
                    -4.15028e-05     0.000406171         0.307897       -0.937584     -0.000817766    -0.000170022        -0.124172      -0.0451265
281720                -0.0372616        0.118368     -9.38975e-06    -0.000706171         0.990752       0.0536842     -6.79029e-05     0.000366149
                     6.14138e-05    -0.000872108         -0.12761      -0.0363564      0.000363832     0.000274123         0.307739       -0.937676
                         0.99111       0.0539885      0.000360991     0.000191096        0.0241604        0.121775     -0.000736867    -0.000269958
                    -4.13958e-05       0.0004062         0.307483       -0.937718     -0.000817833    -0.000169903        -0.124209      -0.0450576
281722                -0.0372207        0.118377     -1.00509e-05    -0.000706229         0.990772       0.0533253     -6.78083e-05     0.000366202
                      6.0985e-05    -0.000872314        -0.127632      -0.0363215      0.000363995     0.000273931         0.307325        -0.93781
                         0.99113       0.0536295      0.000360898     0.000190814        0.0242069        0.121763     -0.000737041    -0.000269798
                    -4.12884e-05      0.00040623         0.307068       -0.937852     -0.000817899    -0.000169784        -0.124246      -0.0449887
281724                -0.0371798        0.118387     -1.07125e-05    -0.000706287         0.990792       0.0529664     -6.77136e-05     0.000366254
                      6.0556e-05    -0.000872519        -0.127653      -0.0362867      0.000364159     0.000273737         0.306911       -0.937943
                         0.99115       0.0532704      0.000360803     0.000190532        0.0242533        0.121751     -0.000737214    -0.000269637
                    -4.11815e-05      0.00040626         0.306654       -0.937986     -0.000817966    -0.000169666        -0.124282      -0.0449198
281726                -0.0371389        0.118396     -1.13746e-05    -0.000706345         0.990811       0.0526075     -6.76187e-05     0.000366307
                     6.01282e-05    -0.000872723        -0.127675      -0.0362518      0.000364323     0.000273544         0.306497       -0.938077
                         0.99117       0.0529114      0.000360709     0.000190249        0.0242998        0.121738     -0.000737387    -0.000269477
                     -4.1075e-05     0.000406289          0.30624       -0.938119     -0.000818033    -0.000169547        -0.124319      -0.0448508
281728                -0.0370979        0.118406     -1.20371e-05    -0.000706402         0.990831       0.0522486     -6.75238e-05     0.000366359
                     5.97053e-05    -0.000872933        -0.127696       -0.036217      0.000364486     0.000273351         0.306082        -0.93821
                         0.99119       0.0525523      0.000360614     0.000189967        0.0243463        0.121726      -0.00073756    -0.000269316
                    -4.09686e-05     0.000406319         0.305825       -0.938252       -0.0008181    -0.000169428        -0.124356      -0.0447818
281730                 -0.037057        0.118416        -1.27e-05    -0.000706459          0.99085       0.0518897     -6.74287e-05     0.000366412
                     5.92719e-05    -0.000873141        -0.127717      -0.0361821       0.00036465     0.000273157         0.305668       -0.938344
                        0.991209       0.0521933      0.000360519     0.000189684        0.0243927        0.121713     -0.000737733    -0.000269155
                    -4.08623e-05     0.000406348         0.305411       -0.938385     -0.000818167    -0.000169309        -0.124392      -0.0447128
281732                -0.0370161        0.118425     -1.33633e-05    -0.000706515         0.990869       0.0515307     -6.73336e-05     0.000366465
                     5.88412e-05    -0.000873346        -0.127739      -0.0361472      0.000364813     0.000272963         0.305253       -0.938477
                        0.991229       0.0518342      0.000360423     0.000189401        0.0244392        0.121701     -0.000737905    -0.000268995
                     -4.0756e-05     0.000406377         0.304996       -0.938518     -0.000818234    -0.000169191        -0.124429      -0.0446437
281734                -0.0369751        0.118435     -1.40271e-05    -0.000706571         0.990888       0.0511718     -6.72383e-05     0.000366517
                     5.84111e-05    -0.000873551         -0.12776      -0.0361123      0.000364976     0.000272769         0.304839       -0.938609
                        0.991248       0.0514751      0.000360327     0.000189118        0.0244856        0.121689     -0.000738078    -0.000268834
                    -4.06498e-05     0.000406406         0.304581       -0.938651     -0.000818302    -0.000169072        -0.124465      -0.0445746
281736                -0.0369342        0.118444     -1.46913e-05    -0.000706626         0.990907       0.0508128     -6.71429e-05      0.00036657
                     5.79811e-05    -0.000873757        -0.127781      -0.0360774       0.00036514     0.000272574         0.304424       -0.938742
                        0.991267        0.051116      0.000360231     0.000188834        0.0245321        0.121676      -0.00073825    -0.000268673
                    -4.05436e-05     0.000406435         0.304167       -0.938784     -0.000818369    -0.000168953        -0.124502      -0.0445055
281738                -0.0368933        0.118454     -1.53559e-05    -0.000706681         0.990926       0.0504539     -6.70474e-05     0.000366622
                      5.7551e-05    -0.000873961        -0.127802      -0.0360425      0.000365303      0.00027238         0.304009       -0.938875
                        0.991287       0.0507569      0.000360134     0.000188551        0.0245785        0.121664     -0.000738422    -0.000268512
                    -4.04375e-05     0.000406464         0.303752       -0.938916     -0.000818436    -0.000168835        -0.124538      -0.0444364
281740                -0.0368523        0.118463     -1.60209e-05    -0.000706736         0.990945       0.0500949     -6.69518e-05     0.000366675
                     5.71208e-05    -0.000874166        -0.127824      -0.0360075      0.000365466     0.000272185         0.303594       -0.939007
                        0.991305       0.0503978      0.000360037     0.000188267         0.024625        0.121651     -0.000738594    -0.000268351
                    -4.03315e-05     0.000406492         0.303337       -0.939048     -0.000818503    -0.000168716        -0.124575      -0.0443672
281742                -0.0368114        0.118473     -1.66864e-05    -0.000706791         0.990963       0.0497359     -6.68561e-05     0.000366728
                     5.66905e-05    -0.000874371        -0.127845      -0.0359726      0.000365629      0.00027199          0.30318       -0.939139
                        0.991324       0.0500387      0.000359939     0.000187983        0.0246714        0.121638     -0.000738766    -0.000268189
                    -4.02255e-05     0.000406521         0.302922        -0.93918     -0.000818571    -0.000168598        -0.124611       -0.044298
281744                -0.0367704        0.118482     -1.73523e-05    -0.000706844         0.990982       0.0493769     -6.67603e-05      0.00036678
                     5.62601e-05    -0.000874575        -0.127866      -0.0359376      0.000365792     0.000271794         0.302765       -0.939271
                        0.991343       0.0496796      0.000359841     0.000187699        0.0247178        0.121626     -0.000738938    -0.000268028
                    -4.01195e-05     0.000406549         0.302507       -0.939312     -0.000818638    -0.000168479        -0.124647      -0.0442288
281746                -0.0367295        0.118492     -1.80186e-05    -0.000706898            0.991        0.049018     -6.66644e-05     0.000366833
                     5.58295e-05     -0.00087478        -0.127888      -0.0359026      0.000365955     0.000271599          0.30235       -0.939403
                        0.991361       0.0493205      0.000359743     0.000187415        0.0247642        0.121613     -0.000739109    -0.000267867
                    -4.00136e-05     0.000406577         0.302092       -0.939444     -0.000818706    -0.000168361        -0.124684      -0.0441596
281748                -0.0366885        0.118501     -1.86853e-05    -0.000706951         0.991018        0.048659     -6.65684e-05     0.000366885
                     5.53988e-05    -0.000874984        -0.127909      -0.0358676      0.000366117     0.000271403         0.301935       -0.939534
                         0.99138       0.0489613      0.000359645      0.00018713        0.0248106        0.121601     -0.000739281    -0.000267705
                    -3.99078e-05     0.000406605         0.301677       -0.939575     -0.000818774    -0.000168242         -0.12472      -0.0440903
281750                -0.0366476         0.11851     -1.93524e-05    -0.000707004         0.991036          0.0483     -6.64723e-05     0.000366938
                      5.4968e-05    -0.000875188         -0.12793      -0.0358326       0.00036628     0.000271207          0.30152       -0.939666
                        0.991398       0.0486022      0.000359546     0.000186846         0.024857        0.121588     -0.000739452    -0.000267544
                     -3.9802e-05     0.000406633         0.301262       -0.939706     -0.000818841    -0.000168124        -0.124756       -0.044021
281752                -0.0366066         0.11852     -2.00199e-05    -0.000707056         0.991054        0.047941      -6.6376e-05     0.000366991
                      5.4537e-05    -0.000875392        -0.127951      -0.0357976      0.000366443     0.000271011         0.301104       -0.939797
                        0.991416       0.0482431      0.000359446     0.000186561        0.0249034        0.121576     -0.000739623    -0.000267382
                    -3.96963e-05     0.000406661         0.300847       -0.939837     -0.000818909    -0.000168006        -0.124792      -0.0439517
281754                -0.0365657        0.118529     -2.06879e-05    -0.000707108         0.991072       0.0475819     -6.62797e-05     0.000367043
                     5.41059e-05    -0.000875595        -0.127973      -0.0357626      0.000366605     0.000270815         0.300689       -0.939928
                        0.991434       0.0478839      0.000359347     0.000186276        0.0249498        0.121563     -0.000739794    -0.000267221
                    -3.95907e-05     0.000406689         0.300431       -0.939968     -0.000818977    -0.000167887        -0.124829      -0.0438823
281756                -0.0365247        0.118539     -2.13562e-05     -0.00070716          0.99109       0.0472229     -6.61833e-05     0.000367096
                     5.36746e-05    -0.000875799        -0.127994      -0.0357276      0.000366768     0.000270618         0.300274       -0.940059
                        0.991452       0.0475247      0.000359247     0.000185991        0.0249962         0.12155     -0.000739965    -0.000267059
                    -3.94851e-05     0.000406717         0.300016       -0.940099     -0.000819045    -0.000167769        -0.124865       -0.043813
281758                -0.0364837        0.118548      -2.2025e-05    -0.000707211         0.991107       0.0468639     -6.60868e-05     0.000367149
                     5.32432e-05    -0.000876002        -0.128015      -0.0356925      0.000366931     0.000270422         0.299859        -0.94019
                         0.99147       0.0471656      0.000359146     0.000185706        0.0250426        0.121538     -0.000740136    -0.000266897
                    -3.93795e-05     0.000406744         0.299601        -0.94023     -0.000819113    -0.000167651        -0.124901      -0.0437436
281760                -0.0364428        0.118557     -2.26941e-05    -0.000707261         0.991124       0.0465048     -6.59902e-05     0.000367201
                     5.28116e-05    -0.000876206        -0.128036      -0.0356575      0.000367093     0.000270225         0.299443        -0.94032
                        0.991488       0.0468064      0.000359045      0.00018542         0.025089        0.121525     -0.000740306    -0.000266735
                     -3.9274e-05     0.000406772         0.299185        -0.94036     -0.000819181    -0.000167533        -0.124937      -0.0436741
281762                -0.0364018        0.118567     -2.33637e-05    -0.000707312         0.991142       0.0461458     -6.58935e-05     0.000367254
                     5.23799e-05    -0.000876409        -0.128057      -0.0356224      0.000367256     0.000270028         0.299028        -0.94045
                        0.991505       0.0464472      0.000358944     0.000185135        0.0251353        0.121512     -0.000740477    -0.000266573
