! TOUCHSTONE file generated by CST MICROWAVE STUDIO
! Date and time: Tue Oct 14 07:26:25 2025
! Project name: Teste_Macro_Metasurface_Nanopilar.cst
! Parameters = {H=600; L_x=95; L_y=110; Lambda=1064; Max_L=200; Min_L=70; PathPara=1; Phi=0; Step_L=10; Theta=0; p=520; phaseX=180; phaseY=0}
! Header version: 2018
! Port assignment regex: !\s*Touchstone port\s*([0-9]+)\s*=\s*(CST MWS port|CST DS port)\s*([0-9]+|Zmin|Zmax)\s*\(\"(.*)\"\)(\s*mode\s*([0-9]+))?.*
! Touchstone port assignment:
! Touchstone port 1 = CST MWS port Zmax ("") mode 1
! Touchstone port 2 = CST MWS port Zmax ("") mode 2
! Touchstone port 3 = CST MWS port Zmin ("") mode 1
! Touchstone port 4 = CST MWS port Zmin ("") mode 2
! S-Parameters are not renormalized. Each port impedance will be approximated by the real part at minimum frequency. The values are described via the [Reference] keyword.
! Default impedance is overridden by [Reference]
[Version] 2.0
# GHz S RI R 376.73
[Number of Ports] 4
[Reference]
376.73 376.73 259.814 259.814 
[Number of Frequencies] 51
[Network Data]
281700                -0.0436898      -0.0555997     -5.75458e-05    -4.12353e-05         0.521569       -0.845946     -0.000131069     2.58768e-05
                    -0.000109791    -8.13948e-05        0.0114537       0.0235219     -1.77686e-05    -5.48475e-05         0.870989       -0.487587
                        0.521207       -0.846233      1.23549e-05    -0.000102258       -0.0691129      -0.0128863     -6.92946e-05    -5.58014e-05
                     -0.00013913    -3.79131e-05         0.870659       -0.487271     -0.000143252     2.48367e-07        0.0138765       0.0226572
281702                -0.0437119      -0.0556013     -5.75504e-05    -4.11105e-05         0.521205       -0.846168     -0.000131054      2.5951e-05
                    -0.000109748    -8.13207e-05        0.0114671       0.0235067     -1.77163e-05    -5.48559e-05         0.870798       -0.487928
                        0.520844       -0.846455       1.2363e-05    -0.000102287       -0.0691357       -0.012846     -6.92151e-05    -5.57802e-05
                     -0.00013911    -3.78927e-05         0.870468       -0.487612     -0.000143041     2.74528e-07         0.013874       0.0226497
281704                -0.0437341      -0.0556029     -5.75551e-05    -4.09858e-05         0.520842        -0.84639     -0.000131039     2.60252e-05
                    -0.000109705    -8.12464e-05        0.0114804       0.0234914     -1.76641e-05    -5.48644e-05         0.870607       -0.488269
                        0.520481       -0.846677      1.23712e-05    -0.000102315       -0.0691585      -0.0128056     -6.91354e-05     -5.5759e-05
                    -0.000139089    -3.78722e-05         0.870277       -0.487952     -0.000142831     3.00438e-07        0.0138716       0.0226422
281706                -0.0437562      -0.0556045     -5.75597e-05     -4.0861e-05         0.520478       -0.846612     -0.000131023     2.60995e-05
                    -0.000109662     -8.1172e-05        0.0114937       0.0234761      -1.7612e-05    -5.48729e-05         0.870416       -0.488609
                        0.520117       -0.846899      1.23793e-05    -0.000102344       -0.0691812      -0.0127652     -6.90557e-05    -5.57379e-05
                    -0.000139069    -3.78516e-05         0.870086       -0.488293      -0.00014262     3.26098e-07        0.0138691       0.0226348
281708                -0.0437784       -0.055606     -5.75642e-05    -4.07363e-05         0.520114       -0.846834     -0.000131007     2.61738e-05
                    -0.000109619    -8.10975e-05         0.011507       0.0234608     -1.75599e-05    -5.48817e-05         0.870225        -0.48895
                        0.519754       -0.847121      1.23874e-05    -0.000102373       -0.0692039      -0.0127248      -6.8976e-05    -5.57169e-05
                    -0.000139049    -3.78309e-05         0.869895       -0.488633     -0.000142409     3.51509e-07        0.0138666       0.0226273
281710                -0.0438006      -0.0556076     -5.75687e-05    -4.06115e-05          0.51975       -0.847056     -0.000130992     2.62483e-05
                    -0.000109576    -8.10228e-05        0.0115203       0.0234455      -1.7508e-05    -5.48905e-05         0.870033       -0.489291
                         0.51939       -0.847343      1.23954e-05    -0.000102402       -0.0692266      -0.0126844     -6.88961e-05    -5.56959e-05
                     -0.00013903      -3.781e-05         0.869704       -0.488974     -0.000142198     3.76672e-07        0.0138642       0.0226199
281712                -0.0438227      -0.0556092     -5.75732e-05    -4.04867e-05         0.519386       -0.847277     -0.000130976     2.63227e-05
                    -0.000109533    -8.09479e-05        0.0115336       0.0234302     -1.74561e-05    -5.48994e-05         0.869842       -0.489631
                        0.519026       -0.847564      1.24035e-05    -0.000102431       -0.0692493       -0.012644     -6.88162e-05     -5.5675e-05
                     -0.00013901     -3.7789e-05         0.869512       -0.489314     -0.000141988     4.01589e-07        0.0138617       0.0226124
281714                -0.0438449      -0.0556107     -5.75776e-05    -4.03618e-05         0.519022       -0.847499      -0.00013096     2.63973e-05
                     -0.00010949     -8.0873e-05        0.0115468       0.0234149     -1.74043e-05    -5.49084e-05          0.86965       -0.489972
                        0.518662       -0.847785      1.24115e-05     -0.00010246       -0.0692719      -0.0126035     -6.87362e-05    -5.56542e-05
                    -0.000138991    -3.77678e-05          0.86932       -0.489654     -0.000141777     4.26261e-07        0.0138592        0.022605
281716                -0.0438671      -0.0556123      -5.7582e-05     -4.0237e-05         0.518658        -0.84772     -0.000130944     2.64719e-05
                    -0.000109448    -8.07978e-05        0.0115601       0.0233996     -1.73526e-05    -5.49176e-05         0.869458       -0.490312
                        0.518299       -0.848006      1.24195e-05    -0.000102489       -0.0692946       -0.012563     -6.86561e-05    -5.56335e-05
                    -0.000138972    -3.77466e-05         0.869129       -0.489995     -0.000141567     4.50688e-07        0.0138567       0.0225975
281718                -0.0438893      -0.0556138     -5.75864e-05    -4.01122e-05         0.518294       -0.847941     -0.000130929     2.65465e-05
                    -0.000109405    -8.07226e-05        0.0115734       0.0233843      -1.7301e-05    -5.49268e-05         0.869266       -0.490653
                        0.517934       -0.848227      1.24275e-05    -0.000102518       -0.0693172      -0.0125226      -6.8576e-05    -5.56128e-05
                    -0.000138953    -3.77252e-05         0.868937       -0.490335     -0.000141356     4.74873e-07        0.0138543       0.0225901
281720                -0.0439115      -0.0556153     -5.75907e-05    -3.99873e-05         0.517929       -0.848162     -0.000130913     2.66212e-05
                    -0.000109363    -8.06472e-05        0.0115866       0.0233689     -1.72494e-05    -5.49362e-05         0.869074       -0.490993
                         0.51757       -0.848448      1.24355e-05    -0.000102548       -0.0693398       -0.012482     -6.84959e-05    -5.55923e-05
                    -0.000138934    -3.77037e-05         0.868745       -0.490675     -0.000141146     4.98816e-07        0.0138518       0.0225827
281722                -0.0439337      -0.0556169      -5.7595e-05    -3.98625e-05         0.517565       -0.848383     -0.000130897     2.66959e-05
                     -0.00010932    -8.05717e-05        0.0115999       0.0233536      -1.7198e-05    -5.49457e-05         0.868882       -0.491333
                        0.517206       -0.848669      1.24434e-05    -0.000102577       -0.0693623      -0.0124415     -6.84157e-05    -5.55718e-05
                    -0.000138916     -3.7682e-05         0.868553       -0.491015     -0.000140936     5.22519e-07        0.0138493       0.0225753
281724                -0.0439559      -0.0556184     -5.75992e-05    -3.97376e-05           0.5172       -0.848603     -0.000130881     2.67707e-05
                    -0.000109278     -8.0496e-05        0.0116131       0.0233382     -1.71467e-05    -5.49553e-05          0.86869       -0.491673
                        0.516842        -0.84889      1.24513e-05    -0.000102607       -0.0693849      -0.0124009     -6.83354e-05    -5.55514e-05
                    -0.000138898    -3.76602e-05          0.86836       -0.491355     -0.000140726     5.45984e-07        0.0138468       0.0225679
281726                -0.0439782      -0.0556199     -5.76034e-05    -3.96127e-05         0.516836       -0.848824     -0.000130865     2.68454e-05
                    -0.000109236    -8.04202e-05        0.0116263       0.0233229     -1.70955e-05     -5.4965e-05         0.868497       -0.492013
                        0.516477        -0.84911      1.24592e-05    -0.000102636       -0.0694074      -0.0123604     -6.82551e-05    -5.55311e-05
                     -0.00013888    -3.76383e-05         0.868168       -0.491694     -0.000140516     5.69213e-07        0.0138443       0.0225605
281728                -0.0440004      -0.0556214     -5.76076e-05    -3.94878e-05         0.516471       -0.849044      -0.00013085     2.69202e-05
                    -0.000109194    -8.03443e-05        0.0116396       0.0233075     -1.70444e-05    -5.49748e-05         0.868305       -0.492353
                        0.516113        -0.84933      1.24671e-05    -0.000102666       -0.0694299      -0.0123198     -6.81748e-05    -5.55109e-05
                    -0.000138862    -3.76162e-05         0.867975       -0.492034     -0.000140306     5.92208e-07        0.0138418       0.0225531
281730                -0.0440226      -0.0556228     -5.76117e-05    -3.93629e-05         0.516106       -0.849264     -0.000130834     2.69949e-05
                    -0.000109152    -8.02682e-05        0.0116528       0.0232922     -1.69934e-05    -5.49847e-05         0.868112       -0.492693
                        0.515748        -0.84955       1.2475e-05    -0.000102695       -0.0694523      -0.0122791     -6.80944e-05    -5.54907e-05
                    -0.000138844     -3.7594e-05         0.867783       -0.492374     -0.000140096     6.14971e-07        0.0138393       0.0225457
281732                -0.0440449      -0.0556243     -5.76158e-05     -3.9238e-05         0.515741       -0.849484     -0.000130818     2.70696e-05
                     -0.00010911     -8.0192e-05         0.011666       0.0232768     -1.69426e-05    -5.49948e-05         0.867919       -0.493033
                        0.515383        -0.84977      1.24828e-05    -0.000102725       -0.0694748      -0.0122385      -6.8014e-05    -5.54707e-05
                    -0.000138827    -3.75717e-05          0.86759       -0.492713     -0.000139886     6.37507e-07        0.0138368       0.0225383
281734                -0.0440671      -0.0556258     -5.76198e-05     -3.9113e-05         0.515376       -0.849704     -0.000130802     2.71443e-05
                    -0.000109068    -8.01156e-05        0.0116792       0.0232614     -1.68919e-05    -5.50049e-05         0.867726       -0.493373
                        0.515018        -0.84999      1.24906e-05    -0.000102755       -0.0694972      -0.0121978     -6.79335e-05    -5.54508e-05
                     -0.00013881    -3.75492e-05         0.867397       -0.493053     -0.000139677     6.59819e-07        0.0138342        0.022531
281736                -0.0440894      -0.0556272     -5.76238e-05    -3.89881e-05         0.515011       -0.849923     -0.000130787      2.7219e-05
                    -0.000109026    -8.00391e-05        0.0116924        0.023246     -1.68414e-05    -5.50152e-05         0.867533       -0.493712
                        0.514653        -0.85021      1.24984e-05    -0.000102785       -0.0695196      -0.0121571      -6.7853e-05    -5.54309e-05
                    -0.000138793    -3.75266e-05         0.867204       -0.493392     -0.000139467     6.81915e-07        0.0138317       0.0225236
281738                -0.0441116      -0.0556287     -5.76277e-05    -3.88631e-05         0.514646       -0.850143     -0.000130771     2.72936e-05
                    -0.000108984    -7.99625e-05        0.0117055       0.0232307     -1.67911e-05    -5.50255e-05          0.86734       -0.494052
                        0.514288       -0.850429      1.25061e-05    -0.000102815        -0.069542      -0.0121164     -6.77725e-05    -5.54112e-05
                    -0.000138776    -3.75039e-05         0.867011       -0.493732     -0.000139258     7.03803e-07        0.0138292       0.0225162
281740                -0.0441339      -0.0556301     -5.76316e-05    -3.87381e-05          0.51428       -0.850362     -0.000130755     2.73683e-05
                    -0.000108943    -7.98857e-05        0.0117187       0.0232153      -1.6741e-05     -5.5036e-05         0.867146       -0.494391
                        0.513923       -0.850648      1.25139e-05    -0.000102845       -0.0695643      -0.0120757      -6.7692e-05    -5.53916e-05
                     -0.00013876     -3.7481e-05         0.866817       -0.494071     -0.000139049     7.25501e-07        0.0138267       0.0225089
281742                -0.0441562      -0.0556316     -5.76354e-05    -3.86131e-05         0.513915       -0.850582      -0.00013074     2.74429e-05
                    -0.000108901    -7.98088e-05        0.0117319       0.0231999     -1.66913e-05    -5.50465e-05         0.866953       -0.494731
                        0.513558       -0.850867      1.25216e-05    -0.000102875       -0.0695867       -0.012035     -6.76114e-05    -5.53721e-05
                    -0.000138744    -3.74579e-05         0.866624        -0.49441     -0.000138841     7.47036e-07        0.0138241       0.0225015
281744                -0.0441785       -0.055633     -5.76392e-05     -3.8488e-05         0.513549       -0.850801     -0.000130724     2.75175e-05
                     -0.00010886    -7.97318e-05         0.011745       0.0231844     -1.66422e-05    -5.50571e-05         0.866759        -0.49507
                        0.513193       -0.851086      1.25292e-05    -0.000102905        -0.069609      -0.0119942     -6.75308e-05    -5.53526e-05
                    -0.000138728    -3.74348e-05          0.86643       -0.494749     -0.000138633     7.68469e-07        0.0138216       0.0224942
281746                -0.0442008      -0.0556344     -5.76427e-05    -3.83627e-05         0.513184       -0.851019     -0.000130709     2.75922e-05
                    -0.000108819    -7.96546e-05        0.0117582        0.023169     -1.65942e-05    -5.50677e-05         0.866565       -0.495409
                        0.512827       -0.851305      1.25367e-05    -0.000102935       -0.0696313      -0.0119534     -6.74502e-05    -5.53333e-05
                    -0.000138712    -3.74115e-05         0.866236       -0.495088     -0.000138426     7.89947e-07         0.013819       0.0224869
281748                -0.0442231      -0.0556358     -5.76428e-05    -3.82313e-05         0.512818       -0.851238     -0.000130693     2.76669e-05
                    -0.000108778    -7.95774e-05        0.0117713       0.0231536     -1.65491e-05    -5.50782e-05         0.866372       -0.495749
                        0.512462       -0.851524        1.254e-05    -0.000102962       -0.0696535      -0.0119126     -6.73696e-05    -5.53141e-05
                    -0.000138696     -3.7388e-05         0.866042       -0.495427     -0.000138223     8.11972e-07        0.0138165       0.0224796
281750                -0.0442454      -0.0556372     -5.76513e-05    -3.81142e-05         0.512452       -0.851457     -0.000130677     2.77416e-05
                    -0.000108736    -7.94999e-05        0.0117844       0.0231382     -1.65198e-05    -5.50875e-05         0.866177       -0.496088
                        0.512096       -0.851742      1.25527e-05    -0.000102996       -0.0696758      -0.0118718     -6.72889e-05     -5.5295e-05
                    -0.000138681    -3.73644e-05         0.865849       -0.495766     -0.000138037     8.38107e-07        0.0138139       0.0224723
281752                -0.0442677      -0.0556386     -5.76546e-05    -3.79887e-05         0.512086       -0.851675     -0.000130662     2.78164e-05
                    -0.000108695    -7.94224e-05        0.0117975       0.0231227     -1.63703e-05    -5.51084e-05         0.865983       -0.496427
                         0.51173       -0.851961      1.25601e-05    -0.000103026       -0.0696979       -0.011831     -6.72082e-05     -5.5276e-05
                    -0.000138666    -3.73407e-05         0.865654       -0.496105     -0.000137716     8.30677e-07        0.0138114       0.0224649
281754                  -0.04429        -0.05564     -5.76581e-05    -3.78636e-05          0.51172       -0.851894     -0.000130646     2.78911e-05
                    -0.000108655    -7.93448e-05        0.0118106       0.0231073     -1.63688e-05    -5.51144e-05         0.865789       -0.496766
                        0.511364       -0.852179      1.25676e-05    -0.000103057       -0.0697201      -0.0117901     -6.71275e-05     -5.5257e-05
                    -0.000138651    -3.73168e-05          0.86546       -0.496444     -0.000137561     8.64011e-07        0.0138088       0.0224576
281756                -0.0443123      -0.0556413     -5.76617e-05    -3.77385e-05         0.511354       -0.852112      -0.00013063     2.79657e-05
                    -0.000108614    -7.92671e-05        0.0118237       0.0230918     -1.63262e-05    -5.51251e-05         0.865595       -0.497105
                        0.510998       -0.852397      1.25751e-05    -0.000103087       -0.0697423      -0.0117492     -6.70468e-05    -5.52379e-05
                    -0.000138636    -3.72927e-05         0.865266       -0.496783     -0.000137361     8.85681e-07        0.0138062       0.0224504
281758                -0.0443346      -0.0556427     -5.76652e-05    -3.76134e-05         0.510987        -0.85233     -0.000130614     2.80403e-05
                    -0.000108573    -7.91893e-05        0.0118368       0.0230764     -1.62794e-05    -5.51363e-05           0.8654       -0.497444
                        0.510632       -0.852615      1.25827e-05    -0.000103118       -0.0697645      -0.0117083     -6.69664e-05    -5.52188e-05
                    -0.000138622    -3.72684e-05         0.865071       -0.497121     -0.000137155     9.05944e-07        0.0138037       0.0224431
281760                 -0.044357       -0.055644     -5.76687e-05    -3.74883e-05         0.510621       -0.852547     -0.000130597     2.81148e-05
                    -0.000108533    -7.91118e-05        0.0118499       0.0230609     -1.62315e-05    -5.51477e-05         0.865205       -0.497783
                        0.510266       -0.852833      1.25901e-05    -0.000103149       -0.0697866      -0.0116674     -6.68863e-05    -5.52001e-05
                    -0.000138608    -3.72437e-05         0.864876        -0.49746     -0.000136949     9.25617e-07        0.0138011       0.0224358
281762                -0.0443793      -0.0556454     -5.76721e-05    -3.73632e-05         0.510255       -0.852765     -0.000130581     2.81891e-05
                    -0.000108495    -7.90355e-05         0.011863       0.0230455      -1.6183e-05    -5.51593e-05          0.86501       -0.498121
                          0.5099        -0.85305      1.25976e-05     -0.00010318       -0.0698087      -0.0116265      -6.6806e-05    -5.51819e-05
