! TOUCHSTONE file generated by CST MICROWAVE STUDIO
! Date and time: Tue Oct 14 07:32:20 2025
! Project name: Teste_Macro_Metasurface_Nanopilar.cst
! Parameters = {H=600; L_x=190; L_y=80; Lambda=1064; Max_L=200; Min_L=70; PathPara=1; Phi=0; Step_L=10; Theta=0; p=520; phaseX=180; phaseY=0}
! Header version: 2018
! Port assignment regex: !\s*Touchstone port\s*([0-9]+)\s*=\s*(CST MWS port|CST DS port)\s*([0-9]+|Zmin|Zmax)\s*\(\"(.*)\"\)(\s*mode\s*([0-9]+))?.*
! Touchstone port assignment:
! Touchstone port 1 = CST MWS port Zmax ("") mode 1
! Touchstone port 2 = CST MWS port Zmax ("") mode 2
! Touchstone port 3 = CST MWS port Zmin ("") mode 1
! Touchstone port 4 = CST MWS port Zmin ("") mode 2
! S-Parameters are not renormalized. Each port impedance will be approximated by the real part at minimum frequency. The values are described via the [Reference] keyword.
! Default impedance is overridden by [Reference]
[Version] 2.0
# GHz S RI R 376.73
[Number of Ports] 4
[Reference]
376.73 376.73 259.814 259.814 
[Number of Frequencies] 51
[Network Data]
281700                  0.036046       0.0194074       0.00084514    -7.43935e-05         0.855252       -0.514536       0.00039621     0.000177865
                     0.000909411    -0.000237912        -0.139127       -0.341932     -0.000172978     0.000267433         0.482802        0.786463
                        0.855417       -0.513796     -0.000154346     0.000223736       0.00027737       0.0415325      -0.00090076    -0.000353143
                     0.000541434     0.000245914         0.482733        0.786464     -0.000874825    -0.000396423         0.244082        0.274073
281702                 0.0360594       0.0193854      0.000845142    -7.47776e-05         0.855052       -0.514868      0.000396308     0.000177664
                     0.000909326    -0.000238627        -0.139272        -0.34195     -0.000172941     0.000267486          0.48318        0.786197
                        0.855218       -0.514127     -0.000154196     0.000223863      0.000283711       0.0415339     -0.000901003    -0.000352765
                     0.000542082      0.00024565          0.48311          0.7862     -0.000875286    -0.000395985         0.244308        0.273965
281704                 0.0360729       0.0193635      0.000845144    -7.51618e-05         0.854852       -0.515199      0.000396406     0.000177463
                     0.000909239    -0.000239342        -0.139416       -0.341967     -0.000172904     0.000267538         0.483557        0.785932
                        0.855017       -0.514457     -0.000154047     0.000223989      0.000290054       0.0415353     -0.000901245    -0.000352387
                     0.000542729     0.000245384         0.483487        0.785935     -0.000875746    -0.000395547         0.244534        0.273857
281706                 0.0360864       0.0193416      0.000845146    -7.55462e-05         0.854652        -0.51553      0.000396504     0.000177262
                     0.000909152    -0.000240055         -0.13956       -0.341985     -0.000172868      0.00026759         0.483933        0.785666
                        0.854817       -0.514787     -0.000153897     0.000224116      0.000296397       0.0415367     -0.000901487     -0.00035201
                     0.000543374     0.000245117         0.483864        0.785669     -0.000876205    -0.000395109         0.244761        0.273749
281708                 0.0360998       0.0193196      0.000845147    -7.59307e-05         0.854452       -0.515861      0.000396602      0.00017706
                     0.000909063    -0.000240768        -0.139705       -0.342002     -0.000172832     0.000267642          0.48431          0.7854
                        0.854617       -0.515118     -0.000153747     0.000224242      0.000302741       0.0415381     -0.000901729    -0.000351632
                     0.000544018     0.000244847         0.484241        0.785404     -0.000876664     -0.00039467         0.244987        0.273641
281710                 0.0361133       0.0192977      0.000845147    -7.63154e-05         0.854252       -0.516192        0.0003967     0.000176859
                     0.000908974    -0.000241479        -0.139849       -0.342019     -0.000172796     0.000267695         0.484687        0.785134
                        0.854416       -0.515448     -0.000153597     0.000224369      0.000309086       0.0415395      -0.00090197    -0.000351255
                     0.000544661     0.000244577         0.484617        0.785138     -0.000877122    -0.000394231         0.245213        0.273532
281712                 0.0361267       0.0192757      0.000845148    -7.67002e-05         0.854052       -0.516523      0.000396798     0.000176657
                     0.000908884    -0.000242189        -0.139994       -0.342037     -0.000172761     0.000267747         0.485063        0.784868
                        0.854216       -0.515778     -0.000153447     0.000224496      0.000315432       0.0415409     -0.000902209    -0.000350877
                     0.000545303     0.000244304         0.484994        0.784872      -0.00087758    -0.000393792         0.245439        0.273424
281714                 0.0361401       0.0192537      0.000845148    -7.70851e-05         0.853852       -0.516854      0.000396895     0.000176456
                     0.000908793    -0.000242898        -0.140138       -0.342054     -0.000172726     0.000267798         0.485439        0.784601
                        0.854015       -0.516108     -0.000153298     0.000224622      0.000321779       0.0415423     -0.000902446    -0.000350498
                     0.000545943      0.00024403          0.48537        0.784606     -0.000878036    -0.000393352         0.245665        0.273315
281716                 0.0361535       0.0192318      0.000845148    -7.74702e-05         0.853651       -0.517184      0.000396993     0.000176255
                     0.000908701    -0.000243607        -0.140283       -0.342071      -0.00017269      0.00026785         0.485816        0.784335
                        0.853814       -0.516438     -0.000153148     0.000224749      0.000328127       0.0415437     -0.000902688    -0.000350113
                     0.000546581     0.000243754         0.485746         0.78434     -0.000878493    -0.000392913         0.245891        0.273206
281718                 0.0361669       0.0192098      0.000845147    -7.78555e-05          0.85345       -0.517515       0.00039709     0.000176053
                     0.000908609    -0.000244314        -0.140428       -0.342088     -0.000172656     0.000267902         0.486191        0.784068
                        0.853613       -0.516768     -0.000152998     0.000224875      0.000334476       0.0415451     -0.000902932    -0.000349735
                     0.000547218     0.000243476         0.486122        0.784074     -0.000878948    -0.000392473         0.246117        0.273097
281720                 0.0361803       0.0191878      0.000845146    -7.82409e-05         0.853249       -0.517846      0.000397186     0.000175851
                     0.000908515     -0.00024502        -0.140572       -0.342106     -0.000172621     0.000267954         0.486567          0.7838
                        0.853412       -0.517098     -0.000152848     0.000225002      0.000340826       0.0415466     -0.000903173    -0.000349358
                     0.000547854     0.000243197         0.486498        0.783807     -0.000879403    -0.000392033         0.246343        0.272988
281722                 0.0361937       0.0191658      0.000845144    -7.86264e-05         0.853049       -0.518176      0.000397283     0.000175649
                     0.000908421    -0.000245725        -0.140717       -0.342123     -0.000172586     0.000268005         0.486943        0.783533
                        0.853211       -0.517428     -0.000152699     0.000225128      0.000347177        0.041548     -0.000903413    -0.000348981
                     0.000548489     0.000242916         0.486873         0.78354     -0.000879857    -0.000391593          0.24657        0.272878
281724                 0.0362071       0.0191438      0.000845143    -7.90121e-05         0.852847       -0.518507      0.000397379     0.000175446
                     0.000908326    -0.000246429        -0.140862        -0.34214     -0.000172552     0.000268056         0.487319        0.783266
                         0.85301       -0.517758     -0.000152549     0.000225255      0.000353529       0.0415494     -0.000903653    -0.000348603
                     0.000549122     0.000242634         0.487249        0.783273     -0.000880311    -0.000391152         0.246796        0.272768
281726                 0.0362204       0.0191218      0.000845141    -7.93979e-05         0.852646       -0.518837      0.000397476     0.000175242
                      0.00090823    -0.000247132        -0.141007       -0.342157     -0.000172518     0.000268108         0.487694        0.782998
                        0.852808       -0.518087       -0.0001524     0.000225381      0.000359882       0.0415509     -0.000903892    -0.000348224
                     0.000549754     0.000242349         0.487624        0.783006     -0.000880764    -0.000390712         0.247022        0.272659
281728                 0.0362338       0.0190998      0.000845138    -7.97838e-05         0.852445       -0.519167      0.000397573     0.000175039
                     0.000908133    -0.000247834        -0.141151       -0.342174     -0.000172484     0.000268159          0.48807         0.78273
                        0.852606       -0.518417      -0.00015225     0.000225508      0.000366235       0.0415523     -0.000904131    -0.000347846
                     0.000550384     0.000242063            0.488        0.782738     -0.000881216    -0.000390271         0.247248        0.272549
281730                 0.0362471       0.0190777      0.000845136    -8.01699e-05         0.852243       -0.519497       0.00039767     0.000174836
                     0.000908036    -0.000248535        -0.141296       -0.342191      -0.00017245      0.00026821         0.488445        0.782462
                        0.852405       -0.518746       -0.0001521     0.000225634       0.00037259       0.0415537     -0.000904369    -0.000347468
                     0.000551013     0.000241776         0.488375        0.782471     -0.000881668     -0.00038983         0.247474        0.272438
281732                 0.0362605       0.0190557      0.000845132    -8.05562e-05         0.852042       -0.519828      0.000397766     0.000174633
                     0.000907937    -0.000249235        -0.141441       -0.342207     -0.000172417     0.000268261          0.48882        0.782194
                        0.852203       -0.519076     -0.000151951      0.00022576      0.000378946       0.0415552     -0.000904608     -0.00034709
                      0.00055164     0.000241487          0.48875        0.782203     -0.000882119    -0.000389389         0.247699        0.272328
281734                 0.0362738       0.0190336      0.000845129    -8.09426e-05          0.85184       -0.520158      0.000397863      0.00017443
                     0.000907838    -0.000249933        -0.141586       -0.342224     -0.000172384     0.000268312         0.489195        0.781925
                        0.852001       -0.519405     -0.000151801     0.000225887      0.000385303       0.0415566     -0.000904845    -0.000346711
                     0.000552266     0.000241196         0.489125        0.781935      -0.00088257    -0.000388948         0.247925        0.272218
281736                 0.0362871       0.0190116      0.000845125    -8.13291e-05         0.851638       -0.520488      0.000397959     0.000174226
                     0.000907738    -0.000250631        -0.141731       -0.342241      -0.00017235     0.000268363         0.489569        0.781656
                        0.851799       -0.519734     -0.000151652     0.000226013       0.00039166       0.0415581     -0.000905083    -0.000346333
                     0.000552891     0.000240903         0.489499        0.781666     -0.000883019    -0.000388507         0.248151        0.272107
281738                 0.0363004       0.0189895      0.000845121    -8.17158e-05         0.851436       -0.520818      0.000398056     0.000174023
                     0.000907637    -0.000251328        -0.141876       -0.342258     -0.000172317     0.000268413         0.489944        0.781387
                        0.851596       -0.520063     -0.000151502      0.00022614      0.000398019       0.0415595      -0.00090532    -0.000345954
                     0.000553514     0.000240609         0.489874        0.781398     -0.000883469    -0.000388066         0.248377        0.271996
281740                 0.0363137       0.0189675      0.000845117    -8.21026e-05         0.851234       -0.521147      0.000398152     0.000173819
                     0.000907536    -0.000252023        -0.142021       -0.342274     -0.000172285     0.000268464         0.490318        0.781118
                        0.851394       -0.520392     -0.000151353     0.000226266      0.000404379        0.041561     -0.000905557    -0.000345576
                     0.000554135     0.000240313         0.490248        0.781129     -0.000883917    -0.000387624         0.248603        0.271885
281742                  0.036327       0.0189454      0.000845112    -8.24896e-05         0.851032       -0.521477      0.000398248     0.000173615
                     0.000907433    -0.000252718        -0.142166       -0.342291     -0.000172252     0.000268514         0.490693        0.780849
                        0.851191       -0.520721     -0.000151203     0.000226392       0.00041074       0.0415624     -0.000905794    -0.000345197
                     0.000554756     0.000240016         0.490623         0.78086     -0.000884365    -0.000387183         0.248829        0.271774
281744                 0.0363403       0.0189233      0.000845107    -8.28767e-05          0.85083       -0.521807      0.000398344     0.000173412
                      0.00090733    -0.000253411        -0.142312       -0.342308      -0.00017222     0.000268564         0.491067         0.78058
                        0.850989        -0.52105     -0.000151053     0.000226518      0.000417102       0.0415639     -0.000906031    -0.000344818
                     0.000555374     0.000239716         0.490997        0.780591     -0.000884813    -0.000386741         0.249055        0.271662
281746                 0.0363535       0.0189013      0.000845101     -8.3264e-05         0.850627       -0.522136       0.00039844     0.000173208
                     0.000907226    -0.000254103        -0.142457       -0.342324     -0.000172187     0.000268615         0.491441         0.78031
                        0.850786       -0.521379     -0.000150904     0.000226644      0.000423465       0.0415654     -0.000906267     -0.00034444
                     0.000555991     0.000239416         0.491371        0.780322     -0.000885259    -0.000386299          0.24928        0.271551
281748                 0.0363668       0.0188792      0.000845096    -8.36515e-05         0.850425       -0.522466      0.000398536     0.000173003
                     0.000907122    -0.000254795        -0.142602       -0.342341     -0.000172155     0.000268665         0.491815         0.78004
                        0.850583       -0.521708     -0.000150754     0.000226771      0.000429828       0.0415668     -0.000906503    -0.000344061
                     0.000556607     0.000239113         0.491745        0.780052     -0.000885705    -0.000385857         0.249506        0.271439
281750                   0.03638       0.0188571      0.000845091    -8.40396e-05         0.850222       -0.522795      0.000398632     0.000172799
                     0.000907016    -0.000255485        -0.142747       -0.342357     -0.000172123     0.000268715         0.492189         0.77977
                         0.85038       -0.522036     -0.000150604     0.000226896      0.000436193       0.0415683     -0.000906738    -0.000343683
                     0.000557221     0.000238809         0.492118        0.779783     -0.000886151    -0.000385415         0.249732        0.271327
281752                 0.0363932        0.018835      0.000845112    -8.44562e-05         0.850019       -0.523125      0.000398727     0.000172594
                     0.000906909    -0.000256174        -0.142893       -0.342374     -0.000172092     0.000268764         0.492562          0.7795
                        0.850177       -0.522365     -0.000150443     0.000226988      0.000442559       0.0415698     -0.000906974    -0.000343304
                     0.000557833     0.000238503         0.492492        0.779513     -0.000886596    -0.000384973         0.249958        0.271215
281754                 0.0364065       0.0188129      0.000845072    -8.48127e-05         0.849816       -0.523454      0.000398823      0.00017239
                     0.000906801    -0.000256861        -0.143038        -0.34239      -0.00017206     0.000268814         0.492936        0.779229
                        0.849974       -0.522693     -0.000150309     0.000227151      0.000448926       0.0415712     -0.000907209    -0.000342925
                     0.000558443     0.000238194         0.492865        0.779243      -0.00088704    -0.000384531         0.250183        0.271103
281756                 0.0364197       0.0187908      0.000845066    -8.52011e-05         0.849613       -0.523783      0.000398918     0.000172185
                     0.000906685    -0.000257545        -0.143183       -0.342406     -0.000172029     0.000268864         0.493309        0.778958
                         0.84977       -0.523022     -0.000150158     0.000227276      0.000455295       0.0415727     -0.000907443    -0.000342547
                     0.000559026     0.000237862         0.493239        0.778973     -0.000887484    -0.000384089         0.250409        0.270991
281758                 0.0364329       0.0187686      0.000845059    -8.55893e-05          0.84941       -0.524112      0.000399013      0.00017198
                     0.000906596    -0.000258239        -0.143329       -0.342422     -0.000171997     0.000268913         0.493682        0.778687
                        0.849567        -0.52335     -0.000150009     0.000227402      0.000461664       0.0415742     -0.000907678    -0.000342168
                     0.000559667     0.000237581         0.493612        0.778702     -0.000887927    -0.000383647         0.250635        0.270878
281760                 0.0364461       0.0187465      0.000845051    -8.59776e-05         0.849206       -0.524441      0.000399109     0.000171775
                     0.000906482    -0.000258922        -0.143474       -0.342439     -0.000171966     0.000268962         0.494056        0.778416
                        0.849363       -0.523678     -0.000149859     0.000227528      0.000468034       0.0415757     -0.000907912    -0.000341789
                     0.000560272     0.000237267         0.493985        0.778432     -0.000888369    -0.000383205          0.25086        0.270765
281762                 0.0364593       0.0187243      0.000845043     -8.6366e-05         0.849003        -0.52477      0.000399204     0.000171569
                     0.000906371    -0.000259605         -0.14362       -0.342455     -0.000171935     0.000269011         0.494428        0.778145
                        0.849159       -0.524007      -0.00014971     0.000227654      0.000474405       0.0415772     -0.000908146     -0.00034141
