! TOUCHSTONE file generated by CST MICROWAVE STUDIO
! Date and time: Tue Oct 14 07:31:58 2025
! Project name: Teste_Macro_Metasurface_Nanopilar.cst
! Parameters = {H=600; L_x=180; L_y=195; Lambda=1064; Max_L=200; Min_L=70; PathPara=1; Phi=0; Step_L=10; Theta=0; p=520; phaseX=180; phaseY=0}
! Header version: 2018
! Port assignment regex: !\s*Touchstone port\s*([0-9]+)\s*=\s*(CST MWS port|CST DS port)\s*([0-9]+|Zmin|Zmax)\s*\(\"(.*)\"\)(\s*mode\s*([0-9]+))?.*
! Touchstone port assignment:
! Touchstone port 1 = CST MWS port Zmax ("") mode 1
! Touchstone port 2 = CST MWS port Zmax ("") mode 2
! Touchstone port 3 = CST MWS port Zmin ("") mode 1
! Touchstone port 4 = CST MWS port Zmin ("") mode 2
! S-Parameters are not renormalized. Each port impedance will be approximated by the real part at minimum frequency. The values are described via the [Reference] keyword.
! Default impedance is overridden by [Reference]
[Version] 2.0
# GHz S RI R 376.73
[Number of Ports] 4
[Reference]
376.73 376.73 259.814 259.814 
[Number of Frequencies] 51
[Network Data]
281700                  -0.50365       -0.348322     -0.000155281     -0.00010007         0.736894        0.233003     -5.96245e-05    -0.000157749
                    -0.000161038    -0.000103762        -0.304344       -0.148426     -6.15634e-05    -0.000245656         0.916589        0.198198
                         0.73704        0.233032      -7.3454e-05    -0.000177878         0.607663       0.0326116      0.000308689    -0.000137347
                     6.14409e-05      -4.486e-05         0.916703        0.198167      0.000166086    -0.000143989         0.336941      -0.0104887
281702                 -0.503702       -0.347947     -0.000155303    -9.97284e-05         0.737194        0.232582     -5.65156e-05    -0.000152088
                    -0.000160948    -0.000103082        -0.304396        -0.14834     -6.20152e-05    -0.000245482         0.916668        0.197827
                         0.73734        0.232612     -7.33296e-05    -0.000177694         0.607521       0.0321157      0.000349177    -0.000139391
                     6.11462e-05    -4.49261e-05         0.916778        0.197796       0.00016576    -0.000143811         0.336946      -0.0106614
281704                 -0.503754       -0.347572     -0.000155325    -9.93887e-05         0.737493        0.232162     -5.43856e-05    -0.000147975
                    -0.000160857    -0.000102399        -0.304448       -0.148255     -6.24675e-05    -0.000245306         0.916746        0.197456
                         0.73764        0.232191     -7.32055e-05    -0.000177511         0.607379       0.0316204      0.000369719    -0.000143351
                     6.08498e-05    -4.49948e-05         0.916854        0.197425      0.000165434    -0.000143632          0.33695      -0.0108343
281706                 -0.503806       -0.347197     -0.000155347    -9.90505e-05         0.737792        0.231741     -5.39753e-05    -0.000145966
                    -0.000160763    -0.000101714          -0.3045       -0.148169     -6.29203e-05    -0.000245129         0.916823        0.197085
                        0.737938         0.23177     -7.30819e-05     -0.00017733         0.607237       0.0311257      0.000375197     -0.00014419
                     6.05518e-05    -4.50659e-05         0.916929        0.197054      0.000165108    -0.000143452         0.336954      -0.0110074
281708                 -0.503858       -0.346824     -0.000155368    -9.87139e-05          0.73809         0.23132     -5.61959e-05    -0.000147172
                    -0.000160668    -0.000101025        -0.304553       -0.148083     -6.33736e-05    -0.000244951         0.916898        0.196714
                        0.738236        0.231349     -7.29586e-05    -0.000177151         0.607094       0.0306315      0.000362362    -0.000139834
                     6.02522e-05    -4.51395e-05         0.917005        0.196683      0.000164782    -0.000143271         0.336958      -0.0111809
281710                 -0.503909        -0.34645      -0.00015539    -9.83788e-05         0.738387        0.230899     -6.18438e-05    -0.000154116
                    -0.000160571    -0.000100333        -0.304605       -0.147997     -6.38274e-05    -0.000244771         0.916972        0.196342
                        0.738534        0.230928     -7.28357e-05    -0.000176972         0.606952       0.0301379      0.000305587    -0.000135213
                     5.99509e-05    -4.52156e-05          0.91708        0.196312      0.000164457     -0.00014309         0.336961      -0.0113549
281712                  -0.50396       -0.346077     -0.000155411    -9.80451e-05         0.738683        0.230478     -6.97129e-05    -0.000172428
                    -0.000160471    -9.96382e-05        -0.304657       -0.147911     -6.42817e-05     -0.00024459         0.917042         0.19597
                         0.73883        0.230507     -7.27131e-05    -0.000176796         0.606809       0.0296449      0.000145423    -0.000303087
                      5.9648e-05    -4.52943e-05         0.917155        0.195941      0.000164131    -0.000142908         0.336965      -0.0115296
281714                 -0.504011       -0.345704     -0.000155432     -9.7713e-05         0.738979        0.230057     -6.86685e-05    -0.000210176
                     -0.00016037    -9.89407e-05        -0.304709       -0.147825     -6.47363e-05    -0.000244408         0.917107        0.195597
                        0.739126        0.230086      -7.2591e-05    -0.000176621         0.606666       0.0291524      0.000457132    -0.000425429
                     5.93435e-05    -4.53755e-05          0.91723         0.19557      0.000163806    -0.000142725          0.33697      -0.0117058
281716                 -0.504062       -0.345332     -0.000155453    -9.73824e-05         0.739274        0.229636     -3.11252e-05    -0.000254205
                    -0.000160267    -9.82406e-05        -0.304761        -0.14774     -6.51913e-05    -0.000244225         0.917165         0.19522
                        0.739422        0.229664     -7.24693e-05    -0.000176447         0.606523       0.0286605       0.00049964    -0.000318388
                     5.90375e-05    -4.54592e-05         0.917304        0.195199      0.000163481    -0.000142541         0.336974       -0.011885
281718                 -0.504112       -0.344961     -0.000155474    -9.70533e-05         0.739569        0.229215      2.96005e-05    -0.000256747
                    -0.000160162     -9.7538e-05        -0.304813       -0.147654     -6.56467e-05     -0.00024404         0.917211        0.194837
                        0.739716        0.229243      -7.2348e-05    -0.000176275          0.60638       0.0281691      0.000497681    -0.000280558
                     5.87298e-05    -4.55456e-05         0.917379        0.194828      0.000163156    -0.000142358         0.336979      -0.0120736
281720                 -0.504163       -0.344589     -0.000155494    -9.67256e-05         0.739863        0.228793      6.41857e-05    -0.000229608
                    -0.000160055    -9.68328e-05        -0.304865       -0.147568     -6.61025e-05    -0.000243854         0.917232        0.194432
                         0.74001        0.228821     -7.22271e-05    -0.000176104         0.606237       0.0276783      0.000494255    -0.000263382
                     5.84207e-05    -4.56345e-05         0.917454        0.194457      0.000162831    -0.000142173         0.336966      -0.0123238
281722                 -0.504213       -0.344218     -0.000155515    -9.63994e-05         0.740156        0.228372      7.57664e-05    -0.000205315
                    -0.000159946    -9.61253e-05        -0.304917       -0.147482     -6.65585e-05    -0.000243667         0.917216        0.193937
                        0.740304          0.2284     -7.21067e-05    -0.000175934         0.606094        0.027188      0.000491737    -0.000253904
                       5.811e-05     -4.5726e-05         0.917528        0.194086      0.000162507    -0.000141988         0.336921      -0.0122913
281724                 -0.504263       -0.343848     -0.000155535    -9.60746e-05         0.740449         0.22795       7.8633e-05    -0.000189206
                    -0.000159835    -9.54155e-05        -0.304969       -0.147396     -6.70148e-05    -0.000243479         0.917447        0.193198
                        0.740596        0.227978     -7.19866e-05    -0.000175767          0.60595       0.0266983      0.000489967    -0.000247941
                     5.77978e-05    -4.58201e-05         0.917602        0.193715      0.000162182    -0.000141803         0.336968      -0.0125168
281726                 -0.504313       -0.343478     -0.000155555    -9.57513e-05         0.740741        0.227528      7.88394e-05    -0.000178813
                    -0.000159722    -9.47034e-05        -0.305021        -0.14731     -6.74714e-05    -0.000243289         0.917921        0.193042
                        0.740888        0.227556     -7.18671e-05      -0.0001756         0.605807       0.0262091      0.000488685    -0.000243805
                     5.74841e-05    -4.59168e-05         0.917676        0.193344      0.000161858    -0.000141617         0.336977      -0.0127031
281728                 -0.504362       -0.343108     -0.000155575    -9.54294e-05         0.741032        0.227107      7.83328e-05    -0.000171878
                    -0.000159607    -9.39893e-05        -0.305073       -0.147224     -6.79283e-05    -0.000243098         0.917965         0.19286
                         0.74118        0.227134     -7.17479e-05    -0.000175435         0.605663       0.0257205      0.000487713    -0.000240706
                      5.7169e-05    -4.60161e-05          0.91775        0.192973      0.000161534    -0.000141431         0.336983       -0.012882
281730                 -0.504412       -0.342739     -0.000155595    -9.51089e-05         0.741323        0.226685      7.77045e-05    -0.000167031
                     -0.00015949    -9.32732e-05        -0.305125       -0.147138     -6.83853e-05    -0.000242906         0.917993        0.192551
                        0.741471        0.226711     -7.16293e-05    -0.000175271         0.605519       0.0252325      0.000486939    -0.000238233
                     5.68524e-05    -4.61181e-05         0.917824        0.192601      0.000161211    -0.000141244         0.336987      -0.0130583
281732                 -0.504461        -0.34237     -0.000155614    -9.47898e-05         0.741613        0.226263      7.71203e-05    -0.000163477
                    -0.000159371    -9.25551e-05        -0.305177       -0.147052     -6.88426e-05    -0.000242713         0.918039        0.192206
                        0.741761        0.226289      -7.1511e-05    -0.000175109         0.605375        0.024745       0.00048629    -0.000236153
                     5.65344e-05    -4.62227e-05         0.917897         0.19223      0.000160887    -0.000141057          0.33699      -0.0132333
281734                  -0.50451       -0.342002     -0.000155634    -9.44721e-05         0.741902         0.22584      7.66128e-05    -0.000160749
                     -0.00015925    -9.18353e-05        -0.305229       -0.146966     -6.93001e-05    -0.000242519         0.918096        0.191848
                         0.74205        0.225867     -7.13932e-05    -0.000174947         0.605231        0.024258      0.000485724    -0.000234329
                      5.6215e-05    -4.63299e-05          0.91797        0.191859      0.000160564     -0.00014087         0.336993      -0.0134078
281736                 -0.504559       -0.341634     -0.000155653    -9.41557e-05         0.742191        0.225418      7.61758e-05    -0.000158559
                    -0.000159127    -9.11137e-05        -0.305281        -0.14688     -6.97579e-05    -0.000242324         0.918158        0.191484
                        0.742339        0.225444     -7.12759e-05    -0.000174788         0.605086       0.0237716       0.00048521    -0.000232676
                     5.58943e-05    -4.64398e-05         0.918044        0.191487      0.000160242    -0.000140683         0.336996      -0.0135818
281738                 -0.504608       -0.341266     -0.000155672    -9.38406e-05         0.742479        0.224996      7.57939e-05    -0.000156729
                    -0.000159002    -9.03906e-05        -0.305333       -0.146794     -7.02159e-05    -0.000242127         0.918225        0.191117
                        0.742627        0.225022     -7.11591e-05    -0.000174629         0.604942       0.0232857       0.00048473     -0.00023114
                     5.55723e-05    -4.65523e-05         0.918117        0.191116      0.000159919    -0.000140496         0.336999      -0.0137557
281740                 -0.504656       -0.340899     -0.000155691    -9.35267e-05         0.742767        0.224573      7.54523e-05    -0.000155142
                    -0.000158874    -8.96659e-05        -0.305384       -0.146708     -7.06742e-05     -0.00024193         0.918293        0.190749
                        0.742915        0.224599     -7.10428e-05    -0.000174472         0.604797       0.0228004      0.000484271    -0.000229684
                      5.5249e-05    -4.66674e-05          0.91819        0.190745      0.000159598    -0.000140308         0.337002      -0.0139294
281742                 -0.504704       -0.340532     -0.000155709     -9.3214e-05         0.743054        0.224151       7.5139e-05     -0.00015372
                    -0.000158745      -8.894e-05        -0.305436       -0.146621     -7.11329e-05    -0.000241731         0.918363        0.190379
                        0.743202        0.224176      -7.0927e-05    -0.000174315         0.604652       0.0223156      0.000483823    -0.000228283
                     5.49245e-05    -4.67852e-05         0.918263        0.190373      0.000159276    -0.000140122         0.337004       -0.014103
281744                 -0.504752       -0.340166     -0.000155728     -9.2902e-05          0.74334        0.223728      7.48453e-05    -0.000152412
                    -0.000158614    -8.82128e-05        -0.305488       -0.146535     -7.15924e-05    -0.000241532         0.918434        0.190009
                        0.743488        0.223753     -7.08118e-05     -0.00017416         0.604507       0.0218313      0.000483381    -0.000226921
                      5.4599e-05    -4.69056e-05         0.918335        0.190002      0.000158956    -0.000139937         0.337006      -0.0142765
281746                   -0.5048         -0.3398     -0.000155746    -9.25907e-05         0.743626        0.223306      7.45645e-05    -0.000151182
                     -0.00015848    -8.74845e-05         -0.30554       -0.146449     -7.20525e-05    -0.000241334         0.918506        0.189639
                        0.743774         0.22333     -7.06975e-05    -0.000174006         0.604362       0.0213476      0.000482941    -0.000225587
                     5.42725e-05    -4.70285e-05         0.918408         0.18963      0.000158634     -0.00013976         0.337009        -0.01445
281748                 -0.504848       -0.339435     -0.000155766    -9.22798e-05         0.743911        0.222883      7.42923e-05    -0.000150005
                    -0.000158344    -8.67556e-05        -0.305592       -0.146363     -7.25122e-05    -0.000241138         0.918578        0.189268
                        0.744059        0.222907     -7.05842e-05    -0.000173852         0.604217       0.0208644        0.0004825    -0.000224272
                     5.39454e-05    -4.71538e-05          0.91848        0.189259      0.000158285    -0.000139578         0.337011      -0.0146235
281750                 -0.504896        -0.33907     -0.000155789    -9.19712e-05         0.744195         0.22246      7.40254e-05    -0.000148865
                    -0.000158206    -8.60263e-05        -0.305643       -0.146277     -7.29663e-05    -0.000240943          0.91865        0.188896
                        0.744344        0.222484     -7.04722e-05      -0.0001737         0.604072       0.0203818      0.000482055     -0.00022297
                     5.36182e-05    -4.72816e-05         0.918553        0.188887      0.000157962    -0.000139364         0.337013      -0.0147969
281752                 -0.504943       -0.338705     -0.000155812    -9.16685e-05         0.744479        0.222037      7.37618e-05     -0.00014775
                    -0.000158066    -8.52976e-05        -0.305695       -0.146191     -7.34144e-05    -0.000240742         0.918723        0.188525
                        0.744627        0.222061     -7.03619e-05    -0.000173548         0.603926       0.0198997      0.000481606    -0.000221678
                     5.32922e-05    -4.74114e-05         0.918625        0.188516      0.000157648     -0.00013917         0.337015      -0.0149704
281754                  -0.50499       -0.338341     -0.000155832    -9.13692e-05         0.744762        0.221614         7.35e-05    -0.000146652
                    -0.000157921    -8.45718e-05        -0.305747       -0.146104     -7.38655e-05    -0.000240534         0.918795        0.188153
                        0.744911        0.221637     -7.02532e-05    -0.000173399         0.603781       0.0194181      0.000481151    -0.000220393
                      5.2971e-05    -4.75434e-05         0.918697        0.188144      0.000157331     -0.00013898         0.337017      -0.0151438
281756                 -0.505037       -0.337977     -0.000155849    -9.10699e-05         0.745044         0.22119      7.32391e-05    -0.000145565
                    -0.000157764    -8.38558e-05        -0.305798       -0.146018     -7.43199e-05    -0.000240324         0.918867        0.187781
                        0.745194        0.221214     -7.01459e-05    -0.000173252         0.603635       0.0189371      0.000480691    -0.000219112
                     5.26693e-05    -4.76839e-05         0.918769        0.187772      0.000157013     -0.00013879         0.337019      -0.0153172
281758                 -0.505084       -0.337614     -0.000155865    -9.07704e-05         0.745326        0.220767      7.29784e-05    -0.000144486
                    -0.000157528    -8.30854e-05         -0.30585       -0.145932     -7.47757e-05    -0.000240115          0.91894        0.187409
                        0.745475        0.220791     -7.00393e-05    -0.000173108         0.603489       0.0184566      0.000480223    -0.000217835
                       5.236e-05    -4.79479e-05          0.91884        0.187401      0.000156694    -0.000138601          0.33702      -0.0154906
281760                 -0.505131        -0.33725     -0.000155882    -9.04715e-05         0.745608        0.220344      7.27177e-05    -0.000143412
                    -0.000157462    -8.22982e-05        -0.305901       -0.145846     -7.52317e-05    -0.000239905         0.919012        0.187037
                        0.745756        0.220367     -6.99327e-05    -0.000172966         0.603343       0.0179766      0.000479749    -0.000216561
                     5.19014e-05    -4.80452e-05         0.918912        0.187029      0.000156375    -0.000138412         0.337022      -0.0156641
281762                 -0.505177       -0.336888     -0.000155898    -9.01735e-05         0.745888         0.21992      7.24565e-05    -0.000142342
                    -0.000157328    -8.15774e-05        -0.305953       -0.145759     -7.56876e-05    -0.000239695         0.919083        0.186666
                        0.746037        0.219943      -6.9826e-05    -0.000172826         0.603197       0.0174971      0.000479269    -0.000215288
