! TOUCHSTONE file generated by CST MICROWAVE STUDIO
! Date and time: Tue Oct 14 07:26:16 2025
! Project name: Teste_Macro_Metasurface_Nanopilar.cst
! Parameters = {H=600; L_x=90; L_y=175; Lambda=1064; Max_L=200; Min_L=70; PathPara=1; Phi=0; Step_L=10; Theta=0; p=520; phaseX=180; phaseY=0}
! Header version: 2018
! Port assignment regex: !\s*Touchstone port\s*([0-9]+)\s*=\s*(CST MWS port|CST DS port)\s*([0-9]+|Zmin|Zmax)\s*\(\"(.*)\"\)(\s*mode\s*([0-9]+))?.*
! Touchstone port assignment:
! Touchstone port 1 = CST MWS port Zmax ("") mode 1
! Touchstone port 2 = CST MWS port Zmax ("") mode 2
! Touchstone port 3 = CST MWS port Zmin ("") mode 1
! Touchstone port 4 = CST MWS port Zmin ("") mode 2
! S-Parameters are not renormalized. Each port impedance will be approximated by the real part at minimum frequency. The values are described via the [Reference] keyword.
! Default impedance is overridden by [Reference]
[Version] 2.0
# GHz S RI R 376.73
[Number of Ports] 4
[Reference]
376.73 376.73 259.814 259.814 
[Number of Frequencies] 51
[Network Data]
281700                 -0.127619       -0.276643      0.000560765    -0.000283567          0.44703        0.834749      0.000276897     0.000464987
                     0.000435138    -0.000188001         0.015936      -0.0857038     -0.000198888     0.000305986         0.486225       -0.865661
                         0.44652        0.834221     -0.000206785     0.000374607         0.161248        0.256298     -0.000385942    -0.000238759
                     0.000218203     0.000433152          0.48608       -0.865482      -0.00036797     -0.00017661       -0.0641434       0.0591874
281702                 -0.127727       -0.276651      0.000560633    -0.000283472         0.447419        0.834521       0.00027719     0.000464895
                     0.000435038    -0.000187874        0.0159076       -0.085728     -0.000198846     0.000306208         0.485857       -0.865865
                         0.44691        0.833994     -0.000206664     0.000374887         0.161441        0.256238     -0.000385935    -0.000238265
                     0.000218465     0.000433215         0.485712       -0.865686     -0.000367962    -0.000176192       -0.0641289       0.0592305
281704                 -0.127835        -0.27666      0.000560501    -0.000283377         0.447808        0.834293      0.000277482     0.000464803
                     0.000434937    -0.000187748        0.0158791      -0.0857521     -0.000198803     0.000306429         0.485488       -0.866069
                        0.447299        0.833766     -0.000206544     0.000375167         0.161634        0.256178     -0.000385928    -0.000237771
                     0.000218726     0.000433277         0.485344        -0.86589     -0.000367954    -0.000175774       -0.0641144       0.0592735
281706                 -0.127942       -0.276668       0.00056037    -0.000283282         0.448197        0.834064      0.000277775     0.000464711
                     0.000434836    -0.000187621        0.0158507      -0.0857763      -0.00019876      0.00030665          0.48512       -0.866274
                        0.447688        0.833539     -0.000206423     0.000375447         0.161827        0.256118     -0.000385921    -0.000237277
                     0.000218987      0.00043334         0.484975       -0.866095     -0.000367946    -0.000175355       -0.0640998       0.0593166
281708                  -0.12805       -0.276677      0.000560239    -0.000283188         0.448586        0.833836      0.000278068     0.000464618
                     0.000434736    -0.000187495        0.0158222      -0.0858005     -0.000198717     0.000306871         0.484752       -0.866478
                        0.448077        0.833311     -0.000206301     0.000375727          0.16202        0.256057     -0.000385914    -0.000236784
                     0.000219249     0.000433402         0.484607       -0.866298     -0.000367937    -0.000174937       -0.0640853       0.0593596
281710                 -0.128158       -0.276685      0.000560108    -0.000283093         0.448974        0.833607       0.00027836     0.000464525
                     0.000434636    -0.000187368        0.0157937      -0.0858246     -0.000198674     0.000307092         0.484383       -0.866682
                        0.448466        0.833082      -0.00020618     0.000376007         0.162213        0.255997     -0.000385907     -0.00023629
                     0.000219511     0.000433464         0.484238       -0.866502     -0.000367928    -0.000174518       -0.0640706       0.0594026
281712                 -0.128266       -0.276693      0.000559978    -0.000282998         0.449363        0.833378      0.000278652     0.000464432
                     0.000434535    -0.000187242        0.0157653      -0.0858487      -0.00019863     0.000307313         0.484015       -0.866885
                        0.448855        0.832854     -0.000206058     0.000376287         0.162406        0.255936     -0.000385899    -0.000235795
                     0.000219773     0.000433526          0.48387       -0.866706     -0.000367919      -0.0001741        -0.064056       0.0594457
281714                 -0.128373       -0.276702      0.000559849    -0.000282903         0.449752        0.833148      0.000278945     0.000464339
                     0.000434435    -0.000187115        0.0157367      -0.0858728     -0.000198586     0.000307533         0.483646       -0.867089
                        0.449243        0.832625     -0.000205935     0.000376567           0.1626        0.255876     -0.000385891    -0.000235301
                     0.000220035     0.000433587         0.483501       -0.866909      -0.00036791    -0.000173681       -0.0640414       0.0594887
281716                 -0.128481        -0.27671      0.000559719    -0.000282809          0.45014        0.832919      0.000279237     0.000464246
                     0.000434335    -0.000186989        0.0157082       -0.085897     -0.000198542     0.000307754         0.483277       -0.867292
                        0.449632        0.832396     -0.000205812     0.000376848         0.162793        0.255815     -0.000385883    -0.000234807
                     0.000220298     0.000433649         0.483132       -0.867112     -0.000367901    -0.000173262       -0.0640267       0.0595318
281718                 -0.128589       -0.276718      0.000559591    -0.000282714         0.450528        0.832689      0.000279529     0.000464152
                     0.000434236    -0.000186863        0.0156797      -0.0859211     -0.000198498     0.000307975         0.482908       -0.867496
                         0.45002        0.832167     -0.000205689     0.000377128         0.162986        0.255754     -0.000385875    -0.000234313
                     0.000220561      0.00043371         0.482763       -0.867315     -0.000367891    -0.000172843        -0.064012       0.0595748
281720                 -0.128697       -0.276726      0.000559462    -0.000282619         0.450917        0.832459      0.000279821     0.000464059
                     0.000434136    -0.000186737        0.0156511      -0.0859452     -0.000198453     0.000308195         0.482539       -0.867699
                        0.450409        0.831937     -0.000205566     0.000377409         0.163179        0.255693     -0.000385867    -0.000233818
                     0.000220824     0.000433771         0.482394       -0.867518     -0.000367882    -0.000172424       -0.0639972       0.0596179
281722                 -0.128805       -0.276735      0.000559334    -0.000282524         0.451305        0.832229      0.000280113     0.000463965
                     0.000434037     -0.00018661        0.0156226      -0.0859692     -0.000198409     0.000308415          0.48217       -0.867902
                        0.450797        0.831707     -0.000205442     0.000377689         0.163372        0.255631     -0.000385858    -0.000233323
                     0.000221087     0.000433832         0.482025       -0.867721     -0.000367872    -0.000172005       -0.0639824       0.0596609
281724                 -0.128913       -0.276743      0.000559207    -0.000282428         0.451693        0.831999      0.000280405     0.000463871
                     0.000433937    -0.000186484         0.015594      -0.0859933     -0.000198364     0.000308636         0.481801       -0.868104
                        0.451185        0.831477     -0.000205318      0.00037797         0.163565         0.25557     -0.000385849    -0.000232829
                      0.00022135     0.000433893         0.481656       -0.867924     -0.000367862    -0.000171586       -0.0639677        0.059704
281726                 -0.129021       -0.276751       0.00055908    -0.000282333          0.45208        0.831769      0.000280696     0.000463777
                     0.000433838    -0.000186358        0.0155654      -0.0860174     -0.000198318     0.000308856         0.481432       -0.868307
                        0.451573        0.831247     -0.000205193     0.000378251         0.163758        0.255508      -0.00038584    -0.000232334
                     0.000221613     0.000433954         0.481287       -0.868126     -0.000367851    -0.000171166       -0.0639528        0.059747
281728                 -0.129129       -0.276759      0.000558953    -0.000282237         0.452468        0.831538      0.000280988     0.000463682
                     0.000433739    -0.000186232        0.0155368      -0.0860414     -0.000198273     0.000309076         0.481063        -0.86851
                         0.45196        0.831017     -0.000205069     0.000378532         0.163952        0.255447     -0.000385831    -0.000231839
                     0.000221877     0.000434015         0.480917       -0.868329     -0.000367841    -0.000170747        -0.063938       0.0597901
281730                 -0.129237       -0.276767      0.000558827    -0.000282142         0.452856        0.831307      0.000281279     0.000463588
                     0.000433641    -0.000186106        0.0155081      -0.0860655     -0.000198227     0.000309296         0.480693       -0.868712
                        0.452348        0.830786     -0.000204944     0.000378813         0.164145        0.255385     -0.000385821    -0.000231344
                     0.000222141     0.000434075         0.480548       -0.868531      -0.00036783    -0.000170327       -0.0639231       0.0598331
281732                 -0.129345       -0.276775      0.000558701    -0.000282046         0.453243        0.831076      0.000281571     0.000463493
                     0.000433542     -0.00018598        0.0154795      -0.0860895     -0.000198181     0.000309515         0.480324       -0.868914
                        0.452736        0.830556     -0.000204819     0.000379094         0.164338        0.255323     -0.000385811    -0.000230849
                     0.000222405     0.000434135         0.480178       -0.868733     -0.000367819    -0.000169908       -0.0639082       0.0598762
281734                 -0.129453       -0.276783      0.000558575    -0.000281949         0.453631        0.830845      0.000281862     0.000463398
                     0.000433444    -0.000185854        0.0154508      -0.0861136     -0.000198135     0.000309735         0.479954       -0.869116
                        0.453123        0.830325     -0.000204693     0.000379375         0.164531        0.255261     -0.000385801    -0.000230354
                     0.000222669     0.000434195         0.479809       -0.868935     -0.000367808    -0.000169488       -0.0638933       0.0599192
281736                 -0.129561       -0.276791       0.00055845    -0.000281853         0.454018        0.830613      0.000282153     0.000463303
                     0.000433346    -0.000185728        0.0154222      -0.0861376     -0.000198089     0.000309955         0.479585       -0.869318
                        0.453511        0.830094     -0.000204567     0.000379657         0.164724        0.255199     -0.000385791    -0.000229859
                     0.000222933     0.000434255         0.479439       -0.869136     -0.000367796    -0.000169068       -0.0638783       0.0599623
281738                 -0.129669       -0.276799      0.000558325    -0.000281756         0.454405        0.830382      0.000282444     0.000463208
                     0.000433248    -0.000185602        0.0153935      -0.0861616     -0.000198042     0.000310174         0.479215        -0.86952
                        0.453898        0.829863     -0.000204441     0.000379938         0.164917        0.255136      -0.00038578    -0.000229363
                     0.000223197     0.000434315         0.479069       -0.869338     -0.000367785    -0.000168648       -0.0638633       0.0600054
281740                 -0.129778       -0.276807        0.0005582    -0.000281659         0.454792         0.83015      0.000282735     0.000463113
                     0.000433151    -0.000185475        0.0153648      -0.0861856     -0.000197995     0.000310393         0.478845       -0.869721
                        0.454285        0.829631     -0.000204315      0.00038022         0.165111        0.255074     -0.000385769    -0.000228868
                     0.000223462     0.000434375         0.478699       -0.869539     -0.000367773    -0.000168228       -0.0638483       0.0600484
281742                 -0.129886       -0.276815      0.000558076    -0.000281562         0.455179        0.829918      0.000283026     0.000463017
                     0.000433054    -0.000185349        0.0153361      -0.0862096     -0.000197948     0.000310613         0.478475       -0.869923
                        0.454672          0.8294     -0.000204189     0.000380502         0.165304        0.255011     -0.000385758    -0.000228372
                     0.000223726     0.000434434          0.47833       -0.869741     -0.000367761    -0.000167808       -0.0638333       0.0600915
281744                 -0.129994       -0.276823      0.000557952    -0.000281464         0.455566        0.829686      0.000283317     0.000462922
                     0.000432957    -0.000185223        0.0153073      -0.0862336       -0.0001979     0.000310832         0.478105       -0.870124
                        0.455059        0.829168     -0.000204062     0.000380784         0.165497        0.254949     -0.000385747    -0.000227877
                     0.000223991     0.000434494         0.477959       -0.869942     -0.000367749    -0.000167388       -0.0638182       0.0601345
281746                 -0.130102       -0.276831      0.000557829    -0.000281366         0.455953        0.829453      0.000283608     0.000462826
                      0.00043286    -0.000185097        0.0152786      -0.0862575     -0.000197853     0.000311051         0.477735       -0.870325
                        0.455446        0.828936     -0.000203935     0.000381066          0.16569        0.254886     -0.000385736    -0.000227381
                     0.000224256     0.000434553         0.477589       -0.870143     -0.000367736    -0.000166968       -0.0638031       0.0601776
281748                  -0.13021       -0.276838      0.000557705    -0.000281268          0.45634        0.829221      0.000283898      0.00046273
                     0.000432764    -0.000184971        0.0152498      -0.0862815     -0.000197805      0.00031127         0.477365       -0.870526
                        0.455833        0.828705     -0.000203808     0.000381349         0.165883        0.254823     -0.000385724    -0.000226885
                     0.000224521     0.000434612         0.477219       -0.870344     -0.000367724    -0.000166547        -0.063788       0.0602206
281750                 -0.130319       -0.276846      0.000557582    -0.000281169         0.456726        0.828988      0.000284188     0.000462634
                     0.000432668    -0.000184844         0.015221      -0.0863054     -0.000197757     0.000311488         0.476995       -0.870727
                         0.45622        0.828473     -0.000203681     0.000381631         0.166077         0.25476     -0.000385712    -0.000226389
                     0.000224786     0.000434671         0.476849       -0.870544     -0.000367711    -0.000166127       -0.0637728       0.0602637
281752                 -0.130427       -0.276854      0.000557459     -0.00028107         0.457113        0.828755      0.000284479     0.000462538
                     0.000432573    -0.000184718        0.0151922      -0.0863294     -0.000197708     0.000311707         0.476624       -0.870927
                        0.456607        0.828241     -0.000203554     0.000381914          0.16627        0.254696       -0.0003857    -0.000225893
                     0.000225052     0.000434729         0.476478       -0.870745     -0.000367698    -0.000165706       -0.0637576       0.0603068
281754                 -0.130535       -0.276862      0.000557337    -0.000280971         0.457499        0.828522      0.000284769     0.000462441
                     0.000432478    -0.000184592        0.0151634      -0.0863533     -0.000197659     0.000311926         0.476254       -0.871128
                        0.456993        0.828008     -0.000203427     0.000382197         0.166463        0.254633     -0.000385687    -0.000225397
                     0.000225317     0.000434788         0.476108       -0.870945     -0.000367685    -0.000165286       -0.0637424       0.0603498
281756                 -0.130644        -0.27687      0.000557214    -0.000280872         0.457885        0.828288      0.000285059     0.000462345
                     0.000432383    -0.000184465        0.0151346      -0.0863772     -0.000197611     0.000312144         0.475883       -0.871328
                         0.45738        0.827776       -0.0002033     0.000382481         0.166656        0.254569     -0.000385674    -0.000224901
                     0.000225582     0.000434846         0.475737       -0.871145     -0.000367671    -0.000164865       -0.0637272       0.0603929
281758                 -0.130752       -0.276877      0.000557092    -0.000280772         0.458271        0.828055      0.000285349     0.000462249
                     0.000432289    -0.000184338        0.0151058      -0.0864012     -0.000197561     0.000312362         0.475513       -0.871528
                        0.457766        0.827544     -0.000203172     0.000382764         0.166849        0.254506     -0.000385661    -0.000224405
                     0.000225848     0.000434905         0.475367       -0.871345     -0.000367657    -0.000164444       -0.0637119       0.0604359
281760                  -0.13086       -0.276885       0.00055697    -0.000280671         0.458657        0.827821      0.000285638     0.000462152
                     0.000432195    -0.000184212        0.0150769      -0.0864251     -0.000197512      0.00031258         0.475142       -0.871728
                        0.458153        0.827311     -0.000203045     0.000383048         0.167042        0.254442     -0.000385647    -0.000223909
                     0.000226113     0.000434963         0.474996       -0.871545     -0.000367644    -0.000164023       -0.0636966        0.060479
281762                 -0.130969       -0.276893      0.000556849    -0.000280571         0.459043        0.827587      0.000285928     0.000462056
                     0.000432102    -0.000184085         0.015048       -0.086449     -0.000197462     0.000312798         0.474771       -0.871928
                        0.458539        0.827079     -0.000202917     0.000383332         0.167236        0.254378     -0.000385633    -0.000223413
