! TOUCHSTONE file generated by CST MICROWAVE STUDIO
! Date and time: Tue Oct 14 07:28:31 2025
! Project name: Teste_Macro_Metasurface_Nanopilar.cst
! Parameters = {H=600; L_x=125; L_y=200; Lambda=1064; Max_L=200; Min_L=70; PathPara=1; Phi=0; Step_L=10; Theta=0; p=520; phaseX=180; phaseY=0}
! Header version: 2018
! Port assignment regex: !\s*Touchstone port\s*([0-9]+)\s*=\s*(CST MWS port|CST DS port)\s*([0-9]+|Zmin|Zmax)\s*\(\"(.*)\"\)(\s*mode\s*([0-9]+))?.*
! Touchstone port assignment:
! Touchstone port 1 = CST MWS port Zmax ("") mode 1
! Touchstone port 2 = CST MWS port Zmax ("") mode 2
! Touchstone port 3 = CST MWS port Zmin ("") mode 1
! Touchstone port 4 = CST MWS port Zmin ("") mode 2
! S-Parameters are not renormalized. Each port impedance will be approximated by the real part at minimum frequency. The values are described via the [Reference] keyword.
! Default impedance is overridden by [Reference]
[Version] 2.0
# GHz S RI R 376.73
[Number of Ports] 4
[Reference]
376.73 376.73 259.814 259.814 
[Number of Frequencies] 51
[Network Data]
281700                 -0.174504      -0.0196671     -7.79509e-05    -0.000251969         0.873503        0.444785      0.000106584    -0.000429581
                    -0.000146217    -5.44712e-05        -0.113038       -0.166591      0.000411456    -0.000192835         0.359915        0.906081
                        0.873472        0.445273      0.000522212    -0.000182253         0.116957         0.12494      0.000206151    -0.000219137
                     0.000103032    -0.000366474         0.359665        0.905894      0.000258001     1.62235e-05         0.033357        0.196724
281702                 -0.174523      -0.0196476     -7.81476e-05    -0.000251756          0.87369        0.444411      0.000106434    -0.000429286
                    -0.000146364    -5.46163e-05        -0.113093       -0.166592       0.00041137    -0.000193185         0.360319        0.905913
                        0.873659        0.444899      0.000522009    -0.000182306          0.11706        0.124867      0.000205627    -0.000219221
                      0.00010304    -0.000366599          0.36007        0.905725      0.000258041     1.60022e-05        0.0334952        0.196731
281704                 -0.174541       -0.019628      -7.8344e-05    -0.000251542         0.873877        0.444038      0.000106284     -0.00042899
                    -0.000146512    -5.47616e-05        -0.113149       -0.166592      0.000411284    -0.000193535         0.360723        0.905744
                        0.873845        0.444525      0.000521807    -0.000182358         0.117164        0.124794      0.000205103    -0.000219302
                     0.000103047    -0.000366723         0.360475        0.905556       0.00025808     1.57815e-05        0.0336334        0.196739
281706                  -0.17456      -0.0196085     -7.85401e-05    -0.000251328         0.874063        0.443664      0.000106135    -0.000428695
                    -0.000146661    -5.49071e-05        -0.113204       -0.166593      0.000411198    -0.000193885         0.361127        0.905575
                        0.874031        0.444151      0.000521603     -0.00018241         0.117267        0.124721      0.000204579    -0.000219379
                     0.000103054    -0.000366848         0.360879        0.905388       0.00025812     1.55614e-05        0.0337717        0.196746
281708                 -0.174578      -0.0195889     -7.87359e-05    -0.000251112          0.87425         0.44329      0.000105987      -0.0004284
                     -0.00014681    -5.50526e-05         -0.11326       -0.166593      0.000411112    -0.000194234         0.361532        0.905406
                        0.874217        0.443778      0.000521399    -0.000182462          0.11737        0.124647      0.000204055    -0.000219454
                     0.000103061    -0.000366973         0.361283        0.905219      0.000258159     1.53419e-05        0.0339101        0.196754
281710                 -0.174597      -0.0195693     -7.89313e-05    -0.000250897         0.874436        0.442917      0.000105841    -0.000428105
                    -0.000146961    -5.51983e-05        -0.113315       -0.166594      0.000411027    -0.000194584         0.361936        0.905237
                        0.874402        0.443404      0.000521195    -0.000182514         0.117474        0.124574       0.00020353    -0.000219525
                     0.000103068    -0.000367099         0.361688        0.905049      0.000258199     1.51231e-05        0.0340484        0.196761
281712                 -0.174616      -0.0195498     -7.91265e-05     -0.00025068         0.874622        0.442543      0.000105694     -0.00042781
                    -0.000147114    -5.53439e-05        -0.113371       -0.166595      0.000410941    -0.000194933          0.36234        0.905068
                        0.874588         0.44303       0.00052099    -0.000182566         0.117577        0.124501      0.000203006    -0.000219593
                     0.000103075    -0.000367224         0.362092         0.90488      0.000258239     1.49048e-05        0.0341868        0.196768
281714                 -0.174634      -0.0195301     -7.93213e-05    -0.000250463         0.874808        0.442169      0.000105549    -0.000427515
                    -0.000147267    -5.54895e-05        -0.113426       -0.166595      0.000410856    -0.000195281         0.362743        0.904898
                        0.874773        0.442655      0.000520785    -0.000182618          0.11768        0.124427      0.000202481    -0.000219658
                     0.000103081    -0.000367349         0.362496         0.90471      0.000258279     1.46871e-05        0.0343253        0.196775
281716                 -0.174653      -0.0195105     -7.95158e-05    -0.000250246         0.874994        0.441795      0.000105405     -0.00042722
                    -0.000147422     -5.5635e-05        -0.113482       -0.166596      0.000410771    -0.000195629         0.363147        0.904729
                        0.874959        0.442281      0.000520579    -0.000182669         0.117783        0.124354      0.000201956     -0.00021972
                     0.000103088    -0.000367475           0.3629         0.90454       0.00025832     1.44701e-05        0.0344637        0.196782
281718                 -0.174672      -0.0194909     -7.97099e-05    -0.000250028         0.875179        0.441421      0.000105262    -0.000426925
                    -0.000147577    -5.57803e-05        -0.113537       -0.166596      0.000410686    -0.000195977         0.363551        0.904559
                        0.875144        0.441907      0.000520373     -0.00018272         0.117886         0.12428      0.000201431    -0.000219779
                     0.000103094    -0.000367601         0.363304         0.90437       0.00025836     1.42537e-05        0.0346023        0.196789
281720                  -0.17469      -0.0194712     -7.99038e-05    -0.000249809         0.875365        0.441047      0.000105119     -0.00042663
                    -0.000147734    -5.59254e-05        -0.113593       -0.166597      0.000410601    -0.000196325         0.363955        0.904389
                        0.875329        0.441533      0.000520166    -0.000182771         0.117989        0.124206      0.000200906    -0.000219834
                       0.0001031    -0.000367726         0.363708          0.9042      0.000258401     1.40379e-05        0.0347408        0.196796
281722                 -0.174709      -0.0194516     -8.00973e-05    -0.000249589          0.87555        0.440672      0.000104978    -0.000426336
                    -0.000147892    -5.60701e-05        -0.113649       -0.166598      0.000410517    -0.000196673         0.364358        0.904218
                        0.875513        0.441158      0.000519959    -0.000182822         0.118092        0.124132      0.000200381    -0.000219886
                     0.000103106    -0.000367852         0.364112         0.90403      0.000258442     1.38228e-05        0.0348794        0.196803
281724                 -0.174728      -0.0194319     -8.02904e-05    -0.000249369         0.875735        0.440298      0.000104837    -0.000426041
                    -0.000148052    -5.62146e-05        -0.113704       -0.166598      0.000410432     -0.00019702         0.364762        0.904048
                        0.875698        0.440784      0.000519751    -0.000182872         0.118195        0.124058      0.000199856    -0.000219935
                     0.000103112    -0.000367978         0.364516        0.903859      0.000258483     1.36083e-05         0.035018        0.196809
281726                 -0.174746      -0.0194122     -8.04833e-05    -0.000249148          0.87592        0.439924      0.000104698    -0.000425747
                    -0.000148212    -5.63585e-05         -0.11376       -0.166599      0.000410348    -0.000197366         0.365165        0.903877
                        0.875883        0.440409      0.000519543    -0.000182922         0.118298        0.123985       0.00019933    -0.000219981
                     0.000103117    -0.000368105          0.36492        0.903688      0.000258524     1.33945e-05        0.0351567        0.196816
281728                 -0.174765      -0.0193925     -8.06757e-05    -0.000248926         0.876105        0.439549      0.000104559    -0.000425454
                    -0.000148374     -5.6502e-05        -0.113815       -0.166599      0.000410264    -0.000197713         0.365569        0.903706
                        0.876067        0.440035      0.000519334    -0.000182972         0.118401        0.123911      0.000198805    -0.000220024
                     0.000103122    -0.000368231         0.365324        0.903517      0.000258566     1.31813e-05        0.0352954        0.196823
281730                 -0.174784      -0.0193727     -8.08678e-05    -0.000248704          0.87629        0.439175      0.000104422     -0.00042516
                    -0.000148537    -5.66449e-05        -0.113871         -0.1666       0.00041018    -0.000198059         0.365972        0.903535
                        0.876251         0.43966      0.000519124    -0.000183022         0.118503        0.123836       0.00019828    -0.000220063
                     0.000103126    -0.000368358         0.365727        0.903346      0.000258608     1.29688e-05        0.0354342        0.196829
281732                 -0.174802       -0.019353     -8.10595e-05     -0.00024848         0.876474          0.4388      0.000104286    -0.000424868
                    -0.000148701    -5.67871e-05        -0.113927         -0.1666      0.000410097    -0.000198404         0.366375        0.903364
                        0.876435        0.439285      0.000518914    -0.000183072         0.118606        0.123762      0.000197754    -0.000220099
                      0.00010313    -0.000368485         0.366131        0.903175       0.00025865      1.2757e-05        0.0355729        0.196835
281734                 -0.174821      -0.0193332     -8.12508e-05    -0.000248256         0.876658        0.438425      0.000104152    -0.000424579
                    -0.000148867    -5.69285e-05        -0.113982       -0.166601      0.000410013     -0.00019875         0.366779        0.903193
                        0.876619         0.43891      0.000518704    -0.000183121         0.118709        0.123688      0.000197229    -0.000220132
                     0.000103134    -0.000368612         0.366534        0.903003      0.000258692     1.25458e-05        0.0357118        0.196842
281736                  -0.17484      -0.0193135     -8.14418e-05    -0.000248032         0.876842        0.438051      0.000104021    -0.000424306
                    -0.000149033    -5.70692e-05        -0.114038       -0.166602       0.00040993    -0.000199095         0.367182        0.903021
                        0.876802        0.438535      0.000518492     -0.00018317         0.118811        0.123614      0.000196703     -0.00022016
                     0.000103136    -0.000368739         0.366938        0.902831      0.000258734     1.23353e-05        0.0358506        0.196848
281738                 -0.174859      -0.0192937     -8.16323e-05    -0.000247806         0.877026        0.437676      0.000103802     -0.00042397
                    -0.000149201    -5.72089e-05        -0.114094       -0.166602      0.000409847     -0.00019944         0.367585         0.90285
                        0.876986         0.43816      0.000518281    -0.000183219         0.118914        0.123539      0.000196176    -0.000220182
                     0.000103138    -0.000368868         0.367341        0.902659      0.000258777     1.21255e-05        0.0359895        0.196854
281740                 -0.174877      -0.0192739     -8.18223e-05     -0.00024758          0.87721        0.437301      0.000103723    -0.000423672
                    -0.000149371    -5.73476e-05        -0.114149       -0.166603      0.000409764    -0.000199784         0.367988        0.902677
                        0.877169        0.437785      0.000518068    -0.000183267         0.119016        0.123465      0.000195632    -0.000220197
                     0.000103137    -0.000368996         0.367744        0.902487       0.00025882     1.19164e-05        0.0361285         0.19686
281742                 -0.174896      -0.0192541     -8.20118e-05    -0.000247353         0.877394        0.436926      0.000103598    -0.000423383
                    -0.000149542    -5.74851e-05        -0.114205       -0.166603      0.000409682    -0.000200128         0.368391        0.902505
                        0.877353         0.43741      0.000517855    -0.000183316         0.119119         0.12339      0.000195106    -0.000220258
                     0.000103135    -0.000369126         0.368148        0.902315      0.000258863      1.1708e-05        0.0362675        0.196866
281744                 -0.174915      -0.0192342     -8.22006e-05    -0.000247125         0.877577        0.436551      0.000103469    -0.000423092
                    -0.000149716    -5.76214e-05        -0.114261       -0.166604        0.0004096    -0.000200472         0.368794        0.902333
                        0.877536        0.437035      0.000517642    -0.000183364         0.119221        0.123316      0.000194596    -0.000220271
                     0.000103128    -0.000369257         0.368551        0.902142      0.000258906     1.15003e-05        0.0364065        0.196872
281746                 -0.174934      -0.0192144     -8.23882e-05    -0.000246896         0.877761        0.436176       0.00010334      -0.0004228
                    -0.000149892    -5.77558e-05        -0.114317       -0.166604      0.000409518    -0.000200815         0.369196         0.90216
                        0.877718         0.43666      0.000517428    -0.000183412         0.119324        0.123241      0.000194074    -0.000220283
                     0.000103112    -0.000369389         0.368954        0.901969      0.000258949     1.12932e-05        0.0365455        0.196878
281748                 -0.174952      -0.0191945     -8.25718e-05    -0.000246665         0.877944        0.435801      0.000103211    -0.000422507
                    -0.000150073    -5.78876e-05        -0.114372       -0.166605      0.000409436    -0.000201158         0.369599        0.901987
                        0.877901        0.436285      0.000517212    -0.000183459         0.119426        0.123167       0.00019355    -0.000220293
                     0.000103077    -0.000369519         0.369357        0.901797      0.000258993     1.10868e-05        0.0366846        0.196883
281750                 -0.174971      -0.0191746      -8.2818e-05    -0.000246456         0.878127        0.435425      0.000103082    -0.000422215
                    -0.000150262    -5.80134e-05        -0.114428       -0.166605      0.000409354      -0.0002015         0.370002        0.901814
                        0.878084        0.435909      0.000516999    -0.000183529         0.119528        0.123092      0.000193025    -0.000220301
                      0.00010299    -0.000369613          0.36976        0.901623      0.000259037     1.08811e-05        0.0368237        0.196889
281752                  -0.17499      -0.0191548     -8.29639e-05    -0.000246208         0.878309         0.43505      0.000102954    -0.000421923
                     -0.00015047     -5.8117e-05        -0.114484       -0.166606      0.000409272    -0.000201843         0.370404        0.901641
                        0.878266        0.435534      0.000516786    -0.000183554          0.11963        0.123017      0.000192501    -0.000220307
                     0.000102995    -0.000369507         0.370163         0.90145      0.000259081      1.0676e-05        0.0369629        0.196894
281754                 -0.175009      -0.0191349     -8.31481e-05    -0.000245975         0.878492        0.434675      0.000102828     -0.00042163
                    -0.000150651    -5.81126e-05         -0.11454       -0.166607       0.00040919    -0.000202185         0.370807        0.901468
                        0.878449        0.435158      0.000516568    -0.000183601         0.119733        0.122942      0.000191976    -0.000220309
                     0.000103203    -0.000369666         0.370566        0.901277      0.000259125     1.04713e-05        0.0371021          0.1969
281756                 -0.175027      -0.0191148     -8.33338e-05    -0.000245741         0.878675        0.434299      0.000102701    -0.000421338
                     -0.00015062    -5.82614e-05        -0.114596       -0.166607      0.000409107    -0.000202526         0.371209        0.901295
                         0.87863        0.434782      0.000516351    -0.000183647         0.119835        0.122867      0.000191451    -0.000220309
                      0.00010323    -0.000369866         0.370969        0.901103      0.000259168     1.02663e-05        0.0372413        0.196905
281758                 -0.175046      -0.0190949     -8.35197e-05    -0.000245507         0.878857        0.433924      0.000102576    -0.000421046
                    -0.000150797    -5.84819e-05        -0.114651       -0.166608      0.000408998    -0.000202872         0.371612        0.901121
                        0.878812        0.434407      0.000516133    -0.000183693         0.119937        0.122792      0.000190927    -0.000220305
                     0.000103228    -0.000370024         0.371371        0.900929      0.000259198     1.00451e-05        0.0373806         0.19691
281760                 -0.175065       -0.019075     -8.37052e-05    -0.000245272         0.879039        0.433548      0.000102452    -0.000420754
                    -0.000150988    -5.86353e-05        -0.114707       -0.166608      0.000408961    -0.000203205         0.372014        0.900947
                        0.878994        0.434031      0.000515915    -0.000183739         0.120039        0.122717      0.000190402    -0.000220299
                     0.000103222    -0.000370164         0.371774        0.900755      0.000259265     9.87188e-06        0.0375199        0.196915
281762                 -0.175084       -0.019055     -8.38904e-05    -0.000245036         0.879221        0.433172      0.000102328    -0.000420463
                    -0.000151171    -5.87705e-05        -0.114763       -0.166609      0.000408876    -0.000203546         0.372416        0.900773
                        0.879176        0.433655      0.000515696    -0.000183784         0.120141        0.122642      0.000189878     -0.00022029
