! TOUCHSTONE file generated by CST MICROWAVE STUDIO
! Date and time: Tue Oct 14 07:27:07 2025
! Project name: Teste_Macro_Metasurface_Nanopilar.cst
! Parameters = {H=600; L_x=105; L_y=135; Lambda=1064; Max_L=200; Min_L=70; PathPara=1; Phi=0; Step_L=10; Theta=0; p=520; phaseX=180; phaseY=0}
! Header version: 2018
! Port assignment regex: !\s*Touchstone port\s*([0-9]+)\s*=\s*(CST MWS port|CST DS port)\s*([0-9]+|Zmin|Zmax)\s*\(\"(.*)\"\)(\s*mode\s*([0-9]+))?.*
! Touchstone port assignment:
! Touchstone port 1 = CST MWS port Zmax ("") mode 1
! Touchstone port 2 = CST MWS port Zmax ("") mode 2
! Touchstone port 3 = CST MWS port Zmin ("") mode 1
! Touchstone port 4 = CST MWS port Zmin ("") mode 2
! S-Parameters are not renormalized. Each port impedance will be approximated by the real part at minimum frequency. The values are described via the [Reference] keyword.
! Default impedance is overridden by [Reference]
[Version] 2.0
# GHz S RI R 376.73
[Number of Ports] 4
[Reference]
376.73 376.73 259.814 259.814 
[Number of Frequencies] 51
[Network Data]
281700                0.00472609      -0.0350897     -0.000128578    -0.000426087        -0.697613        0.704113     -0.000394061    -0.000612055
                    -5.97812e-05    -0.000248409        -0.137282        -0.09148      0.000590011    -0.000337714        -0.223802       -0.953604
                       -0.697707        0.704059      0.000662639    -0.000169806       -0.0355289      0.00767561       0.00011365    -0.000118183
                     -0.00037501    -0.000587677        -0.223864       -0.953137      6.05531e-05    -0.000116656        -0.081042        0.142912
281702                0.00471057      -0.0351211     -0.000129006    -0.000426074         -0.69726        0.704462     -0.000394391    -0.000611873
                    -5.99852e-05     -0.00024832        -0.137323      -0.0914371      0.000589909    -0.000338057        -0.224265       -0.953492
                       -0.697355        0.704408      0.000662662    -0.000169974       -0.0355536       0.0076955       0.00011372    -0.000118107
                    -0.000375228    -0.000587483        -0.224327       -0.953025      6.05832e-05    -0.000116766       -0.0809598        0.142972
281704                0.00469503      -0.0351525     -0.000129434     -0.00042606        -0.696907         0.70481     -0.000394721    -0.000611691
                    -6.01892e-05    -0.000248232        -0.137365      -0.0913941      0.000589807      -0.0003384        -0.224728       -0.953381
                       -0.697002        0.704756      0.000662685    -0.000170142       -0.0355783      0.00771542       0.00011379    -0.000118031
                    -0.000375447    -0.000587289         -0.22479       -0.952914      6.06133e-05    -0.000116876       -0.0808775        0.143031
281706                0.00467946      -0.0351838     -0.000129862    -0.000426046        -0.696554        0.705158     -0.000395052    -0.000611509
                    -6.03929e-05    -0.000248143        -0.137407      -0.0913511      0.000589705    -0.000338743        -0.225191       -0.953269
                       -0.696649        0.705104      0.000662707    -0.000170312        -0.035603      0.00773538      0.000113862    -0.000117956
                    -0.000375665    -0.000587096        -0.225253       -0.952802      6.06435e-05    -0.000116987       -0.0807953         0.14309
281708                0.00466388      -0.0352152     -0.000130289    -0.000426032        -0.696201        0.705506     -0.000395384    -0.000611326
                    -6.05966e-05    -0.000248054        -0.137449      -0.0913081      0.000589603    -0.000339087        -0.225654       -0.953158
                       -0.696296        0.705452       0.00066273    -0.000170481       -0.0356277      0.00775537      0.000113934    -0.000117881
                    -0.000375883    -0.000586902        -0.225716        -0.95269      6.06738e-05    -0.000117097       -0.0807129        0.143149
281710                0.00464827      -0.0352466     -0.000130716    -0.000426016        -0.695847        0.705854     -0.000395715    -0.000611143
                    -6.08001e-05    -0.000247964        -0.137491      -0.0912651      0.000589501     -0.00033943        -0.226117       -0.953045
                       -0.695943          0.7058      0.000662753    -0.000170651       -0.0356523       0.0077754      0.000114007    -0.000117806
                    -0.000376101    -0.000586708        -0.226178       -0.952577      6.07041e-05    -0.000117208       -0.0806305        0.143209
281712                0.00463264      -0.0352779     -0.000131143       -0.000426        -0.695493        0.706202     -0.000396047     -0.00061096
                    -6.10034e-05    -0.000247874        -0.137533      -0.0912221      0.000589399    -0.000339774         -0.22658       -0.952933
                       -0.695589        0.706148      0.000662776    -0.000170822       -0.0356769      0.00779545       0.00011408    -0.000117732
                    -0.000376319    -0.000586514        -0.226641       -0.952465      6.07344e-05    -0.000117319       -0.0805481        0.143268
281714                0.00461699      -0.0353093      -0.00013157    -0.000425984        -0.695139        0.706549     -0.000396379    -0.000610776
                    -6.12066e-05    -0.000247785        -0.137575       -0.091179      0.000589297    -0.000340117        -0.227043       -0.952821
                       -0.695235        0.706496      0.000662798    -0.000170993       -0.0357015      0.00781555      0.000114154    -0.000117658
                    -0.000376537     -0.00058632        -0.227104       -0.952352      6.07648e-05     -0.00011743       -0.0804656        0.143327
281716                0.00460131      -0.0353406     -0.000131997    -0.000425967        -0.694785        0.706896     -0.000396711    -0.000610592
                    -6.14096e-05    -0.000247694        -0.137617      -0.0911359      0.000589195    -0.000340461        -0.227506       -0.952708
                       -0.694882        0.706843      0.000662821    -0.000171164       -0.0357262      0.00783568      0.000114228    -0.000117584
                    -0.000376755    -0.000586126        -0.227566       -0.952239      6.07953e-05    -0.000117542       -0.0803831        0.143386
281718                0.00458561      -0.0353719     -0.000132423    -0.000425949        -0.694431        0.707243     -0.000397043    -0.000610407
                    -6.16125e-05    -0.000247604        -0.137658      -0.0910928      0.000589093    -0.000340804        -0.227969       -0.952595
                       -0.694528         0.70719      0.000662844    -0.000171336       -0.0357507      0.00785584      0.000114303    -0.000117511
                    -0.000376973    -0.000585932        -0.228029       -0.952126      6.08259e-05    -0.000117654       -0.0803005        0.143445
281720                 0.0045699      -0.0354032     -0.000132849    -0.000425931        -0.694077         0.70759     -0.000397375    -0.000610222
                    -6.18152e-05    -0.000247513          -0.1377      -0.0910497       0.00058899    -0.000341148        -0.228432       -0.952482
                       -0.694173        0.707537      0.000662867    -0.000171508       -0.0357753      0.00787603      0.000114379    -0.000117438
                    -0.000377191    -0.000585738        -0.228491       -0.952012      6.08565e-05    -0.000117766       -0.0802179        0.143504
281722                0.00455416      -0.0354345     -0.000133275    -0.000425911        -0.693722        0.707937     -0.000397707    -0.000610036
                    -6.20178e-05    -0.000247422        -0.137742      -0.0910065      0.000588888    -0.000341492        -0.228894       -0.952368
                       -0.693819        0.707884       0.00066289    -0.000171681       -0.0357999      0.00789626      0.000114455    -0.000117365
                    -0.000377409    -0.000585544        -0.228954       -0.951898      6.08872e-05    -0.000117878       -0.0801353        0.143562
281724                0.00453839      -0.0354658     -0.000133701    -0.000425892        -0.693367        0.708284      -0.00039804     -0.00060985
                    -6.22203e-05    -0.000247331        -0.137784      -0.0909634      0.000588786    -0.000341835        -0.229357       -0.952254
                       -0.693465         0.70823      0.000662912    -0.000171854       -0.0358244      0.00791653      0.000114531    -0.000117293
                    -0.000377626     -0.00058535        -0.229416       -0.951784      6.09179e-05     -0.00011799       -0.0800526        0.143621
281726                0.00452261      -0.0354971     -0.000134127    -0.000425871        -0.693012         0.70863     -0.000398372    -0.000609664
                    -6.24226e-05     -0.00024724        -0.137825      -0.0909202      0.000588684    -0.000342179         -0.22982       -0.952141
                        -0.69311        0.708577      0.000662935    -0.000172028       -0.0358489      0.00793682      0.000114608    -0.000117222
                    -0.000377844    -0.000585157        -0.229878        -0.95167      6.09488e-05    -0.000118103       -0.0799698         0.14368
281728                 0.0045068      -0.0355284     -0.000134552     -0.00042585        -0.692657        0.708976     -0.000398705    -0.000609477
                    -6.26247e-05    -0.000247148        -0.137867       -0.090877      0.000588582    -0.000342522        -0.230282       -0.952026
                       -0.692755        0.708923      0.000662958    -0.000172202       -0.0358735      0.00795716      0.000114685     -0.00011715
                    -0.000378061    -0.000584963         -0.23034       -0.951556      6.09797e-05    -0.000118216        -0.079887        0.143739
281730                0.00449098      -0.0355597     -0.000134977    -0.000425828        -0.692302        0.709322     -0.000399037     -0.00060929
                    -6.28267e-05    -0.000247056        -0.137909      -0.0908337      0.000588479    -0.000342866        -0.230745       -0.951912
                         -0.6924        0.709269      0.000662981    -0.000172377        -0.035898      0.00797752      0.000114763     -0.00011708
                    -0.000378278    -0.000584769        -0.230803       -0.951441      6.10107e-05    -0.000118329       -0.0798042        0.143797
281732                0.00447513      -0.0355909     -0.000135402    -0.000425806        -0.691947        0.709668     -0.000399369    -0.000609102
                    -6.30286e-05    -0.000246964        -0.137951      -0.0907905      0.000588377     -0.00034321        -0.231207       -0.951797
                       -0.692045        0.709615      0.000663003    -0.000172552       -0.0359225      0.00799792      0.000114841    -0.000117009
                    -0.000378496    -0.000584574        -0.231265       -0.951326      6.10417e-05    -0.000118442       -0.0797213        0.143856
281734                0.00445925      -0.0356222     -0.000135827    -0.000425783        -0.691591        0.710013     -0.000399702    -0.000608914
                    -6.32302e-05    -0.000246872        -0.137992      -0.0907472      0.000588275    -0.000343554         -0.23167       -0.951683
                        -0.69169         0.70996      0.000663026    -0.000172728       -0.0359469      0.00801835       0.00011492    -0.000116939
                    -0.000378713     -0.00058438        -0.231727       -0.951211      6.10729e-05    -0.000118555       -0.0796384        0.143915
281736                0.00444336      -0.0356534     -0.000136251    -0.000425759        -0.691235        0.710359     -0.000400034    -0.000608726
                    -6.34318e-05    -0.000246779        -0.138034      -0.0907039      0.000588172    -0.000343897        -0.232132       -0.951568
                       -0.691334        0.710306      0.000663049    -0.000172905       -0.0359714      0.00803882      0.000114998     -0.00011687
                     -0.00037893    -0.000584186        -0.232189       -0.951096      6.11041e-05    -0.000118669       -0.0795554        0.143973
281738                0.00442745      -0.0356846     -0.000136675    -0.000425735        -0.690879        0.710704     -0.000400367    -0.000608537
                    -6.36331e-05    -0.000246687        -0.138076      -0.0906606       0.00058807    -0.000344241        -0.232594       -0.951452
                       -0.690978        0.710651      0.000663072    -0.000173082       -0.0359958      0.00805932      0.000115077      -0.0001168
                    -0.000379147    -0.000583992        -0.232651       -0.950981      6.11354e-05    -0.000118783       -0.0794724        0.144032
281740                0.00441151      -0.0357158     -0.000137099    -0.000425709        -0.690523        0.711049     -0.000400699    -0.000608347
                    -6.38343e-05    -0.000246594        -0.138117      -0.0906173      0.000587967    -0.000344585        -0.233056       -0.951337
                       -0.690623        0.710996      0.000663094    -0.000173259       -0.0360203      0.00807986      0.000115157    -0.000116732
                    -0.000379364    -0.000583798        -0.233113       -0.950865      6.11667e-05    -0.000118897       -0.0793894         0.14409
281742                0.00439555       -0.035747     -0.000137523    -0.000425684        -0.690167        0.711394     -0.000401031    -0.000608158
                    -6.40352e-05      -0.0002465        -0.138159      -0.0905739      0.000587865    -0.000344929        -0.233519       -0.951221
                       -0.690267        0.711341      0.000663117    -0.000173437       -0.0360447      0.00810043      0.000115237    -0.000116663
                    -0.000379581    -0.000583603        -0.233575       -0.950749      6.11982e-05    -0.000119012       -0.0793063        0.144148
281744                0.00437957      -0.0357782     -0.000137946    -0.000425657        -0.689811        0.711738     -0.000401364    -0.000607968
                     -6.4236e-05    -0.000246407          -0.1382      -0.0905305      0.000587762    -0.000345272        -0.233981       -0.951105
                        -0.68991        0.711686       0.00066314    -0.000173615       -0.0360691      0.00812103      0.000115317    -0.000116596
                    -0.000379798    -0.000583408        -0.234037       -0.950633      6.12297e-05    -0.000119126       -0.0792231        0.144207
281746                0.00436357      -0.0358094      -0.00013837     -0.00042563        -0.689454        0.712083     -0.000401696    -0.000607777
                    -6.44364e-05    -0.000246313        -0.138242      -0.0904871       0.00058766    -0.000345616        -0.234443       -0.950989
                       -0.689554        0.712031      0.000663163    -0.000173794       -0.0360935      0.00814167      0.000115397    -0.000116528
                    -0.000380015    -0.000583213        -0.234499       -0.950516      6.12612e-05    -0.000119241       -0.0791399        0.144265
281748                0.00434754      -0.0358406     -0.000138792    -0.000425602        -0.689097        0.712427     -0.000402028    -0.000607586
                    -6.46365e-05    -0.000246218        -0.138284      -0.0904437      0.000587557     -0.00034596        -0.234905       -0.950873
                       -0.689198        0.712375      0.000663185    -0.000173973       -0.0361179      0.00816234      0.000115478    -0.000116461
                    -0.000380232    -0.000583017        -0.234961         -0.9504      6.12927e-05    -0.000119356       -0.0790567        0.144323
281750                 0.0043315      -0.0358718     -0.000139215    -0.000425574         -0.68874        0.712771     -0.000402361    -0.000607395
                     -6.4836e-05    -0.000246124        -0.138325      -0.0904003      0.000587455    -0.000346305        -0.235367       -0.950756
                       -0.688841        0.712719      0.000663208    -0.000174152       -0.0361422      0.00818304      0.000115559    -0.000116394
                    -0.000380449     -0.00058282        -0.235422       -0.950283      6.13223e-05    -0.000119474       -0.0789734        0.144381
281752                0.00431543      -0.0359029     -0.000139636    -0.000425546        -0.688383        0.713115     -0.000402693    -0.000607203
                    -6.50347e-05    -0.000246029        -0.138367      -0.0903568      0.000587352    -0.000346646        -0.235829       -0.950639
                       -0.688484        0.713063      0.000663232    -0.000174331       -0.0361666      0.00820378      0.000115641    -0.000116328
                    -0.000380666    -0.000582621        -0.235884       -0.950166      6.13588e-05    -0.000119586       -0.0788901        0.144439
281754                0.00429934      -0.0359341     -0.000140056     -0.00042552        -0.688026        0.713459     -0.000403026    -0.000607011
                    -6.52316e-05    -0.000245933        -0.138408      -0.0903133      0.000587249     -0.00034699        -0.236291       -0.950522
                       -0.688127        0.713407      0.000663256    -0.000174506       -0.0361909      0.00822455      0.000115723    -0.000116262
                    -0.000380883    -0.000582416        -0.236346       -0.950048        6.139e-05    -0.000119702       -0.0788067        0.144497
281756                0.00428324      -0.0359652     -0.000140529    -0.000425505        -0.687669        0.713803      -0.00040336    -0.000606818
                    -6.54235e-05    -0.000245834         -0.13845      -0.0902699      0.000587146    -0.000347334        -0.236753       -0.950405
                        -0.68777        0.713751      0.000663298    -0.000174659       -0.0362152      0.00824536      0.000115806    -0.000116196
                      -0.0003811    -0.000582197        -0.236807       -0.949931      6.14219e-05    -0.000119818       -0.0787233        0.144555
281758                0.00426715      -0.0359962     -0.000140916    -0.000425443        -0.687311        0.714146     -0.000403694    -0.000606625
                    -6.55837e-05    -0.000245715        -0.138491      -0.0902263      0.000587044    -0.000347678        -0.237215       -0.950287
                       -0.687413        0.714094      0.000663302    -0.000174933       -0.0362395      0.00826619      0.000115891    -0.000116129
                    -0.000381307    -0.000581884        -0.237269       -0.949813      6.14541e-05    -0.000119934       -0.0786399        0.144613
281760                0.00425088      -0.0360276     -0.000141334    -0.000425413        -0.686953        0.714489      -0.00040403    -0.000606432
                    -6.59145e-05    -0.000245661        -0.138533      -0.0901827      0.000586941    -0.000348022        -0.237676       -0.950169
                       -0.687055        0.714437      0.000663318    -0.000175089       -0.0362638      0.00828707      0.000115977    -0.000116062
                    -0.000381448    -0.000582119        -0.237731       -0.949695      6.14864e-05     -0.00012005       -0.0785564        0.144671
281762                0.00423474      -0.0360586     -0.000141754     -0.00042538        -0.686595        0.714832     -0.000404372    -0.000606239
                    -6.60692e-05    -0.000245562        -0.138574      -0.0901392      0.000586838    -0.000348365        -0.238138       -0.950051
                       -0.686698         0.71478      0.000663341    -0.000175267       -0.0362881      0.00830797      0.000116068    -0.000115993
