! TOUCHSTONE file generated by CST MICROWAVE STUDIO
! Date and time: Tue Oct 14 07:25:32 2025
! Project name: Teste_Macro_Metasurface_Nanopilar.cst
! Parameters = {H=600; L_x=80; L_y=130; Lambda=1064; Max_L=200; Min_L=70; PathPara=1; Phi=0; Step_L=10; Theta=0; p=520; phaseX=180; phaseY=0}
! Header version: 2018
! Port assignment regex: !\s*Touchstone port\s*([0-9]+)\s*=\s*(CST MWS port|CST DS port)\s*([0-9]+|Zmin|Zmax)\s*\(\"(.*)\"\)(\s*mode\s*([0-9]+))?.*
! Touchstone port assignment:
! Touchstone port 1 = CST MWS port Zmax ("") mode 1
! Touchstone port 2 = CST MWS port Zmax ("") mode 2
! Touchstone port 3 = CST MWS port Zmin ("") mode 1
! Touchstone port 4 = CST MWS port Zmin ("") mode 2
! S-Parameters are not renormalized. Each port impedance will be approximated by the real part at minimum frequency. The values are described via the [Reference] keyword.
! Default impedance is overridden by [Reference]
[Version] 2.0
# GHz S RI R 376.73
[Number of Ports] 4
[Reference]
376.73 376.73 259.814 259.814 
[Number of Frequencies] 51
[Network Data]
281700                  -0.18154       0.0255769      0.000336658     0.000674143         -0.26969       -0.937778     -0.000289868     2.64273e-06
                     0.000347999     0.000429382      -0.00417901       0.0875206     -2.59949e-05    -0.000203031         0.983222       -0.156355
                       -0.269686       -0.938021      2.54498e-05    -0.000306663        -0.166748       0.0750188      0.000424943     0.000148303
                    -0.000238169     0.000118728         0.982809       -0.156289      0.000528647     0.000289946        0.0310056       0.0820547
281702                 -0.181534       0.0256455      0.000337087     0.000673396        -0.270147       -0.937646     -0.000289804      2.6487e-06
                     0.000348252     0.000429308      -0.00414596       0.0875176     -2.60727e-05    -0.000203194         0.983165        -0.15672
                       -0.270143       -0.937888      2.51678e-05    -0.000306587        -0.166706       0.0751199      0.000424985     0.000148148
                    -0.000238075     0.000118861         0.982752       -0.156653      0.000528894     0.000289554        0.0310341       0.0820391
281704                 -0.181528       0.0257142      0.000337515     0.000672649        -0.270604       -0.937512      -0.00028974     2.65462e-06
                     0.000348505     0.000429233      -0.00411291       0.0875146     -2.61507e-05    -0.000203358         0.983107       -0.157084
                         -0.2706       -0.937755       2.4886e-05    -0.000306512        -0.166664        0.075221      0.000425027     0.000147993
                    -0.000237979     0.000118996         0.982694       -0.157017       0.00052914     0.000289162        0.0310626       0.0820234
281706                 -0.181521       0.0257828      0.000337942     0.000671902         -0.27106       -0.937379     -0.000289677     2.66049e-06
                     0.000348759     0.000429158      -0.00407986       0.0875116     -2.62287e-05    -0.000203521         0.983049       -0.157449
                       -0.271057       -0.937622      2.46043e-05    -0.000306436        -0.166623        0.075322      0.000425069     0.000147839
                    -0.000237882      0.00011913         0.982636       -0.157382      0.000529386     0.000288769        0.0310911       0.0820078
281708                 -0.181515       0.0258514      0.000338369     0.000671157        -0.271517       -0.937246     -0.000289613      2.6663e-06
                     0.000349012     0.000429082      -0.00404681       0.0875086     -2.63067e-05    -0.000203684         0.982991       -0.157814
                       -0.271514       -0.937489      2.43226e-05     -0.00030636        -0.166581        0.075423      0.000425111     0.000147684
                    -0.000237784     0.000119266         0.982578       -0.157746      0.000529631     0.000288377        0.0311195       0.0819922
281710                 -0.181509       0.0259201      0.000338796     0.000670411        -0.271973       -0.937112      -0.00028955     2.67206e-06
                     0.000349266     0.000429007      -0.00401377       0.0875055     -2.63848e-05    -0.000203848         0.982933       -0.158178
                        -0.27197       -0.937355      2.40411e-05    -0.000306284        -0.166539        0.075524      0.000425153      0.00014753
                    -0.000237685     0.000119402          0.98252        -0.15811      0.000529877     0.000287985         0.031148       0.0819766
281712                 -0.181502       0.0259887      0.000339222     0.000669667         -0.27243       -0.936978     -0.000289486     2.67776e-06
                      0.00034952     0.000428931      -0.00398073       0.0875025     -2.64629e-05     -0.00020401         0.982875       -0.158543
                       -0.272427       -0.937221      2.37597e-05    -0.000306209        -0.166497        0.075625      0.000425195     0.000147376
                    -0.000237586     0.000119538         0.982462       -0.158475      0.000530122     0.000287593        0.0311764       0.0819609
281714                 -0.181496       0.0260573      0.000339648     0.000668923        -0.272886       -0.936844     -0.000289423     2.68341e-06
                     0.000349774     0.000428855      -0.00394769       0.0874994      -2.6541e-05    -0.000204173         0.982816       -0.158908
                       -0.272884       -0.937087      2.34785e-05    -0.000306133        -0.166455       0.0757259      0.000425237     0.000147221
                    -0.000237486     0.000119674         0.982404       -0.158839      0.000530367     0.000287201        0.0312048       0.0819452
281716                  -0.18149        0.026126      0.000340073      0.00066818        -0.273343       -0.936709      -0.00028936       2.689e-06
                     0.000350028     0.000428779      -0.00391465       0.0874964     -2.66192e-05    -0.000204336         0.982758       -0.159272
                        -0.27334       -0.936953      2.31973e-05    -0.000306058        -0.166412       0.0758268      0.000425279     0.000147067
                    -0.000237385     0.000119811         0.982345       -0.159203      0.000530612     0.000286809        0.0312333       0.0819296
281718                 -0.181483       0.0261946      0.000340497     0.000667438        -0.273799       -0.936575     -0.000289297     2.69454e-06
                     0.000350283     0.000428702      -0.00388161       0.0874933     -2.66972e-05    -0.000204499         0.982699       -0.159637
                       -0.273797       -0.936818      2.29163e-05    -0.000305982         -0.16637       0.0759277       0.00042532     0.000146913
                    -0.000237283     0.000119948         0.982286       -0.159567      0.000530857     0.000286416        0.0312617       0.0819139
281720                 -0.181477       0.0262632      0.000340922     0.000666696        -0.274255        -0.93644     -0.000289235     2.70002e-06
                     0.000350537     0.000428625      -0.00384858       0.0874902     -2.67753e-05    -0.000204663          0.98264       -0.160001
                       -0.274253       -0.936683      2.26353e-05    -0.000305907        -0.166328       0.0760286      0.000425362     0.000146759
                    -0.000237181     0.000120085         0.982228       -0.159932      0.000531102     0.000286023        0.0312901       0.0818982
281722                  -0.18147       0.0263319      0.000341346     0.000665955        -0.274712       -0.936305     -0.000289172     2.70544e-06
                     0.000350792     0.000428548      -0.00381554       0.0874871     -2.68531e-05    -0.000204826         0.982581       -0.160366
                       -0.274709       -0.936548      2.23546e-05    -0.000305832        -0.166286       0.0761294      0.000425403     0.000146605
                    -0.000237079     0.000120223         0.982169       -0.160296      0.000531347      0.00028563        0.0313185       0.0818825
281724                 -0.181463       0.0264005      0.000341769     0.000665215        -0.275168        -0.93617      -0.00028911     2.71081e-06
                     0.000351046     0.000428471      -0.00378251        0.087484     -2.69308e-05    -0.000204991         0.982522        -0.16073
                       -0.275166       -0.936413      2.20739e-05    -0.000305756        -0.166243       0.0762303      0.000425445     0.000146451
                    -0.000236976      0.00012036          0.98211        -0.16066      0.000531593     0.000285236        0.0313469       0.0818668
281726                 -0.181457       0.0264692      0.000342192     0.000664475        -0.275624       -0.936034     -0.000289048     2.71612e-06
                     0.000351301     0.000428393      -0.00374948       0.0874809     -2.70081e-05    -0.000205156         0.982463       -0.161095
                       -0.275622       -0.936278      2.17934e-05    -0.000305681        -0.166201        0.076331      0.000425486     0.000146297
                    -0.000236873     0.000120497         0.982051       -0.161024      0.000531839     0.000284841        0.0313753       0.0818511
281728                  -0.18145       0.0265378      0.000342614     0.000663736         -0.27608       -0.935898     -0.000288985     2.72137e-06
                     0.000351556     0.000428316      -0.00371646       0.0874777     -2.70847e-05    -0.000205324         0.982403       -0.161459
                       -0.276078       -0.936142       2.1513e-05    -0.000305606        -0.166158       0.0764318      0.000425528     0.000146143
                     -0.00023677     0.000120635         0.981991       -0.161388      0.000532088     0.000284445        0.0314037       0.0818354
281730                 -0.181444       0.0266065      0.000343036     0.000662998        -0.276536       -0.935762     -0.000288923     2.72657e-06
                     0.000351811     0.000428237      -0.00368343       0.0874746     -2.71601e-05    -0.000205495         0.982344       -0.161824
                       -0.276534       -0.936006      2.12327e-05    -0.000305531        -0.166116       0.0765326      0.000425569     0.000145989
                    -0.000236666     0.000120773         0.981932       -0.161752      0.000532339     0.000284044         0.031432       0.0818197
281732                 -0.181437       0.0266751      0.000343457      0.00066226        -0.276992       -0.935626     -0.000288861      2.7317e-06
                     0.000352067     0.000428159      -0.00365041       0.0874714     -2.72332e-05    -0.000205673         0.982284       -0.162188
                        -0.27699        -0.93587      2.09526e-05    -0.000305456        -0.166073       0.0766333       0.00042561     0.000145835
                    -0.000236562      0.00012091         0.981872       -0.162116      0.000532597     0.000283637        0.0314604       0.0818039
281734                  -0.18143       0.0267437      0.000343878     0.000661524        -0.277447        -0.93549       -0.0002888     2.73678e-06
                     0.000352322      0.00042808      -0.00361739       0.0874682     -2.73005e-05    -0.000205869         0.982224       -0.162552
                       -0.277446       -0.935734      2.06726e-05    -0.000305381         -0.16603        0.076734      0.000425651     0.000145682
                    -0.000236457     0.000121048         0.981812        -0.16248      0.000532871     0.000283214        0.0314888       0.0817882
281736                 -0.181423       0.0268124      0.000344298     0.000660787        -0.277903       -0.935353     -0.000288738     2.74181e-06
                     0.000352578     0.000428001      -0.00358437       0.0874651     -2.73475e-05    -0.000206127         0.982165       -0.162917
                       -0.277902       -0.935597      2.03927e-05    -0.000305307        -0.165987       0.0768346      0.000425692     0.000145528
                    -0.000236352     0.000121186         0.981753       -0.162844      0.000533201     0.000282734        0.0315171       0.0817724
281738                 -0.181417       0.0268811      0.000344717     0.000660052        -0.278356       -0.935216     -0.000288677     2.74677e-06
                     0.000352834     0.000427922      -0.00355136       0.0874619     -2.70703e-05    -0.000207397         0.982104       -0.163281
                       -0.278358        -0.93546       2.0113e-05    -0.000305232        -0.165945       0.0769347      0.000425733     0.000145375
                    -0.000236247     0.000121323         0.981693       -0.163208      0.000534435     0.000281329        0.0315454       0.0817566
281740                  -0.18141       0.0269497      0.000345136     0.000659317        -0.278816       -0.935079     -0.000288615     2.75167e-06
                      0.00035309     0.000427842      -0.00351834       0.0874586     -2.76864e-05    -0.000205894         0.982044       -0.163646
                       -0.278814       -0.935323      1.98335e-05    -0.000305157        -0.165902       0.0770361      0.000425774     0.000145221
                    -0.000236142     0.000121461         0.981632       -0.163572      0.000533185     0.000282458        0.0315738       0.0817409
281742                 -0.181403       0.0270184      0.000345554     0.000658583        -0.279271       -0.934942     -0.000288554     2.75652e-06
                     0.000353346     0.000427762      -0.00348533       0.0874554     -2.77064e-05    -0.000206234         0.981984        -0.16401
                       -0.279269       -0.935186      1.95542e-05    -0.000305082        -0.165859       0.0771366      0.000425815     0.000145068
                    -0.000236036     0.000121599         0.981572       -0.163936      0.000533588     0.000281903        0.0316021       0.0817251
281744                 -0.181396        0.027087      0.000345971     0.000657848        -0.279726       -0.934804     -0.000288493      2.7613e-06
                     0.000353602     0.000427682      -0.00345232       0.0874522     -2.77693e-05    -0.000206443         0.981924       -0.164374
                       -0.279725       -0.935049      1.92752e-05    -0.000305008        -0.165816       0.0772372      0.000425855     0.000144914
                     -0.00023593     0.000121737         0.981512         -0.1643      0.000533873     0.000281468        0.0316304       0.0817093
281746                 -0.181389       0.0271557      0.000346383     0.000657113        -0.280182       -0.934666     -0.000288433     2.76603e-06
                     0.000353859     0.000427602      -0.00341931       0.0874489     -2.78412e-05    -0.000206625         0.981863       -0.164738
                       -0.280181       -0.934911      1.89969e-05    -0.000304932        -0.165773       0.0773377      0.000425896     0.000144761
                    -0.000235824     0.000121875         0.981451       -0.164664      0.000534133     0.000281057        0.0316587       0.0816935
281748                 -0.181382       0.0272243      0.000346755     0.000656354        -0.280637       -0.934528     -0.000288372      2.7707e-06
                     0.000354117     0.000427521      -0.00338632       0.0874457     -2.79166e-05    -0.000206796         0.981802       -0.165103
                       -0.280636       -0.934773      1.87257e-05    -0.000304853        -0.165729       0.0774382      0.000425937     0.000144608
                    -0.000235716     0.000122013         0.981391       -0.165028      0.000534384     0.000280656         0.031687       0.0816777
281750                 -0.181375        0.027293       0.00034725     0.000655673        -0.281093        -0.93439     -0.000288313     2.77529e-06
                     0.000354376      0.00042744       -0.0033533       0.0874424     -2.79937e-05    -0.000206961         0.981741       -0.165467
                       -0.281092       -0.934635      1.84336e-05    -0.000304788        -0.165686       0.0775387      0.000425978     0.000144454
                    -0.000235608     0.000122153          0.98133       -0.165392       0.00053463      0.00028026        0.0317153       0.0816618
281752                 -0.181369       0.0273617      0.000347655     0.000654935        -0.281548       -0.934252     -0.000288324     2.77511e-06
                     0.000354644     0.000427348       -0.0033203       0.0874391     -2.80718e-05    -0.000207124          0.98168       -0.165831
                       -0.281548       -0.934496      1.81567e-05    -0.000304712        -0.165643       0.0776392      0.000426114     0.000144301
                    -0.000235493     0.000122299         0.981269       -0.165756      0.000534873     0.000279867        0.0317436        0.081646
281754                 -0.181362       0.0274303      0.000348067     0.000654204        -0.282003       -0.934113     -0.000288185     2.78436e-06
                     0.000354878     0.000427262       -0.0032873       0.0874358     -2.81506e-05    -0.000207285         0.981619       -0.166195
                       -0.282003       -0.934358      1.78786e-05    -0.000304638        -0.165599       0.0777397      0.000426056     0.000144149
                    -0.000235569     0.000122388         0.981208        -0.16612      0.000535114     0.000279475        0.0317719       0.0816302
281756                 -0.181354        0.027499      0.000348481     0.000653474        -0.282459       -0.933974     -0.000288127     2.78879e-06
                     0.000355136     0.000427186       -0.0032543       0.0874325     -2.82298e-05    -0.000207444         0.981558       -0.166559
                       -0.282458       -0.934219      1.76003e-05    -0.000304564        -0.165556       0.0778401      0.000426097     0.000143996
                     -0.00023531     0.000122544         0.981147       -0.166484      0.000535353     0.000279085        0.0318001       0.0816143
281758                 -0.181347       0.0275676      0.000348895     0.000652746        -0.282914       -0.933835     -0.000288067     2.79316e-06
                     0.000355393     0.000427105      -0.00322131       0.0874292     -2.83093e-05    -0.000207602         0.981497       -0.166923
                       -0.282913        -0.93408      1.73221e-05     -0.00030449        -0.165513       0.0779405      0.000426137     0.000143843
                    -0.000235196     0.000122686         0.981085       -0.166847      0.000535592     0.000278695        0.0318284       0.0815985
281760                  -0.18134       0.0276363      0.000349309     0.000652019        -0.283369       -0.933696     -0.000288007     2.79747e-06
                      0.00035565     0.000427022      -0.00318831       0.0874259     -2.83891e-05    -0.000207759         0.981435       -0.167288
                       -0.283369       -0.933941       1.7044e-05    -0.000304416        -0.165469       0.0780409      0.000426178      0.00014369
                    -0.000235086     0.000122825         0.981024       -0.167211       0.00053583     0.000278306        0.0318567       0.0815826
281762                 -0.181333        0.027705      0.000349722     0.000651293        -0.283824       -0.933556     -0.000287947     2.80172e-06
                     0.000355907     0.000426939      -0.00315532       0.0874225     -2.84691e-05    -0.000207916         0.981373       -0.167652
                       -0.283824       -0.933802      1.67661e-05    -0.000304342        -0.165425       0.0781412      0.000426218     0.000143537
