! TOUCHSTONE file generated by CST MICROWAVE STUDIO
! Date and time: Tue Oct 14 07:31:27 2025
! Project name: Teste_Macro_Metasurface_Nanopilar.cst
! Parameters = {H=600; L_x=175; L_y=105; Lambda=1064; Max_L=200; Min_L=70; PathPara=1; Phi=0; Step_L=10; Theta=0; p=520; phaseX=180; phaseY=0}
! Header version: 2018
! Port assignment regex: !\s*Touchstone port\s*([0-9]+)\s*=\s*(CST MWS port|CST DS port)\s*([0-9]+|Zmin|Zmax)\s*\(\"(.*)\"\)(\s*mode\s*([0-9]+))?.*
! Touchstone port assignment:
! Touchstone port 1 = CST MWS port Zmax ("") mode 1
! Touchstone port 2 = CST MWS port Zmax ("") mode 2
! Touchstone port 3 = CST MWS port Zmin ("") mode 1
! Touchstone port 4 = CST MWS port Zmin ("") mode 2
! S-Parameters are not renormalized. Each port impedance will be approximated by the real part at minimum frequency. The values are described via the [Reference] keyword.
! Default impedance is overridden by [Reference]
[Version] 2.0
# GHz S RI R 376.73
[Number of Ports] 4
[Reference]
376.73 376.73 259.814 259.814 
[Number of Frequencies] 51
[Network Data]
281700                 -0.173436     0.000262997      0.000536425     0.000320208          -0.9578       -0.186814      0.000334102     0.000144207
                     0.000613838     0.000230307        -0.693282       -0.458686     -0.000428209    -0.000321563         0.514361       0.0387776
                       -0.957771       -0.186403     -0.000389842    -0.000271597         0.158613       0.0660211      0.000523709     -0.00024079
                      0.00047727      0.00015678         0.514528       0.0380737      0.000530564    -0.000469108         0.703766       -0.422588
281702                  -0.17342     0.000325299      0.000536617     0.000319681          -0.9579       -0.186314      0.000334458     0.000143768
                     0.000613866     0.000229486         -0.69389         -0.4583     -0.000428583    -0.000321211         0.513892       0.0382667
                        -0.95787       -0.185904     -0.000390182    -0.000271182         0.158644       0.0659071      0.000523702    -0.000240624
                     0.000477807     0.000156012         0.514057       0.0375619      0.000530064    -0.000469385           0.7035       -0.423592
281704                 -0.173405     0.000387586      0.000536809     0.000319154        -0.957999       -0.185815      0.000334807     0.000143325
                     0.000613893     0.000228665        -0.694498       -0.457913     -0.000428956    -0.000320859         0.513423       0.0377566
                       -0.957969       -0.185405     -0.000390521    -0.000270767         0.158674       0.0657931      0.000523701    -0.000240457
                     0.000478345     0.000155242         0.513586       0.0370507      0.000529563    -0.000469661         0.703231       -0.424596
281706                 -0.173389     0.000449858         0.000537     0.000318627        -0.958098       -0.185316       0.00033515      0.00014288
                     0.000613919     0.000227844        -0.695107       -0.457524      -0.00042933    -0.000320506         0.512952       0.0372472
                       -0.958068       -0.184905     -0.000390861    -0.000270351         0.158704       0.0656791      0.000523706    -0.000240289
                     0.000478881     0.000154471         0.513113       0.0365403      0.000529061    -0.000469936         0.702962       -0.425601
281708                 -0.173373     0.000512115       0.00053719     0.000318099        -0.958197       -0.184816      0.000335485     0.000142432
                     0.000613944     0.000227023        -0.695715       -0.457135     -0.000429703    -0.000320152          0.51248       0.0367386
                       -0.958167       -0.184406       -0.0003912    -0.000269935         0.158734        0.065565      0.000523717    -0.000240119
                     0.000479418     0.000153698         0.512639       0.0360307      0.000528558    -0.000470211          0.70269       -0.426606
281710                 -0.173357     0.000574357       0.00053738     0.000317572        -0.958295       -0.184317      0.000335813     0.000141981
                     0.000613968     0.000226201        -0.696323       -0.456744     -0.000430076    -0.000319797         0.512007       0.0362307
                       -0.958265       -0.183907     -0.000391538    -0.000269518         0.158764        0.065451      0.000523734    -0.000239948
                     0.000479954     0.000152923         0.512164       0.0355217      0.000528055    -0.000470485         0.702417       -0.427611
281712                 -0.173341     0.000636585      0.000537569     0.000317045        -0.958394       -0.183817      0.000336135     0.000141527
                      0.00061399      0.00022538        -0.696931       -0.456353     -0.000430449    -0.000319442         0.511533       0.0357236
                       -0.958363       -0.183407     -0.000391877    -0.000269102         0.158794       0.0653369      0.000523757    -0.000239775
                     0.000480489     0.000152147         0.511688       0.0350135      0.000527551    -0.000470759         0.702142       -0.428616
281714                 -0.173326     0.000698798      0.000537757     0.000316518        -0.958492       -0.183318       0.00033645     0.000141071
                     0.000614012     0.000224557        -0.697539       -0.455961     -0.000430821    -0.000319086         0.511057       0.0352172
                        -0.95846       -0.182908     -0.000392215    -0.000268684         0.158824       0.0652228      0.000523786    -0.000239601
                     0.000481024     0.000151369         0.511211       0.0345061      0.000527046    -0.000471032         0.701865       -0.429621
281716                  -0.17331     0.000760996      0.000537944      0.00031599        -0.958589       -0.182818      0.000336757     0.000140611
                     0.000614032     0.000223735        -0.698148       -0.455567     -0.000431194    -0.000318729         0.510581       0.0347115
                       -0.958558       -0.182408     -0.000392553    -0.000268266         0.158854       0.0651087      0.000523821    -0.000239425
                     0.000481559     0.000150589         0.510732       0.0339994       0.00052654    -0.000471304         0.701587       -0.430627
281718                 -0.173294     0.000823178      0.000538131     0.000315463        -0.958687       -0.182318      0.000337058     0.000140149
                     0.000614052     0.000222912        -0.698756       -0.455172     -0.000431566    -0.000318372         0.510104       0.0342067
                       -0.958655       -0.181909     -0.000392891    -0.000267848         0.158884       0.0649946      0.000523861    -0.000239249
                     0.000482093     0.000149808         0.510253       0.0334934      0.000526034    -0.000471575         0.701307       -0.431633
281720                 -0.173278     0.000885347      0.000538318     0.000314936        -0.958784       -0.181819      0.000337353     0.000139683
                      0.00061407     0.000222088        -0.699364       -0.454777     -0.000431938    -0.000318014         0.509625       0.0337026
                       -0.958752       -0.181409     -0.000393229    -0.000267429         0.158913       0.0648804      0.000523908    -0.000239071
                     0.000482627     0.000149025         0.509773       0.0329882      0.000525527    -0.000471845         0.701026        -0.43264
281722                 -0.173262       0.0009475      0.000538503     0.000314408        -0.958881       -0.181319       0.00033764     0.000139215
                     0.000614088     0.000221265        -0.699972        -0.45438      -0.00043231    -0.000317656         0.509146       0.0331992
                       -0.958849        -0.18091     -0.000393566     -0.00026701         0.158943       0.0647663       0.00052396    -0.000238891
                      0.00048316      0.00014824         0.509291       0.0324838      0.000525019    -0.000472115         0.700742       -0.433647
281724                 -0.173246      0.00100964      0.000538688     0.000313881        -0.958978       -0.180819      0.000337921     0.000138744
                     0.000614104     0.000220441         -0.70058       -0.453983     -0.000432682    -0.000317296         0.508665       0.0326966
                       -0.958945        -0.18041     -0.000393903     -0.00026659         0.158972       0.0646521      0.000524017     -0.00023871
                     0.000483693     0.000147454         0.508809       0.0319801       0.00052451    -0.000472385         0.700457       -0.434653
281726                  -0.17323      0.00107176      0.000538872     0.000313353        -0.959074       -0.180319      0.000338195      0.00013827
                     0.000614119     0.000219617        -0.701188       -0.453584     -0.000433054    -0.000316936         0.508184       0.0321948
                       -0.959041        -0.17991      -0.00039424     -0.00026617         0.159002       0.0645379      0.000524081    -0.000238528
                     0.000484225     0.000146666         0.508325       0.0314772         0.000524    -0.000472653         0.700171       -0.435661
281728                 -0.173214      0.00113387      0.000539056     0.000312826        -0.959171       -0.179819      0.000338462     0.000137793
                     0.000614133     0.000218792        -0.701796       -0.453184     -0.000433426    -0.000316576         0.507701       0.0316938
                       -0.959137        -0.17941     -0.000394577     -0.00026575         0.159031       0.0644237       0.00052415    -0.000238345
                     0.000484756     0.000145877          0.50784        0.030975       0.00052349    -0.000472921         0.699882       -0.436668
281730                 -0.173198      0.00119596      0.000539238     0.000312298        -0.959266       -0.179319      0.000338722     0.000137314
                     0.000614146     0.000217967        -0.702404       -0.452783     -0.000433797    -0.000316214         0.507217       0.0311935
                       -0.959233       -0.178911     -0.000394913    -0.000265329          0.15906       0.0643095      0.000524225     -0.00023816
                     0.000485287     0.000145086         0.507354       0.0304736      0.000522978    -0.000473188         0.699592       -0.437676
281732                 -0.173182      0.00125804       0.00053942     0.000311771        -0.959362       -0.178819      0.000338976     0.000136831
                     0.000614158     0.000217142        -0.703011       -0.452381     -0.000434169    -0.000315852         0.506732        0.030694
                       -0.959328       -0.178411     -0.000395249    -0.000264908          0.15909       0.0641953      0.000524305    -0.000237974
                     0.000485818     0.000144294         0.506868        0.029973      0.000522466    -0.000473454           0.6993       -0.438684
281734                 -0.173166      0.00132011      0.000539602     0.000311243        -0.959458       -0.178319      0.000339224     0.000136346
                     0.000614169     0.000216317        -0.703619       -0.451978      -0.00043454     -0.00031549         0.506247       0.0301953
                       -0.959423       -0.177911     -0.000395584    -0.000264486         0.159119        0.064081      0.000524391    -0.000237787
                     0.000486348     0.000143499          0.50638       0.0294731      0.000521954     -0.00047372         0.699007       -0.439692
281736                  -0.17315      0.00138216      0.000539782     0.000310716        -0.959553       -0.177819      0.000339465     0.000135858
                     0.000614178     0.000215491        -0.704227       -0.451575     -0.000434911    -0.000315126          0.50576       0.0296974
                       -0.959518       -0.177411      -0.00039592    -0.000264064         0.159148       0.0639668      0.000524482    -0.000237598
                     0.000486878     0.000142704         0.505891       0.0289741       0.00052144    -0.000473984         0.698712         -0.4407
281738                 -0.173134      0.00144419      0.000539962     0.000310188        -0.959648       -0.177319      0.000339699     0.000135368
                     0.000614187     0.000214665        -0.704835        -0.45117     -0.000435281    -0.000314762         0.505272       0.0292003
                       -0.959612       -0.176911     -0.000396255    -0.000263641         0.159176       0.0638525      0.000524579    -0.000237408
                     0.000487406     0.000141906           0.5054       0.0284758      0.000520926    -0.000474248         0.698415       -0.441709
281740                 -0.173117      0.00150621      0.000540142      0.00030966        -0.959742       -0.176819      0.000339927     0.000134874
                     0.000614194     0.000213838        -0.705442       -0.450763     -0.000435652    -0.000314397         0.504782       0.0287039
                       -0.959707       -0.176411      -0.00039659    -0.000263218         0.159205       0.0637382      0.000524682    -0.000237217
                     0.000487935     0.000141107         0.504909       0.0279782      0.000520411    -0.000474512         0.698117       -0.442718
281742                 -0.173101      0.00156821       0.00054032     0.000309132        -0.959837       -0.176319      0.000340148     0.000134378
                     0.000614201     0.000213011         -0.70605       -0.450356     -0.000436023    -0.000314032         0.504292       0.0282084
                       -0.959801        -0.17591     -0.000396924    -0.000262794         0.159234       0.0636239       0.00052479    -0.000237024
                     0.000488463     0.000140307         0.504417       0.0274815      0.000519895    -0.000474774         0.697816       -0.443727
281744                 -0.173085       0.0016302      0.000540498     0.000308604        -0.959931       -0.175818      0.000340363      0.00013388
                     0.000614206     0.000212184        -0.706658       -0.449948     -0.000436393    -0.000313665         0.503801       0.0277136
                       -0.959895        -0.17541     -0.000397258     -0.00026237         0.159263       0.0635096      0.000524903    -0.000236831
                      0.00048899     0.000139505         0.503924       0.0269856      0.000519378    -0.000475036         0.697514       -0.444736
281746                 -0.173069      0.00169218      0.000540675     0.000308077        -0.960025       -0.175318      0.000340571     0.000133378
                      0.00061421     0.000211356        -0.707265       -0.449539     -0.000436763    -0.000313298         0.503309       0.0272197
                       -0.959988        -0.17491     -0.000397592    -0.000261946         0.159291       0.0633952      0.000525021    -0.000236636
                     0.000489517     0.000138701         0.503429       0.0264904      0.000518861    -0.000475297         0.697211       -0.445746
281748                 -0.173052      0.00175414      0.000540852     0.000307549        -0.960118       -0.174818      0.000340773     0.000132874
                     0.000614213     0.000210529        -0.707873       -0.449129     -0.000437132    -0.000312931         0.502815       0.0267265
                       -0.960081        -0.17441     -0.000397926    -0.000261521          0.15932       0.0632809      0.000525145    -0.000236439
                     0.000490043     0.000137896         0.502934        0.025996      0.000518343    -0.000475556         0.696905       -0.446756
281750                 -0.173036      0.00181608      0.000541028      0.00030702        -0.960212       -0.174317      0.000340969     0.000132367
                     0.000614215       0.0002097         -0.70848       -0.448717     -0.000437507    -0.000312562         0.502321       0.0262342
                       -0.960174       -0.173909     -0.000398259    -0.000261096         0.159348       0.0631665      0.000525275    -0.000236242
                     0.000490568      0.00013709         0.502437       0.0255025      0.000517818    -0.000475819         0.696598       -0.447766
281752                  -0.17302      0.00187801      0.000541203     0.000306492        -0.960305       -0.173817      0.000341158     0.000131858
                     0.000614215     0.000208872        -0.709087       -0.448305     -0.000437873    -0.000312194         0.501825       0.0257426
                       -0.960267       -0.173409     -0.000398592     -0.00026067         0.159376       0.0630522       0.00052541    -0.000236042
                     0.000491093     0.000136282          0.50194       0.0250097      0.000517303    -0.000476077         0.696289       -0.448776
281754                 -0.173003      0.00193993      0.000541377     0.000305964        -0.960398       -0.173316      0.000341341     0.000131345
                     0.000614215     0.000208043        -0.709695       -0.447892     -0.000438242    -0.000311824         0.501329       0.0252519
                        -0.96036       -0.172908     -0.000398925    -0.000260244         0.159404       0.0629378      0.000525551    -0.000235841
                     0.000491616     0.000135472         0.501441       0.0245177      0.000516783    -0.000476334         0.695979       -0.449787
281756                 -0.172987      0.00200183       0.00054155     0.000305435         -0.96049       -0.172815      0.000341518      0.00013083
                     0.000614212     0.000207213        -0.710302       -0.447477     -0.000438612    -0.000311453         0.500831       0.0247619
                       -0.960452       -0.172408     -0.000399257    -0.000259818         0.159432       0.0628234      0.000525698    -0.000235637
                     0.000492139     0.000134663         0.500941       0.0240265      0.000516262    -0.000476591         0.695667       -0.450797
281758                 -0.172971      0.00206374      0.000541721     0.000304903        -0.960583       -0.172315      0.000341688     0.000130312
                     0.000614206     0.000206379        -0.710909       -0.447061     -0.000438981    -0.000311082         0.500332       0.0242728
                       -0.960544       -0.171907     -0.000399587    -0.000259393          0.15946       0.0627089      0.000525841     -0.00023542
                     0.000492655     0.000133862         0.500441       0.0235362       0.00051574    -0.000476848         0.695353       -0.451808
281760                 -0.172954      0.00212556      0.000541903     0.000304386        -0.960675       -0.171814       0.00034185     0.000129791
                      0.00061421     0.000205556        -0.711516       -0.446645      -0.00043935     -0.00031071         0.499833       0.0237846
                       -0.960636       -0.171407     -0.000399923    -0.000258958         0.159488       0.0625945      0.000525983    -0.000235232
                     0.000493195     0.000133017         0.499939       0.0230466      0.000515217    -0.000477103         0.695037        -0.45282
281762                 -0.172938      0.00218743       0.00054207     0.000303854        -0.960766       -0.171313      0.000342004     0.000129267
                     0.000614203     0.000204725        -0.712123       -0.446227     -0.000439718    -0.000310338         0.499332       0.0232971
                       -0.960727       -0.170906     -0.000400253    -0.000258533         0.159516       0.0624801      0.000526148    -0.000235032
