! TOUCHSTONE file generated by CST MICROWAVE STUDIO
! Date and time: Tue Oct 14 07:26:29 2025
! Project name: Teste_Macro_Metasurface_Nanopilar.cst
! Parameters = {H=600; L_x=95; L_y=135; Lambda=1064; Max_L=200; Min_L=70; PathPara=1; Phi=0; Step_L=10; Theta=0; p=520; phaseX=180; phaseY=0}
! Header version: 2018
! Port assignment regex: !\s*Touchstone port\s*([0-9]+)\s*=\s*(CST MWS port|CST DS port)\s*([0-9]+|Zmin|Zmax)\s*\(\"(.*)\"\)(\s*mode\s*([0-9]+))?.*
! Touchstone port assignment:
! Touchstone port 1 = CST MWS port Zmax ("") mode 1
! Touchstone port 2 = CST MWS port Zmax ("") mode 2
! Touchstone port 3 = CST MWS port Zmin ("") mode 1
! Touchstone port 4 = CST MWS port Zmin ("") mode 2
! S-Parameters are not renormalized. Each port impedance will be approximated by the real part at minimum frequency. The values are described via the [Reference] keyword.
! Default impedance is overridden by [Reference]
[Version] 2.0
# GHz S RI R 376.73
[Number of Ports] 4
[Reference]
376.73 376.73 259.814 259.814 
[Number of Frequencies] 51
[Network Data]
281700                0.00700759       0.0614265      0.000801106    -7.77084e-05        -0.954604        0.257618      0.000286916     0.000266599
                      0.00101342    -0.000116779        0.0130829      -0.0465259     -0.000147298    -0.000162695         0.637105       -0.765511
                       -0.954378        0.257339     -0.000113466    -0.000277579          0.02233       0.0585621      0.000385669    -0.000904601
                     0.000145016     0.000140979         0.637483       -0.765105      0.000426361    -0.000681105        -0.043124       0.0222673
281702                0.00704313       0.0613909      0.000800872    -7.82205e-05        -0.954472        0.258118      0.000287309     0.000266148
                      0.00101317     -0.00011745        0.0130693      -0.0465463     -0.000182171    -0.000334602         0.636786       -0.765775
                       -0.954244        0.257841     -0.000113598    -0.000277533        0.0223421       0.0585244      0.000385114    -0.000904332
                     0.000144973      0.00014092         0.637164       -0.765369      0.000445467    -0.000830114       -0.0431284       0.0222938
281704                0.00707864       0.0613552      0.000800637    -7.87324e-05        -0.954338         0.25862      0.000287703     0.000265696
                      0.00101293    -0.000118121        0.0130557      -0.0465668     -0.000182695    -0.000330503         0.636467       -0.766038
                       -0.954111        0.258344     -0.000113731    -0.000277486        0.0223542        0.058487      0.000384556    -0.000904061
                     0.000144931     0.000140862         0.636846       -0.765633      0.000442349    -0.000829545       -0.0431328       0.0223202
281706                0.00711412       0.0613194      0.000800403    -7.92443e-05        -0.954203        0.259126      0.000288097     0.000265242
                      0.00101269    -0.000118791        0.0130421      -0.0465873     -0.000147095    -0.000162305         0.636149       -0.766301
                       -0.953977        0.258846     -0.000113864    -0.000277439        0.0223662         0.05845      0.000383998    -0.000903787
                     0.000144889     0.000140804         0.636527       -0.765897      0.000425936    -0.000680924       -0.0431372       0.0223466
281708                0.00714957       0.0612837      0.000800169    -7.97562e-05        -0.954064        0.259637      0.000288493     0.000264786
                      0.00101245    -0.000119461        0.0130284      -0.0466078     -0.000183535    -0.000303111          0.63583       -0.766564
                       -0.953843        0.259349     -0.000113997    -0.000277391        0.0223782       0.0584136      0.000383439    -0.000903512
                     0.000144847     0.000140746         0.636208        -0.76616      0.000421236    -0.000821982       -0.0431416       0.0223731
281710                0.00718499        0.061248      0.000799936    -8.02679e-05        -0.953917        0.260158       0.00028889      0.00026433
                       0.0010122    -0.000120131        0.0130148      -0.0466283     -0.000183793    -0.000307085         0.635511       -0.766827
                       -0.953708        0.259851     -0.000114131    -0.000277343        0.0223901       0.0583782      0.000382879    -0.000903234
                     0.000144805     0.000140689         0.635889       -0.766424      0.000424177    -0.000823545       -0.0431459       0.0223995
281712                0.00722039       0.0612122      0.000799702    -8.07797e-05         -0.95375        0.260701      0.000289288     0.000263871
                      0.00101196    -0.000120801        0.0130012      -0.0466488     -0.000183983    -0.000308079         0.635191        -0.76709
                       -0.953574        0.260353     -0.000114266    -0.000277294        0.0224014       0.0583447      0.000382317    -0.000902955
                     0.000144763     0.000140633          0.63557       -0.766687      0.000424763    -0.000823893       -0.0431503        0.022426
281714                0.00725575       0.0611764      0.000799469    -8.12914e-05        -0.953481        0.261292      0.000289686     0.000263412
                      0.00101173    -0.000121472        0.0129875      -0.0466693     -0.000184162    -0.000308381         0.634872       -0.767353
                       -0.953439        0.260855     -0.000114401    -0.000277245        0.0224099       0.0583145      0.000381755    -0.000902673
                     0.000144723     0.000140578         0.635251       -0.766951      0.000424807    -0.000823985       -0.0431546       0.0224525
281716                0.00729108       0.0611406      0.000799236    -8.18031e-05        -0.952912        0.261323      0.000290086     0.000262951
                      0.00101152    -0.000122146        0.0129738      -0.0466897     -0.000184338    -0.000308438         0.634553       -0.767615
                       -0.953304        0.261358     -0.000114537    -0.000277195        0.0224072       0.0582868      0.000381191     -0.00090239
                     0.000144686     0.000140526         0.634931       -0.767214       0.00042466    -0.000823989       -0.0431589        0.022479
281718                 0.0073263       0.0611046      0.000799003    -8.23148e-05         -0.95335         0.26174      0.000290486      0.00026249
                      0.00101168    -0.000122833        0.0129601      -0.0467102     -0.000184512    -0.000308387         0.634233       -0.767877
                       -0.953169         0.26186     -0.000114673    -0.000277145         0.022392       0.0582352      0.000380627    -0.000902105
                     0.000144676     0.000140518         0.634612       -0.767477       0.00042443    -0.000823954       -0.0431632       0.0225055
281720                0.00736171        0.061069      0.000798771    -8.28265e-05        -0.953283         0.26236      0.000290887     0.000262027
                      0.00101083    -0.000123446        0.0129464      -0.0467307     -0.000184685    -0.000308283         0.633914        -0.76814
                       -0.953032        0.262361     -0.000114809    -0.000277095        0.0224086       0.0581722      0.000380061    -0.000901819
                     0.000144556     0.000140381         0.634292        -0.76774      0.000424159    -0.000823901       -0.0431674        0.022532
281722                0.00739695       0.0610331      0.000798539    -8.33382e-05         -0.95316        0.262909      0.000291289     0.000261563
                      0.00101064    -0.000124128        0.0129327      -0.0467511     -0.000184857     -0.00030815         0.633594       -0.768402
                       -0.952896        0.262863     -0.000114946    -0.000277043        0.0224314       0.0581283      0.000379495    -0.000901531
                     0.000144531     0.000140335         0.633972       -0.768003      0.000423865    -0.000823837       -0.0431717       0.0225585
281724                0.00743217       0.0609972      0.000798307    -8.38499e-05        -0.953027        0.263434      0.000291692     0.000261098
                      0.00101041    -0.000124799         0.012919      -0.0467716     -0.000185029       -0.000308         0.633274       -0.768664
                        -0.95276        0.263365     -0.000115084    -0.000276992        0.0224492       0.0580901      0.000378927    -0.000901241
                     0.000144493     0.000140282         0.633653       -0.768265       0.00042356    -0.000823768       -0.0431759        0.022585
281726                0.00746736       0.0609613      0.000798075    -8.43616e-05        -0.952892        0.263948      0.000292096     0.000260633
                      0.00101017    -0.000125468        0.0129053       -0.046792       -0.0001852    -0.000307841         0.632954       -0.768926
                       -0.952624        0.263867     -0.000115222     -0.00027694        0.0224641       0.0580529      0.000378359     -0.00090095
                     0.000144452     0.000140228         0.633333       -0.768528      0.000423247    -0.000823695       -0.0431802       0.0226116
281728                0.00750252       0.0609254      0.000797844    -8.48733e-05        -0.952756        0.264457      0.000292501     0.000260166
                      0.00100992    -0.000126135        0.0128915      -0.0468125     -0.000185371    -0.000307675         0.632634       -0.769187
                       -0.952487        0.264368     -0.000115361    -0.000276888        0.0224775       0.0580159      0.000377789    -0.000900657
                      0.00014441     0.000140173         0.633013        -0.76879      0.000422929    -0.000823619       -0.0431844       0.0226381
281730                0.00753766       0.0608894      0.000797613    -8.53851e-05        -0.952619        0.264963      0.000292906     0.000259699
                      0.00100968    -0.000126803        0.0128777      -0.0468329     -0.000185541    -0.000307506         0.632314       -0.769449
                        -0.95235         0.26487     -0.000115499    -0.000276835        0.0224901       0.0579788      0.000377219    -0.000900363
                     0.000144367     0.000140119         0.632692       -0.769053       0.00042261    -0.000823542       -0.0431886       0.0226647
281732                0.00757277       0.0608534      0.000797383    -8.58969e-05        -0.952482        0.265467      0.000293312     0.000259231
                      0.00100943    -0.000127469         0.012864      -0.0468534     -0.000185711    -0.000307334         0.631993       -0.769711
                       -0.952213        0.265371     -0.000115639    -0.000276782        0.0225023       0.0579417      0.000376648    -0.000900068
                     0.000144325     0.000140064         0.632372       -0.769315      0.000422288    -0.000823465       -0.0431928       0.0226912
281734                0.00760785       0.0608175      0.000797153    -8.64087e-05        -0.952344         0.26597      0.000293719     0.000258762
                      0.00100917    -0.000128136        0.0128502      -0.0468738      -0.00018588     -0.00030716         0.631673       -0.769972
                       -0.952075        0.265873     -0.000115779    -0.000276728        0.0225141       0.0579045      0.000376076    -0.000899772
                     0.000144282     0.000140009         0.632052       -0.769577      0.000421966    -0.000823386       -0.0431969       0.0227178
281736                 0.0076429       0.0607815      0.000796923    -8.69206e-05        -0.952206        0.266472      0.000294127     0.000258293
                      0.00100892    -0.000128802        0.0128364      -0.0468942     -0.000186049    -0.000306985         0.631352       -0.770233
                       -0.951937        0.266374     -0.000115919    -0.000276675        0.0225257       0.0578673      0.000375504    -0.000899474
                     0.000144239     0.000139955         0.631731       -0.769839      0.000421643    -0.000823307       -0.0432011       0.0227444
281738                0.00767792       0.0607454      0.000796694    -8.74325e-05        -0.952068        0.266974      0.000294535     0.000257823
                      0.00100867    -0.000129467        0.0128226      -0.0469147     -0.000186218     -0.00030681         0.631032       -0.770494
                       -0.951799        0.266875     -0.000116059     -0.00027662        0.0225371         0.05783       0.00037493    -0.000899175
                     0.000144196     0.000139901         0.631411       -0.770101       0.00042132    -0.000823228       -0.0432052        0.022771
281740                0.00771291       0.0607094      0.000796466    -8.79445e-05         -0.95193        0.267475      0.000294944     0.000257353
                      0.00100842    -0.000130133        0.0128087      -0.0469351     -0.000186387    -0.000306634         0.630711       -0.770755
                       -0.951661        0.267376       -0.0001162    -0.000276566        0.0225485       0.0577928      0.000374356    -0.000898875
                     0.000144153     0.000139847          0.63109       -0.770362      0.000420997    -0.000823148       -0.0432093       0.0227976
281742                0.00774787       0.0606733      0.000796237    -8.84566e-05        -0.951791        0.267976      0.000295353     0.000256882
                      0.00100816    -0.000130798        0.0127949      -0.0469555     -0.000186555    -0.000306458          0.63039       -0.771016
                       -0.951522        0.267878     -0.000116342    -0.000276511        0.0225597       0.0577556      0.000373781    -0.000898573
                     0.000144109     0.000139793         0.630769       -0.770624      0.000420674    -0.000823069       -0.0432134       0.0228242
281744                0.00778281       0.0606373      0.000796009    -8.89687e-05        -0.951652        0.268477      0.000295764      0.00025641
                      0.00100791    -0.000131462         0.012781      -0.0469759     -0.000186723    -0.000306281         0.630069       -0.771277
                       -0.951383        0.268379     -0.000116483    -0.000276455        0.0225709       0.0577184      0.000373205    -0.000898271
                     0.000144066      0.00013974         0.630448       -0.770885      0.000420351    -0.000822989       -0.0432175       0.0228509
281746                0.00781771       0.0606012      0.000795782    -8.94808e-05        -0.951513        0.268978      0.000296175     0.000255938
                      0.00100765    -0.000132127        0.0127672      -0.0469964     -0.000186891    -0.000306105         0.629748       -0.771537
                       -0.951244         0.26888     -0.000116626      -0.0002764         0.022582       0.0576812      0.000372629    -0.000897968
                     0.000144023     0.000139687         0.630127       -0.771146      0.000420028    -0.000822909       -0.0432216       0.0228775
281748                0.00785259        0.060565      0.000795554     -8.9993e-05        -0.951373        0.269478      0.000296586     0.000255466
                      0.00100739    -0.000132791        0.0127533      -0.0470168     -0.000187058    -0.000305928         0.629427       -0.771798
                       -0.951105         0.26938     -0.000116768    -0.000276344        0.0225931       0.0576441      0.000372052    -0.000897664
                     0.000143979     0.000139634         0.629806       -0.771408      0.000419706    -0.000822829       -0.0432256       0.0229042
281750                0.00788744       0.0605289      0.000795328    -9.05053e-05        -0.951233        0.269979      0.000296998     0.000254993
                      0.00100714    -0.000133454        0.0127394      -0.0470372     -0.000187225    -0.000305752         0.629105       -0.772058
                       -0.950965        0.269881     -0.000116911    -0.000276287        0.0226042       0.0576069      0.000371474    -0.000897358
                     0.000143936     0.000139581         0.629485       -0.771669      0.000419384    -0.000822748       -0.0432297       0.0229308
281752                0.00792226       0.0604928      0.000795101    -9.10177e-05        -0.951093        0.270479      0.000297411      0.00025452
                      0.00100688    -0.000134118        0.0127255      -0.0470576     -0.000187391    -0.000305575         0.628784       -0.772318
                       -0.950825        0.270382     -0.000117054     -0.00027623        0.0226152       0.0575698      0.000370896    -0.000897052
                     0.000143892     0.000139528         0.629163       -0.771929      0.000419062    -0.000822668       -0.0432337       0.0229575
281754                0.00795705       0.0604566      0.000794875    -9.15301e-05        -0.950953         0.27098      0.000297825     0.000254047
                      0.00100662    -0.000134781        0.0127116       -0.047078     -0.000187558    -0.000305399         0.628462       -0.772578
                       -0.950685        0.270883     -0.000117198    -0.000276173        0.0226262       0.0575327      0.000370317    -0.000896745
                     0.000143849     0.000139476         0.628842        -0.77219      0.000418741    -0.000822588       -0.0432377       0.0229842
281756                0.00799181       0.0604204       0.00079465    -9.20425e-05        -0.950812         0.27148      0.000298239     0.000253573
                      0.00100636    -0.000135444        0.0126977      -0.0470984     -0.000187724    -0.000305222          0.62814       -0.772838
                       -0.950545        0.271383     -0.000117342    -0.000276115        0.0226372       0.0574955      0.000369738    -0.000896438
                     0.000143805     0.000139424          0.62852       -0.772451       0.00041842    -0.000822507       -0.0432417       0.0230109
281758                0.00802654       0.0603842      0.000794424    -9.25551e-05        -0.950671        0.271981      0.000298653     0.000253099
                       0.0010061    -0.000136106        0.0126837      -0.0471188      -0.00018789    -0.000305046         0.627819       -0.773098
                       -0.950404        0.271884     -0.000117486    -0.000276058        0.0226482       0.0574584      0.000369158    -0.000896129
                     0.000143762     0.000139372         0.628198       -0.772711      0.000418099    -0.000822427       -0.0432456       0.0230376
281760                0.00806124       0.0603479        0.0007942    -9.30676e-05         -0.95053        0.272481      0.000299068     0.000252625
                      0.00100584    -0.000136768        0.0126698      -0.0471392     -0.000188055    -0.000304869         0.627497       -0.773357
                       -0.950263        0.272384     -0.000117631    -0.000275999        0.0226591       0.0574213      0.000368577     -0.00089582
                     0.000143718     0.000139321         0.627876       -0.772972      0.000417779    -0.000822346       -0.0432496       0.0230643
281762                0.00809592       0.0603117      0.000793975    -9.35803e-05        -0.950389        0.272981      0.000299484     0.000252151
                      0.00100558     -0.00013743        0.0126558      -0.0471595     -0.000188221    -0.000304692         0.627175       -0.773617
                       -0.950122        0.272884     -0.000117776    -0.000275941          0.02267       0.0573842      0.000367996     -0.00089551
