! TOUCHSTONE file generated by CST MICROWAVE STUDIO
! Date and time: Tue Oct 14 07:32:21 2025
! Project name: Teste_Macro_Metasurface_Nanopilar.cst
! Parameters = {H=600; L_x=190; L_y=85; Lambda=1064; Max_L=200; Min_L=70; PathPara=1; Phi=0; Step_L=10; Theta=0; p=520; phaseX=180; phaseY=0}
! Header version: 2018
! Port assignment regex: !\s*Touchstone port\s*([0-9]+)\s*=\s*(CST MWS port|CST DS port)\s*([0-9]+|Zmin|Zmax)\s*\(\"(.*)\"\)(\s*mode\s*([0-9]+))?.*
! Touchstone port assignment:
! Touchstone port 1 = CST MWS port Zmax ("") mode 1
! Touchstone port 2 = CST MWS port Zmax ("") mode 2
! Touchstone port 3 = CST MWS port Zmin ("") mode 1
! Touchstone port 4 = CST MWS port Zmin ("") mode 2
! S-Parameters are not renormalized. Each port impedance will be approximated by the real part at minimum frequency. The values are described via the [Reference] keyword.
! Default impedance is overridden by [Reference]
[Version] 2.0
# GHz S RI R 376.73
[Number of Ports] 4
[Reference]
376.73 376.73 259.814 259.814 
[Number of Frequencies] 51
[Network Data]
281700                 0.0380181      -0.0410294       0.00083604     0.000343015         0.670649       -0.736775     -3.21736e-05    -7.00657e-05
                     0.000699586     0.000186707        -0.272398       -0.440558      0.000360126    -3.06957e-05          0.65065        0.542239
                        0.670168       -0.736354      0.000452674    -0.000200705       -0.0369218       0.0426034     -0.000672163     0.000237115
                     1.18745e-05    -6.57134e-05         0.650291        0.542436     -0.000644331     0.000311849          0.48292        0.177232
281702                 0.0380095      -0.0410576      0.000834894     0.000342109         0.670349       -0.737047     -3.20619e-05    -7.00434e-05
                     0.000699765     0.000186309        -0.272637       -0.440551      0.000360139    -3.08659e-05         0.650893         0.54183
                        0.669868       -0.736625      0.000450679     -0.00020032       -0.0369164       0.0426276     -0.000672185     0.000237492
                     1.20213e-05    -6.60009e-05         0.650543        0.542028     -0.000644297     0.000312143         0.483159        0.176926
281704                 0.0380009      -0.0410859      0.000833856     0.000341237         0.670049       -0.737318     -3.19508e-05    -7.00201e-05
                     0.000699944      0.00018591        -0.272876       -0.440543      0.000360152    -3.10362e-05         0.651136         0.54142
                        0.669567       -0.736897      0.000448832    -0.000199984       -0.0369109       0.0426518     -0.000672207     0.000237869
                     1.21688e-05    -6.62884e-05         0.650794         0.54162     -0.000644263     0.000312437         0.483398         0.17662
281706                 0.0379922      -0.0411141      0.000832936     0.000340402         0.669748       -0.737589     -3.18402e-05    -6.99958e-05
                     0.000700124      0.00018551        -0.273115       -0.440536      0.000360164    -3.12066e-05         0.651378        0.541011
                        0.669267       -0.737168      0.000447146      -0.0001997       -0.0369053       0.0426761     -0.000672228     0.000238246
                     1.23168e-05    -6.65759e-05         0.651044        0.541213     -0.000644229     0.000312731         0.483636        0.176313
281708                 0.0379835      -0.0411423      0.000832148     0.000339608         0.669448       -0.737861     -3.17302e-05    -6.99705e-05
                     0.000700305      0.00018511        -0.273354       -0.440529      0.000360176    -3.13771e-05          0.65162        0.540601
                        0.668966       -0.737439      0.000445632    -0.000199474       -0.0368998       0.0427003     -0.000672249     0.000238624
                     1.24654e-05    -6.68634e-05         0.651293        0.540805     -0.000644194     0.000313025         0.483875        0.176007
281710                 0.0379749      -0.0411705      0.000831507     0.000338858         0.669147       -0.738132     -3.16206e-05    -6.99443e-05
                     0.000700486      0.00018471        -0.273593       -0.440522      0.000360189    -3.15477e-05         0.651862         0.54019
                        0.668666        -0.73771       0.00044431    -0.000199314       -0.0368943       0.0427245     -0.000672268     0.000239001
                     1.26146e-05     -6.7151e-05         0.651541        0.540397      -0.00064416     0.000313319         0.484113          0.1757
281712                 0.0379662      -0.0411987      0.000831029     0.000338156         0.668847       -0.738403     -3.15115e-05     -6.9917e-05
                     0.000700667     0.000184309        -0.273832       -0.440515      0.000360201    -3.17183e-05         0.652103         0.53978
                        0.668365       -0.737981      0.000443197    -0.000199227       -0.0368887       0.0427488     -0.000672288     0.000239378
                     1.27644e-05    -6.74385e-05         0.651787        0.539988     -0.000644126     0.000313613         0.484351        0.175392
281714                 0.0379574       -0.041227      0.000830737      0.00033751         0.668546       -0.738674     -3.14029e-05    -6.98888e-05
                     0.000700849     0.000183908        -0.274071       -0.440508      0.000360212    -3.18891e-05         0.652344         0.53937
                        0.668064       -0.738251      0.000442317    -0.000199223       -0.0368831        0.042773     -0.000672307     0.000239755
                     1.29146e-05     -6.7726e-05         0.652032         0.53958     -0.000644091     0.000313907         0.484589        0.175085
281716                 0.0379487      -0.0412552      0.000830653     0.000336924         0.668245       -0.738944     -3.12948e-05    -6.98597e-05
                     0.000701031     0.000183507         -0.27431       -0.440501      0.000360224      -3.206e-05         0.652585        0.538959
                        0.667763       -0.738522        0.0004417    -0.000199312       -0.0368775       0.0427973     -0.000672325     0.000240132
                     1.30654e-05    -6.80135e-05         0.652276        0.539172     -0.000644056     0.000314201         0.484827        0.174777
281718                   0.03794      -0.0412834      0.000830808     0.000336406         0.667944       -0.739215     -3.11872e-05    -6.98296e-05
                     0.000701214     0.000183105        -0.274549       -0.440494      0.000360236     -3.2231e-05         0.652826        0.538548
                        0.667462       -0.738792      0.000441377    -0.000199509       -0.0368719       0.0428215     -0.000672343     0.000240509
                     1.32167e-05     -6.8301e-05         0.652518        0.538763     -0.000644022     0.000314495         0.485065        0.174468
281720                 0.0379312      -0.0413116      0.000831234     0.000335966         0.667643       -0.739486       -3.108e-05    -6.97985e-05
                     0.000701397     0.000182703        -0.274788       -0.440487      0.000360247     -3.2402e-05         0.653066        0.538137
                        0.667161       -0.739063      0.000441393    -0.000199828       -0.0368663       0.0428458      -0.00067236     0.000240886
                     1.33685e-05    -6.85885e-05         0.652757        0.538355     -0.000643987     0.000314789         0.485303         0.17416
281722                 0.0379224      -0.0413398      0.000831972     0.000335614         0.667342       -0.739756     -3.09732e-05    -6.97665e-05
                      0.00070158     0.000182301        -0.275027        -0.44048      0.000360258    -3.25732e-05         0.653306        0.537726
                         0.66686       -0.739333      0.000441795    -0.000200288       -0.0368607         0.04287     -0.000672376     0.000241263
                     1.35208e-05    -6.88759e-05         0.652995        0.537946     -0.000643952     0.000315083          0.48554        0.173851
281724                 0.0379136       -0.041368      0.000833071     0.000335364          0.66704       -0.740026     -3.08669e-05    -6.97335e-05
                     0.000701764     0.000181898        -0.275266       -0.440472      0.000360269    -3.27445e-05         0.653546        0.537315
                        0.666558       -0.739603      0.000442646    -0.000200912        -0.036855       0.0428943     -0.000672392     0.000241641
                     1.36735e-05    -6.91633e-05         0.653229        0.537536     -0.000643917     0.000315377         0.485778        0.173542
281726                 0.0379048      -0.0413962      0.000834588      0.00033523         0.666739       -0.740296      -3.0761e-05    -6.96996e-05
                     0.000701948     0.000181495        -0.275506       -0.440465       0.00036028    -3.29159e-05         0.653786        0.536903
                        0.666257       -0.739873       0.00044402    -0.000201727       -0.0368493       0.0429186     -0.000672408     0.000242018
                     1.38266e-05    -6.94506e-05          0.65346        0.537126     -0.000643882     0.000315671         0.486015        0.173233
281728                  0.037896      -0.0414244       0.00083659     0.000335229         0.666437       -0.740566     -3.06555e-05    -6.96648e-05
                     0.000702132     0.000181092        -0.275745       -0.440458      0.000360291    -3.30875e-05         0.654025        0.536492
                        0.665955       -0.740143      0.000446007    -0.000202762       -0.0368437       0.0429428     -0.000672422     0.000242395
                     1.39801e-05    -6.97378e-05         0.653687        0.536715     -0.000643846     0.000315965         0.486252        0.172924
281730                 0.0378872      -0.0414527      0.000839153     0.000335383         0.666136       -0.740836     -3.05504e-05     -6.9629e-05
                     0.000702316     0.000180689        -0.275984       -0.440451      0.000360302    -3.32591e-05         0.654264         0.53608
                        0.665653       -0.740413      0.000448715    -0.000204055        -0.036838       0.0429671     -0.000672437     0.000242771
                      1.4134e-05     -7.0025e-05         0.653909        0.536301     -0.000643811     0.000316259         0.486489        0.172614
281732                 0.0378784      -0.0414809      0.000842362     0.000335714         0.665834       -0.741106     -3.04457e-05    -6.95923e-05
                     0.000702501     0.000180285        -0.276224       -0.440443      0.000360312    -3.34308e-05         0.654503        0.535668
                        0.665351       -0.740682      0.000452268    -0.000205646       -0.0368323       0.0429914      -0.00067245     0.000243148
                     1.42883e-05     -7.0312e-05         0.654126        0.535884     -0.000643775     0.000316553         0.486725        0.172304
281734                 0.0378695      -0.0415091      0.000846301     0.000336242         0.665532       -0.741376     -3.03414e-05    -6.95547e-05
                     0.000702686     0.000179881        -0.276464       -0.440436      0.000360323    -3.36027e-05         0.654742        0.535256
                         0.66505       -0.740952      0.000456802    -0.000207576       -0.0368265       0.0430157     -0.000672463     0.000243525
                     1.44429e-05     -7.0599e-05         0.654336        0.535461      -0.00064374     0.000316847         0.486962        0.171994
281736                 0.0378606      -0.0415373      0.000851035     0.000336985          0.66523       -0.741645     -3.02374e-05    -6.95161e-05
                     0.000702872     0.000179476        -0.276703       -0.440428      0.000360333    -3.37747e-05          0.65498        0.534843
                        0.664747       -0.741221      0.000462438    -0.000209876       -0.0368208         0.04304     -0.000672476     0.000243902
                     1.45978e-05    -7.08859e-05          0.65454        0.535029     -0.000643704      0.00031714         0.487199        0.171683
281738                 0.0378517      -0.0415655      0.000856557     0.000337938         0.664928       -0.741915     -3.01339e-05    -6.94767e-05
                     0.000703057     0.000179072        -0.276943       -0.440421      0.000360343    -3.39468e-05         0.655218        0.534431
                        0.664445       -0.741491      0.000469222    -0.000212546        -0.036815       0.0430643     -0.000672488     0.000244279
                     1.47529e-05    -7.11727e-05          0.65474        0.534586     -0.000643668     0.000317434         0.487435        0.171372
281740                 0.0378428      -0.0415937      0.000862693     0.000339052         0.664626       -0.742184     -3.00306e-05    -6.94363e-05
                     0.000703243     0.000178667        -0.277183       -0.440413      0.000360353    -3.41191e-05         0.655456        0.534018
                        0.664143        -0.74176      0.000476976    -0.000215509       -0.0368093       0.0430886     -0.000672499     0.000244656
                     1.49082e-05    -7.14593e-05         0.654943        0.534128     -0.000643632     0.000317727         0.487671        0.171061
281742                 0.0378339      -0.0416219       0.00086887     0.000340169         0.664323       -0.742453     -2.99278e-05    -6.93951e-05
                     0.000703429     0.000178262        -0.277423       -0.440405      0.000360363    -3.42915e-05         0.655693        0.533605
                        0.663841       -0.742029      0.000484961    -0.000218499       -0.0368035       0.0431129      -0.00067251     0.000245033
                     1.50637e-05    -7.17457e-05         0.655156        0.533662     -0.000643596     0.000318021         0.487907         0.17075
281744                  0.037825      -0.0416501      0.000873689     0.000340905         0.664021       -0.742722     -2.98253e-05     -6.9353e-05
                     0.000703616     0.000177856        -0.277663       -0.440396      0.000360373     -3.4464e-05          0.65593        0.533193
                        0.663538       -0.742298      0.000491193    -0.000220869       -0.0367977       0.0431372     -0.000672521     0.000245409
                     1.52191e-05    -7.20319e-05         0.655386        0.533203     -0.000643559     0.000318314         0.488143        0.170438
281746                  0.037816      -0.0416783      0.000874216     0.000340466         0.663718       -0.742991     -2.97231e-05      -6.931e-05
                     0.000703803     0.000177451        -0.277904       -0.440387      0.000360382    -3.46367e-05         0.656167        0.532779
                        0.663235       -0.742567      0.000491383    -0.000221256       -0.0367919       0.0431615      -0.00067253     0.000245786
                     1.53741e-05    -7.23177e-05         0.655632        0.532784     -0.000643522     0.000318607         0.488379        0.170126
281748                 0.0378071      -0.0417065      0.000865359     0.000337478         0.663415        -0.74326     -2.96213e-05    -6.92661e-05
                     0.000703994     0.000177046        -0.278144       -0.440378      0.000360392    -3.48095e-05         0.656404        0.532366
                        0.662933       -0.742835      0.000478462    -0.000217294       -0.0367861       0.0431858      -0.00067254     0.000246163
                     1.55273e-05    -7.26026e-05         0.655904        0.532448     -0.000643485       0.0003189         0.488614        0.169814
281750                 0.0377981      -0.0417347       0.00084105     0.000330321         0.663113       -0.743529     -2.95199e-05    -6.92213e-05
                     0.000704159     0.000176641        -0.278386       -0.440366      0.000360402    -3.49825e-05         0.656641        0.531953
                         0.66263       -0.743104      0.000446051    -0.000206212       -0.0367802       0.0432102     -0.000672548     0.000246539
                     1.56662e-05    -7.28853e-05         0.656289         0.53219     -0.000643448     0.000319193          0.48885        0.169502
281752                 0.0377891      -0.0417629      0.000799806     0.000318631          0.66281       -0.743797     -2.94188e-05    -6.91756e-05
                     0.000704355     0.000176231        -0.278631       -0.440347      0.000360411    -3.51557e-05         0.656877        0.531539
                        0.662327       -0.743372      0.000397544    -0.000187682       -0.0367743       0.0432345     -0.000672556     0.000246916
                     1.58708e-05    -7.31967e-05         0.656791          0.5318      -0.00064341     0.000319485         0.489085        0.169189
281754                 0.0377801      -0.0417911      0.000750875     0.000304936         0.662507       -0.744066     -2.93182e-05    -6.91291e-05
                     0.000704544     0.000175825         -0.27888       -0.440509       0.00036042    -3.53293e-05         0.657113        0.531125
                        0.662024       -0.743641      0.000348362    -0.000166604       -0.0367685       0.0432588     -0.000672564     0.000247293
                      1.6015e-05    -7.34695e-05          0.65717        0.531283     -0.000643372     0.000319777          0.48932        0.168876
281756                 0.0377711      -0.0418193      0.000708855     0.000293168         0.662204       -0.744334      -2.9218e-05    -6.90816e-05
                     0.000704731     0.000175418        -0.279099       -0.440368       0.00036043    -3.55035e-05         0.657348        0.530711
                         0.66172       -0.743909      0.000311918    -0.000149492       -0.0367626       0.0432832      -0.00067257     0.000247669
                     1.61692e-05    -7.37531e-05         0.657446        0.530796     -0.000643332     0.000320064         0.489555        0.168563
281758                 0.0377621      -0.0418475      0.000681283      0.00028533           0.6619       -0.744602     -2.91183e-05    -6.90333e-05
                     0.000704918      0.00017501        -0.279342       -0.440351      0.000360442     -3.5683e-05         0.657584        0.530297
                        0.661417       -0.744177      0.000290367    -0.000138814       -0.0367567       0.0433075     -0.000672577     0.000248045
                     1.63253e-05    -7.40379e-05         0.657691        0.530346     -0.000643324     0.000320351          0.48979        0.168249
281760                  0.037753      -0.0418757       0.00066673     0.000281009         0.661597       -0.744871     -2.90194e-05    -6.89839e-05
                     0.000705105     0.000174603        -0.279583        -0.44034      0.000360439    -3.58451e-05         0.657819        0.529883
                        0.661114       -0.744445      0.000279565    -0.000133386       -0.0367508       0.0433319     -0.000672582     0.000248422
                      1.6482e-05    -7.43228e-05         0.657928        0.529916     -0.000643271     0.000320661         0.490024        0.167936
281762                  0.037744      -0.0419039      0.000660653     0.000278969         0.661293       -0.745138     -2.89218e-05    -6.89335e-05
                     0.000705293     0.000174195        -0.279824       -0.440329      0.000360453    -3.60204e-05         0.658054        0.529468
                         0.66081       -0.744713      0.000275036    -0.000131206       -0.0367448       0.0433562     -0.000672587     0.000248798
