! TOUCHSTONE file generated by CST MICROWAVE STUDIO
! Date and time: Tue Oct 14 07:26:07 2025
! Project name: Teste_Macro_Metasurface_Nanopilar.cst
! Parameters = {H=600; L_x=90; L_y=110; Lambda=1064; Max_L=200; Min_L=70; PathPara=1; Phi=0; Step_L=10; Theta=0; p=520; phaseX=180; phaseY=0}
! Header version: 2018
! Port assignment regex: !\s*Touchstone port\s*([0-9]+)\s*=\s*(CST MWS port|CST DS port)\s*([0-9]+|Zmin|Zmax)\s*\(\"(.*)\"\)(\s*mode\s*([0-9]+))?.*
! Touchstone port assignment:
! Touchstone port 1 = CST MWS port Zmax ("") mode 1
! Touchstone port 2 = CST MWS port Zmax ("") mode 2
! Touchstone port 3 = CST MWS port Zmin ("") mode 1
! Touchstone port 4 = CST MWS port Zmin ("") mode 2
! S-Parameters are not renormalized. Each port impedance will be approximated by the real part at minimum frequency. The values are described via the [Reference] keyword.
! Default impedance is overridden by [Reference]
[Version] 2.0
# GHz S RI R 376.73
[Number of Ports] 4
[Reference]
376.73 376.73 259.814 259.814 
[Number of Frequencies] 51
[Network Data]
281700                -0.0249542      -0.0393369      -0.00020288     0.000272706         0.641712       -0.761575      0.000113029     0.000137187
                    -0.000262898     0.000386918       0.00897754       0.0595831      8.14732e-05     0.000157891         0.947039        -0.31263
                        0.641379       -0.761536      1.28736e-05     0.000217943       -0.0430822      -0.0168713      0.000245965    -4.46846e-05
                     4.28614e-05     0.000226898         0.946821       -0.312548      0.000372499    -0.000124695        0.0280762        0.053587
281702                -0.0249683      -0.0393439     -0.000202656     0.000272904         0.641394       -0.761842      0.000113128     0.000137154
                    -0.000262513     0.000386969       0.00900308       0.0595726      8.15619e-05       0.0001578         0.946921       -0.312989
                        0.641061       -0.761803      1.30385e-05     0.000217981       -0.0431058      -0.0168481      0.000246055    -4.46793e-05
                     4.31541e-05     0.000226802         0.946702       -0.312908      0.000372519    -0.000124842          0.02809       0.0535725
281704                -0.0249823      -0.0393508     -0.000202432     0.000273102         0.641075       -0.762109      0.000113226     0.000137122
                    -0.000262128     0.000387021       0.00902862       0.0595621      8.16503e-05     0.000157708         0.946802       -0.313349
                        0.640743       -0.762069      1.32034e-05      0.00021802       -0.0431294      -0.0168247      0.000246146    -4.46742e-05
                     4.34468e-05     0.000226706         0.946584       -0.313267      0.000372539    -0.000124988        0.0281039       0.0535579
281706                -0.0249964      -0.0393578     -0.000202208     0.000273299         0.640757       -0.762375      0.000113325     0.000137089
                    -0.000261742     0.000387072       0.00905416       0.0595516      8.17385e-05     0.000157616         0.946683       -0.313709
                        0.640424       -0.762335      1.33682e-05     0.000218058        -0.043153      -0.0168014      0.000246236    -4.46693e-05
                     4.37398e-05     0.000226611         0.946465       -0.313627      0.000372558    -0.000125135        0.0281176       0.0535433
281708                -0.0250104      -0.0393647     -0.000201984     0.000273496         0.640438       -0.762642      0.000113423     0.000137056
                    -0.000261356     0.000387125       0.00907969       0.0595411      8.18265e-05     0.000157524         0.946564       -0.314068
                        0.640106       -0.762602      1.35331e-05     0.000218096       -0.0431765       -0.016778      0.000246327    -4.46645e-05
                     4.40328e-05     0.000226517         0.946346       -0.313986      0.000372578    -0.000125282        0.0281314       0.0535288
281710                -0.0250245      -0.0393717      -0.00020176     0.000273694         0.640119       -0.762908      0.000113521     0.000137023
                     -0.00026097     0.000387177       0.00910521       0.0595306      8.19143e-05     0.000157432         0.946445       -0.314428
                        0.639787       -0.762868      1.36979e-05     0.000218134       -0.0432001      -0.0167547      0.000246418    -4.46599e-05
                      4.4326e-05     0.000226423         0.946227       -0.314346      0.000372597    -0.000125429        0.0281452       0.0535142
281712                -0.0250386      -0.0393786     -0.000201536     0.000273891           0.6398       -0.763174      0.000113619      0.00013699
                    -0.000260584      0.00038723       0.00913073       0.0595201      8.20018e-05     0.000157341         0.946326       -0.314787
                        0.639469       -0.763134      1.38627e-05     0.000218171       -0.0432236      -0.0167313      0.000246508    -4.46554e-05
                     4.46193e-05      0.00022633         0.946108       -0.314705      0.000372615    -0.000125576         0.028159       0.0534996
281714                -0.0250527      -0.0393855     -0.000201312     0.000274088         0.639481        -0.76344      0.000113718     0.000136957
                    -0.000260197     0.000387283       0.00915624       0.0595096      8.20891e-05     0.000157249         0.946207       -0.315147
                         0.63915         -0.7634      1.40275e-05     0.000218209       -0.0432472      -0.0167079      0.000246599     -4.4651e-05
                     4.49127e-05     0.000226237         0.945989       -0.315064      0.000372634    -0.000125723        0.0281727        0.053485
281716                -0.0250668      -0.0393924     -0.000201087     0.000274285         0.639162       -0.763706      0.000113816     0.000136924
                    -0.000259809     0.000387337       0.00918175        0.059499      8.21761e-05     0.000157157         0.946087       -0.315506
                        0.638831       -0.763665      1.41923e-05     0.000218247       -0.0432707      -0.0166844       0.00024669    -4.46468e-05
                     4.52063e-05     0.000226145         0.945869       -0.315424      0.000372652     -0.00012587        0.0281865       0.0534704
281718                -0.0250809      -0.0393994     -0.000200863     0.000274482         0.638842       -0.763972      0.000113914     0.000136891
                    -0.000259421     0.000387391       0.00920725       0.0594884      8.22629e-05     0.000157065         0.945968       -0.315865
                        0.638512       -0.763931      1.43571e-05     0.000218284       -0.0432942       -0.016661       0.00024678    -4.46428e-05
                     4.55004e-05     0.000226054          0.94575       -0.315783      0.000372669    -0.000126018        0.0282003       0.0534559
281720                 -0.025095      -0.0394063     -0.000200639     0.000274679         0.638523       -0.764238      0.000114012     0.000136858
                    -0.000259031     0.000387446       0.00923275       0.0594779      8.23495e-05     0.000156973         0.945848       -0.316225
                        0.638193       -0.764196      1.45219e-05     0.000218322       -0.0433177      -0.0166375      0.000246871    -4.46389e-05
                      4.5796e-05     0.000225966          0.94563       -0.316142      0.000372686    -0.000126165         0.028214       0.0534413
281722                -0.0251092      -0.0394132     -0.000200415     0.000274875         0.638203       -0.764504      0.000114111     0.000136825
                    -0.000258634     0.000387498       0.00925824       0.0594673      8.24358e-05     0.000156882         0.945728       -0.316584
                        0.637874       -0.764462      1.46866e-05     0.000218359       -0.0433412       -0.016614      0.000246962    -4.46352e-05
                     4.61029e-05     0.000225882          0.94551       -0.316501      0.000372703    -0.000126312        0.0282277       0.0534267
281724                -0.0251233        -0.03942      -0.00020019     0.000275072         0.637884       -0.764769      0.000114209     0.000136791
                    -0.000258244     0.000387532       0.00928372       0.0594567      8.25219e-05      0.00015679         0.945608       -0.316943
                        0.637554       -0.764727      1.48514e-05     0.000218396       -0.0433647      -0.0165905      0.000247052    -4.46316e-05
                     4.64044e-05     0.000225756          0.94539        -0.31686       0.00037272     -0.00012646        0.0282415       0.0534121
281726                -0.0251375       -0.039427     -0.000199966     0.000275269         0.637564       -0.765034      0.000114307     0.000136758
                    -0.000257873     0.000387586        0.0093092       0.0594461      8.26077e-05     0.000156698         0.945488       -0.317302
                        0.637235       -0.764992      1.50161e-05     0.000218434       -0.0433881       -0.016567      0.000247143    -4.46282e-05
                       4.668e-05     0.000225667          0.94527       -0.317219      0.000372736    -0.000126607        0.0282552       0.0533975
281728                -0.0251516      -0.0394339     -0.000199741     0.000275465         0.637244       -0.765299      0.000114405     0.000136725
                    -0.000257489     0.000387645       0.00933468       0.0594355      8.26933e-05     0.000156606         0.945368       -0.317661
                        0.636916       -0.765257      1.51809e-05     0.000218471       -0.0434116      -0.0165435      0.000247234    -4.46249e-05
                       4.697e-05      0.00022558          0.94515       -0.317578      0.000372752    -0.000126755        0.0282689       0.0533829
281730                -0.0251658      -0.0394408     -0.000199517     0.000275661         0.636924       -0.765565      0.000114503     0.000136691
                    -0.000257102     0.000387702       0.00936015       0.0594249      8.27787e-05     0.000156514         0.945248        -0.31802
                        0.636596       -0.765521      1.53456e-05     0.000218507        -0.043435      -0.0165199      0.000247325    -4.46218e-05
                     4.72624e-05     0.000225492          0.94503       -0.317937      0.000372767    -0.000126902        0.0282826       0.0533683
281732                -0.0251799      -0.0394477     -0.000199292     0.000275858         0.636604       -0.765829      0.000114601     0.000136657
                    -0.000256714     0.000387759       0.00938561       0.0594142      8.28638e-05     0.000156423         0.945127       -0.318379
                        0.636276       -0.765786      1.55103e-05     0.000218544       -0.0434584      -0.0164963      0.000247415    -4.46188e-05
                     4.75554e-05     0.000225402         0.944909       -0.318296      0.000372782     -0.00012705        0.0282963       0.0533537
281734                -0.0251941      -0.0394546     -0.000199068     0.000276054         0.636283       -0.766094      0.000114699     0.000136624
                    -0.000256325     0.000387815       0.00941107       0.0594036      8.29487e-05     0.000156331         0.945006       -0.318738
                        0.635956       -0.766051      1.56751e-05     0.000218581       -0.0434819      -0.0164727      0.000247506     -4.4616e-05
                     4.78486e-05     0.000225313         0.944789       -0.318655      0.000372797    -0.000127197          0.02831       0.0533391
281736                -0.0252083      -0.0394614     -0.000198843      0.00027625         0.635963       -0.766359      0.000114797      0.00013659
                    -0.000255937     0.000387871       0.00943652        0.059393      8.30333e-05     0.000156239         0.944886       -0.319097
                        0.635636       -0.766315      1.58398e-05     0.000218618       -0.0435053      -0.0164491      0.000247597    -4.46133e-05
                     4.81419e-05     0.000225223         0.944668       -0.319014      0.000372812    -0.000127345        0.0283236       0.0533245
281738                -0.0252225      -0.0394683     -0.000198618     0.000276446         0.635643       -0.766623      0.000114895     0.000136556
                    -0.000255548     0.000387926       0.00946196       0.0593823      8.31177e-05     0.000156148         0.944765       -0.319456
                        0.635316       -0.766579      1.60046e-05     0.000218654       -0.0435286      -0.0164255      0.000247688    -4.46108e-05
                     4.84352e-05     0.000225134         0.944547       -0.319373      0.000372826    -0.000127493        0.0283373       0.0533099
281740                -0.0252367      -0.0394752     -0.000198393     0.000276642         0.635322       -0.766888      0.000114993     0.000136522
                    -0.000255159     0.000387982        0.0094874       0.0593716      8.32018e-05     0.000156056         0.944644       -0.319815
                        0.634996       -0.766843      1.61694e-05     0.000218691        -0.043552      -0.0164018      0.000247779    -4.46084e-05
                     4.87284e-05     0.000225045         0.944426       -0.319732      0.000372839    -0.000127641         0.028351       0.0532953
281742                -0.0252509       -0.039482     -0.000198168     0.000276838         0.635001       -0.767152      0.000115091     0.000136488
                    -0.000254771     0.000388039       0.00951284       0.0593609      8.32857e-05     0.000155964         0.944522       -0.320174
                        0.634676       -0.767107      1.63344e-05     0.000218727       -0.0435754      -0.0163781      0.000247869    -4.46062e-05
                     4.90216e-05     0.000224956         0.944305        -0.32009      0.000372853    -0.000127789        0.0283646       0.0532807
281744                -0.0252651      -0.0394889     -0.000197943     0.000277033          0.63468       -0.767416      0.000115189     0.000136454
                    -0.000254382     0.000388095       0.00953827       0.0593502      8.33693e-05     0.000155873         0.944401       -0.320533
                        0.634355       -0.767371      1.64995e-05     0.000218763       -0.0435987      -0.0163544      0.000247961     -4.4604e-05
                     4.93147e-05     0.000224867         0.944183       -0.320449      0.000372866    -0.000127937        0.0283783       0.0532661
281746                -0.0252793      -0.0394957     -0.000197717     0.000277229         0.634359        -0.76768      0.000115288     0.000136421
                    -0.000253993     0.000388151       0.00956369       0.0593395      8.34527e-05     0.000155781         0.944279       -0.320891
                        0.634035       -0.767635      1.66655e-05     0.000218799       -0.0436221      -0.0163307      0.000248052    -4.46019e-05
                     4.96078e-05     0.000224779         0.944062       -0.320808      0.000372878    -0.000128085        0.0283919       0.0532515
281748                -0.0252936      -0.0395026     -0.000197483     0.000277429         0.634038       -0.767944       0.00011539     0.000136388
                    -0.000253604     0.000388208        0.0095891       0.0593288      8.35359e-05     0.000155689         0.944158        -0.32125
                        0.633714       -0.767899      1.68398e-05     0.000218837       -0.0436454       -0.016307      0.000248147    -4.45991e-05
                     4.99007e-05      0.00022469          0.94394       -0.321166      0.000372891    -0.000128233        0.0284056       0.0532369
281750                -0.0253078      -0.0395094     -0.000197275     0.000277617         0.633717       -0.768208      0.000115475     0.000136349
                    -0.000253215     0.000388265       0.00961453       0.0593181      8.36191e-05     0.000155597         0.944036       -0.321609
                        0.633393       -0.768162      1.69858e-05      0.00021887       -0.0436687      -0.0162832      0.000248225    -4.46003e-05
                     5.01936e-05     0.000224602         0.943819       -0.321525      0.000372903    -0.000128381        0.0284192       0.0532223
281752                -0.0253221      -0.0395162     -0.000197047     0.000277813         0.633396       -0.768471      0.000115577     0.000136316
                    -0.000252826     0.000388321       0.00963993       0.0593073      8.37015e-05     0.000155508         0.943914       -0.321967
                        0.633072       -0.768425      1.71538e-05     0.000218906        -0.043692      -0.0162594       0.00024832     -4.4598e-05
                     5.04863e-05     0.000224514         0.943697       -0.321883      0.000372913    -0.000128527        0.0284328       0.0532077
281754                -0.0253363      -0.0395231     -0.000196821     0.000278009         0.633075       -0.768735      0.000115675     0.000136282
                    -0.000252437     0.000388379       0.00966533       0.0592966      8.37836e-05     0.000155415         0.943792       -0.322326
                        0.632751       -0.768689      1.73193e-05     0.000218942       -0.0437153      -0.0162357      0.000248411    -4.45965e-05
                     5.07789e-05     0.000224426         0.943575       -0.322242      0.000372925    -0.000128677        0.0284464        0.053193
281756                -0.0253506      -0.0395299     -0.000196595     0.000278204         0.632753       -0.768998      0.000115773     0.000136248
                    -0.000252047     0.000388436       0.00969073       0.0592858      8.38657e-05     0.000155324          0.94367       -0.322684
                         0.63243       -0.768952      1.74843e-05     0.000218978       -0.0437386      -0.0162118      0.000248502    -4.45953e-05
                     5.10714e-05     0.000224339         0.943453         -0.3226      0.000372936    -0.000128825          0.02846       0.0531784
281758                -0.0253649      -0.0395367      -0.00019637     0.000278399         0.632431       -0.769261      0.000115871     0.000136213
                    -0.000251658     0.000388493       0.00971612       0.0592751      8.39476e-05     0.000155232         0.943548       -0.323043
                        0.632109       -0.769215      1.76491e-05     0.000219013       -0.0437618       -0.016188      0.000248593    -4.45942e-05
                     5.13638e-05     0.000224251          0.94333       -0.322958      0.000372946    -0.000128973        0.0284736       0.0531638
281760                -0.0253791      -0.0395435     -0.000196145     0.000278593          0.63211       -0.769525      0.000115968     0.000136179
                    -0.000251269     0.000388551        0.0097415       0.0592643      8.40292e-05     0.000155141         0.943425       -0.323401
                        0.631787       -0.769477      1.78138e-05     0.000219049       -0.0437851      -0.0161642      0.000248684    -4.45933e-05
                      5.1656e-05     0.000224164         0.943208       -0.323317      0.000372956    -0.000129122        0.0284872       0.0531492
281762                -0.0253934      -0.0395503     -0.000195919     0.000278788         0.631788       -0.769788      0.000116066     0.000136144
                     -0.00025088     0.000388609       0.00976688       0.0592535      8.41105e-05     0.000155049         0.943303        -0.32376
                        0.631466        -0.76974      1.79785e-05     0.000219084       -0.0438083      -0.0161403      0.000248775    -4.45926e-05
