! TOUCHSTONE file generated by CST MICROWAVE STUDIO
! Date and time: Tue Oct 14 07:32:43 2025
! Project name: Teste_Macro_Metasurface_Nanopilar.cst
! Parameters = {H=600; L_x=195; L_y=110; Lambda=1064; Max_L=200; Min_L=70; PathPara=1; Phi=0; Step_L=10; Theta=0; p=520; phaseX=180; phaseY=0}
! Header version: 2018
! Port assignment regex: !\s*Touchstone port\s*([0-9]+)\s*=\s*(CST MWS port|CST DS port)\s*([0-9]+|Zmin|Zmax)\s*\(\"(.*)\"\)(\s*mode\s*([0-9]+))?.*
! Touchstone port assignment:
! Touchstone port 1 = CST MWS port Zmax ("") mode 1
! Touchstone port 2 = CST MWS port Zmax ("") mode 2
! Touchstone port 3 = CST MWS port Zmin ("") mode 1
! Touchstone port 4 = CST MWS port Zmin ("") mode 2
! S-Parameters are not renormalized. Each port impedance will be approximated by the real part at minimum frequency. The values are described via the [Reference] keyword.
! Default impedance is overridden by [Reference]
[Version] 2.0
# GHz S RI R 376.73
[Number of Ports] 4
[Reference]
376.73 376.73 259.814 259.814 
[Number of Frequencies] 51
[Network Data]
281700                -0.0795524      -0.0160699      0.000563373     0.000349418        -0.659901        0.737557     -0.000102172     0.000627897
                     0.000583465     0.000254827        -0.169603        0.164068      1.77389e-05    -0.000511657         0.590775         0.76313
                       -0.660079         0.73728       -0.0001456    -0.000556952       -0.0238431      -0.0747572      0.000686543    -0.000267668
                    -0.000264335     0.000746514         0.591615        0.763782      0.000558777    -0.000173368         -0.19927        0.113988
281702                -0.0795487      -0.0160656      0.000563194     0.000349252        -0.659544        0.737873     -0.000104971     0.000624172
                     0.000584866     0.000254869        -0.169533        0.164051      1.55117e-05    -0.000510304         0.591145        0.762859
                       -0.659725        0.737605     -0.000144901    -0.000556866       -0.0239125      -0.0747306      0.000682635     -0.00026601
                    -0.000263567     0.000748069          0.59198        0.763515      0.000556033    -0.000175823        -0.199117        0.114115
281704                 -0.079545      -0.0160614      0.000563018     0.000349093        -0.659187        0.738189     -0.000107639     0.000620447
                      0.00058628      0.00025492        -0.169462        0.164034      1.33345e-05    -0.000508942         0.591515        0.762588
                       -0.659371        0.737929     -0.000144197    -0.000556775       -0.0239818       -0.074704      0.000678795    -0.000264471
                    -0.000262825     0.000749605         0.592344        0.763246      0.000553281    -0.000178233        -0.198966        0.114243
281706                -0.0795412      -0.0160571      0.000562842     0.000348943         -0.65883        0.738506     -0.000110171     0.000616724
                     0.000587707     0.000254981        -0.169392        0.164017      1.12085e-05    -0.000507572         0.591884        0.762317
                       -0.659017        0.738253     -0.000143486    -0.000556679        -0.024051      -0.0746772      0.000675026     -0.00026305
                    -0.000262115     0.000751122         0.592708        0.762978      0.000550521    -0.000180597        -0.198816        0.114371
281708                -0.0795375      -0.0160528      0.000562669     0.000348802        -0.658473        0.738822     -0.000112565     0.000613008
                     0.000589148     0.000255053        -0.169322           0.164      9.13518e-06    -0.000506195         0.592253        0.762045
                       -0.658661        0.738577     -0.000142769    -0.000556579       -0.0241202      -0.0746504       0.00067133    -0.000261747
                    -0.000261439     0.000752616         0.593072        0.762709      0.000547756    -0.000182917        -0.198667        0.114499
281710                -0.0795338      -0.0160485      0.000562498     0.000348672        -0.658116        0.739139     -0.000114816     0.000609305
                     0.000590605     0.000255139        -0.169252        0.163983      7.11604e-06    -0.000504812         0.592621        0.761774
                       -0.658306          0.7389     -0.000142043    -0.000556473       -0.0241893      -0.0746234      0.000667712    -0.000260562
                    -0.000260804     0.000754084         0.593435         0.76244      0.000544985    -0.000185192        -0.198518        0.114626
281712                  -0.07953      -0.0160442       0.00056233     0.000348555        -0.657759        0.739456      -0.00011692     0.000605619
                     0.000592079     0.000255239        -0.169181        0.163966      5.15267e-06    -0.000503424         0.592989        0.761502
                       -0.657949        0.739223     -0.000141307     -0.00055636       -0.0242583      -0.0745964      0.000664174    -0.000259494
                    -0.000260214      0.00075552         0.593799         0.76217      0.000542211    -0.000187423        -0.198371        0.114754
281714                -0.0795263      -0.0160399      0.000562164     0.000348453        -0.657402        0.739774     -0.000118872     0.000601958
                     0.000593571     0.000255356        -0.169111        0.163948      3.24681e-06    -0.000502033         0.593356        0.761229
                       -0.657592        0.739546      -0.00014056    -0.000556241       -0.0243272      -0.0745693       0.00066072    -0.000258545
                    -0.000259677     0.000756921         0.594161        0.761901      0.000539437    -0.000189609        -0.198224        0.114882
281716                -0.0795225      -0.0160356      0.000562003     0.000348368        -0.657044        0.740091     -0.000120667     0.000598327
                     0.000595083     0.000255493        -0.169041        0.163931       1.4003e-06    -0.000500641         0.593723        0.760957
                       -0.657234        0.739868     -0.000139799    -0.000556114       -0.0243961      -0.0745421      0.000657354    -0.000257714
                    -0.000259201     0.000758281         0.594524         0.76163      0.000536663     -0.00019175        -0.198077         0.11501
281718                -0.0795188      -0.0160313      0.000561845     0.000348303        -0.656687        0.740409     -0.000122298     0.000594736
                     0.000596618     0.000255654        -0.168971        0.163914     -3.84924e-07    -0.000499249         0.594089        0.760685
                       -0.656876         0.74019     -0.000139023    -0.000555979       -0.0244649      -0.0745148       0.00065408    -0.000257002
                    -0.000258792      0.00075959         0.594886         0.76136      0.000533892    -0.000193847        -0.197931        0.115137
281720                 -0.079515       -0.016027      0.000561693     0.000348261         -0.65633        0.740726     -0.000123759     0.000591193
                     0.000598178      0.00025584        -0.168901        0.163897     -2.10681e-06    -0.000497859         0.594454        0.760412
                       -0.656516        0.740511     -0.000138226    -0.000555833       -0.0245336      -0.0744874      0.000650903     -0.00025641
                    -0.000258463     0.000760841         0.595247        0.761089      0.000531128    -0.000195899        -0.197785        0.115264
281722                -0.0795112      -0.0160226      0.000561548     0.000348249        -0.655972        0.741044     -0.000125041     0.000587709
                     0.000599766     0.000256058        -0.168831         0.16388     -3.76325e-06    -0.000496474         0.594819         0.76014
                       -0.656156        0.740833     -0.000137405    -0.000555676       -0.0246022      -0.0744599      0.000647827    -0.000255939
                    -0.000258222     0.000762021         0.595608        0.760817      0.000528373    -0.000197906         -0.19764        0.115392
281724                -0.0795075      -0.0160183      0.000561411     0.000348272        -0.655614        0.741362     -0.000126138     0.000584296
                     0.000601386     0.000256311        -0.168761        0.163863     -5.35211e-06    -0.000495096         0.595182        0.759868
                       -0.655795        0.741154     -0.000136555    -0.000555505       -0.0246708      -0.0744324       0.00064486    -0.000255592
                    -0.000258085     0.000763115         0.595968        0.760545      0.000525633    -0.000199868        -0.197495        0.115519
281726                -0.0795037      -0.0160139      0.000561285     0.000348339        -0.655257         0.74168     -0.000127038     0.000580971
                     0.000603042     0.000256608        -0.168691        0.163846     -6.87135e-06    -0.000493729         0.595546        0.759596
                       -0.655434        0.741476     -0.000135667    -0.000555318       -0.0247393      -0.0744048      0.000642006    -0.000255371
                    -0.000258063     0.000764107         0.596328        0.760273      0.000522912    -0.000201785         -0.19735        0.115645
281728                -0.0794999      -0.0160095      0.000561174     0.000348461        -0.654899        0.741997     -0.000127734     0.000577749
                     0.000604741     0.000256955        -0.168622        0.163828     -8.31908e-06    -0.000492376         0.595908        0.759325
                       -0.655071        0.741798      -0.00013473    -0.000555111       -0.0248078      -0.0743771      0.000639273     -0.00025528
                    -0.000258174     0.000764971         0.596687        0.760001      0.000520217    -0.000203654        -0.197206        0.115772
281730                -0.0794961      -0.0160051      0.000561081     0.000348655        -0.654541        0.742315     -0.000128213     0.000574653
                      0.00060649     0.000257363        -0.168552        0.163811     -9.69384e-06    -0.000491043          0.59627        0.759054
                       -0.654709         0.74212      -0.00013373    -0.000554881       -0.0248762      -0.0743494      0.000636671    -0.000255326
                    -0.000258433     0.000765679         0.597045        0.759728      0.000517557    -0.000205475        -0.197061        0.115898
281732                -0.0794924      -0.0160007      0.000561016     0.000348943        -0.654183        0.742633     -0.000128466     0.000571708
                     0.000608297     0.000257845        -0.168482        0.163794     -1.09949e-05    -0.000489737         0.596631        0.758784
                       -0.654345        0.742442     -0.000132643     -0.00055462       -0.0249446      -0.0743216       0.00063421    -0.000255517
                    -0.000258856     0.000766192         0.597402        0.759455      0.000514945    -0.000207247        -0.196917        0.116025
281734                -0.0794886      -0.0159962      0.000560989     0.000349361        -0.653824         0.74295     -0.000128482     0.000568946
                     0.000610176     0.000258416        -0.168412        0.163777     -1.22227e-05    -0.000488465         0.596991        0.758515
                       -0.653982        0.742765     -0.000131436    -0.000554322       -0.0250129      -0.0742938      0.000631904    -0.000255864
                    -0.000259457     0.000766463         0.597757        0.759182      0.000512395    -0.000208966        -0.196774         0.11615
281736                -0.0794848      -0.0159917      0.000561023     0.000349961        -0.653466        0.743268      -0.00012825     0.000566403
                     0.000612142     0.000259099        -0.168343        0.163761     -1.33797e-05    -0.000487241         0.597351        0.758248
                       -0.653618        0.743089     -0.000130052    -0.000553975       -0.0250811      -0.0742659      0.000629773    -0.000256385
                    -0.000260239     0.000766433         0.598109        0.758908       0.00050993     -0.00021063         -0.19663        0.116276
281738                -0.0794811      -0.0159872      0.000561155     0.000350834        -0.653107        0.743585     -0.000127761     0.000564125
                     0.000614217     0.000259922        -0.168273        0.163744      -1.4472e-05    -0.000486081         0.597712        0.757983
                       -0.653255        0.743413     -0.000128398    -0.000553564       -0.0251493       -0.074238      0.000627845    -0.000257105
                    -0.000261189     0.000766033         0.598459        0.758635      0.000507581    -0.000212232        -0.196486        0.116401
281740                -0.0794774      -0.0159826       0.00056146     0.000352139        -0.652747        0.743902     -0.000127011     0.000562167
                     0.000616431     0.000260923        -0.168203        0.163728     -1.55107e-05     -0.00048501         0.598073        0.757719
                       -0.652893        0.743737     -0.000126296    -0.000553073       -0.0252175      -0.0742101      0.000626163    -0.000258062
                    -0.000262255     0.000765196         0.598802        0.758364       0.00050539    -0.000213766        -0.196343        0.116526
281742                -0.0794737      -0.0159781      0.000562115     0.000354186        -0.652387        0.744218     -0.000125999     0.000560597
                     0.000618829     0.000262156        -0.168133        0.163712     -1.65163e-05    -0.000484063         0.598436        0.757458
                       -0.652531        0.744061     -0.000123372    -0.000552498       -0.0252858      -0.0741822      0.000624801    -0.000259313
                     -0.00026331     0.000763894         0.599135        0.758095      0.000503426    -0.000215221        -0.196199         0.11665
281744                -0.0794701      -0.0159735      0.000563605     0.000357673        -0.652027        0.744534     -0.000124735     0.000559495
                     0.000621475     0.000263698        -0.168063        0.163699     -1.75249e-05    -0.000483291         0.598801        0.757198
                       -0.652171        0.744385     -0.000118703    -0.000551945        -0.025354      -0.0741543      0.000623894     -0.00026094
                    -0.000264098     0.000762257         0.599447        0.757839      0.000501793    -0.000216584        -0.196055        0.116774
281746                -0.0794665       -0.015969      0.000567784     0.000364453        -0.651666        0.744849     -0.000123241     0.000558957
                     0.000624472     0.000265666        -0.167991        0.163691     -1.85997e-05    -0.000482775          0.59917         0.75694
                       -0.651812        0.744708     -0.000109385    -0.000552487       -0.0254223      -0.0741264      0.000623713    -0.000263063
                    -0.000264164     0.000760927          0.59971        0.757642       0.00050066    -0.000217836        -0.195912        0.116897
281748                 -0.079463      -0.0159646      0.000587024     0.000379184        -0.651303        0.745164     -0.000121563     0.000559096
                     0.000627988     0.000268239        -0.167814        0.163753     -1.98535e-05    -0.000482639         0.599544        0.756681
                       -0.651455        0.745029     -8.56975e-05    -0.000568813       -0.0254907      -0.0740986      0.000624856    -0.000265791
                    -0.000262973     0.000762154         0.600105        0.757791      0.000500326    -0.000218956        -0.195768         0.11702
281750                -0.0794596      -0.0159603      0.000636493     0.000302931        -0.650938        0.745476     -0.000119775      0.00056004
                     0.000632322     0.000271712        -0.167857        0.163607     -2.14959e-05    -0.000483075         0.599923         0.75642
                       -0.651099        0.745349     -0.000140139    -0.000610744       -0.0255594      -0.0740709      0.000628728    -0.000268858
                    -0.000261398      0.00077353         0.600976        0.757245      0.000501355    -0.000219934        -0.195624        0.117143
281752                 -0.079456      -0.0159563      0.000567208     0.000308123         -0.65057        0.745787     -0.000117996     0.000561927
                     0.000638058       0.0002766        -0.167788        0.163604     -2.39353e-05    -0.000484382         0.600306        0.756155
                       -0.650747        0.745665     -0.000147224    -0.000574082       -0.0256286      -0.0740434      0.000638019     -0.00026945
                    -0.000274653     0.000825236         0.601245        0.756782      0.000504943    -0.000220861        -0.195479        0.117265
281754                -0.0794524      -0.0159524      0.000559739     0.000322217        -0.650196        0.746094     -0.000116403     0.000564896
                     0.000646497     0.000283885        -0.167719        0.163592     -2.80246e-05    -0.000486995          0.60069        0.755883
                       -0.650398        0.745979     -0.000141513    -0.000564738       -0.0256989      -0.0740161      0.000649316    -0.000257209
                     -0.00073674      0.00107961         0.601546        0.756457      0.000514055    -0.000222411        -0.195334        0.117386
281756                -0.0794487      -0.0159489      0.000558103     0.000328296        -0.649806        0.746396     -0.000115243     0.000569063
                     0.000661158     0.000295581        -0.167649        0.163576     -3.56718e-05    -0.000491346         0.601074        0.755605
                       -0.650058        0.746288     -0.000137788    -0.000561036       -0.0257719      -0.0739884      0.000641828    -0.000239091
                    -0.000129629     0.000419623         0.601873        0.756159      0.000537664    -0.000229613        -0.195189        0.117507
281758                -0.0794447      -0.0159456      0.000557494     0.000331621        -0.649373        0.746698     -0.000114842     0.000574492
                     0.000694969      0.00031549         -0.16758         0.16356     -5.12324e-05    -0.000496653         0.601455        0.755322
                       -0.649733        0.746594     -0.000135175     -0.00055899         -0.02585      -0.0739555      0.000628443    -0.000236331
                    -9.61348e-05     0.000593976          0.60221        0.755868      0.000592069    -0.000296707        -0.195042        0.117628
281760                -0.0794405      -0.0159427      0.000557167     0.000333783        -0.648831        0.747126     -0.000115591     0.000581142
                     0.000820196     0.000318075         -0.16751        0.163544     -8.19935e-05    -0.000494653         0.601832        0.755034
                       -0.649443        0.746913      -0.00013313    -0.000557581       -0.0259187      -0.0739066       0.00062117    -0.000239274
                    -9.16527e-05     0.000665251         0.602553        0.755578      0.000435097    -0.000381888        -0.194895        0.117749
281762                -0.0794361        -0.01594      0.000556933     0.000335419        -0.648688        0.747731     -0.000117908     0.000588818
                     0.000738918     2.35832e-05        -0.167441        0.163527     -0.000118396    -0.000460515         0.602204        0.754745
                       -0.649182        0.747318     -0.000131375    -0.000556427       -0.0259695      -0.0738734      0.000617635    -0.000242406
