! TOUCHSTONE file generated by CST MICROWAVE STUDIO
! Date and time: Tue Oct 14 07:29:57 2025
! Project name: Teste_Macro_Metasurface_Nanopilar.cst
! Parameters = {H=600; L_x=150; L_y=140; Lambda=1064; Max_L=200; Min_L=70; PathPara=1; Phi=0; Step_L=10; Theta=0; p=520; phaseX=180; phaseY=0}
! Header version: 2018
! Port assignment regex: !\s*Touchstone port\s*([0-9]+)\s*=\s*(CST MWS port|CST DS port)\s*([0-9]+|Zmin|Zmax)\s*\(\"(.*)\"\)(\s*mode\s*([0-9]+))?.*
! Touchstone port assignment:
! Touchstone port 1 = CST MWS port Zmax ("") mode 1
! Touchstone port 2 = CST MWS port Zmax ("") mode 2
! Touchstone port 3 = CST MWS port Zmin ("") mode 1
! Touchstone port 4 = CST MWS port Zmin ("") mode 2
! S-Parameters are not renormalized. Each port impedance will be approximated by the real part at minimum frequency. The values are described via the [Reference] keyword.
! Default impedance is overridden by [Reference]
[Version] 2.0
# GHz S RI R 376.73
[Number of Ports] 4
[Reference]
376.73 376.73 259.814 259.814 
[Number of Frequencies] 51
[Network Data]
281700                 -0.139238       -0.221276      0.000620896     0.000377393         0.500125        0.819937      0.000371251     0.000335861
                      0.00075341     0.000425132         -0.45568       -0.492557      0.000119171     0.000368914         0.658043        0.259229
                        0.499957        0.819108      0.000107121     0.000482355         0.134558        0.220516     -0.000708216    -0.000362765
                     0.000526754     0.000406795           0.6581        0.260008     -0.000590131    -0.000265016         0.645379       -0.119608
281702                 -0.139321       -0.221295      0.000621653     0.000376772         0.500509        0.819683      0.000371833     0.000335797
                     0.000754475     0.000424221        -0.456388       -0.492535      0.000119964     0.000369215         0.657849        0.258372
                        0.500341        0.818853      0.000107214     0.000482581         0.134751        0.220467     -0.000708687    -0.000362304
                     0.000528022     0.000406621         0.657905        0.259152     -0.000590278    -0.000264182         0.645647       -0.120627
281704                 -0.139404       -0.221313      0.000622408      0.00037615         0.500893        0.819427      0.000372416     0.000335733
                     0.000755548       0.0004233        -0.457097       -0.492512      0.000120759     0.000369515         0.657653        0.257516
                        0.500724        0.818597      0.000107308     0.000482806         0.134945        0.220417     -0.000709156    -0.000361841
                     0.000529305     0.000406442         0.657709        0.258296     -0.000590424    -0.000263345         0.645913       -0.121648
281706                 -0.139487       -0.221332      0.000623162     0.000375529         0.501277        0.819172         0.000373     0.000335668
                     0.000756628     0.000422368        -0.457807       -0.492488      0.000121558     0.000369814         0.657455        0.256659
                        0.501108        0.818342      0.000107403     0.000483031         0.135138        0.220367     -0.000709626    -0.000361377
                     0.000530602     0.000406259         0.657511        0.257439     -0.000590568    -0.000262507         0.646178       -0.122671
281708                 -0.139571       -0.221351      0.000623913     0.000374907         0.501661        0.818916      0.000373585     0.000335602
                     0.000757715     0.000421427        -0.458518       -0.492463      0.000122358     0.000370112         0.657255        0.255802
                        0.501492        0.818086        0.0001075     0.000483256         0.135332        0.220317     -0.000710095    -0.000360913
                     0.000531912     0.000406073          0.65731        0.256582     -0.000590711    -0.000261668         0.646442       -0.123696
281710                 -0.139654        -0.22137      0.000624663     0.000374286         0.502045        0.818661      0.000374171     0.000335534
                     0.000758809     0.000420478        -0.459231       -0.492436      0.000123162      0.00037041         0.657053        0.254944
                        0.501875         0.81783      0.000107597      0.00048348         0.135525        0.220266     -0.000710564    -0.000360447
                     0.000533236     0.000405886         0.657108        0.255725     -0.000590852    -0.000260827         0.646705       -0.124723
281712                 -0.139737       -0.221389       0.00062541     0.000373665         0.502428        0.818405      0.000374757     0.000335466
                      0.00075991     0.000419521        -0.459944       -0.492409      0.000123968     0.000370706          0.65685        0.254086
                        0.502259        0.817573      0.000107696     0.000483703         0.135719        0.220216     -0.000711033    -0.000359981
                     0.000534573     0.000405698         0.656904        0.254867     -0.000590992    -0.000259984         0.646966       -0.125751
281714                 -0.139821       -0.221408      0.000626156     0.000373044         0.502812        0.818148      0.000375345     0.000335397
                     0.000761018     0.000418558        -0.460658       -0.492381      0.000124776     0.000371002         0.656645        0.253228
                        0.502642        0.817316      0.000107796     0.000483926         0.135913        0.220165     -0.000711501    -0.000359513
                     0.000535922     0.000405511         0.656698        0.254009      -0.00059113    -0.000259139         0.647225       -0.126782
281716                 -0.139904       -0.221427      0.000626899     0.000372423         0.503195        0.817892      0.000375933     0.000335327
                     0.000762132     0.000417588        -0.461374       -0.492352      0.000125588     0.000371297         0.656437         0.25237
                        0.503025         0.81706      0.000107896     0.000484149         0.136106        0.220115     -0.000711968    -0.000359045
                     0.000537282     0.000405325         0.656491        0.253151     -0.000591267    -0.000258293         0.647484       -0.127814
281718                 -0.139988       -0.221446      0.000627641     0.000371802         0.503579        0.817635      0.000376523     0.000335256
                     0.000763253     0.000416613         -0.46209       -0.492321      0.000126402     0.000371591         0.656228        0.251512
                        0.503408        0.816803      0.000107998      0.00048437           0.1363        0.220064     -0.000712436    -0.000358575
                     0.000538653      0.00040514         0.656281        0.252292     -0.000591402    -0.000257445         0.647741       -0.128848
281720                 -0.140071       -0.221465       0.00062838     0.000371181         0.503962        0.817378      0.000377113     0.000335184
                     0.000764379     0.000415633        -0.462808        -0.49229      0.000127218     0.000371885         0.656017        0.250653
                        0.503791        0.816545      0.000108102     0.000484592         0.136494        0.220013     -0.000712903    -0.000358105
                     0.000540032     0.000404957         0.656069        0.251434     -0.000591536    -0.000256596         0.647997       -0.129883
281722                 -0.140155       -0.221483      0.000629117      0.00037056         0.504345        0.817121      0.000377704     0.000335112
                      0.00076551     0.000414649        -0.463527       -0.492257      0.000128038     0.000372177         0.655805        0.249794
                        0.504174        0.816288      0.000108206     0.000484812         0.136687        0.219962      -0.00071337    -0.000357634
                      0.00054142     0.000404776         0.655855        0.250574     -0.000591668    -0.000255744         0.648251       -0.130921
281724                 -0.140238       -0.221502      0.000629852      0.00036994         0.504728        0.816864      0.000378297     0.000335039
                     0.000766646      0.00041366        -0.464247       -0.492224       0.00012886     0.000372469          0.65559        0.248934
                        0.504557         0.81603      0.000108311     0.000485032         0.136881         0.21991     -0.000713836    -0.000357162
                     0.000542816     0.000404597          0.65564        0.249715     -0.000591799    -0.000254891         0.648504        -0.13196
281726                 -0.140322       -0.221521      0.000630585      0.00036932         0.505111        0.816606      0.000378891     0.000334966
                     0.000767787     0.000412668        -0.464968       -0.492189      0.000129684      0.00037276         0.655373        0.248075
                        0.504939        0.815772      0.000108418     0.000485251         0.137075        0.219859     -0.000714302    -0.000356689
                     0.000544219     0.000404421         0.655422        0.248855     -0.000591928    -0.000254036         0.648755       -0.133001
281728                 -0.140406        -0.22154      0.000631316       0.0003687         0.505494        0.816348      0.000379486     0.000334892
                     0.000768932     0.000411672         -0.46569       -0.492154      0.000130512      0.00037305         0.655155        0.247215
                        0.505322        0.815514      0.000108526     0.000485469         0.137269        0.219807     -0.000714768    -0.000356216
                     0.000545627     0.000404246         0.655202        0.247996     -0.000592056    -0.000253179         0.649006       -0.134044
281730                 -0.140489       -0.221559      0.000632044      0.00036808         0.505877         0.81609      0.000380082     0.000334819
                      0.00077008     0.000410673        -0.466413       -0.492117      0.000131342      0.00037334         0.654934        0.246355
                        0.505704        0.815256      0.000108634     0.000485687         0.137463        0.219755     -0.000715234    -0.000355742
                     0.000547041     0.000404073         0.654981        0.247135     -0.000592183     -0.00025232         0.649254       -0.135089
281732                 -0.140573       -0.221578       0.00063277      0.00036746         0.506259        0.815832       0.00038068     0.000334746
                     0.000771232     0.000409671        -0.467137       -0.492079      0.000132174     0.000373629         0.654712        0.245495
                        0.506087        0.814997      0.000108744     0.000485903         0.137657        0.219704     -0.000715699    -0.000355267
                     0.000548459     0.000403902         0.654757        0.246275     -0.000592308    -0.000251459         0.649501       -0.136136
281734                 -0.140657       -0.221597      0.000633494     0.000366841         0.506642        0.815574      0.000381281     0.000334675
                     0.000772387     0.000408666        -0.467862        -0.49204       0.00013301     0.000373917         0.654487        0.244634
                        0.506469        0.814738      0.000108856      0.00048612         0.137851        0.219652     -0.000716164    -0.000354793
                     0.000549882     0.000403732         0.654532        0.245414     -0.000592431    -0.000250596         0.649747       -0.137184
281736                 -0.140741       -0.221616      0.000634215     0.000366221         0.507024        0.815315      0.000381885     0.000334608
                     0.000773544     0.000407658        -0.468588          -0.492      0.000133849     0.000374204         0.654261        0.243774
                        0.506851        0.814479      0.000108968     0.000486335         0.138045        0.219599     -0.000716629    -0.000354318
                     0.000551309     0.000403564         0.654304        0.244553     -0.000592553    -0.000249732         0.649991       -0.138235
281738                 -0.140825       -0.221635      0.000634935     0.000365602         0.507406        0.815056      0.000382494     0.000334545
                     0.000774703     0.000406648        -0.469316       -0.491959       0.00013469     0.000374491         0.654032        0.242913
                        0.507233         0.81422      0.000109081      0.00048655         0.138239        0.219547     -0.000717093    -0.000353845
                     0.000552738     0.000403395         0.654075        0.243692     -0.000592674    -0.000248865         0.650234       -0.139287
281740                 -0.140909       -0.221654      0.000635651     0.000364983         0.507789        0.814797      0.000383111     0.000334494
                     0.000775864     0.000405635        -0.470044       -0.491917      0.000135534     0.000374776         0.653802        0.242052
                        0.507615         0.81396      0.000109196     0.000486764         0.138434        0.219495     -0.000717557    -0.000353373
                      0.00055417     0.000403228         0.653843        0.242831     -0.000592792    -0.000247996         0.650475       -0.140341
281742                 -0.140993       -0.221673      0.000636366     0.000364365         0.508171        0.814538       0.00038375     0.000334467
                     0.000777027      0.00040462        -0.470774       -0.491874      0.000136382     0.000375061         0.653569        0.241191
                        0.507997        0.813701      0.000109312     0.000486978         0.138628        0.219442     -0.000718019    -0.000352903
                     0.000555605      0.00040306          0.65361        0.241969     -0.000592909    -0.000247124         0.650714       -0.141396
281744                 -0.141077       -0.221692      0.000637078     0.000363746         0.508553        0.814278      0.000384453     0.000334497
                      0.00077819     0.000403604        -0.471505        -0.49183      0.000137233     0.000375345         0.653335         0.24033
                        0.508379        0.813441      0.000109429     0.000487192         0.138822        0.219389     -0.000718477    -0.000352438
                     0.000557041     0.000402892         0.653374        0.241107     -0.000593024    -0.000246251         0.650952       -0.142454
281746                 -0.141161       -0.221711      0.000637788     0.000363128         0.508935        0.814019      0.000385556     0.000334635
                     0.000779354     0.000402585        -0.472236       -0.491784      0.000138088     0.000375628         0.653098        0.239469
                         0.50876        0.813181      0.000109549     0.000487407         0.139016        0.219337     -0.000718927     -0.00035198
                     0.000558479     0.000402723         0.653137        0.240245     -0.000593136    -0.000245374         0.651188       -0.143513
281748                 -0.141245       -0.221731      0.000638496     0.000362509         0.509316        0.813759      0.000386133     0.000332877
                     0.000780519     0.000401566        -0.472969       -0.491738      0.000138947     0.000375909         0.652858        0.238608
                        0.509142         0.81292      0.000109672     0.000487627         0.139211        0.219284      -0.00071936    -0.000351529
                     0.000559916     0.000402555         0.652897        0.239383     -0.000593245    -0.000244493         0.651421       -0.144575
281750                 -0.141329        -0.22175      0.000639202     0.000361888         0.509698        0.813498      0.000386044     0.000333347
                     0.000781682     0.000400546        -0.473703        -0.49169      0.000139815     0.000376189         0.652617        0.237746
                        0.509523         0.81266       0.00010981     0.000487857         0.139405         0.21923     -0.000719754    -0.000351071
                     0.000561354     0.000402385         0.652656         0.23852     -0.000593348    -0.000243606         0.651653        -0.14564
281752                 -0.141413       -0.221769      0.000639907     0.000361265          0.51008        0.813238      0.000386606     0.000333454
                     0.000782845     0.000399527        -0.474438       -0.491641      0.000140697      0.00037647         0.652372        0.236883
                        0.509905        0.812399      0.000110032     0.000488067         0.139599        0.219177     -0.000720114    -0.000350559
                     0.000562789     0.000402215         0.652412        0.237658     -0.000593446    -0.000242704         0.651884       -0.146707
281754                 -0.141497       -0.221788      0.000640606     0.000360634         0.510461        0.812977      0.000387209     0.000333442
                     0.000784005     0.000398511        -0.475174       -0.491591      0.000141603     0.000376784         0.652126         0.23602
                        0.510286        0.812138      0.000110105     0.000488126         0.139794        0.219124     -0.000720515     -0.00034997
                     0.000564219     0.000402045         0.652167        0.236795     -0.000593561    -0.000241767         0.652114       -0.147777
281756                 -0.141582       -0.221807      0.000641283     0.000360001         0.510842        0.812716      0.000387818     0.000333387
                     0.000785161     0.000397503        -0.475911        -0.49154      0.000142432     0.000377141         0.651879        0.235156
                        0.510667        0.811876      0.000110174     0.000488351         0.139988         0.21907     -0.000720993    -0.000349388
                     0.000565639     0.000401877         0.651919        0.235932     -0.000593747    -0.000240853         0.652343       -0.148848
281758                 -0.141666       -0.221826      0.000641952     0.000359394         0.511224        0.812455      0.000388429     0.000333311
                     0.000786311     0.000396513        -0.476649       -0.491488      0.000143251     0.000377409         0.651629        0.234291
                        0.511048        0.811615      0.000110285     0.000488567         0.140183        0.219016     -0.000721492    -0.000348848
                     0.000567038     0.000401714         0.651669        0.235068     -0.000593894    -0.000240009         0.652571       -0.149921
281760                  -0.14175       -0.221845      0.000642638     0.000358792         0.511605        0.812194       0.00038904     0.000333221
                     0.000787447     0.000395574        -0.477388       -0.491434      0.000144111     0.000377673         0.651378        0.233427
                        0.511429        0.811353      0.000110405     0.000488775         0.140378        0.218962     -0.000721986    -0.000348332
                     0.000568389      0.00040157         0.651418        0.234205     -0.000594002    -0.000239146         0.652798       -0.150996
281762                 -0.141835       -0.221864      0.000643325     0.000358184         0.511986        0.811933      0.000389652      0.00033312
                     0.000788578     0.000394842        -0.478129        -0.49138      0.000144983     0.000377945         0.651125        0.232562
                         0.51181        0.811091      0.000110529     0.000488978         0.140572        0.218908     -0.000722469    -0.000347825
