! TOUCHSTONE file generated by CST MICROWAVE STUDIO
! Date and time: Tue Oct 14 07:30:56 2025
! Project name: Teste_Macro_Metasurface_Nanopilar.cst
! Parameters = {H=600; L_x=165; L_y=155; Lambda=1064; Max_L=200; Min_L=70; PathPara=1; Phi=0; Step_L=10; Theta=0; p=520; phaseX=180; phaseY=0}
! Header version: 2018
! Port assignment regex: !\s*Touchstone port\s*([0-9]+)\s*=\s*(CST MWS port|CST DS port)\s*([0-9]+|Zmin|Zmax)\s*\(\"(.*)\"\)(\s*mode\s*([0-9]+))?.*
! Touchstone port assignment:
! Touchstone port 1 = CST MWS port Zmax ("") mode 1
! Touchstone port 2 = CST MWS port Zmax ("") mode 2
! Touchstone port 3 = CST MWS port Zmin ("") mode 1
! Touchstone port 4 = CST MWS port Zmin ("") mode 2
! S-Parameters are not renormalized. Each port impedance will be approximated by the real part at minimum frequency. The values are described via the [Reference] keyword.
! Default impedance is overridden by [Reference]
[Version] 2.0
# GHz S RI R 376.73
[Number of Ports] 4
[Reference]
376.73 376.73 259.814 259.814 
[Number of Frequencies] 51
[Network Data]
281700                 -0.174031       0.0159716      0.000189813     0.000592343         0.645904        0.737134     -0.000514068     0.000466953
                     0.000259362     0.000665175        -0.170845     -0.00425625       -0.0005702     0.000502724         0.735237        0.650196
                        0.646407        0.736911     -0.000458606     0.000449661        -0.038093        0.165452     -0.000825589    -0.000277606
                    -0.000380043     0.000551292         0.735296        0.649831     -0.000947362    -0.000409104        0.0248486        0.164923
281702                 -0.174022       0.0159889      0.000190744      0.00059231         0.646226        0.736854     -0.000513873     0.000467441
                     0.000259856     0.000665016        -0.170848     -0.00423345     -0.000569729     0.000503632         0.735511        0.649886
                        0.646727        0.736633     -0.000458418     0.000450115       -0.0379646        0.165476     -0.000825659    -0.000277217
                    -0.000379648      0.00055148         0.735569         0.64952     -0.000947749    -0.000408269        0.0249667        0.164908
281704                 -0.174013       0.0160062      0.000191673     0.000592281         0.646548        0.736573     -0.000513679     0.000467929
                     0.000260351     0.000664858         -0.17085     -0.00421065     -0.000569258     0.000504538         0.735785        0.649576
                        0.647046        0.736355     -0.000458232     0.000450567       -0.0378361        0.165499     -0.000825729    -0.000276827
                    -0.000379254     0.000551668         0.735842        0.649209     -0.000948133    -0.000407434        0.0250848        0.164893
281706                 -0.174004       0.0160235      0.000192599     0.000592257         0.646871        0.736292     -0.000513485     0.000468416
                     0.000260845     0.000664699        -0.170853     -0.00418784     -0.000568786     0.000505443         0.736059        0.649266
                        0.647366        0.736077     -0.000458045     0.000451017       -0.0377077        0.165523     -0.000825799    -0.000276437
                    -0.000378862     0.000551855         0.736115        0.648898     -0.000948515    -0.000406602        0.0252028        0.164878
281708                 -0.173996       0.0160408      0.000193523     0.000592236         0.647193        0.736011     -0.000513292     0.000468902
                      0.00026134     0.000664541        -0.170856     -0.00416502     -0.000568314     0.000506345         0.736333        0.648956
                        0.647685        0.735798     -0.000457859     0.000451466       -0.0375792        0.165546     -0.000825868    -0.000276048
                     -0.00037847     0.000552043         0.736388        0.648587     -0.000948895     -0.00040577        0.0253208        0.164863
281710                 -0.173987       0.0160581      0.000194443      0.00059222         0.647515        0.735729     -0.000513099     0.000469388
                     0.000261835     0.000664382        -0.170858      -0.0041422     -0.000567841     0.000507246         0.736606        0.648646
                        0.648004         0.73552     -0.000457674     0.000451912       -0.0374508         0.16557     -0.000825936    -0.000275658
                     -0.00037808      0.00055223         0.736661        0.648275     -0.000949272    -0.000404939        0.0254388        0.164848
281712                 -0.173978       0.0160754      0.000195361     0.000592207         0.647837        0.735448     -0.000512906     0.000469874
                      0.00026233     0.000664223        -0.170861     -0.00411936     -0.000567367     0.000508144          0.73688        0.648336
                        0.648323        0.735241     -0.000457489     0.000452356       -0.0373223        0.165593     -0.000826004    -0.000275269
                     -0.00037769     0.000552418         0.736933        0.647964     -0.000949647     -0.00040411        0.0255568        0.164833
281714                  -0.17397       0.0160928      0.000196276     0.000592198         0.648158        0.735167     -0.000512714     0.000470359
                     0.000262825     0.000664064        -0.170863     -0.00409652     -0.000566892     0.000509041         0.737153        0.648026
                        0.648642        0.734962     -0.000457305     0.000452798       -0.0371939        0.165616     -0.000826072     -0.00027488
                    -0.000377301     0.000552606         0.737205        0.647652     -0.000950019    -0.000403281        0.0256748        0.164818
281716                 -0.173961       0.0161101      0.000197189     0.000592193          0.64848        0.734885     -0.000512522     0.000470844
                      0.00026332     0.000663905        -0.170866     -0.00407367     -0.000566417     0.000509936         0.737427        0.647715
                        0.648961        0.734683      -0.00045712     0.000453238       -0.0370655         0.16564     -0.000826139     -0.00027449
                    -0.000376913     0.000552793         0.737477        0.647341     -0.000950389    -0.000402454        0.0257928        0.164802
281718                 -0.173952       0.0161275      0.000198099     0.000592192         0.648801        0.734603     -0.000512331     0.000471328
                     0.000263815     0.000663746        -0.170869     -0.00405082     -0.000565941     0.000510828           0.7377        0.647404
                        0.649279        0.734404     -0.000456937     0.000453676        -0.036937        0.165663     -0.000826206    -0.000274101
                    -0.000376525     0.000552981         0.737749        0.647029     -0.000950757    -0.000401628        0.0259107        0.164787
281720                 -0.173943       0.0161448      0.000199006     0.000592194         0.649122        0.734321      -0.00051214     0.000471811
                     0.000264311     0.000663586        -0.170871     -0.00402795     -0.000565465     0.000511719         0.737973        0.647094
                        0.649598        0.734125     -0.000456753     0.000454113       -0.0368086        0.165686     -0.000826272    -0.000273712
                    -0.000376138     0.000553168         0.738021        0.646717     -0.000951122    -0.000400803        0.0260286        0.164771
281722                 -0.173935       0.0161622       0.00019991     0.000592201         0.649443        0.734039      -0.00051195     0.000472294
                     0.000264806     0.000663427        -0.170874     -0.00400508     -0.000564988     0.000512607         0.738246        0.646783
                        0.649916        0.733846      -0.00045657     0.000454547       -0.0366802        0.165708     -0.000826338    -0.000273323
                    -0.000375751     0.000553355         0.738293        0.646405     -0.000951485    -0.000399979        0.0261465        0.164756
281724                 -0.173926       0.0161796      0.000200811      0.00059221         0.649764        0.733757      -0.00051176     0.000472777
                     0.000265301     0.000663267        -0.170877      -0.0039822     -0.000564511     0.000513494         0.738518        0.646472
                        0.650234        0.733566     -0.000456388      0.00045498       -0.0365518        0.165731     -0.000826403    -0.000272934
                    -0.000375365     0.000553543         0.738565        0.646093     -0.000951846    -0.000399157        0.0262644         0.16474
281726                 -0.173918        0.016197       0.00020171     0.000592224         0.650085        0.733475      -0.00051157     0.000473259
                     0.000265796     0.000663106        -0.170879     -0.00395931     -0.000564032     0.000514379         0.738791        0.646161
                        0.650552        0.733286     -0.000456205     0.000455411       -0.0364233        0.165754     -0.000826467    -0.000272545
                    -0.000374979      0.00055373         0.738836        0.645781     -0.000952204    -0.000398335        0.0263822        0.164725
281728                 -0.173909       0.0162144      0.000202606     0.000592241         0.650406        0.733193     -0.000511381     0.000473741
                     0.000266291     0.000662945        -0.170882     -0.00393641     -0.000563554     0.000515261         0.739063         0.64585
                         0.65087        0.733007     -0.000456023     0.000455839       -0.0362949        0.165777     -0.000826532    -0.000272157
                    -0.000374594     0.000553917         0.739108        0.645468      -0.00095256    -0.000397515        0.0265001        0.164709
281730                   -0.1739       0.0162318      0.000203499     0.000592262         0.650726         0.73291     -0.000511192     0.000474222
                     0.000266786     0.000662784        -0.170885     -0.00391351     -0.000563074     0.000516141         0.739336        0.645539
                        0.651188        0.732727     -0.000455841     0.000456266       -0.0361665        0.165799     -0.000826595    -0.000271768
                    -0.000374208     0.000554104         0.739379        0.645156     -0.000952914    -0.000396696        0.0266179        0.164693
281732                 -0.173892       0.0162492       0.00020439     0.000592287         0.651047        0.732628     -0.000511004     0.000474703
                     0.000267281     0.000662623        -0.170887      -0.0038906     -0.000562594      0.00051702         0.739608        0.645227
                        0.651506        0.732447      -0.00045566     0.000456691       -0.0360381        0.165821     -0.000826659     -0.00027138
                    -0.000373824     0.000554291          0.73965        0.644844     -0.000953265    -0.000395878        0.0267357        0.164677
281734                 -0.173883       0.0162666      0.000205277     0.000592314         0.651367        0.732345     -0.000510816     0.000475183
                     0.000267776     0.000662461         -0.17089     -0.00386768     -0.000562114     0.000517896          0.73988        0.644916
                        0.651823        0.732167     -0.000455478     0.000457115       -0.0359097        0.165844     -0.000826722    -0.000270992
                    -0.000373439     0.000554478         0.739921        0.644531     -0.000953614    -0.000395062        0.0268535        0.164661
281736                 -0.173874        0.016284      0.000206162     0.000592346         0.651687        0.732062     -0.000510628     0.000475663
                     0.000268271     0.000662299        -0.170893     -0.00384475     -0.000561633      0.00051877         0.740152        0.644604
                        0.652141        0.731886     -0.000455297     0.000457536       -0.0357813        0.165866     -0.000826784    -0.000270603
                    -0.000373055     0.000554664         0.740192        0.644218      -0.00095396    -0.000394246        0.0269713        0.164645
281738                 -0.173866       0.0163015      0.000207044     0.000592381         0.652007        0.731779     -0.000510441     0.000476142
                     0.000268766     0.000662137        -0.170895     -0.00382182     -0.000561151     0.000519642         0.740423        0.644292
                        0.652458        0.731606     -0.000455117     0.000457956       -0.0356529        0.165888     -0.000826846    -0.000270215
                    -0.000372671      0.00055485         0.740462        0.643905     -0.000954304    -0.000393432         0.027089        0.164629
281740                 -0.173857       0.0163189      0.000207924     0.000592419         0.652327        0.731496     -0.000510254     0.000476621
                      0.00026926     0.000661974        -0.170898     -0.00379887     -0.000560669     0.000520512         0.740695        0.643981
                        0.652775        0.731325     -0.000454936     0.000458374       -0.0355246         0.16591     -0.000826907    -0.000269828
                    -0.000372288     0.000555037         0.740733        0.643593     -0.000954646    -0.000392619        0.0272067        0.164613
281742                 -0.173849       0.0163364        0.0002088     0.000592461         0.652646        0.731213     -0.000510068     0.000477099
                     0.000269755     0.000661811        -0.170901     -0.00377592     -0.000560187     0.000521379         0.740966        0.643669
                        0.653092        0.731045     -0.000454756      0.00045879       -0.0353962        0.165932     -0.000826968     -0.00026944
                    -0.000371904     0.000555223         0.741003         0.64328     -0.000954986    -0.000391807        0.0273245        0.164596
281744                  -0.17384       0.0163538      0.000209674     0.000592506         0.652966         0.73093     -0.000509882     0.000477578
                     0.000270249     0.000661647        -0.170903     -0.00375296     -0.000559703     0.000522245         0.741238        0.643357
                        0.653409        0.730764     -0.000454575     0.000459204       -0.0352678        0.165954     -0.000827028    -0.000269052
                    -0.000371521     0.000555408         0.741274        0.642966     -0.000955323    -0.000390997        0.0274421         0.16458
281746                 -0.173832       0.0163713      0.000210545     0.000592554         0.653285        0.730646     -0.000509696     0.000478055
                     0.000270744     0.000661483        -0.170906        -0.00373      -0.00055922     0.000523108         0.741509        0.643044
                        0.653726        0.730483     -0.000454395     0.000459617       -0.0351394        0.165976     -0.000827088    -0.000268665
                    -0.000371138     0.000555594         0.741544        0.642653     -0.000955657    -0.000390187        0.0275598        0.164563
281748                 -0.173823       0.0163888      0.000211413     0.000592606         0.653604        0.730362     -0.000509511     0.000478532
                     0.000271238     0.000661319        -0.170909     -0.00370702     -0.000558736     0.000523969          0.74178        0.642732
                        0.654043        0.730202     -0.000454216     0.000460027        -0.035011        0.165997     -0.000827147    -0.000268278
                    -0.000370756     0.000555779         0.741814         0.64234      -0.00095599    -0.000389379        0.0276775        0.164547
281750                 -0.173814       0.0164063      0.000212278     0.000592661         0.653923        0.730079     -0.000509326     0.000479009
                     0.000271733     0.000661154        -0.170912     -0.00368404     -0.000558251     0.000524828         0.742051         0.64242
                        0.654359        0.729921     -0.000454036     0.000460436       -0.0348827        0.166019     -0.000827206    -0.000267891
                    -0.000370374     0.000555965         0.742084        0.642027      -0.00095632    -0.000388572        0.0277951         0.16453
281752                 -0.173806       0.0164238       0.00021314     0.000592719         0.654242        0.729795     -0.000509142     0.000479486
                     0.000272227     0.000660989        -0.170914     -0.00366105     -0.000557766     0.000525685         0.742322        0.642107
                        0.654675        0.729639     -0.000453856     0.000460844       -0.0347543        0.166041     -0.000827265    -0.000267504
                    -0.000369992      0.00055615         0.742354        0.641713     -0.000956648    -0.000387767        0.0279127        0.164514
281754                 -0.173797       0.0164413         0.000214      0.00059278         0.654561        0.729511     -0.000508958     0.000479962
                     0.000272721     0.000660824        -0.170917     -0.00363805      -0.00055728      0.00052654         0.742592        0.641795
                        0.654992        0.729358     -0.000453677     0.000461249        -0.034626        0.166062     -0.000827323    -0.000267117
                     -0.00036961     0.000556335         0.742623        0.641399     -0.000956973    -0.000386962        0.0280303        0.164497
281756                 -0.173789       0.0164588      0.000214857     0.000592845          0.65488        0.729227     -0.000508774     0.000480437
                     0.000273215     0.000660658         -0.17092     -0.00361504     -0.000556794     0.000527392         0.742863        0.641482
                        0.655308        0.729076     -0.000453498     0.000461653       -0.0344976        0.166083      -0.00082738    -0.000266731
                    -0.000369229     0.000556519         0.742893        0.641086     -0.000957296    -0.000386159        0.0281479         0.16448
281758                  -0.17378       0.0164763      0.000215711     0.000592913         0.655198        0.728943      -0.00050859     0.000480912
                     0.000273709     0.000660491        -0.170922     -0.00359203     -0.000556308     0.000528242         0.743133        0.641169
                        0.655624        0.728795     -0.000453318     0.000462055       -0.0343692        0.166104     -0.000827437    -0.000266345
                    -0.000368847     0.000556704         0.743162        0.640772     -0.000957617    -0.000385357        0.0282654        0.164463
281760                 -0.173772       0.0164938      0.000216562     0.000592983         0.655517        0.728658     -0.000508408     0.000481387
                     0.000274202     0.000660324        -0.170925     -0.00356901     -0.000555821      0.00052909         0.743403        0.640856
                         0.65594        0.728513     -0.000453139     0.000462456       -0.0342409        0.166126     -0.000827494    -0.000265959
                    -0.000368467     0.000556888         0.743431        0.640458     -0.000957935    -0.000384557         0.028383        0.164446
281762                 -0.173763       0.0165114      0.000217411     0.000593057         0.655835        0.728374     -0.000508225     0.000481861
                     0.000274696     0.000660157        -0.170928     -0.00354598     -0.000555333     0.000529936         0.743674        0.640543
                        0.656255        0.728231      -0.00045296     0.000462855       -0.0341126        0.166147      -0.00082755    -0.000265573
