! TOUCHSTONE file generated by CST MICROWAVE STUDIO
! Date and time: Tue Oct 14 07:30:37 2025
! Project name: Teste_Macro_Metasurface_Nanopilar.cst
! Parameters = {H=600; L_x=160; L_y=155; Lambda=1064; Max_L=200; Min_L=70; PathPara=1; Phi=0; Step_L=10; Theta=0; p=520; phaseX=180; phaseY=0}
! Header version: 2018
! Port assignment regex: !\s*Touchstone port\s*([0-9]+)\s*=\s*(CST MWS port|CST DS port)\s*([0-9]+|Zmin|Zmax)\s*\(\"(.*)\"\)(\s*mode\s*([0-9]+))?.*
! Touchstone port assignment:
! Touchstone port 1 = CST MWS port Zmax ("") mode 1
! Touchstone port 2 = CST MWS port Zmax ("") mode 2
! Touchstone port 3 = CST MWS port Zmin ("") mode 1
! Touchstone port 4 = CST MWS port Zmin ("") mode 2
! S-Parameters are not renormalized. Each port impedance will be approximated by the real part at minimum frequency. The values are described via the [Reference] keyword.
! Default impedance is overridden by [Reference]
[Version] 2.0
# GHz S RI R 376.73
[Number of Ports] 4
[Reference]
376.73 376.73 259.814 259.814 
[Number of Frequencies] 51
[Network Data]
281700                  -0.17708       0.0413919      0.000455559     0.000154856         0.596285        0.775367      0.000150348     8.56558e-05
                      0.00041483     8.60416e-05        -0.170534       0.0261284      1.01895e-06     0.000387332         0.652826        0.731904
                        0.596157        0.775055      2.89157e-05     0.000111008       -0.0843713        0.154139     -0.000174066    -0.000412768
                    -4.24797e-05     8.10408e-05         0.652742        0.731088     -0.000252037    -0.000420751       -0.0448133        0.161159
281702                 -0.177058       0.0413998       0.00045565      0.00015484         0.596633        0.775105      0.000150552     8.52992e-05
                      0.00041454     8.58466e-05        -0.170522       0.0261415      1.17071e-06     0.000387464         0.653145        0.731622
                        0.596506        0.774793      2.87995e-05     0.000111138       -0.0842342        0.154194     -0.000174864    -0.000413005
                    -4.25123e-05     8.10938e-05         0.653062        0.730807     -0.000252532    -0.000420446       -0.0446833        0.161187
281704                 -0.177036       0.0414075      0.000455741     0.000154823         0.596982        0.774842      0.000150785       8.509e-05
                     0.000417917      9.2391e-05         -0.17051       0.0261546      1.32307e-06     0.000387596         0.653465         0.73134
                        0.596854         0.77453      2.86838e-05     0.000111268        -0.084097        0.154249     -0.000175671    -0.000413216
                    -4.22492e-05     8.26659e-05         0.653381        0.730525     -0.000253026    -0.000420141       -0.0445533        0.161214
281706                 -0.177014        0.041415      0.000455833     0.000154806          0.59733        0.774579      0.000150939     8.48569e-05
                     0.000422277     0.000105757        -0.170498       0.0261677      1.47602e-06     0.000387726         0.653784        0.731058
                        0.597202        0.774266      2.85684e-05     0.000111398       -0.0839599        0.154304     -0.000176483    -0.000413405
                    -4.26286e-05     8.58668e-05         0.653701        0.730243     -0.000253517    -0.000419837       -0.0444233        0.161241
281708                 -0.176992       0.0414221      0.000455925     0.000154789         0.597679        0.774316       0.00015109     8.46035e-05
                     0.000423611     0.000122183        -0.170486       0.0261808      1.62955e-06     0.000387856         0.654103        0.730776
                        0.597549           0.774      2.84535e-05     0.000111528       -0.0838227        0.154358       -0.0001773    -0.000413576
                    -4.47831e-05     8.93077e-05          0.65402        0.729961     -0.000254007    -0.000419533       -0.0442933        0.161268
281710                 -0.176969       0.0414287      0.000456018     0.000154771         0.598027        0.774053      0.000151242     8.43437e-05
                     0.000421313     0.000136649        -0.170474       0.0261939      1.78366e-06     0.000387984         0.654422        0.730494
                        0.597895        0.773731      2.83391e-05     0.000111658       -0.0836855        0.154413      -0.00017812    -0.000413733
                    -4.78824e-05     9.12067e-05         0.654339        0.729679     -0.000254496     -0.00041923       -0.0441633        0.161295
281712                 -0.176945       0.0414345      0.000456111     0.000154754         0.598375        0.773789      0.000151393     8.40811e-05
                      0.00041744     0.000147044        -0.170462        0.026207      1.93835e-06     0.000388112          0.65474        0.730211
                        0.598238        0.773455      2.82252e-05     0.000111788       -0.0835483        0.154467     -0.000178944    -0.000413879
                     -5.0455e-05     9.16866e-05         0.654658        0.729396     -0.000254982    -0.000418927       -0.0440333        0.161322
281714                 -0.176919        0.041439      0.000456204     0.000154737         0.598723        0.773526      0.000151544     8.38169e-05
                     0.000413659     0.000153839         -0.17045       0.0262201       2.0936e-06     0.000388238         0.655059        0.729929
                        0.598577        0.773167      2.81119e-05     0.000111918       -0.0834112        0.154521      -0.00017977    -0.000414018
                    -5.21677e-05     9.15907e-05         0.654977        0.729114     -0.000255467    -0.000418625       -0.0439033        0.161349
281716                 -0.176886       0.0414414      0.000456298     0.000154719         0.599071        0.773262      0.000151694     8.35518e-05
                     0.000410572     0.000158145        -0.170438       0.0262333       2.2494e-06     0.000388364         0.655378        0.729646
                        0.598896        0.772833      2.79994e-05     0.000112048        -0.083274        0.154575     -0.000180598    -0.000414152
                    -5.32486e-05     9.13759e-05         0.655295        0.728831      -0.00025595    -0.000418324       -0.0437733        0.161375
281718                  -0.17683       0.0414491      0.000456392     0.000154703         0.599418        0.772998      0.000151842      8.3286e-05
                     0.000408214     0.000160866        -0.170426       0.0262464      2.40575e-06     0.000388488         0.655696        0.729363
                        0.598852        0.771981      2.78878e-05      0.00011218       -0.0831367        0.154629     -0.000181429    -0.000414284
                    -5.39385e-05     9.11884e-05         0.655614        0.728548     -0.000256431    -0.000418023       -0.0436433        0.161402
281720                 -0.176798       0.0415515      0.000456486     0.000154687         0.599766        0.772734      0.000151989     8.30196e-05
                     0.000406445     0.000162592        -0.170414       0.0262596      2.56263e-06     0.000388612         0.656014         0.72908
                        0.599716        0.772755      2.77777e-05     0.000112312       -0.0829995        0.154683     -0.000182261    -0.000414415
                    -5.43926e-05     9.10565e-05         0.655932        0.728265      -0.00025691    -0.000417723       -0.0435133        0.161428
281722                 -0.176847       0.0415439      0.000456581     0.000154672         0.600113         0.77247      0.000152135     8.27528e-05
                     0.000405111     0.000163685        -0.170403       0.0262727      2.72005e-06     0.000388734         0.656332        0.728797
                        0.600033        0.772334      2.76699e-05     0.000112447       -0.0828623        0.154737     -0.000183097    -0.000414546
                     -5.4702e-05     9.09749e-05          0.65625        0.727982     -0.000257387    -0.000417424       -0.0433833        0.161455
281724                 -0.176834       0.0415312      0.000456676      0.00015466          0.60046        0.772206      0.000152279     8.24856e-05
                     0.000404087     0.000164368        -0.170391       0.0262859      2.87798e-06     0.000388855          0.65665        0.728514
                         0.60037        0.772029      2.75664e-05     0.000112587       -0.0827251        0.154791     -0.000183935    -0.000414679
                    -5.49197e-05     9.09322e-05         0.656569        0.727699     -0.000257863    -0.000417125       -0.0432533        0.161481
281726                 -0.176813       0.0415301      0.000456773     0.000154653         0.600807        0.771941      0.000152421     8.22182e-05
                     0.000403283      0.00016478        -0.170379        0.026299      3.03641e-06     0.000388975         0.656968        0.728231
                        0.600712        0.771747      2.74744e-05     0.000112739       -0.0825879        0.154844     -0.000184775    -0.000414813
                    -5.50777e-05     9.09178e-05         0.656887        0.727416     -0.000258337    -0.000416828       -0.0431233        0.161507
281728                 -0.176792       0.0415334      0.000456874     0.000154654         0.601154        0.771677      0.000152561     8.19504e-05
                     0.000402632     0.000165008        -0.170367       0.0263122      3.19534e-06     0.000389094         0.657286        0.727948
                        0.601056        0.771473       2.7438e-05     0.000112949       -0.0824506        0.154898     -0.000185619     -0.00041495
                    -5.51958e-05     9.09236e-05         0.657205        0.727132     -0.000258808    -0.000416531       -0.0429933        0.161533
281730                  -0.17677       0.0415386      0.000456993     0.000154667         0.601501        0.771412        0.0001527     8.16825e-05
                     0.000402089     0.000165109        -0.170356       0.0263253      3.35475e-06     0.000389212         0.657603        0.727664
                        0.601401        0.771203      2.69638e-05     0.000112066       -0.0823134        0.154951     -0.000186465     -0.00041509
                    -5.52866e-05     9.09436e-05         0.657526        0.726846     -0.000259278    -0.000416235       -0.0428633        0.161559
281732                 -0.176748       0.0415449       0.00045716     0.000154674         0.601848        0.771147      0.000152837     8.14145e-05
                     0.000401623     0.000165123        -0.170343       0.0263387      3.51462e-06     0.000389328         0.657921         0.72738
                        0.601747        0.770935      2.70046e-05     0.000112927       -0.0821761        0.155004     -0.000187315    -0.000415232
                    -5.53583e-05     9.09737e-05         0.657838        0.726566     -0.000259747     -0.00041594       -0.0427333        0.161585
281734                 -0.176727       0.0415518      0.000457349     0.000154592         0.602194        0.770882      0.000152971     8.11463e-05
                     0.000401211     0.000165075        -0.170332       0.0263519      3.67495e-06     0.000389443         0.658238        0.727096
                        0.602092        0.770668      2.69267e-05      0.00011311       -0.0820389        0.155058     -0.000188167    -0.000415377
                    -5.54166e-05     9.10107e-05         0.658156        0.726282     -0.000260213    -0.000415647       -0.0426034        0.161611
281736                 -0.176705        0.041559      0.000457441     0.000154476         0.602541        0.770617      0.000153105     8.08781e-05
                     0.000400839     0.000164983         -0.17032        0.026365      3.83572e-06     0.000389557         0.658555        0.726812
                        0.602438        0.770402      2.68289e-05     0.000113257       -0.0819016        0.155111     -0.000189023    -0.000415524
                    -5.54653e-05     9.10527e-05         0.658473        0.725998     -0.000260677    -0.000415354       -0.0424734        0.161637
281738                 -0.176684       0.0415665        0.0004575     0.000154415         0.602887        0.770352      0.000153236     8.06099e-05
                     0.000400494     0.000164859        -0.170308       0.0263782       3.9969e-06      0.00038967         0.658872        0.726528
                        0.602784        0.770136      2.67252e-05     0.000113394       -0.0817643        0.155164     -0.000189882    -0.000415673
                    -5.55071e-05      9.1098e-05         0.658791        0.725714      -0.00026114    -0.000415062       -0.0423434        0.161662
281740                 -0.176662       0.0415742       0.00045757      0.00015438         0.603233        0.770087      0.000153365     8.03417e-05
                     0.000400168     0.000164714        -0.170297       0.0263915      4.15849e-06     0.000389781         0.659189        0.726244
                         0.60313         0.76987      2.66193e-05     0.000113527        -0.081627        0.155216     -0.000190744    -0.000415825
                     -5.5544e-05     9.11456e-05         0.659108         0.72543     -0.000261601    -0.000414771       -0.0422134        0.161688
281742                 -0.176641        0.041582      0.000457651     0.000154353         0.603579        0.769821      0.000153492     8.00736e-05
                     0.000399856     0.000164552        -0.170285       0.0264047      4.32046e-06     0.000389891         0.659505         0.72596
                        0.603476        0.769605      2.65123e-05     0.000113657       -0.0814898        0.155269     -0.000191609    -0.000415979
                    -5.55773e-05     9.11947e-05         0.659424        0.725146     -0.000262059    -0.000414482       -0.0420835        0.161713
281744                  -0.17662       0.0415899      0.000457738     0.000154327         0.603925        0.769556      0.000153618     7.98056e-05
                     0.000399554      0.00016438        -0.170273       0.0264179       4.4828e-06     0.000389999         0.659822        0.725675
                        0.603821         0.76934      2.64049e-05     0.000113787       -0.0813525        0.155322     -0.000192477    -0.000416134
                    -5.56081e-05     9.12448e-05         0.659741        0.724861     -0.000262516    -0.000414194       -0.0419535        0.161739
281746                 -0.176598       0.0415978      0.000457829     0.000154302          0.60427         0.76929      0.000153741     7.95378e-05
                     0.000399258       0.0001642        -0.170262       0.0264312      4.64546e-06     0.000390106         0.660138        0.725391
                        0.604167        0.769074      2.62973e-05     0.000113915       -0.0812152        0.155374     -0.000193349    -0.000416291
                    -5.56371e-05     9.12954e-05         0.660058        0.724577     -0.000262971    -0.000413907       -0.0418235        0.161764
281748                 -0.176577       0.0416058      0.000457922     0.000154276         0.604616        0.769024      0.000153862     7.92702e-05
                     0.000398966     0.000164015         -0.17025       0.0264444      4.80843e-06     0.000390211         0.660455        0.725106
                        0.604512        0.768809      2.61897e-05     0.000114043       -0.0810779        0.155427     -0.000194223    -0.000416449
                    -5.56648e-05     9.13463e-05         0.660374        0.724292     -0.000263423    -0.000413621       -0.0416936        0.161789
281750                 -0.176556       0.0416138      0.000458017     0.000154249         0.604961        0.768758      0.000153981      7.9003e-05
                     0.000398677     0.000163827        -0.170238       0.0264577      4.97166e-06     0.000390314         0.660771        0.724821
                        0.604858        0.768544      2.60823e-05      0.00011417       -0.0809405        0.155479     -0.000195101    -0.000416608
                    -5.56917e-05     9.13973e-05          0.66069        0.724007     -0.000263874    -0.000413338       -0.0415636        0.161814
281752                 -0.176535       0.0416219      0.000458113     0.000154222         0.605307        0.768491      0.000154098     7.87361e-05
                      0.00039839     0.000163636        -0.170227       0.0264709      5.13507e-06     0.000390416         0.661087        0.724536
                        0.605203        0.768278       2.5975e-05     0.000114297       -0.0808032        0.155531     -0.000195981    -0.000416767
                    -5.57181e-05     9.14482e-05         0.661007        0.723722     -0.000264322    -0.000413055       -0.0414336        0.161839
281754                 -0.176513         0.04163      0.000458209     0.000154195         0.605652        0.768225      0.000154213     7.84696e-05
                     0.000398103     0.000163446        -0.170215       0.0264842      5.29857e-06     0.000390516         0.661403        0.724251
                        0.605548        0.768012       2.5868e-05     0.000114423       -0.0806659        0.155583     -0.000196865    -0.000416928
                    -5.57442e-05     9.14989e-05         0.661323        0.723437     -0.000264768    -0.000412775       -0.0413037        0.161864
281756                 -0.176492       0.0416381      0.000458307     0.000154166         0.605997        0.767958      0.000154325     7.82035e-05
                     0.000397816     0.000163255        -0.170203       0.0264975      5.46195e-06     0.000390613         0.661718        0.723965
                        0.605893        0.767747      2.57613e-05      0.00011455       -0.0805286        0.155635     -0.000197752    -0.000417088
                    -5.57703e-05     9.15493e-05         0.661639        0.723152     -0.000265211    -0.000412498       -0.0411737        0.161889
281758                 -0.176471       0.0416462      0.000458404     0.000154138         0.606342        0.767692      0.000154436     7.79381e-05
                     0.000397529     0.000163065        -0.170192       0.0265108      5.62473e-06     0.000390706         0.662034         0.72368
                        0.606238        0.767481      2.56548e-05     0.000114676       -0.0803912        0.155687     -0.000198642    -0.000417249
                    -5.57964e-05     9.15994e-05         0.661954        0.722867      -0.00026565    -0.000412224       -0.0410438        0.161914
281760                  -0.17645       0.0416543      0.000458502     0.000154109         0.606686        0.767425      0.000154544     7.76732e-05
                     0.000397241     0.000162876         -0.17018       0.0265241      5.78546e-06     0.000390794         0.662349        0.723395
                        0.606582        0.767214      2.55487e-05     0.000114802       -0.0802539        0.155739     -0.000199534     -0.00041741
                    -5.58226e-05     9.16492e-05          0.66227        0.722581     -0.000266084    -0.000411957       -0.0409138        0.161938
281762                 -0.176429       0.0416625      0.000458601     0.000154079         0.607031        0.767158       0.00015465     7.74091e-05
                     0.000396952     0.000162688        -0.170169       0.0265374      5.93797e-06     0.000390872         0.662664        0.723109
                        0.606927        0.766948      2.54429e-05     0.000114928       -0.0801166         0.15579      -0.00020043     -0.00041757
