! TOUCHSTONE file generated by CST MICROWAVE STUDIO
! Date and time: Tue Oct 14 07:28:56 2025
! Project name: Teste_Macro_Metasurface_Nanopilar.cst
! Parameters = {H=600; L_x=135; L_y=110; Lambda=1064; Max_L=200; Min_L=70; PathPara=1; Phi=0; Step_L=10; Theta=0; p=520; phaseX=180; phaseY=0}
! Header version: 2018
! Port assignment regex: !\s*Touchstone port\s*([0-9]+)\s*=\s*(CST MWS port|CST DS port)\s*([0-9]+|Zmin|Zmax)\s*\(\"(.*)\"\)(\s*mode\s*([0-9]+))?.*
! Touchstone port assignment:
! Touchstone port 1 = CST MWS port Zmax ("") mode 1
! Touchstone port 2 = CST MWS port Zmax ("") mode 2
! Touchstone port 3 = CST MWS port Zmin ("") mode 1
! Touchstone port 4 = CST MWS port Zmin ("") mode 2
! S-Parameters are not renormalized. Each port impedance will be approximated by the real part at minimum frequency. The values are described via the [Reference] keyword.
! Default impedance is overridden by [Reference]
[Version] 2.0
# GHz S RI R 376.73
[Number of Ports] 4
[Reference]
376.73 376.73 259.814 259.814 
[Number of Frequencies] 51
[Network Data]
281700                 -0.171785    -0.000677703      9.12266e-05     0.000364088        -0.751474       -0.623203     -0.000345929    -0.000505951
                     9.12503e-05     0.000453464       -0.0109276      -0.0744625      0.000114989    -0.000691032        -0.536119        0.832481
                       -0.751538       -0.623181      0.000118773    -0.000672058        0.0315697        0.167792      0.000142106      0.00045568
                    -0.000343042    -0.000591592        -0.535685        0.832295      0.000105586     0.000562685       -0.0720943       0.0231059
281702                 -0.171776    -0.000611252      9.13521e-05     0.000364051        -0.751799       -0.622812     -0.000346217    -0.000505741
                     9.13936e-05     0.000453547       -0.0109623      -0.0744836      0.000114678    -0.000691071        -0.535714        0.832741
                       -0.751863        -0.62279      0.000118418    -0.000672088        0.0316774        0.167763      0.000142429     0.000455585
                    -0.000343346     -0.00059151         -0.53528        0.832554      0.000105927     0.000562677       -0.0721061       0.0231529
281704                 -0.171767     -0.00054481      9.14775e-05     0.000364013        -0.752124       -0.622422     -0.000346506     -0.00050553
                     9.15371e-05      0.00045363       -0.0109971      -0.0745047      0.000114368     -0.00069111        -0.535308        0.832999
                       -0.752188       -0.622399      0.000118063    -0.000672117         0.031785        0.167733      0.000142752     0.000455491
                     -0.00034365    -0.000591427        -0.534874        0.832813      0.000106267     0.000562669        -0.072118          0.0232
281706                 -0.171758    -0.000478375      9.16027e-05     0.000363975        -0.752448        -0.62203     -0.000346794    -0.000505319
                     9.16807e-05     0.000453713       -0.0110318      -0.0745257      0.000114057    -0.000691149        -0.534902        0.833258
                       -0.752513       -0.622008      0.000117707    -0.000672145        0.0318927        0.167703      0.000143075     0.000455396
                    -0.000343954    -0.000591344        -0.534468        0.833072      0.000106608     0.000562661       -0.0721298        0.023247
281708                 -0.171749    -0.000411948      9.17279e-05     0.000363937        -0.752773       -0.621639     -0.000347082    -0.000505108
                     9.18244e-05     0.000453797       -0.0110666      -0.0745468      0.000113747    -0.000691189        -0.534496        0.833517
                       -0.752838       -0.621617      0.000117352    -0.000672174        0.0320003        0.167673      0.000143398     0.000455301
                    -0.000344258     -0.00059126        -0.534062         0.83333      0.000106948     0.000562653       -0.0721415       0.0232941
281710                 -0.171741    -0.000345529      9.18531e-05     0.000363899        -0.753097       -0.621248      -0.00034737    -0.000504897
                     9.19685e-05     0.000453881       -0.0111014      -0.0745678      0.000113437    -0.000691229         -0.53409        0.833775
                       -0.753163       -0.621225      0.000116997    -0.000672202        0.0321078        0.167643       0.00014372     0.000455206
                    -0.000344562    -0.000591176        -0.533656        0.833589      0.000107288     0.000562644       -0.0721533       0.0233412
281712                 -0.171732    -0.000279118      9.19781e-05     0.000363861        -0.753421       -0.620856     -0.000347657    -0.000504685
                     9.21127e-05     0.000453965       -0.0111362      -0.0745888      0.000113127    -0.000691268        -0.533684        0.834033
                       -0.753487       -0.620834      0.000116642     -0.00067223        0.0322154        0.167613      0.000144043      0.00045511
                    -0.000344866    -0.000591092         -0.53325        0.833847      0.000107629     0.000562635        -0.072165       0.0233883
281714                 -0.171723    -0.000212715       9.2103e-05     0.000363823        -0.753745       -0.620464     -0.000347945    -0.000504473
                     9.22573e-05      0.00045405        -0.011171      -0.0746098      0.000112817    -0.000691309        -0.533278        0.834291
                       -0.753812       -0.620442      0.000116288    -0.000672258        0.0323229        0.167583      0.000144366     0.000455015
                     -0.00034517    -0.000591008        -0.532844        0.834105      0.000107968     0.000562625       -0.0721766       0.0234355
281716                 -0.171714     -0.00014632      9.22278e-05     0.000363786        -0.754069       -0.620073     -0.000348232    -0.000504261
                     9.24021e-05     0.000454134       -0.0112059      -0.0746307      0.000112508    -0.000691349        -0.532872        0.834549
                       -0.754136        -0.62005      0.000115933    -0.000672286        0.0324304        0.167553      0.000144688     0.000454919
                    -0.000345474    -0.000590924        -0.532438        0.834363      0.000108308     0.000562615       -0.0721883       0.0234827
281718                 -0.171705    -7.99323e-05      9.23526e-05     0.000363748        -0.754393        -0.61968     -0.000348519    -0.000504048
                     9.25473e-05     0.000454219       -0.0112407      -0.0746517      0.000112198     -0.00069139        -0.532465        0.834806
                        -0.75446       -0.619658      0.000115578    -0.000672313        0.0325379        0.167523      0.000145011     0.000454823
                    -0.000345778    -0.000590839        -0.532031        0.834621      0.000108648     0.000562605       -0.0721999       0.0235299
281720                 -0.171695    -1.35531e-05      9.24772e-05      0.00036371        -0.754716       -0.619288     -0.000348805    -0.000503836
                     9.26928e-05     0.000454304       -0.0112756      -0.0746726      0.000111889     -0.00069143        -0.532058        0.835064
                       -0.754783       -0.619265      0.000115224     -0.00067234        0.0326454        0.167492      0.000145333     0.000454726
                    -0.000346082    -0.000590754        -0.531624        0.834878      0.000108987     0.000562595       -0.0722114       0.0235771
281722                 -0.171686     5.28181e-05      9.26017e-05     0.000363672        -0.755039       -0.618896     -0.000349092    -0.000503623
                     9.28386e-05     0.000454389       -0.0113105      -0.0746935       0.00011158    -0.000691471        -0.531652        0.835321
                       -0.755107       -0.618873      0.000114869    -0.000672366        0.0327528        0.167462      0.000145655      0.00045463
                    -0.000346386    -0.000590669        -0.531218        0.835135      0.000109326     0.000562585        -0.072223       0.0236243
281724                 -0.171677     0.000119181      9.27262e-05     0.000363634        -0.755362       -0.618503     -0.000349378    -0.000503409
                     9.29848e-05     0.000454475       -0.0113454      -0.0747144      0.000111271    -0.000691512        -0.531245        0.835578
                        -0.75543        -0.61848      0.000114515    -0.000672393        0.0328602        0.167431      0.000145978     0.000454533
                     -0.00034669    -0.000590583        -0.530811        0.835392      0.000109666     0.000562574       -0.0722345       0.0236716
281726                 -0.171668     0.000185536      9.28505e-05     0.000363596        -0.755685        -0.61811     -0.000349664    -0.000503196
                     9.31314e-05      0.00045456       -0.0113803      -0.0747352      0.000110963    -0.000691554        -0.530838        0.835834
                       -0.755753       -0.618088      0.000114161    -0.000672419        0.0329676        0.167401        0.0001463     0.000454436
                    -0.000346993    -0.000590497        -0.530404        0.835649      0.000110004     0.000562562       -0.0722459       0.0237188
281728                 -0.171659     0.000251883      9.29747e-05     0.000363558        -0.756008       -0.617717     -0.000349949    -0.000502982
                     9.32783e-05     0.000454646       -0.0114152      -0.0747561      0.000110654    -0.000691595        -0.530431        0.836091
                       -0.756076       -0.617695      0.000113807    -0.000672445         0.033075         0.16737      0.000146622     0.000454339
                    -0.000347297    -0.000590411        -0.529997        0.835906      0.000110343     0.000562551       -0.0722574       0.0237661
281730                  -0.17165     0.000318222      9.30989e-05      0.00036352         -0.75633       -0.617324     -0.000350235    -0.000502768
                     9.34256e-05     0.000454731       -0.0114502      -0.0747769      0.000110346    -0.000691637        -0.530024        0.836347
                       -0.756399       -0.617301      0.000113452    -0.000672471        0.0331823        0.167339      0.000146944     0.000454241
                    -0.000347601    -0.000590325        -0.529589        0.836162      0.000110682     0.000562539       -0.0722687       0.0238134
281732                  -0.17164     0.000384552      9.32229e-05     0.000363483        -0.756652       -0.616931      -0.00035052    -0.000502554
                     9.35733e-05     0.000454816       -0.0114851      -0.0747977      0.000110038    -0.000691679        -0.529616        0.836603
                       -0.756721       -0.616908      0.000113099    -0.000672496        0.0332896        0.167308      0.000147267     0.000454143
                    -0.000347905    -0.000590239        -0.529182        0.836418       0.00011102     0.000562527       -0.0722801       0.0238608
281734                 -0.171631     0.000450875      9.33468e-05     0.000363445        -0.756974       -0.616537     -0.000350805    -0.000502339
                     9.37213e-05     0.000454902       -0.0115201      -0.0748185       0.00010973    -0.000691721        -0.529209        0.836859
                       -0.757043       -0.616515      0.000112745    -0.000672521        0.0333969        0.167278      0.000147589     0.000454045
                    -0.000348208    -0.000590152        -0.528775        0.836674      0.000111358     0.000562515       -0.0722914       0.0239081
281736                 -0.171622     0.000517189      9.34706e-05     0.000363407        -0.757296       -0.616144      -0.00035109    -0.000502124
                     9.38696e-05     0.000454987       -0.0115551      -0.0748393      0.000109422    -0.000691763        -0.528801        0.837115
                       -0.757365       -0.616121      0.000112391    -0.000672546        0.0335042        0.167247      0.000147911     0.000453947
                    -0.000348512    -0.000590066        -0.528367         0.83693      0.000111696     0.000562502       -0.0723027       0.0239555
281738                 -0.171612     0.000583495      9.35942e-05     0.000363369        -0.757617        -0.61575     -0.000351374    -0.000501909
                     9.40183e-05     0.000455073       -0.0115901        -0.07486      0.000109115    -0.000691805        -0.528394         0.83737
                       -0.757687       -0.615727      0.000112037    -0.000672571        0.0336114        0.167216      0.000148233     0.000453849
                    -0.000348815    -0.000589979        -0.527959        0.837186      0.000112034     0.000562489        -0.072314       0.0240029
281740                 -0.171603     0.000649793      9.37178e-05     0.000363331        -0.757939       -0.615356     -0.000351659    -0.000501694
                     9.41673e-05     0.000455158       -0.0116251      -0.0748807      0.000108808    -0.000691848        -0.527986        0.837626
                       -0.758009       -0.615333      0.000111684    -0.000672595        0.0337187        0.167185      0.000148555      0.00045375
                    -0.000349118    -0.000589891        -0.527552        0.837441      0.000112372     0.000562476       -0.0723252       0.0240504
281742                 -0.171594     0.000716082      9.38412e-05     0.000363293         -0.75826       -0.614961     -0.000351943    -0.000501478
                     9.43166e-05     0.000455243       -0.0116602      -0.0749015      0.000108501     -0.00069189        -0.527578        0.837881
                        -0.75833       -0.614939      0.000111331    -0.000672619        0.0338259        0.167153      0.000148877     0.000453651
                    -0.000349421    -0.000589804        -0.527144        0.837696      0.000112709     0.000562462       -0.0723364       0.0240978
281744                 -0.171584     0.000782363      9.39645e-05     0.000363255        -0.758581       -0.614567     -0.000352226    -0.000501263
                     9.44663e-05     0.000455328       -0.0116952      -0.0749221      0.000108194    -0.000691933         -0.52717        0.838136
                       -0.758652       -0.614544      0.000110977    -0.000672643         0.033933        0.167122      0.000149198     0.000453552
                    -0.000349723    -0.000589716        -0.526736        0.837951      0.000113046     0.000562448       -0.0723475       0.0241453
281746                 -0.171575     0.000848636      9.40877e-05     0.000363217        -0.758902       -0.614173      -0.00035251    -0.000501046
                     9.46162e-05     0.000455413       -0.0117303      -0.0749428      0.000107887    -0.000691976        -0.526762         0.83839
                       -0.758973        -0.61415      0.000110624    -0.000672666        0.0340402        0.167091       0.00014952     0.000453452
                    -0.000350025    -0.000589628        -0.526327        0.838206      0.000113383     0.000562434       -0.0723586       0.0241927
281748                 -0.171565       0.0009149      9.42108e-05     0.000363179        -0.759222       -0.613778     -0.000352793     -0.00050083
                     9.47664e-05     0.000455498       -0.0117654      -0.0749635      0.000107581    -0.000692019        -0.526354        0.838645
                       -0.759294       -0.613755      0.000110271    -0.000672689        0.0341473        0.167059      0.000149842     0.000453353
                    -0.000350327    -0.000589539        -0.525919        0.838461       0.00011372      0.00056242       -0.0723697       0.0242403
281750                 -0.171556     0.000981156      9.43337e-05     0.000363142        -0.759543       -0.613383     -0.000353077    -0.000500613
                     9.49168e-05     0.000455583       -0.0118005      -0.0749841      0.000107275    -0.000692062        -0.525945        0.838899
                       -0.759614        -0.61336      0.000109918    -0.000672712        0.0342544        0.167028      0.000150164     0.000453253
                    -0.000350628    -0.000589449        -0.525511        0.838715      0.000114057     0.000562405       -0.0723808       0.0242878
281752                 -0.171546       0.0010474      9.44564e-05     0.000363104        -0.759863       -0.612988     -0.000353359    -0.000500397
                     9.50675e-05     0.000455667       -0.0118356      -0.0750047      0.000106969    -0.000692105        -0.525537        0.839153
                       -0.759935       -0.612965      0.000109566    -0.000672735        0.0343615        0.166996      0.000150485     0.000453153
                     -0.00035093    -0.000589359        -0.525102        0.838969      0.000114393      0.00056239       -0.0723918       0.0243353
281754                 -0.171536      0.00111364      9.45791e-05     0.000363066        -0.760183       -0.612593     -0.000353642    -0.000500179
                     9.52185e-05     0.000455752       -0.0118707      -0.0750253      0.000106663    -0.000692148        -0.525128        0.839407
                       -0.760255        -0.61257      0.000109213    -0.000672757        0.0344685        0.166965      0.000150807     0.000453052
                    -0.000351232    -0.000589268        -0.524694        0.839223      0.000114729     0.000562374       -0.0724027       0.0243829
281756                 -0.171527      0.00117987      9.47016e-05     0.000363028        -0.760502       -0.612197     -0.000353924    -0.000499962
                     9.53697e-05     0.000455836       -0.0119059      -0.0750459      0.000106357    -0.000692192         -0.52472        0.839661
                       -0.760575       -0.612175      0.000108861    -0.000672779        0.0345756        0.166933      0.000151129     0.000452952
                    -0.000351534    -0.000589177        -0.524285        0.839477      0.000115065     0.000562359       -0.0724137       0.0244305
281758                 -0.171517       0.0012461      9.48239e-05      0.00036299        -0.760822       -0.611802     -0.000354207    -0.000499744
                     9.55211e-05      0.00045592        -0.011941      -0.0750664      0.000106052    -0.000692236        -0.524311        0.839914
                       -0.760895       -0.611779      0.000108508    -0.000672801        0.0346826        0.166901       0.00015145     0.000452851
                    -0.000351836    -0.000589085        -0.523876        0.839731      0.000115401     0.000562342       -0.0724246       0.0244781
281760                 -0.171507      0.00131231       9.4946e-05     0.000362952        -0.761141       -0.611406     -0.000354489    -0.000499526
                     9.56727e-05     0.000456004       -0.0119762       -0.075087      0.000105747    -0.000692279        -0.523902        0.840167
                       -0.761215       -0.611383      0.000108156    -0.000672822        0.0347895        0.166869      0.000151772      0.00045275
                    -0.000352139    -0.000588993        -0.523467        0.839984      0.000115736     0.000562326       -0.0724355       0.0245257
281762                 -0.171498      0.00137852       9.5068e-05     0.000362914         -0.76146        -0.61101      -0.00035477    -0.000499308
                     9.58245e-05     0.000456088       -0.0120114      -0.0751075      0.000105442    -0.000692323        -0.523493         0.84042
                       -0.761534       -0.610987      0.000107804    -0.000672843        0.0348965        0.166837      0.000152093     0.000452648
