! TOUCHSTONE file generated by CST MICROWAVE STUDIO
! Date and time: Tue Oct 14 07:27:57 2025
! Project name: Teste_Macro_Metasurface_Nanopilar.cst
! Parameters = {H=600; L_x=120; L_y=95; Lambda=1064; Max_L=200; Min_L=70; PathPara=1; Phi=0; Step_L=10; Theta=0; p=520; phaseX=180; phaseY=0}
! Header version: 2018
! Port assignment regex: !\s*Touchstone port\s*([0-9]+)\s*=\s*(CST MWS port|CST DS port)\s*([0-9]+|Zmin|Zmax)\s*\(\"(.*)\"\)(\s*mode\s*([0-9]+))?.*
! Touchstone port assignment:
! Touchstone port 1 = CST MWS port Zmax ("") mode 1
! Touchstone port 2 = CST MWS port Zmax ("") mode 2
! Touchstone port 3 = CST MWS port Zmin ("") mode 1
! Touchstone port 4 = CST MWS port Zmin ("") mode 2
! S-Parameters are not renormalized. Each port impedance will be approximated by the real part at minimum frequency. The values are described via the [Reference] keyword.
! Default impedance is overridden by [Reference]
[Version] 2.0
# GHz S RI R 376.73
[Number of Ports] 4
[Reference]
376.73 376.73 259.814 259.814 
[Number of Frequencies] 51
[Network Data]
281700                  0.017691     -0.00333528      0.000372452     0.000158301         0.800334       -0.595565      0.000142037     4.89475e-06
                     0.000449302     0.000273272        -0.166813      -0.0224446      0.000221408    -0.000153186        -0.250616       -0.945873
                        0.800867       -0.596268      0.000131218    -0.000110441       -0.0083744       0.0167507      0.000465833     0.000316362
                     0.000133817     0.000165434        -0.250503       -0.945655      0.000480446     0.000224951        -0.132803        0.102363
281702                  0.017695     -0.00335421      0.000372454     0.000157762         0.800096       -0.595885      0.000141988     4.97896e-06
                     0.000449246     0.000272963        -0.166829       -0.022384      0.000221283    -0.000153326        -0.251079       -0.945748
                        0.800628       -0.596589      0.000131439    -0.000110734      -0.00838057       0.0167558      0.000465879     0.000316253
                     0.000133845     0.000165375        -0.250966        -0.94553      0.000480507     0.000224767        -0.132747        0.102448
281704                  0.017699     -0.00337314      0.000372456     0.000157219         0.799857       -0.596205      0.000141938     5.06293e-06
                     0.000449191     0.000272655        -0.166844      -0.0223235      0.000221157    -0.000153466        -0.251542       -0.945623
                        0.800389       -0.596909      0.000131663    -0.000111029      -0.00838674        0.016761      0.000465924     0.000316146
                     0.000133873     0.000165317         -0.25143       -0.945404      0.000480567     0.000224582         -0.13269        0.102534
281706                  0.017703     -0.00339208      0.000372458     0.000156672         0.799618       -0.596525      0.000141889     5.14665e-06
                     0.000449137     0.000272349         -0.16686      -0.0222629      0.000221031    -0.000153606        -0.252005       -0.945497
                         0.80015       -0.597229      0.000131891    -0.000111326       -0.0083929       0.0167662      0.000465967      0.00031604
                     0.000133901     0.000165258        -0.251893       -0.945278      0.000480628     0.000224398        -0.132634         0.10262
281708                  0.017707     -0.00341102      0.000372461      0.00015612          0.79938       -0.596844       0.00014184     5.23012e-06
                     0.000449082     0.000272044        -0.166876      -0.0222023      0.000220905    -0.000153746        -0.252468       -0.945372
                        0.799911       -0.597549      0.000132123    -0.000111624      -0.00839906       0.0167713      0.000466007     0.000315935
                      0.00013393       0.0001652        -0.252357       -0.945152      0.000480688     0.000224213        -0.132577        0.102705
281710                  0.017711     -0.00342997      0.000372464     0.000155564         0.799141       -0.597164      0.000141791     5.31334e-06
                     0.000449029     0.000271741        -0.166891      -0.0221417      0.000220779    -0.000153886        -0.252931       -0.945246
                        0.799672       -0.597869      0.000132358    -0.000111924      -0.00840522       0.0167765      0.000466043     0.000315829
                     0.000133958     0.000165141         -0.25282       -0.945026      0.000480748     0.000224029         -0.13252        0.102791
281712                 0.0177149     -0.00344891      0.000372467     0.000155003         0.798902       -0.597483      0.000141741     5.39631e-06
                     0.000448976     0.000271438        -0.166907      -0.0220811      0.000220653    -0.000154025        -0.253394        -0.94512
                        0.799433       -0.598189      0.000132597    -0.000112225      -0.00841137       0.0167817      0.000466076     0.000315722
                     0.000133987     0.000165083        -0.253283         -0.9449      0.000480808     0.000223844        -0.132464        0.102876
281714                 0.0177189     -0.00346786      0.000372471     0.000154437         0.798663       -0.597802      0.000141692     5.47902e-06
                     0.000448923     0.000271137        -0.166923      -0.0220205      0.000220527    -0.000154165        -0.253856       -0.944993
                        0.799193       -0.598509      0.000132839    -0.000112528      -0.00841753       0.0167869      0.000466106      0.00031561
                     0.000134016     0.000165024        -0.253747       -0.944773      0.000480868      0.00022366        -0.132407        0.102962
281716                 0.0177228     -0.00348682      0.000372476     0.000153867         0.798423       -0.598122      0.000141643     5.56149e-06
                     0.000448871     0.000270837        -0.166938      -0.0219599        0.0002204    -0.000154304        -0.254319       -0.944867
                        0.798954       -0.598829      0.000133085    -0.000112833      -0.00842368       0.0167922      0.000466135     0.000315492
                     0.000134045     0.000164966         -0.25421       -0.944646      0.000480928     0.000223475         -0.13235        0.103047
281718                 0.0177267     -0.00350577       0.00037248     0.000153292         0.798184       -0.598441      0.000141594     5.64372e-06
                     0.000448819     0.000270538        -0.166954      -0.0218992      0.000220273    -0.000154444        -0.254782        -0.94474
                        0.798714       -0.599148      0.000133334    -0.000113139      -0.00842982       0.0167974      0.000466167      0.00031537
                     0.000134073     0.000164908        -0.254673       -0.944519      0.000480987     0.000223291        -0.132293        0.103133
281720                 0.0177306     -0.00352473      0.000372485     0.000152713         0.797944        -0.59876      0.000141545     5.72569e-06
                     0.000448768     0.000270241        -0.166969      -0.0218385      0.000220146    -0.000154583        -0.255244       -0.944613
                        0.798474       -0.599468      0.000133586    -0.000113447      -0.00843597       0.0168026      0.000466202     0.000315246
                     0.000134103      0.00016485        -0.255136       -0.944391      0.000481047     0.000223106        -0.132236        0.103218
281722                 0.0177345      -0.0035437      0.000372491     0.000152129         0.797705       -0.599079      0.000141496     5.80742e-06
                     0.000448718     0.000269944        -0.166985      -0.0217779       0.00022002    -0.000154722        -0.255707       -0.944486
                        0.798234       -0.599787      0.000133842    -0.000113757      -0.00844211       0.0168079      0.000466241      0.00031512
                     0.000134132     0.000164792        -0.255599       -0.944264      0.000481106     0.000222922        -0.132179        0.103304
281724                 0.0177384     -0.00356267      0.000372496      0.00015154         0.797465       -0.599398      0.000141447      5.8889e-06
                     0.000448668     0.000269648           -0.167      -0.0217172      0.000219893    -0.000154861        -0.256169       -0.944358
                        0.797994       -0.600107      0.000134101    -0.000114068      -0.00844825       0.0168131      0.000466284     0.000314995
                     0.000134161     0.000164734        -0.256062       -0.944136      0.000481165     0.000222737        -0.132122        0.103389
281726                 0.0177423     -0.00358164      0.000372502     0.000150947         0.797225       -0.599716      0.000141398     5.97015e-06
                     0.000448618     0.000269353        -0.167015      -0.0216565      0.000219766       -0.000155        -0.256632       -0.944231
                        0.797754       -0.600426      0.000134364    -0.000114381      -0.00845439       0.0168184      0.000466328     0.000314872
                     0.000134191     0.000164676        -0.256525       -0.944007      0.000481223     0.000222553        -0.132065        0.103474
281728                 0.0177462     -0.00360061      0.000372508     0.000150349         0.796985       -0.600035       0.00014135     6.05115e-06
                     0.000448569     0.000269059        -0.167031      -0.0215958      0.000219638    -0.000155139        -0.257094       -0.944103
                        0.797513       -0.600745       0.00013463    -0.000114696      -0.00846052       0.0168237      0.000466374      0.00031475
                      0.00013422     0.000164618        -0.256988       -0.943879      0.000481282     0.000222368        -0.132008        0.103559
281730                   0.01775     -0.00361959      0.000372515     0.000149746         0.796745       -0.600353      0.000141301     6.13191e-06
                      0.00044852     0.000268766        -0.167046       -0.021535      0.000219511    -0.000155278        -0.257556       -0.943974
                        0.797273       -0.601064      0.000134899    -0.000115012      -0.00846665       0.0168289       0.00046642     0.000314629
                      0.00013425     0.000164561        -0.257451        -0.94375       0.00048134     0.000222184        -0.131951        0.103645
281732                 0.0177539     -0.00363857      0.000372522     0.000149138         0.796504       -0.600672      0.000141252     6.21242e-06
                     0.000448472     0.000268474        -0.167061      -0.0214743      0.000219385    -0.000155417        -0.258019       -0.943846
                        0.797032       -0.601383      0.000135171     -0.00011533      -0.00847278       0.0168342      0.000466466     0.000314509
                     0.000134279     0.000164503        -0.257914       -0.943622      0.000481398     0.000221999        -0.131893         0.10373
281734                 0.0177577     -0.00365756      0.000372529     0.000148525         0.796264        -0.60099      0.000141203     6.29268e-06
                     0.000448424     0.000268182        -0.167077      -0.0214135      0.000219258    -0.000155555        -0.258481       -0.943717
                        0.796791       -0.601702      0.000135447    -0.000115649      -0.00847891       0.0168395      0.000466513     0.000314391
                     0.000134309     0.000164446        -0.258377       -0.943493      0.000481456     0.000221815        -0.131836        0.103815
281736                 0.0177615     -0.00367655      0.000372536     0.000147908         0.796023       -0.601309      0.000141154     6.37264e-06
                     0.000448376     0.000267892        -0.167092      -0.0213528      0.000219131    -0.000155694        -0.258943       -0.943589
                        0.796551       -0.602021      0.000135726    -0.000115971      -0.00848503       0.0168448       0.00046656     0.000314272
                     0.000134339     0.000164388         -0.25884       -0.943363      0.000481514     0.000221631        -0.131779          0.1039
281738                 0.0177654     -0.00369554      0.000372543     0.000147286         0.795783       -0.601627      0.000141105     6.45223e-06
                     0.000448329     0.000267602        -0.167107       -0.021292      0.000219005    -0.000155833        -0.259405        -0.94346
                         0.79631       -0.602339      0.000136008    -0.000116294      -0.00849115       0.0168502      0.000466606     0.000314155
                     0.000134369     0.000164331        -0.259302       -0.943234      0.000481571     0.000221447        -0.131721        0.103985
281740                 0.0177692     -0.00371453      0.000372551     0.000146658         0.795542       -0.601945      0.000141056     6.53127e-06
                     0.000448282     0.000267313        -0.167123      -0.0212312      0.000218879    -0.000155971        -0.259867        -0.94333
                        0.796068       -0.602658      0.000136294    -0.000116619      -0.00849727       0.0168555      0.000466653     0.000314038
                       0.0001344     0.000164274        -0.259765       -0.943104      0.000481628     0.000221263        -0.131664         0.10407
281742                  0.017773     -0.00373353      0.000372559     0.000146026         0.795301       -0.602263      0.000141005      6.6093e-06
                     0.000448236     0.000267024        -0.167138      -0.0211704      0.000218753    -0.000156109        -0.260329       -0.943201
                        0.795827       -0.602977      0.000136582    -0.000116945      -0.00850339       0.0168608      0.000466699     0.000313921
                      0.00013443     0.000164216        -0.260228       -0.942974      0.000481685     0.000221079        -0.131606        0.104155
281744                 0.0177767     -0.00375253      0.000372568     0.000145389          0.79506       -0.602581      0.000140954     6.68508e-06
                      0.00044819     0.000266736        -0.167153      -0.0211096      0.000218628    -0.000156246        -0.260791       -0.943071
                        0.795586       -0.603295      0.000136874    -0.000117273       -0.0085095       0.0168662      0.000466745     0.000313805
                      0.00013446     0.000164159         -0.26069       -0.942844      0.000481741     0.000220895        -0.131548         0.10424
281746                 0.0177805     -0.00377154      0.000372576     0.000144748         0.794818       -0.602898      0.000140903     6.75574e-06
                     0.000448144     0.000266449        -0.167168      -0.0210487      0.000218504    -0.000156382        -0.261253       -0.942941
                        0.795344       -0.603613      0.000137169    -0.000117603      -0.00851561       0.0168715      0.000466792     0.000313688
                     0.000134491     0.000164102        -0.261153       -0.942713      0.000481796     0.000220712        -0.131491        0.104325
281748                 0.0177843     -0.00379055      0.000372585     0.000144101         0.794577       -0.603216      0.000140861     6.82018e-06
                     0.000448099     0.000266163        -0.167183      -0.0209879       0.00021838    -0.000156518        -0.261715       -0.942811
                        0.795102       -0.603931      0.000137468    -0.000117935      -0.00852172       0.0168769      0.000466839     0.000313573
                     0.000134521     0.000164045        -0.261615       -0.942583       0.00048185      0.00022053        -0.131433         0.10441
281750                  0.017788     -0.00380956      0.000372593     0.000143449         0.794336       -0.603534      0.000140832     6.89386e-06
                     0.000448054     0.000265877        -0.167198       -0.020927      0.000218256    -0.000156652        -0.262176        -0.94268
                        0.794861        -0.60425      0.000137769    -0.000118269      -0.00852782       0.0168823      0.000466886     0.000313457
                     0.000134552     0.000163988        -0.262078       -0.942452      0.000481902     0.000220348        -0.131375        0.104495
281752                 0.0177918     -0.00382857      0.000372603     0.000142792         0.794094       -0.603851      0.000140796     6.98011e-06
                     0.000448009     0.000265591        -0.167213      -0.0208662      0.000218132    -0.000156784        -0.262638        -0.94255
                        0.794619       -0.604568      0.000138073    -0.000118604      -0.00853392       0.0168877      0.000466933     0.000313343
                     0.000134583     0.000163931         -0.26254        -0.94232      0.000481952     0.000220168        -0.131317         0.10458
281754                 0.0177955     -0.00384759      0.000372612     0.000142131         0.793852       -0.604169      0.000140753     7.06584e-06
                     0.000447964     0.000265306        -0.167228      -0.0208053      0.000218007    -0.000156915          -0.2631       -0.942419
                        0.794377       -0.604886       0.00013838    -0.000118942      -0.00854002        0.016893      0.000466982      0.00031323
                     0.000134614     0.000163875        -0.263002       -0.942189      0.000481994     0.000219991        -0.131259        0.104665
281756                 0.0177992     -0.00386661      0.000372622     0.000141464          0.79361       -0.604486      0.000140707     7.14878e-06
                      0.00044792     0.000265022        -0.167244      -0.0207444       0.00021788    -0.000157044        -0.263561       -0.942288
                        0.794134       -0.605203      0.000138689    -0.000119281      -0.00854612       0.0168984      0.000467031      0.00031312
                     0.000134645     0.000163818        -0.263465       -0.942057      0.000482015     0.000219819        -0.131201        0.104749
281758                 0.0178029     -0.00388564      0.000372633     0.000140793         0.793368       -0.604803      0.000140662      7.2299e-06
                     0.000447876     0.000264738        -0.167259      -0.0206835      0.000217752    -0.000157172        -0.264023       -0.942156
                        0.793892       -0.605521      0.000139001    -0.000119625      -0.00855221       0.0169039      0.000467079     0.000313019
                     0.000134676     0.000163761        -0.263927       -0.941926      0.000481913     0.000219585        -0.131143        0.104834
281760                 0.0178066     -0.00390467      0.000372648     0.000140115         0.793126        -0.60512      0.000140616     7.30995e-06
                     0.000447832     0.000264454        -0.167274      -0.0206226      0.000217621    -0.000157299        -0.264484       -0.942025
                         0.79365       -0.605839      0.000139316    -0.000119975       -0.0085583       0.0169093      0.000467107     0.000312923
                     0.000134707     0.000163705        -0.264389       -0.941793      0.000482244     0.000219228        -0.131085        0.104919
281762                 0.0178103      -0.0039237      0.000372658     0.000139422         0.792884       -0.605437      0.000140571     7.38938e-06
                     0.000447789     0.000264171        -0.167288      -0.0205616      0.000217487    -0.000157428        -0.264946       -0.941893
                        0.793407       -0.606156      0.000139647     -0.00012033      -0.00856439       0.0169147      0.000467125       0.0003128
