! TOUCHSTONE file generated by CST MICROWAVE STUDIO
! Date and time: Tue Oct 14 07:29:11 2025
! Project name: Teste_Macro_Metasurface_Nanopilar.cst
! Parameters = {H=600; L_x=140; L_y=75; Lambda=1064; Max_L=200; Min_L=70; PathPara=1; Phi=0; Step_L=10; Theta=0; p=520; phaseX=180; phaseY=0}
! Header version: 2018
! Port assignment regex: !\s*Touchstone port\s*([0-9]+)\s*=\s*(CST MWS port|CST DS port)\s*([0-9]+|Zmin|Zmax)\s*\(\"(.*)\"\)(\s*mode\s*([0-9]+))?.*
! Touchstone port assignment:
! Touchstone port 1 = CST MWS port Zmax ("") mode 1
! Touchstone port 2 = CST MWS port Zmax ("") mode 2
! Touchstone port 3 = CST MWS port Zmin ("") mode 1
! Touchstone port 4 = CST MWS port Zmin ("") mode 2
! S-Parameters are not renormalized. Each port impedance will be approximated by the real part at minimum frequency. The values are described via the [Reference] keyword.
! Default impedance is overridden by [Reference]
[Version] 2.0
# GHz S RI R 376.73
[Number of Ports] 4
[Reference]
376.73 376.73 259.814 259.814 
[Number of Frequencies] 51
[Network Data]
281700                -0.0114213       0.0984541     -0.000288927    -0.000349408         0.990423      -0.0873075      0.000196739     0.000190921
                    -0.000187985    -0.000522783        -0.155373        0.128202      0.000521287     -0.00017645        -0.658726       -0.714565
                        0.990686        -0.08716      0.000350448    -0.000276432        0.0283849       0.0950954     -0.000589429     3.44848e-05
                     -2.8913e-05     0.000368053        -0.658184        -0.71392     -0.000738613    -3.31632e-05        -0.140802        0.143797
281702                 -0.011385       0.0984535     -0.000289171     -0.00034915         0.990391      -0.0876714     -0.000427809     0.000715932
                    -0.000188151    -0.000523231        -0.155309        0.128262      0.000521164    -0.000176907         -0.65908       -0.714183
                        0.990654      -0.0875246      0.000350432    -0.000276599        0.0284189       0.0950803     -0.000595518     4.74909e-05
                    -2.88411e-05     0.000368361        -0.658549       -0.713586     -0.000738661    -3.28513e-05        -0.140711        0.143873
281704                -0.0113486        0.098453     -0.000289416    -0.000348891         0.990359      -0.0880352     -3.99561e-05     0.000523961
                    -0.000188319    -0.000523675        -0.155246        0.128322      0.000521041    -0.000177364        -0.659436        -0.71381
                        0.990622      -0.0878891      0.000350416    -0.000276767        0.0284528       0.0950651     -0.000631334     3.00125e-05
                    -2.87674e-05     0.000368668        -0.658913       -0.713252     -0.000738709    -3.25389e-05        -0.140619        0.143949
281706                -0.0113123       0.0984524      -0.00028966    -0.000348633         0.990327      -0.0883991      3.35219e-06     0.000484042
                    -0.000188488    -0.000524115        -0.155183        0.128383      0.000520917    -0.000177822        -0.659793       -0.713446
                        0.990589      -0.0882537      0.000350399    -0.000276934        0.0284868       0.0950499     -0.000610543      1.1968e-05
                    -2.86918e-05     0.000368974        -0.659277       -0.712918     -0.000738756    -3.22261e-05        -0.140528        0.144024
281708                -0.0112759       0.0984518     -0.000289904    -0.000348375         0.990295      -0.0887629      1.78744e-05     0.000469591
                    -0.000188658     -0.00052455         -0.15512        0.128443      0.000520792     -0.00017828        -0.660153       -0.713092
                        0.990557      -0.0886182      0.000350382    -0.000277102        0.0285208       0.0950347     -0.000603536     1.34883e-05
                    -2.86143e-05     0.000369279        -0.659641       -0.712583     -0.000738803    -3.19129e-05        -0.140437        0.144099
281710                -0.0112396       0.0984513     -0.000290148    -0.000348117         0.990263      -0.0891267       2.2514e-05     0.000465199
                     -0.00018883    -0.000524982        -0.155056        0.128503      0.000520666    -0.000178739        -0.660516        -0.71275
                        0.990524      -0.0889827      0.000350365    -0.000277269        0.0285547       0.0950195     -0.000602141     1.45862e-05
                    -2.85351e-05     0.000369583        -0.660005       -0.712248      -0.00073885    -3.15992e-05        -0.140346        0.144174
281712                -0.0112032       0.0984506     -0.000290391    -0.000347859          0.99023      -0.0894906       1.8744e-05     0.000470081
                    -0.000189003    -0.000525409        -0.154993        0.128563       0.00052054    -0.000179198        -0.660883       -0.712425
                        0.990491      -0.0893472      0.000350348    -0.000277436        0.0285887       0.0950043     -0.000604781     1.48426e-05
                     -2.8454e-05     0.000369886        -0.660369       -0.711913     -0.000738896    -3.12851e-05        -0.140254        0.144248
281714                -0.0111669         0.09845     -0.000290635    -0.000347601         0.990198      -0.0898543     -1.25719e-05     0.000504346
                    -0.000189178    -0.000525832         -0.15493        0.128623      0.000520414    -0.000179658        -0.661258       -0.712128
                        0.990458      -0.0897117       0.00035033    -0.000277603        0.0286226        0.094989     -0.000621374     2.59464e-05
                    -2.83711e-05     0.000370188        -0.660732       -0.711578     -0.000738941    -3.09706e-05        -0.140162        0.144322
281716                -0.0111306       0.0984494     -0.000290878    -0.000347343         0.990165      -0.0902181      0.000192996     0.000189473
                    -0.000189354    -0.000526252        -0.154866        0.128683      0.000520286    -0.000180119        -0.661646       -0.711892
                        0.990425      -0.0900761      0.000350313     -0.00027777        0.0286566       0.0949738     -0.000588252     3.58761e-05
                    -2.82864e-05     0.000370489        -0.661096       -0.711243     -0.000738986    -3.06556e-05        -0.140071        0.144395
281718                -0.0110942       0.0984487     -0.000291121    -0.000347085         0.990132      -0.0905819      8.59471e-05      0.00038602
                    -0.000189532    -0.000526667        -0.154803        0.128743      0.000520158     -0.00018058        -0.662046        -0.71183
                        0.990392      -0.0904406      0.000350295    -0.000277937        0.0286905       0.0949585     -0.000589099     2.70719e-05
                    -2.81999e-05     0.000370789        -0.661459       -0.710907      -0.00073903    -3.03402e-05        -0.139978        0.144466
281720                -0.0110579       0.0984481     -0.000291364    -0.000346827         0.990099      -0.0909457      7.29479e-05     0.000404308
                    -0.000189711    -0.000527078        -0.154739        0.128803       0.00052003    -0.000181042        -0.662024       -0.712767
                        0.990359      -0.0908051      0.000350278    -0.000278104        0.0287244       0.0949432     -0.000590112     2.50977e-05
                    -2.81116e-05     0.000371088        -0.661822       -0.710571     -0.000739074    -3.00243e-05        -0.139885        0.144532
281722                -0.0110216       0.0984474     -0.000291606    -0.000346569         0.990066      -0.0913094      6.85202e-05     0.000410483
                    -0.000189891    -0.000527485        -0.154676        0.128863      0.000519901    -0.000181504        -0.660986       -0.709358
                        0.990325      -0.0911695       0.00035026     -0.00027827        0.0287583       0.0949279     -0.000590618     2.44488e-05
                    -2.80215e-05     0.000371386        -0.662185       -0.710235     -0.000739117    -2.97079e-05        -0.139783        0.144581
281724                -0.0109852       0.0984467     -0.000291848    -0.000346311         0.990032      -0.0916731       6.6541e-05     0.000413317
                    -0.000190073    -0.000527888        -0.154612        0.128923      0.000519771    -0.000181966        -0.662455       -0.709466
                        0.990291      -0.0915339      0.000350242    -0.000278437        0.0287922       0.0949127     -0.000590886     2.42334e-05
                    -2.79296e-05     0.000371683        -0.662548       -0.709899      -0.00073916    -2.93911e-05        -0.139478         0.14472
281726                -0.0109489        0.098446      -0.00029209    -0.000346053         0.989999       -0.092037      6.55492e-05     0.000414817
                    -0.000190257    -0.000528287        -0.154549        0.128983      0.000519642     -0.00018243        -0.663011       -0.709316
                        0.990258      -0.0918984      0.000350224    -0.000278604        0.0288261       0.0948973     -0.000591036      2.4202e-05
                    -2.78359e-05     0.000371978         -0.66291       -0.709563     -0.000739201    -2.90738e-05          -0.1396         0.14484
281728                -0.0109126       0.0984453     -0.000292332    -0.000345795         0.989966      -0.0924007      6.50311e-05     0.000415676
                    -0.000190441    -0.000528682        -0.154485        0.129043      0.000519512    -0.000182895        -0.663445       -0.709064
                        0.990224      -0.0922628      0.000350206     -0.00027877          0.02886        0.094882     -0.000591122     2.42612e-05
                    -2.77405e-05     0.000372273        -0.663272       -0.709226     -0.000739241    -2.87557e-05        -0.139518        0.144889
281730                -0.0108763       0.0984446     -0.000292574    -0.000345537         0.989932      -0.0927644      6.47654e-05     0.000416194
                    -0.000190627    -0.000529073        -0.154422        0.129103       0.00051938    -0.000183361        -0.663842       -0.708771
                         0.99019      -0.0926272      0.000350188    -0.000278936        0.0288939       0.0948667     -0.000591168     2.43696e-05
                    -2.76433e-05     0.000372567        -0.663635        -0.70889     -0.000739261    -2.84263e-05        -0.139429        0.144954
281732                -0.0108399       0.0984438     -0.000292816     -0.00034528         0.989898       -0.093128      6.46436e-05     0.000416514
                    -0.000190814     -0.00052946        -0.154358        0.129163      0.000519247    -0.000183828        -0.664224       -0.708459
                        0.990156      -0.0929915       0.00035017    -0.000279103        0.0289278       0.0948513     -0.000591191     2.45064e-05
                    -2.75444e-05     0.000372859        -0.663997       -0.708553     -0.000739341    -2.81184e-05        -0.139337        0.145024
281734                -0.0108036       0.0984431     -0.000293057    -0.000345022         0.989864      -0.0934917      6.46077e-05     0.000416716
                    -0.000191003    -0.000529843        -0.154294        0.129223      0.000519113    -0.000184294        -0.664597       -0.708138
                        0.990121      -0.0933559      0.000350152    -0.000279269        0.0289616        0.094836     -0.000591199     2.46604e-05
                    -2.74437e-05     0.000373151        -0.664359       -0.708216     -0.000739375    -2.78005e-05        -0.139246        0.145096
281736                -0.0107673       0.0984423     -0.000293298    -0.000344764          0.98983      -0.0938554      6.46248e-05     0.000416843
                    -0.000191193    -0.000530222        -0.154231        0.129283      0.000518979    -0.000184761        -0.664966        -0.70781
                        0.990087      -0.0937203      0.000350134    -0.000279435        0.0289955       0.0948206     -0.000591196     2.48251e-05
                    -2.73413e-05     0.000373441         -0.66472       -0.707878     -0.000739414    -2.74812e-05        -0.139154        0.145169
281738                 -0.010731       0.0984415     -0.000293539    -0.000344506         0.989796      -0.0942191       6.4675e-05     0.000416922
                    -0.000191384    -0.000530597        -0.154167        0.129342      0.000518844    -0.000185229        -0.665333       -0.707479
                        0.990052      -0.0940846      0.000350115    -0.000279601        0.0290293       0.0948052     -0.000591186     2.49966e-05
                    -2.72371e-05      0.00037373        -0.665082       -0.707541     -0.000739453    -2.71613e-05        -0.139062        0.145242
281740                -0.0106947       0.0984407      -0.00029378    -0.000344248         0.989762      -0.0945827      6.47463e-05      0.00041697
                    -0.000191577    -0.000530968        -0.154103        0.129402      0.000518709    -0.000185697        -0.665697       -0.707145
                        0.990018      -0.0944489      0.000350097    -0.000279767        0.0290632       0.0947898     -0.000591171     2.51726e-05
                    -2.71312e-05     0.000374019        -0.665443       -0.707203     -0.000739491     -2.6841e-05         -0.13897        0.145315
281742                -0.0106584       0.0984399     -0.000294021    -0.000343991         0.989727      -0.0949463      6.48307e-05     0.000416998
                    -0.000191771    -0.000531335        -0.154039        0.129462      0.000518573    -0.000186165         -0.66606        -0.70681
                        0.989983      -0.0948133      0.000350079    -0.000279933         0.029097       0.0947744     -0.000591152     2.53514e-05
                    -2.70236e-05     0.000374306        -0.665804       -0.706865     -0.000739529    -2.65201e-05        -0.138878        0.145389
281744                 -0.010622       0.0984391     -0.000294261    -0.000343733         0.989692        -0.09531      6.49232e-05     0.000417013
                    -0.000191966    -0.000531698        -0.153975        0.129521      0.000518436    -0.000186635        -0.666422       -0.706473
                        0.989948      -0.0951776       0.00035006    -0.000280099        0.0291308        0.094759      -0.00059113     2.55321e-05
                    -2.69144e-05     0.000374592        -0.666166       -0.706527     -0.000739567    -2.61988e-05        -0.138786        0.145462
281746                -0.0105857       0.0984383     -0.000294501    -0.000343475         0.989658      -0.0956736      6.50205e-05      0.00041702
                    -0.000192163    -0.000532057        -0.153912        0.129581      0.000518299    -0.000187105        -0.666784       -0.706136
                        0.989913      -0.0955419      0.000350042    -0.000280265        0.0291646       0.0947436     -0.000591107     2.57139e-05
                    -2.68034e-05     0.000374877        -0.666526       -0.706189     -0.000739605    -2.58771e-05        -0.138694        0.145536
281748                -0.0105494       0.0984374     -0.000294741    -0.000343217         0.989623      -0.0960372      6.51203e-05     0.000417021
                     -0.00019236    -0.000532412        -0.153848         0.12964      0.000518161    -0.000187575        -0.667145       -0.705798
                        0.989877      -0.0959062      0.000350023    -0.000280431        0.0291985       0.0947282     -0.000591081     2.58963e-05
                    -2.66908e-05     0.000375161        -0.666887       -0.705851     -0.000739642    -2.55548e-05        -0.138601        0.145609
281750                -0.0105131       0.0984366     -0.000294981     -0.00034296         0.989588      -0.0964007      6.52212e-05     0.000417019
                    -0.000192559    -0.000532763        -0.153784          0.1297      0.000518022    -0.000188047        -0.667506       -0.705459
                        0.989842      -0.0962704      0.000350005    -0.000280597        0.0292323       0.0947127     -0.000591055     2.60791e-05
                    -2.65767e-05     0.000375444        -0.667248       -0.705512     -0.000739678    -2.52321e-05        -0.138509        0.145683
281752                -0.0104768       0.0984357     -0.000295221    -0.000342702         0.989553      -0.0967643       6.5322e-05     0.000417016
                     -0.00019276    -0.000533111         -0.15372         0.12976      0.000517883    -0.000188518        -0.667867        -0.70512
                        0.989807      -0.0966347      0.000349986    -0.000280763         0.029266       0.0946972     -0.000591027     2.62621e-05
                    -2.64612e-05     0.000375726        -0.667608       -0.705173     -0.000739714     -2.4909e-05        -0.138417        0.145756
281754                -0.0104405       0.0984348      -0.00029546    -0.000342447         0.989517      -0.0971279      6.54221e-05     0.000417012
                    -0.000192961    -0.000533455        -0.153656        0.129819      0.000517743    -0.000188991        -0.668227       -0.704781
                        0.989771      -0.0969989      0.000349968    -0.000280928        0.0292998       0.0946818     -0.000590999      2.6445e-05
                    -2.63451e-05     0.000376009        -0.667968       -0.704834     -0.000739749    -2.45853e-05        -0.138325         0.14583
281756                -0.0104042       0.0984339     -0.000295724    -0.000342209         0.989482      -0.0974914      6.55211e-05     0.000417009
                    -0.000193169    -0.000533801        -0.153592        0.129878      0.000517602    -0.000189464        -0.668587       -0.704442
                        0.989735      -0.0973632      0.000349952    -0.000281095        0.0293336       0.0946663      -0.00059097     2.66278e-05
                    -2.62322e-05     0.000376324        -0.668328       -0.704495     -0.000739784    -2.42612e-05        -0.138232        0.145903
281758                -0.0103679        0.098433     -0.000295945    -0.000341922         0.989446       -0.097855      6.56187e-05     0.000417007
                    -0.000193375    -0.000534123        -0.153528        0.129938      0.000517461    -0.000189938        -0.668947       -0.704102
                        0.989699      -0.0977274      0.000349932    -0.000281266        0.0293674       0.0946508     -0.000590941     2.68105e-05
                    -2.60947e-05      0.00037656        -0.668688       -0.704156     -0.000739819    -2.39366e-05         -0.13814        0.145976
281760                -0.0103316        0.098432     -0.000296182    -0.000341666         0.989411      -0.0982185      6.57146e-05     0.000417005
                    -0.000193577    -0.000534455        -0.153464        0.129997      0.000517318    -0.000190412        -0.669307       -0.703763
                        0.989663      -0.0980916       0.00034991    -0.000281431        0.0294011       0.0946353     -0.000590911     2.69929e-05
                    -2.59749e-05     0.000376839        -0.669048       -0.703816     -0.000739852    -2.36115e-05        -0.138047        0.146049
281762                -0.0102953       0.0984311     -0.000296421    -0.000341408         0.989375       -0.098582      6.58088e-05     0.000417006
                    -0.000193783    -0.000534783          -0.1534        0.130057      0.000517175    -0.000190888        -0.669667       -0.703423
                        0.989627      -0.0984558      0.000349891    -0.000281595        0.0294349       0.0946197     -0.000590881      2.7175e-05
