! TOUCHSTONE file generated by CST MICROWAVE STUDIO
! Date and time: Tue Oct 14 07:29:05 2025
! Project name: Teste_Macro_Metasurface_Nanopilar.cst
! Parameters = {H=600; L_x=135; L_y=170; Lambda=1064; Max_L=200; Min_L=70; PathPara=1; Phi=0; Step_L=10; Theta=0; p=520; phaseX=180; phaseY=0}
! Header version: 2018
! Port assignment regex: !\s*Touchstone port\s*([0-9]+)\s*=\s*(CST MWS port|CST DS port)\s*([0-9]+|Zmin|Zmax)\s*\(\"(.*)\"\)(\s*mode\s*([0-9]+))?.*
! Touchstone port assignment:
! Touchstone port 1 = CST MWS port Zmax ("") mode 1
! Touchstone port 2 = CST MWS port Zmax ("") mode 2
! Touchstone port 3 = CST MWS port Zmin ("") mode 1
! Touchstone port 4 = CST MWS port Zmin ("") mode 2
! S-Parameters are not renormalized. Each port impedance will be approximated by the real part at minimum frequency. The values are described via the [Reference] keyword.
! Default impedance is overridden by [Reference]
[Version] 2.0
# GHz S RI R 376.73
[Number of Ports] 4
[Reference]
376.73 376.73 259.814 259.814 
[Number of Frequencies] 51
[Network Data]
281700                 -0.175756       0.0750397     -5.73081e-05     0.000309202         0.608112        0.763654     -0.000114859     0.000506144
                    -4.05084e-05     0.000319914        -0.145603       -0.258123      -0.00045466    -0.000137056         0.544151        0.777131
                        0.608199        0.763883     -0.000315744    -8.35052e-05        -0.111269        0.147391     -0.000680631    -2.51114e-05
                     3.97655e-05     0.000463362         0.544182        0.777237     -0.000544438    -1.99497e-05         0.194671        0.217487
281702                 -0.175723       0.0750411     -5.73568e-05      0.00030905          0.60846        0.763385     -0.000114863      0.00050603
                    -4.01739e-05     0.000319748        -0.145713       -0.258169     -0.000454593    -0.000136791         0.544532        0.776825
                        0.608548        0.763614     -0.000315812    -8.34135e-05        -0.111128        0.147462     -0.000680597     -2.5354e-05
                     4.02066e-05     0.000463322         0.544563         0.77693     -0.000544269    -1.96843e-05         0.194907        0.217398
281704                 -0.175689       0.0750425     -5.74039e-05     0.000308899         0.608809        0.763116     -0.000114869     0.000505915
                    -3.98394e-05     0.000319582        -0.145822       -0.258216     -0.000454527    -0.000136526         0.544914        0.776518
                        0.608896        0.763345      -0.00031588    -8.33213e-05        -0.110987        0.147532     -0.000680563     -2.5602e-05
                     4.06479e-05     0.000463281         0.544943        0.776623       -0.0005441    -1.94195e-05         0.195142        0.217308
281706                 -0.175656       0.0750439     -5.74494e-05     0.000308749         0.609157        0.762847     -0.000114878     0.000505798
                    -3.95049e-05     0.000319416        -0.145931       -0.258262      -0.00045446    -0.000136261         0.545295         0.77621
                        0.609245        0.763075     -0.000315948    -8.32287e-05        -0.110845        0.147602     -0.000680529    -2.58555e-05
                     4.10893e-05     0.000463241         0.545324        0.776316     -0.000543931    -1.91554e-05         0.195378        0.217218
281708                 -0.175623       0.0750454     -5.74936e-05     0.000308599         0.609505        0.762578     -0.000114889     0.000505678
                    -3.91705e-05     0.000319249        -0.146041       -0.258308     -0.000454394    -0.000135995         0.545676        0.775903
                        0.609593        0.762806     -0.000316017    -8.31357e-05        -0.110704        0.147672     -0.000680495    -2.61145e-05
                     4.15309e-05     0.000463201         0.545705        0.776009     -0.000543763     -1.8892e-05         0.195613        0.217129
281710                 -0.175589       0.0750468     -5.75364e-05      0.00030845         0.609854        0.762309     -0.000114903     0.000505556
                    -3.88361e-05     0.000319083         -0.14615       -0.258355     -0.000454327     -0.00013573         0.546056        0.775595
                        0.609941        0.762536     -0.000316087    -8.30422e-05        -0.110563        0.147742     -0.000680461     -2.6379e-05
                     4.19727e-05      0.00046316         0.546085        0.775701     -0.000543594    -1.86292e-05         0.195849        0.217038
281712                 -0.175556       0.0750482     -5.75779e-05     0.000308301         0.610201        0.762039     -0.000114919     0.000505432
                    -3.85017e-05     0.000318917         -0.14626       -0.258401     -0.000454261    -0.000135464         0.546437        0.775287
                        0.610289        0.762266     -0.000316157    -8.29484e-05        -0.110422        0.147811     -0.000680427    -2.66492e-05
                     4.24146e-05      0.00046312         0.546465        0.775393     -0.000543425    -1.83671e-05         0.196085        0.216948
281714                 -0.175523       0.0750497     -5.76183e-05     0.000308152         0.610549         0.76177     -0.000114938     0.000505306
                    -3.81673e-05     0.000318751         -0.14637       -0.258448     -0.000454196    -0.000135198         0.546818        0.774978
                        0.610636        0.761996     -0.000316227    -8.28541e-05         -0.11028        0.147881     -0.000680392    -2.69251e-05
                     4.28566e-05     0.000463079         0.546845        0.775085     -0.000543256    -1.81056e-05         0.196321        0.216857
281716                  -0.17549       0.0750511     -5.76577e-05     0.000308003         0.610897          0.7615      -0.00011496     0.000505177
                    -3.78328e-05     0.000318585        -0.146479       -0.258494      -0.00045413    -0.000134932         0.547198        0.774669
                        0.610984        0.761726     -0.000316298    -8.27596e-05        -0.110139         0.14795     -0.000680357    -2.72068e-05
                     4.32987e-05     0.000463038         0.547225        0.774776     -0.000543087    -1.78448e-05         0.196557        0.216767
281718                 -0.175457       0.0750526      -5.7696e-05     0.000307855         0.611244         0.76123     -0.000114985     0.000505046
                    -3.74984e-05     0.000318418        -0.146589       -0.258541     -0.000454065    -0.000134666         0.547578         0.77436
                        0.611331        0.761455     -0.000316369    -8.26647e-05        -0.109998         0.14802     -0.000680322    -2.74943e-05
                      4.3741e-05     0.000462997         0.547605        0.774467     -0.000542918    -1.75846e-05         0.196793        0.216676
281720                 -0.175423        0.075054     -5.77334e-05     0.000307706         0.611592         0.76096     -0.000115011     0.000504912
                    -3.71639e-05     0.000318252        -0.146699       -0.258587        -0.000454      -0.0001344         0.547959        0.774051
                        0.611679        0.761185     -0.000316441    -8.25695e-05        -0.109856        0.148089     -0.000680286    -2.77877e-05
                     4.41833e-05     0.000462956         0.547985        0.774158     -0.000542749    -1.73251e-05         0.197029        0.216584
281722                  -0.17539       0.0750555     -5.77699e-05     0.000307558         0.611939        0.760689     -0.000115041     0.000504776
                    -3.68294e-05     0.000318085        -0.146809       -0.258634     -0.000453935    -0.000134133         0.548339        0.773742
                        0.612026        0.760914     -0.000316514     -8.2474e-05        -0.109715        0.148158      -0.00068025    -2.80871e-05
                     4.46257e-05     0.000462915         0.548365        0.773849      -0.00054258    -1.70662e-05         0.197265        0.216493
281724                 -0.175357       0.0750569     -5.78056e-05      0.00030741         0.612286        0.760419     -0.000115073     0.000504637
                    -3.64949e-05     0.000317919        -0.146919       -0.258681      -0.00045387    -0.000133867         0.548719        0.773432
                        0.612373        0.760643     -0.000316587    -8.23783e-05        -0.109574        0.148227     -0.000680213    -2.83925e-05
                     4.50681e-05     0.000462874         0.548744        0.773539     -0.000542411     -1.6808e-05         0.197501        0.216401
281726                 -0.175324       0.0750584     -5.78407e-05     0.000307261         0.612633        0.760148     -0.000115108     0.000504496
                    -3.61603e-05     0.000317752         -0.14703       -0.258727     -0.000453805      -0.0001336         0.549098        0.773122
                         0.61272        0.760372     -0.000316661    -8.22823e-05        -0.109432        0.148296     -0.000680176    -2.87041e-05
                     4.55106e-05     0.000462832         0.549124        0.773229     -0.000542242    -1.65504e-05         0.197738        0.216309
281728                 -0.175291       0.0750599      -5.7875e-05     0.000307113          0.61298        0.759878     -0.000115145     0.000504352
                    -3.58257e-05     0.000317585         -0.14714       -0.258774     -0.000453741    -0.000133334         0.549478        0.772811
                        0.613066        0.760101     -0.000316735    -8.21861e-05        -0.109291        0.148365     -0.000680138    -2.90218e-05
                     4.59531e-05      0.00046279         0.549503        0.772919     -0.000542073    -1.62934e-05         0.197974        0.216217
281730                 -0.175258       0.0750613     -5.79087e-05     0.000306964         0.613326        0.759607     -0.000115185     0.000504206
                     -3.5491e-05     0.000317418         -0.14725       -0.258821     -0.000453677    -0.000133067         0.549858        0.772501
                        0.613413         0.75983      -0.00031681    -8.20898e-05         -0.10915        0.148433       -0.0006801    -2.93457e-05
                     4.63957e-05     0.000462749         0.549882        0.772608     -0.000541904     -1.6037e-05          0.19821        0.216125
281732                 -0.175225       0.0750628     -5.79418e-05     0.000306816         0.613673        0.759336     -0.000115228     0.000504056
                    -3.51562e-05     0.000317251        -0.147361       -0.258867     -0.000453613    -0.000132801         0.550237         0.77219
                        0.613759        0.759559     -0.000316886    -8.19932e-05        -0.109008        0.148502     -0.000680061     -2.9676e-05
                     4.68383e-05     0.000462707         0.550261        0.772297     -0.000541735    -1.57813e-05         0.198447        0.216032
281734                 -0.175192       0.0750643     -5.79744e-05     0.000306667         0.614019        0.759064     -0.000115273     0.000503904
                    -3.48214e-05     0.000317084        -0.147471       -0.258914      -0.00045355    -0.000132534         0.550616        0.771879
                        0.614106        0.759287     -0.000316962    -8.18966e-05        -0.108867         0.14857     -0.000680021    -3.00126e-05
                     4.72809e-05     0.000462665          0.55064        0.771986     -0.000541566    -1.55262e-05         0.198684         0.21594
281736                 -0.175159       0.0750658     -5.80065e-05     0.000306518         0.614365        0.758793     -0.000115321     0.000503749
                    -3.44865e-05     0.000316917        -0.147582       -0.258961     -0.000453486    -0.000132267         0.550996        0.771567
                        0.614452        0.759016     -0.000317039    -8.17998e-05        -0.108725        0.148638      -0.00067998    -3.03557e-05
                     4.77235e-05     0.000462622         0.551019        0.771675     -0.000541397    -1.52717e-05          0.19892        0.215847
281738                 -0.175126       0.0750673     -5.80381e-05     0.000306369         0.614712        0.758522     -0.000115372     0.000503591
                    -3.41516e-05     0.000316749        -0.147693       -0.259008     -0.000453423    -0.000132001         0.551375        0.771255
                        0.614798        0.758744     -0.000317117     -8.1703e-05        -0.108584        0.148707     -0.000679939    -3.07054e-05
                     4.81661e-05      0.00046258         0.551398        0.771363     -0.000541228    -1.50178e-05         0.199157        0.215754
281740                 -0.175093       0.0750688     -5.80692e-05      0.00030622         0.615057         0.75825     -0.000115425      0.00050343
                    -3.38165e-05     0.000316581        -0.147804       -0.259055      -0.00045336    -0.000131734         0.551754        0.770943
                        0.615144        0.758472     -0.000317195    -8.16061e-05        -0.108442        0.148775     -0.000679897    -3.10616e-05
                     4.86086e-05     0.000462538         0.551776        0.771051     -0.000541059    -1.47645e-05         0.199394         0.21566
281742                 -0.175061       0.0750703     -5.80999e-05     0.000306071         0.615403        0.757978     -0.000115481     0.000503266
                    -3.34814e-05     0.000316413        -0.147915       -0.259102     -0.000453297    -0.000131467         0.552132        0.770631
                        0.615489          0.7582     -0.000317274    -8.15092e-05        -0.108301        0.148843     -0.000679853    -3.14245e-05
                     4.90512e-05     0.000462495         0.552155        0.770739      -0.00054089    -1.45118e-05         0.199631        0.215567
281744                 -0.175028       0.0750718     -5.81303e-05     0.000305922         0.615749        0.757706     -0.000115539     0.000503099
                    -3.31461e-05     0.000316245        -0.148026       -0.259149     -0.000453235    -0.000131201         0.552511        0.770318
                        0.615835        0.757927     -0.000317353    -8.14122e-05        -0.108159         0.14891     -0.000679809    -3.17942e-05
                     4.94937e-05     0.000462452         0.552533        0.770427     -0.000540721    -1.42597e-05         0.199868        0.215473
281746                 -0.174995       0.0750733     -5.81602e-05     0.000305773         0.616094        0.757434       -0.0001156     0.000502928
                    -3.28108e-05     0.000316077        -0.148137       -0.259196     -0.000453173    -0.000130934          0.55289        0.770005
                         0.61618        0.757655     -0.000317434    -8.13153e-05        -0.108018        0.148978     -0.000679764    -3.21707e-05
                     4.99361e-05     0.000462409         0.552911        0.770114     -0.000540552    -1.40082e-05         0.200105        0.215379
281748                 -0.174962       0.0750748     -5.81898e-05     0.000305624          0.61644        0.757162     -0.000115663     0.000502754
                    -3.24754e-05     0.000315908        -0.148248       -0.259243     -0.000453111    -0.000130667         0.553268        0.769692
                        0.616525        0.757382     -0.000317514    -8.12184e-05        -0.107876        0.149046     -0.000679717    -3.25541e-05
                     5.03785e-05     0.000462366         0.553289        0.769801     -0.000540383    -1.37573e-05         0.200342        0.215285
281750                 -0.174929       0.0750763     -5.82191e-05     0.000305475         0.616785         0.75689     -0.000115729     0.000502578
                    -3.21399e-05     0.000315739        -0.148359        -0.25929     -0.000453049    -0.000130401         0.553646        0.769379
                        0.616871         0.75711     -0.000317596    -8.11215e-05        -0.107735        0.149113     -0.000679669    -3.29444e-05
                     5.08208e-05     0.000462323         0.553667        0.769488     -0.000540214     -1.3507e-05         0.200579         0.21519
281752                 -0.174897       0.0750778     -5.82481e-05     0.000305326          0.61713        0.756617     -0.000115798     0.000502397
                    -3.18042e-05      0.00031557        -0.148471       -0.259337     -0.000452987    -0.000130134         0.554024        0.769065
                        0.617216        0.756837     -0.000317678    -8.10247e-05        -0.107593        0.149181      -0.00067962    -3.33418e-05
                     5.12631e-05     0.000462279         0.554045        0.769174     -0.000540045    -1.32573e-05         0.200817        0.215096
281754                 -0.174864       0.0750794     -5.82767e-05     0.000305176         0.617475        0.756344     -0.000115869     0.000502213
                    -3.14685e-05     0.000315401        -0.148582       -0.259384     -0.000452926    -0.000129868         0.554402        0.768751
                         0.61756        0.756564     -0.000317761    -8.09279e-05        -0.107452        0.149248      -0.00067957    -3.37463e-05
                     5.17053e-05     0.000462236         0.554423         0.76886     -0.000539876    -1.30082e-05         0.201054        0.215001
281756                 -0.174831       0.0750809      -5.8305e-05     0.000305027          0.61782        0.756072     -0.000115942     0.000502026
                    -3.11327e-05     0.000315231        -0.148694       -0.259431     -0.000452865    -0.000129601          0.55478        0.768437
                        0.617905         0.75629     -0.000317844    -8.08313e-05         -0.10731        0.149315     -0.000679518     -3.4158e-05
                     5.21474e-05     0.000462192           0.5548        0.768546     -0.000539708    -1.27596e-05         0.201291        0.214906
281758                 -0.174799       0.0750824     -5.83331e-05     0.000304877         0.618164        0.755799     -0.000116018     0.000501835
                    -3.07968e-05     0.000315061        -0.148805       -0.259479     -0.000452804    -0.000129335         0.555158        0.768122
                         0.61825        0.756017     -0.000317929    -8.07347e-05        -0.107168        0.149382     -0.000679464     -3.4577e-05
                     5.25894e-05     0.000462148         0.555178        0.768232     -0.000539539    -1.25117e-05         0.201529        0.214811
281760                 -0.174766        0.075084     -5.83608e-05     0.000304728         0.618509        0.755526     -0.000116097     0.000501641
                    -3.04607e-05     0.000314891        -0.148917       -0.259526     -0.000452743    -0.000129069         0.555536        0.767808
                        0.618594        0.755744     -0.000318013    -8.06383e-05        -0.107027        0.149449     -0.000679409    -3.50034e-05
                     5.30313e-05     0.000462104         0.555555        0.767917      -0.00053937    -1.22643e-05         0.201767        0.214715
281762                 -0.174734       0.0750855     -5.83883e-05     0.000304578         0.618853        0.755252     -0.000116178     0.000501443
                    -3.01246e-05     0.000314721        -0.149029       -0.259573     -0.000452682    -0.000128803         0.555913        0.767493
                        0.618938         0.75547     -0.000318099     -8.0542e-05        -0.106885        0.149516     -0.000679352    -3.54371e-05
