! TOUCHSTONE file generated by CST MICROWAVE STUDIO
! Date and time: Tue Oct 14 07:32:25 2025
! Project name: Teste_Macro_Metasurface_Nanopilar.cst
! Parameters = {H=600; L_x=190; L_y=115; Lambda=1064; Max_L=200; Min_L=70; PathPara=1; Phi=0; Step_L=10; Theta=0; p=520; phaseX=180; phaseY=0}
! Header version: 2018
! Port assignment regex: !\s*Touchstone port\s*([0-9]+)\s*=\s*(CST MWS port|CST DS port)\s*([0-9]+|Zmin|Zmax)\s*\(\"(.*)\"\)(\s*mode\s*([0-9]+))?.*
! Touchstone port assignment:
! Touchstone port 1 = CST MWS port Zmax ("") mode 1
! Touchstone port 2 = CST MWS port Zmax ("") mode 2
! Touchstone port 3 = CST MWS port Zmin ("") mode 1
! Touchstone port 4 = CST MWS port Zmin ("") mode 2
! S-Parameters are not renormalized. Each port impedance will be approximated by the real part at minimum frequency. The values are described via the [Reference] keyword.
! Default impedance is overridden by [Reference]
[Version] 2.0
# GHz S RI R 376.73
[Number of Ports] 4
[Reference]
376.73 376.73 259.814 259.814 
[Number of Frequencies] 51
[Network Data]
281700                -0.0735063      -0.0637358      0.000316611     0.000159725        -0.326823        0.933658      0.000734646     0.000209307
                      0.00012404     0.000152979        -0.166724        0.130029      0.000505669    -0.000476021         0.624128        0.744847
                        -0.32722        0.933368      0.000642028    -0.000342937       -0.0955781      0.00518936      0.000188818     -4.1527e-05
                     0.000717967     0.000220005         0.624158        0.744205      8.62353e-05    -0.000242323        -0.155827        0.133071
281702                -0.0735267      -0.0637331        0.0003166     0.000159281        -0.326389        0.933809      0.000734828     0.000208867
                     0.000123694     0.000153012        -0.166671        0.130017      0.000505526    -0.000476627          0.62448        0.744568
                       -0.326786        0.933519      0.000642156    -0.000342982       -0.0955881      0.00526375      0.000188752    -4.13884e-05
                     0.000717646     0.000219309         0.624508        0.743926      8.62489e-05     -0.00024286         -0.15568        0.133167
281704                -0.0735471      -0.0637304      0.000316588     0.000158839        -0.325955         0.93396       0.00073501     0.000208427
                     0.000123349     0.000153043        -0.166617        0.130005      0.000505383    -0.000477232         0.624831        0.744288
                       -0.326352         0.93367      0.000642285    -0.000343029       -0.0955981      0.00533815      0.000188687    -4.12502e-05
                     0.000717328     0.000218614         0.624859        0.743647      8.62621e-05    -0.000243396        -0.155533        0.133262
281706                -0.0735674      -0.0637276      0.000316576     0.000158397        -0.325521        0.934111      0.000735191     0.000207986
                     0.000123005     0.000153072        -0.166563        0.129994       0.00050524    -0.000477836         0.625182        0.744008
                       -0.325919        0.933821      0.000642415    -0.000343077        -0.095608      0.00541256      0.000188622    -4.11124e-05
                     0.000717012     0.000217918         0.625209        0.743368      8.62752e-05    -0.000243931        -0.155386        0.133358
281708                -0.0735878      -0.0637248      0.000316563     0.000157956        -0.325086        0.934261       0.00073537     0.000207546
                     0.000122661     0.000153099        -0.166509        0.129982      0.000505097     -0.00047844         0.625533        0.743728
                       -0.325485        0.933972      0.000642545    -0.000343127       -0.0956178      0.00548698      0.000188558     -4.0975e-05
                     0.000716698     0.000217223          0.62556        0.743089      8.62883e-05    -0.000244465        -0.155239        0.133453
281710                -0.0736082      -0.0637221      0.000316549     0.000157517        -0.324652        0.934412      0.000735549     0.000207105
                     0.000122318     0.000153123        -0.166455         0.12997      0.000504954    -0.000479043         0.625884        0.743448
                       -0.325051        0.934122      0.000642675    -0.000343179       -0.0956276      0.00556142      0.000188495    -4.08381e-05
                     0.000716387     0.000216528          0.62591        0.742809      8.63016e-05    -0.000244999        -0.155092        0.133548
281712                -0.0736286      -0.0637193      0.000316535     0.000157079        -0.324218        0.934562      0.000735726     0.000206664
                     0.000121976     0.000153146        -0.166401        0.129958       0.00050481    -0.000479646         0.626235        0.743168
                       -0.324617        0.934272      0.000642807    -0.000343233       -0.0956373      0.00563586      0.000188432    -4.07017e-05
                     0.000716078     0.000215832          0.62626        0.742529       8.6315e-05    -0.000245532        -0.154945        0.133643
281714                 -0.073649      -0.0637165      0.000316521     0.000156642        -0.323784        0.934711      0.000735902     0.000206223
                     0.000121634     0.000153166        -0.166347        0.129946      0.000504667    -0.000480248         0.626586        0.742887
                       -0.324183        0.934422      0.000642939    -0.000343288        -0.095647      0.00571032       0.00018837    -4.05658e-05
                     0.000715771     0.000215137          0.62661         0.74225      8.63287e-05    -0.000246065        -0.154798        0.133738
281716                -0.0736694      -0.0637137      0.000316505     0.000156206        -0.323349        0.934861      0.000736077     0.000205783
                     0.000121293     0.000153185        -0.166294        0.129934      0.000504524    -0.000480849         0.626936        0.742607
                       -0.323749        0.934572      0.000643071    -0.000343345       -0.0956566      0.00578479      0.000188309    -4.04305e-05
                     0.000715466     0.000214442         0.626959         0.74197      8.63429e-05    -0.000246597        -0.154651        0.133832
281718                -0.0736898       -0.063711       0.00031649     0.000155771        -0.322915         0.93501      0.000736251     0.000205342
                     0.000120953     0.000153201         -0.16624        0.129922      0.000504382     -0.00048145         0.627286        0.742326
                       -0.323315        0.934722      0.000643204    -0.000343404       -0.0956662      0.00585927      0.000188248    -4.02958e-05
                     0.000715163     0.000213747         0.627309        0.741689      8.63576e-05    -0.000247128        -0.154503        0.133927
281720                -0.0737102      -0.0637082      0.000316474     0.000155338         -0.32248         0.93516      0.000736424     0.000204902
                     0.000120613     0.000153216        -0.166186         0.12991      0.000504239    -0.000482051         0.627636        0.742045
                       -0.322881        0.934871      0.000643338    -0.000343465       -0.0956757      0.00593376      0.000188187    -4.01616e-05
                     0.000714863     0.000213053         0.627658        0.741409      8.63729e-05    -0.000247659        -0.154356        0.134021
281722                -0.0737307      -0.0637053      0.000316457     0.000154905        -0.322046        0.935309      0.000736596     0.000204462
                     0.000120274     0.000153228        -0.166133        0.129898      0.000504097    -0.000482652         0.627986        0.741764
                       -0.322447         0.93502      0.000643472    -0.000343528       -0.0956852      0.00600826      0.000188127     -4.0028e-05
                     0.000714565     0.000212358         0.628008        0.741129      8.63889e-05     -0.00024819        -0.154209        0.134116
281724                -0.0737511      -0.0637025       0.00031644     0.000154474        -0.321611        0.935457      0.000736767     0.000204023
                     0.000119936     0.000153238        -0.166079        0.129886      0.000503955    -0.000483252         0.628336        0.741483
                       -0.322012        0.935169      0.000643607    -0.000343593       -0.0956946      0.00608278      0.000188068    -3.98951e-05
                     0.000714269     0.000211663         0.628357        0.740848      8.64056e-05    -0.000248721        -0.154061         0.13421
281726                -0.0737715      -0.0636997      0.000316422     0.000154044        -0.321176        0.935606      0.000736937     0.000203584
                     0.000119598     0.000153247        -0.166026        0.129874      0.000503813    -0.000483852         0.628686        0.741201
                       -0.321578        0.935318      0.000643742    -0.000343659       -0.0957039       0.0061573      0.000188009    -3.97629e-05
                     0.000713975     0.000210968         0.628706        0.740567      8.64232e-05    -0.000249252        -0.153914        0.134304
281728                 -0.073792      -0.0636969      0.000316404     0.000153615        -0.320742        0.935755      0.000737107     0.000203146
                     0.000119261     0.000153253        -0.165972        0.129862      0.000503672    -0.000484452         0.629035         0.74092
                       -0.321144        0.935467      0.000643879    -0.000343728       -0.0957132      0.00623184       0.00018795    -3.96313e-05
                     0.000713683     0.000210274         0.629054        0.740286      8.64416e-05    -0.000249783        -0.153767        0.134398
281730                -0.0738124       -0.063694      0.000316386     0.000153188        -0.320307        0.935903      0.000737276     0.000202708
                     0.000118924     0.000153257        -0.165919         0.12985       0.00050353    -0.000485051         0.629385        0.740638
                       -0.320709        0.935615      0.000644015    -0.000343798       -0.0957224      0.00630638      0.000187892    -3.95004e-05
                     0.000713394     0.000209579         0.629403        0.740005       8.6461e-05    -0.000250313        -0.153619        0.134492
281732                -0.0738329      -0.0636912      0.000316367     0.000152761        -0.319872        0.936051      0.000737444     0.000202271
                     0.000118589      0.00015326        -0.165865        0.129838       0.00050339    -0.000485651         0.629734        0.740356
                       -0.320275        0.935763      0.000644153    -0.000343871       -0.0957316      0.00638094      0.000187834    -3.93702e-05
                     0.000713107     0.000208885         0.629752        0.739724      8.64814e-05    -0.000250844        -0.153472        0.134585
281734                -0.0738534      -0.0636883      0.000316348     0.000152336        -0.319437        0.936198      0.000737612     0.000201834
                     0.000118254      0.00015326        -0.165812        0.129826      0.000503249    -0.000486251         0.630083        0.740074
                        -0.31984        0.935911      0.000644291    -0.000343945       -0.0957407      0.00645551      0.000187777    -3.92407e-05
                     0.000712821      0.00020819           0.6301        0.739442      8.65029e-05    -0.000251376        -0.153324        0.134679
281736                -0.0738738      -0.0636855      0.000316328     0.000151912        -0.319002        0.936346       0.00073778     0.000201398
                     0.000117919     0.000153258        -0.165758        0.129814      0.000503109    -0.000486851         0.630432        0.739792
                       -0.319406        0.936059      0.000644431    -0.000344022       -0.0957498      0.00653009       0.00018772    -3.91119e-05
                     0.000712538     0.000207496         0.630448        0.739161      8.65254e-05    -0.000251908        -0.153177        0.134772
281738                -0.0738943      -0.0636826      0.000316308     0.000151489        -0.318567        0.936493      0.000737948     0.000200963
                     0.000117585     0.000153255        -0.165705        0.129802       0.00050297    -0.000487451         0.630781         0.73951
                       -0.318971        0.936206       0.00064457    -0.000344101       -0.0957588      0.00660469      0.000187663    -3.89838e-05
                     0.000712257     0.000206801         0.630796        0.738879      8.65491e-05     -0.00025244        -0.153029        0.134866
281740                -0.0739148      -0.0636797      0.000316288     0.000151068        -0.318132        0.936641      0.000738115     0.000200528
                     0.000117252     0.000153249        -0.165652         0.12979       0.00050283    -0.000488052         0.631129        0.739227
                       -0.318536        0.936354      0.000644711    -0.000344182       -0.0957678      0.00667929      0.000187606    -3.88565e-05
                     0.000711978     0.000206107         0.631144        0.738597      8.65739e-05    -0.000252973        -0.152881        0.134959
281742                -0.0739353      -0.0636769      0.000316268     0.000150648        -0.317696        0.936788      0.000738283     0.000200093
                     0.000116919     0.000153242        -0.165598        0.129778      0.000502691    -0.000488653         0.631478        0.738944
                       -0.318101        0.936501      0.000644853    -0.000344265       -0.0957767       0.0067539       0.00018755    -3.87299e-05
                     0.000711701     0.000205413         0.631492        0.738315         8.66e-05    -0.000253506        -0.152734        0.135052
281744                -0.0739558       -0.063674      0.000316247     0.000150229        -0.317261        0.936934      0.000738451     0.000199659
                     0.000116587     0.000153233        -0.165545        0.129765      0.000502553    -0.000489254         0.631826        0.738662
                       -0.317666        0.936648      0.000644995    -0.000344351       -0.0957855      0.00682853      0.000187494    -3.86041e-05
                     0.000711426     0.000204718          0.63184        0.738033      8.66272e-05    -0.000254041        -0.152586        0.135145
281746                -0.0739763      -0.0636711      0.000316226     0.000149811        -0.316826        0.937081      0.000738619     0.000199225
                     0.000116256     0.000153221        -0.165492        0.129753      0.000502414    -0.000489855         0.632174        0.738379
                       -0.317232        0.936795      0.000645139    -0.000344439       -0.0957943      0.00690316      0.000187438     -3.8479e-05
                     0.000711153     0.000204024         0.632187         0.73775      8.66556e-05    -0.000254576        -0.152438        0.135238
281748                -0.0739968      -0.0636682      0.000316206     0.000149395         -0.31639        0.937227      0.000738788      0.00019879
                     0.000115925     0.000153208        -0.165439        0.129741      0.000502276    -0.000490458         0.632523        0.738095
                       -0.316797        0.936941      0.000645283     -0.00034453        -0.095803      0.00697781      0.000187382    -3.83547e-05
                     0.000710882      0.00020333         0.632534        0.737468      8.66853e-05    -0.000255112         -0.15229         0.13533
281750                -0.0740173      -0.0636653      0.000316185      0.00014898        -0.315955        0.937373      0.000738956     0.000198356
                     0.000115595     0.000153193        -0.165386        0.129729      0.000502138    -0.000491061          0.63287        0.737812
                       -0.316362        0.937088      0.000645429    -0.000344624       -0.0958117      0.00705247      0.000187326    -3.82311e-05
                     0.000710613     0.000202636         0.632882        0.737185      8.67163e-05    -0.000255649        -0.152143        0.135423
281752                -0.0740378      -0.0636623      0.000316164     0.000148567        -0.315519        0.937519      0.000739125     0.000197922
                     0.000115265     0.000153176        -0.165333        0.129717      0.000502001    -0.000491664         0.633218        0.737529
                       -0.315926        0.937234      0.000645577    -0.000344721       -0.0958203      0.00712714       0.00018727    -3.81083e-05
                     0.000710346     0.000201942         0.633229        0.736902      8.67485e-05    -0.000256188        -0.151995        0.135515
281754                -0.0740584      -0.0636594      0.000316143     0.000148156        -0.315084        0.937665      0.000739295     0.000197487
                     0.000114936     0.000153157         -0.16528        0.129705      0.000501863    -0.000492268         0.633566        0.737245
                       -0.315491         0.93738      0.000645726    -0.000344822       -0.0958289      0.00720182      0.000187214    -3.79863e-05
                     0.000710081     0.000201248         0.633575        0.736619       8.6782e-05    -0.000256727        -0.151847        0.135608
281756                -0.0740789      -0.0636565      0.000316123     0.000147746        -0.314648        0.937811      0.000739465     0.000197052
                     0.000114607     0.000153136        -0.165227        0.129693      0.000501726    -0.000492873         0.633913        0.736961
                       -0.315056        0.937526      0.000645878    -0.000344928       -0.0958374      0.00727651      0.000187158     -3.7865e-05
                     0.000709818     0.000200554         0.633922        0.736336      8.68167e-05    -0.000257268        -0.151699          0.1357
281758                -0.0740994      -0.0636535      0.000316104      0.00014734        -0.314213        0.937956      0.000739635     0.000196617
                     0.000114279     0.000153114        -0.165174        0.129681      0.000501589    -0.000493479          0.63426        0.736677
                       -0.314621        0.937671      0.000646035    -0.000345041       -0.0958459      0.00735121      0.000187102    -3.77444e-05
                     0.000709557     0.000199859         0.634269        0.736053      8.68527e-05    -0.000257811        -0.151551        0.135792
281760                  -0.07412      -0.0636506      0.000316087     0.000146938        -0.313777        0.938101      0.000739805     0.000196181
                     0.000113952     0.000153089        -0.165121        0.129669      0.000501452    -0.000494086         0.634608        0.736393
                       -0.314185        0.937817      0.000646199    -0.000345166       -0.0958543      0.00742592      0.000187046    -3.76246e-05
                     0.000709297     0.000199165         0.634615        0.735769        8.689e-05    -0.000258355        -0.151403        0.135884
281762                -0.0741405      -0.0636476      0.000316075     0.000146546        -0.313341        0.938246      0.000739976     0.000195744
                     0.000113625     0.000153063        -0.165068        0.129657      0.000501315    -0.000494694         0.634955        0.736109
                        -0.31375        0.937962      0.000646381    -0.000345317       -0.0958626      0.00750064      0.000186989    -3.75056e-05
