! TOUCHSTONE file generated by CST MICROWAVE STUDIO
! Date and time: Tue Oct 14 07:31:56 2025
! Project name: Teste_Macro_Metasurface_Nanopilar.cst
! Parameters = {H=600; L_x=180; L_y=175; Lambda=1064; Max_L=200; Min_L=70; PathPara=1; Phi=0; Step_L=10; Theta=0; p=520; phaseX=180; phaseY=0}
! Header version: 2018
! Port assignment regex: !\s*Touchstone port\s*([0-9]+)\s*=\s*(CST MWS port|CST DS port)\s*([0-9]+|Zmin|Zmax)\s*\(\"(.*)\"\)(\s*mode\s*([0-9]+))?.*
! Touchstone port assignment:
! Touchstone port 1 = CST MWS port Zmax ("") mode 1
! Touchstone port 2 = CST MWS port Zmax ("") mode 2
! Touchstone port 3 = CST MWS port Zmin ("") mode 1
! Touchstone port 4 = CST MWS port Zmin ("") mode 2
! S-Parameters are not renormalized. Each port impedance will be approximated by the real part at minimum frequency. The values are described via the [Reference] keyword.
! Default impedance is overridden by [Reference]
[Version] 2.0
# GHz S RI R 376.73
[Number of Ports] 4
[Reference]
376.73 376.73 259.814 259.814 
[Number of Frequencies] 51
[Network Data]
281700                 -0.169059      -0.0524441     -0.000337903     2.44043e-05         0.945341        0.256396     -0.000231406     0.000813503
                    -0.000414609    -3.62104e-05        -0.199911      -0.0741505     -0.000392917     0.000607178          0.94515        0.231447
                        0.944974        0.256182     -0.000380049      0.00065365           0.1705       0.0421897      0.000160088     0.000488363
                    -0.000196011     0.000721281         0.944662          0.2313       0.00043066     0.000469433         0.209687       0.0265713
281702                  -0.16905      -0.0523877     -0.000338339     2.44676e-05          0.94547        0.255944     -0.000231383     0.000812124
                    -0.000414468    -3.57543e-05        -0.199929      -0.0740962     -0.000392251     0.000609635         0.945247        0.231045
                        0.945093        0.255765     -0.000379848     0.000653922         0.170499       0.0420846      0.000160814     0.000489708
                     -0.00019534     0.000721626         0.944761        0.230903      0.000425639     0.000473361           0.2097       0.0264505
281704                  -0.16904      -0.0523313     -0.000338772      2.4538e-05         0.945599        0.255494     -0.000231363     0.000810748
                    -0.000414327    -3.52985e-05        -0.199946      -0.0740418     -0.000391569     0.000612067         0.945344        0.230643
                        0.945212        0.255348     -0.000379654     0.000654203         0.170498       0.0419794      0.000161533     0.000491064
                    -0.000194667     0.000721969          0.94486        0.230507      0.000420655     0.000477056         0.209713       0.0263297
281706                 -0.169031       -0.052275     -0.000339201     2.46164e-05         0.945726        0.255045     -0.000231346      0.00080938
                    -0.000414186    -3.48427e-05        -0.199963      -0.0739875     -0.000390873     0.000614469          0.94544        0.230241
                        0.945331        0.254931     -0.000379465     0.000654496         0.170497       0.0418744       0.00016224     0.000492428
                    -0.000193991     0.000722309         0.944958        0.230111      0.000415726      0.00048052         0.209726        0.026209
281708                 -0.169022      -0.0522187     -0.000339625     2.47039e-05         0.945852        0.254597     -0.000231332     0.000808023
                    -0.000414045    -3.43867e-05        -0.199981      -0.0739331     -0.000390164      0.00061684         0.945535        0.229839
                        0.945449        0.254514     -0.000379282     0.000654804         0.170496       0.0417693      0.000162927     0.000493791
                    -0.000193312     0.000722647         0.945056        0.229714      0.000410868     0.000483753         0.209739       0.0260883
281710                 -0.169012      -0.0521625     -0.000340041     2.48021e-05         0.945977         0.25415     -0.000231321     0.000806686
                    -0.000413904    -3.39303e-05        -0.199998      -0.0738788     -0.000389442     0.000619175          0.94563        0.229437
                        0.945567        0.254096     -0.000379104      0.00065513         0.170494       0.0416643      0.000163583     0.000495139
                    -0.000192631     0.000722981         0.945154        0.229318      0.000406098     0.000486757         0.209751       0.0259676
281712                 -0.169003      -0.0521063     -0.000340447     2.49127e-05         0.946101        0.253705     -0.000231312     0.000805379
                    -0.000413765     -3.3473e-05        -0.200015      -0.0738244     -0.000388709      0.00062147         0.945725        0.229035
                        0.945685        0.253679     -0.000378928      0.00065548         0.170493       0.0415593      0.000164191     0.000496452
                    -0.000191948     0.000723313         0.945251        0.228922      0.000401433      0.00048953         0.209764        0.025847
281714                 -0.168993      -0.0520502      -0.00034084     2.50378e-05         0.946224        0.253263     -0.000231305     0.000804121
                    -0.000413628    -3.30142e-05        -0.200032      -0.0737701     -0.000387967      0.00062372         0.945819        0.228634
                        0.945803        0.253261     -0.000378752     0.000655859         0.170492       0.0414544      0.000164729     0.000497701
                    -0.000191263     0.000723641         0.945348        0.228525      0.000396894     0.000492074         0.209776       0.0257265
281716                 -0.168983      -0.0519942     -0.000341213     2.51797e-05         0.946347        0.252823     -0.000231298     0.000802935
                    -0.000413494    -3.25529e-05        -0.200049      -0.0737157     -0.000387216      0.00062592         0.945912        0.228233
                        0.945921        0.252844     -0.000378569     0.000656274          0.17049       0.0413495      0.000165161     0.000498836
                    -0.000190577     0.000723965         0.945445        0.228129      0.000392504     0.000494385         0.209788       0.0256061
281718                 -0.168974      -0.0519382      -0.00034156     2.53413e-05          0.94647        0.252387     -0.000231288      0.00080186
                    -0.000413365    -3.20874e-05        -0.200066      -0.0736613     -0.000386459     0.000628062         0.946006        0.227832
                        0.946038        0.252426     -0.000378368     0.000656733         0.170489       0.0412447      0.000165442     0.000499778
                    -0.000189888     0.000724285         0.945541        0.227732      0.000388287     0.000496457           0.2098       0.0254857
281720                 -0.168964      -0.0518823     -0.000341867      2.5525e-05         0.946592        0.251956     -0.000231273     0.000800957
                    -0.000413244    -3.16147e-05        -0.200083      -0.0736069     -0.000385697     0.000630136         0.946099        0.227432
                        0.946155        0.252009     -0.000378134      0.00065724         0.170487       0.0411399      0.000165505     0.000500393
                    -0.000189198     0.000724601         0.945637        0.227335      0.000384278     0.000498282         0.209812       0.0253655
281722                 -0.168954      -0.0518264     -0.000342115     2.57314e-05         0.946713        0.251531      -0.00023125     0.000800328
                    -0.000413136    -3.11291e-05          -0.2001      -0.0735526     -0.000384931     0.000632128         0.946192        0.227033
                        0.946272        0.251591     -0.000377845     0.000657798         0.170485       0.0410352      0.000165269     0.000500454
                    -0.000188508     0.000724911         0.945733        0.226939      0.000380521     0.000499839         0.209824       0.0252455
281724                 -0.168944      -0.0517705      -0.00034227     2.59546e-05         0.946834        0.251115     -0.000231225     0.000800152
                     -0.00041305    -3.06179e-05        -0.200117      -0.0734982     -0.000384164     0.000634019         0.946285        0.226634
                        0.946389        0.251173     -0.000377475     0.000658397         0.170484       0.0409306       0.00016466     0.000499546
                    -0.000187817     0.000725217         0.945828        0.226542      0.000377082     0.000501094         0.209836       0.0251257
281726                 -0.168935      -0.0517148     -0.000342276     2.61673e-05         0.946952        0.250712     -0.000231233     0.000800767
                    -0.000413002    -3.00501e-05        -0.200134      -0.0734438     -0.000383396     0.000635773         0.946379        0.226238
                        0.946505        0.250755     -0.000376996      0.00065902         0.170482       0.0408261      0.000163723     0.000496911
                    -0.000187128     0.000725516         0.945923        0.226145       0.00037407     0.000501985         0.209848       0.0250062
281728                 -0.168925       -0.051659     -0.000342053     2.62785e-05         0.947063        0.250328      -0.00023144     0.000802873
                    -0.000413006    -2.93333e-05        -0.200151      -0.0733895     -0.000382626     0.000637324         0.946474        0.225845
                        0.946621        0.250337     -0.000376389     0.000659633         0.170481       0.0407218      0.000163048     0.000491219
                     -0.00018644      0.00072581         0.946018        0.225749      0.000371684     0.000502386          0.20986       0.0248874
281730                 -0.168915      -0.0516033     -0.000341563     2.60343e-05         0.947154        0.249969     -0.000232625     0.000808086
                    -0.000412932    -2.81553e-05        -0.200168      -0.0733352     -0.000381853     0.000638523         0.946572         0.22546
                        0.946737        0.249919     -0.000375652     0.000660203          0.17048       0.0406176      0.000165026     0.000480766
                    -0.000185756     0.000726096         0.946111        0.225352      0.000370364     0.000502027         0.209872       0.0247697
281732                 -0.168905      -0.0515476     -0.000341147     2.50084e-05         0.947197        0.249635     -0.000239121     0.000820124
                    -0.000411364    -2.66913e-05        -0.200185       -0.073281     -0.000381075     0.000638928         0.946669        0.225094
                        0.946853          0.2495     -0.000374813     0.000660717          0.17048       0.0405139      0.000175488      0.00046658
                    -0.000185076     0.000726375         0.946204        0.224957      0.000371314     0.000500214         0.209882       0.0246541
281734                 -0.168895      -0.0514919     -0.000341783     2.34529e-05         0.947152        0.249285     -0.000274574     0.000833562
                    -0.000410124    -2.76828e-05        -0.200202       -0.073227     -0.000380472     0.000636341         0.946719        0.224774
                        0.946968        0.249082     -0.000373933     0.000661218         0.170481       0.0404108      0.000197599     0.000458695
                    -0.000184405     0.000726646         0.946301        0.224565      0.000379572     0.000494657         0.209888       0.0245394
281736                 -0.168884      -0.0514362     -0.000343407     2.26982e-05         0.947046        0.248823     -0.000303777      0.00078044
                    -0.000410296      -2.793e-05        -0.200219      -0.0731713      -0.00045773     0.000644585          0.94667        0.224328
                        0.947084        0.248664     -0.000373176      0.00066181         0.170484       0.0403096      0.000219536     0.000464717
                    -0.000183744     0.000726908         0.946398        0.224165      0.000459821     0.000487419          0.20989       0.0244177
281738                 -0.168874      -0.0513805     -0.000344864     2.28948e-05         0.947011        0.248238     -0.000278756     0.000758092
                    -0.000410357    -2.76826e-05        -0.200235      -0.0731168     -0.000381793     0.000656527         0.946778        0.223845
                        0.947199        0.248245     -0.000372885     0.000662398         0.170493       0.0402143       0.00023198     0.000475698
                    -0.000183098     0.000727161         0.946491        0.223767      0.000315782     0.000563363         0.209898        0.024292
281740                 -0.168864      -0.0513246     -0.000345832      2.3421e-05         0.947093        0.247649     -0.000267117       0.0007562
                    -0.000410285    -2.73104e-05        -0.200252      -0.0730626     -0.000379943     0.000654082         0.946894        0.223429
                        0.947314        0.247827     -0.000372958     0.000662474         0.170513       0.0401568      0.000237959     0.000483996
                    -0.000182472     0.000727404         0.946584        0.223369      0.000329228     0.000532878          0.20991       0.0241688
281742                 -0.168853      -0.0512685     -0.000346451      2.3975e-05         0.947228        0.247115     -0.000263076     0.000756029
                    -0.000410127    -2.68993e-05        -0.200268      -0.0730084     -0.000379108     0.000654155         0.946996        0.223028
                        0.947428        0.247408     -0.000372815     0.000662174          0.17036        0.040064      0.000241343      0.00048854
                    -0.000181871     0.000727639         0.946676        0.222972      0.000332523     0.000526308         0.209922       0.0240475
281744                 -0.168843      -0.0512124     -0.000346848     2.44823e-05         0.947371        0.246627     -0.000262392     0.000755643
                    -0.000409901     -2.6473e-05        -0.200285      -0.0729541     -0.000378529     0.000654813         0.947091        0.222631
                        0.947543        0.246989     -0.000372471     0.000661905         0.170397       0.0398884      0.000243727     0.000490118
                    -0.000181304     0.000727864         0.946769        0.222575      0.000333186     0.000523696         0.209933       0.0239272
281746                 -0.168832      -0.0511563     -0.000347085     2.49306e-05         0.947508        0.246165     -0.000263571     0.000755066
                    -0.000409607    -2.60384e-05        -0.200301      -0.0728998     -0.000378094     0.000655646         0.947182        0.222237
                        0.947657         0.24657     -0.000372083     0.000661745         0.170412       0.0397772       0.00024548     0.000489552
                     -0.00018078     0.000728081         0.946861        0.222179      0.000332971     0.000522383         0.209944       0.0238074
281748                  -0.16882      -0.0511005     -0.000347184     2.53136e-05         0.947637         0.24572     -0.000266019     0.000754556
                    -0.000409225    -2.55962e-05        -0.200318      -0.0728456     -0.000377779     0.000656512         0.947272        0.221843
                        0.947771        0.246151     -0.000371707     0.000661667         0.170417       0.0396714      0.000246533     0.000487505
                     -0.00018031     0.000728291         0.946953        0.221782      0.000332461     0.000521624         0.209955       0.0236879
281750                 -0.168809      -0.0510448     -0.000347149     2.56141e-05         0.947758        0.245284     -0.000269434     0.000754407
                    -0.000408711    -2.51405e-05        -0.200334      -0.0727914     -0.000377585     0.000657347         0.947361        0.221451
                        0.947885        0.245732     -0.000371356     0.000661649         0.170417       0.0395667      0.000246734     0.000484546
                    -0.000179908     0.000728494         0.947045        0.221385      0.000331908     0.000521135         0.209966       0.0235686
281752                 -0.168798      -0.0509892     -0.000346984     2.57986e-05         0.947873        0.244855      -0.00027358     0.000754925
                    -0.000407956    -2.46497e-05        -0.200351      -0.0727372      -0.00037752     0.000658116         0.947449         0.22106
                        0.947998        0.245313     -0.000371028     0.000661674         0.170416       0.0394622         0.000246     0.000481194
                    -0.000179586     0.000728694         0.947136        0.220988      0.000331443     0.000520786         0.209977       0.0234494
281754                 -0.168786      -0.0509337     -0.000346703      2.5817e-05         0.947984         0.24443     -0.000278179     0.000756412
                    -0.000406669    -2.40377e-05        -0.200367      -0.0726831       -0.0003776     0.000658799         0.947537        0.220669
                        0.948112        0.244894     -0.000370717     0.000661731         0.170414       0.0393578      0.000244373     0.000477902
                     -0.00017936     0.000728889         0.947228        0.220592       0.00033114     0.000520508         0.209988       0.0233303
281756                 -0.168775      -0.0508781      -0.00034635     2.56107e-05         0.948091        0.244009     -0.000282843     0.000759104
                    -0.000403763    -2.27521e-05        -0.200384       -0.072629     -0.000377842     0.000659382         0.947625        0.220279
                        0.948225        0.244475      -0.00037042     0.000661814         0.170411       0.0392534      0.000242013     0.000475014
                    -0.000179242     0.000729077         0.947319        0.220195       0.00033105     0.000520267         0.209999       0.0232113
281758                 -0.168764      -0.0508225     -0.000346008     2.51332e-05         0.948196        0.243591      -0.00028708     0.000763094
                     -0.00039517    -9.31186e-06        -0.200401      -0.0725749     -0.000378267     0.000659856         0.947714        0.219889
                         0.94834        0.244055     -0.000370132     0.000661917         0.170407        0.039149      0.000239151     0.000472745
                    -0.000179238     0.000729252          0.94741        0.219798      0.000331208     0.000520042         0.210009       0.0230923
281760                 -0.168753      -0.0507669     -0.000345793     2.43822e-05         0.948299        0.243176     -0.000290354      0.00076825
                    -0.000420035    -1.74318e-05        -0.200417      -0.0725208     -0.000378902     0.000660216         0.947803          0.2195
                        0.948459        0.243635     -0.000369851     0.000662037         0.170404       0.0390447      0.000236032     0.000471184
                    -0.000179344     0.000729403         0.947501        0.219402      0.000331643      0.00051982          0.21002       0.0229734
281762                 -0.168741      -0.0507112     -0.000345821     2.34226e-05           0.9484        0.242764     -0.000292223     0.000774189
                    -0.000414834    -2.11664e-05        -0.200434      -0.0724667     -0.000379772     0.000660459         0.947893        0.219111
                        0.948545        0.243217     -0.000369575     0.000662171         0.170399       0.0389403      0.000232871     0.000470321
