! TOUCHSTONE file generated by CST MICROWAVE STUDIO
! Date and time: Tue Oct 14 07:28:53 2025
! Project name: Teste_Macro_Metasurface_Nanopilar.cst
! Parameters = {H=600; L_x=135; L_y=85; Lambda=1064; Max_L=200; Min_L=70; PathPara=1; Phi=0; Step_L=10; Theta=0; p=520; phaseX=180; phaseY=0}
! Header version: 2018
! Port assignment regex: !\s*Touchstone port\s*([0-9]+)\s*=\s*(CST MWS port|CST DS port)\s*([0-9]+|Zmin|Zmax)\s*\(\"(.*)\"\)(\s*mode\s*([0-9]+))?.*
! Touchstone port assignment:
! Touchstone port 1 = CST MWS port Zmax ("") mode 1
! Touchstone port 2 = CST MWS port Zmax ("") mode 2
! Touchstone port 3 = CST MWS port Zmin ("") mode 1
! Touchstone port 4 = CST MWS port Zmin ("") mode 2
! S-Parameters are not renormalized. Each port impedance will be approximated by the real part at minimum frequency. The values are described via the [Reference] keyword.
! Default impedance is overridden by [Reference]
[Version] 2.0
# GHz S RI R 376.73
[Number of Ports] 4
[Reference]
376.73 376.73 259.814 259.814 
[Number of Frequencies] 51
[Network Data]
281700                  0.018123       0.0543425      0.000401582     7.16218e-05         0.931885       -0.353023      2.11877e-05     0.000335095
                     0.000452003    -5.66557e-05       -0.0973668          0.1272      0.000196396     -0.00019171        -0.879287       -0.427441
                         0.93255        -0.35319      5.61087e-05    -0.000245847        0.0223124       0.0531361      0.000431246     2.86858e-05
                     3.16661e-05     0.000213697        -0.879129       -0.427551      0.000344385     1.34105e-05       -0.0417109        0.154601
281702                  0.018147       0.0543291       0.00040178     7.13226e-05         0.931751       -0.353379      2.10531e-05     0.000335436
                     0.000452038     -5.6997e-05       -0.0972962        0.127228      0.000196148    -0.000191763        -0.879514       -0.426979
                        0.932416       -0.353545      5.59974e-05    -0.000245904        0.0223258       0.0531249      0.000431423     2.87488e-05
                      3.1713e-05     0.000213734        -0.879357       -0.427089      0.000344678      1.3433e-05       -0.0416141        0.154606
281704                 0.0181711       0.0543157      0.000401978     7.10229e-05         0.931617       -0.353734      2.09185e-05     0.000335778
                     0.000452072    -5.73384e-05       -0.0972256        0.127256      0.000195899    -0.000191817        -0.879741       -0.426516
                        0.932281       -0.353901       5.5886e-05     -0.00024596        0.0223393       0.0531138      0.000431601      2.8812e-05
                       3.176e-05     0.000213771        -0.879585       -0.426627      0.000344971     1.34555e-05       -0.0415173        0.154611
281706                 0.0181951       0.0543023      0.000402175     7.07227e-05         0.931482        -0.35409      2.07838e-05     0.000336119
                     0.000452105    -5.76799e-05       -0.0971551        0.127285       0.00019565    -0.000191872        -0.879967       -0.426054
                        0.932146       -0.354256      5.57746e-05    -0.000246017        0.0223528       0.0531027      0.000431778     2.88752e-05
                      3.1807e-05     0.000213808        -0.879812       -0.426164      0.000345264     1.34779e-05       -0.0414205        0.154616
281708                 0.0182191       0.0542889      0.000402372      7.0422e-05         0.931348       -0.354446       2.0649e-05      0.00033646
                     0.000452139    -5.80213e-05       -0.0970845        0.127313        0.0001954    -0.000191926        -0.880194       -0.425591
                        0.932011       -0.354611      5.56631e-05    -0.000246074        0.0223662       0.0530916      0.000431955     2.89386e-05
                     3.18541e-05     0.000213846        -0.880039       -0.425702      0.000345557     1.35003e-05       -0.0413237        0.154621
281710                 0.0182432       0.0542755      0.000402568     7.01208e-05         0.931213       -0.354801      2.05141e-05     0.000336801
                     0.000452172    -5.83628e-05       -0.0970138        0.127341      0.000195149    -0.000191981         -0.88042       -0.425128
                        0.931876       -0.354967      5.55516e-05     -0.00024613        0.0223797       0.0530804      0.000432132     2.90021e-05
                     3.19014e-05     0.000213883        -0.880266       -0.425239      0.000345849     1.35227e-05       -0.0412269        0.154626
281712                 0.0182672        0.054262      0.000402763     6.98191e-05         0.931078       -0.355157      2.03792e-05     0.000337142
                     0.000452205    -5.87044e-05       -0.0969432        0.127369      0.000194898    -0.000192036        -0.880646       -0.424665
                        0.931741       -0.355322        5.544e-05    -0.000246186        0.0223931       0.0530693      0.000432309     2.90657e-05
                     3.19487e-05      0.00021392        -0.880493       -0.424777      0.000346142     1.35451e-05       -0.0411301         0.15463
281714                 0.0182912       0.0542486      0.000402958     6.95169e-05         0.930943       -0.355512      2.02443e-05     0.000337482
                     0.000452237     -5.9046e-05       -0.0968726        0.127397      0.000194647    -0.000192092        -0.880871       -0.424201
                        0.931606       -0.355677      5.53284e-05    -0.000246243        0.0224066       0.0530582      0.000432486     2.91295e-05
                     3.19961e-05     0.000213958        -0.880719       -0.424314      0.000346434     1.35675e-05       -0.0410334        0.154635
281716                 0.0183152       0.0542351      0.000403152     6.92144e-05         0.930808       -0.355868      2.01093e-05     0.000337822
                     0.000452269    -5.93876e-05       -0.0968019        0.127425      0.000194394    -0.000192147        -0.881097       -0.423738
                         0.93147       -0.356032      5.52167e-05    -0.000246299          0.02242        0.053047      0.000432662     2.91933e-05
                     3.20435e-05     0.000213995        -0.880946       -0.423851      0.000346726     1.35898e-05       -0.0409366         0.15464
281718                 0.0183392       0.0542217      0.000403346     6.89114e-05         0.930673       -0.356223      1.99743e-05     0.000338163
                     0.000452301    -5.97293e-05       -0.0967313        0.127453      0.000194142    -0.000192204        -0.881322       -0.423274
                        0.931335       -0.356387      5.51049e-05    -0.000246355        0.0224334       0.0530359      0.000432839     2.92573e-05
                     3.20911e-05     0.000214032        -0.881171       -0.423388      0.000347018     1.36121e-05       -0.0408399        0.154644
281720                 0.0183632       0.0542082      0.000403538      6.8608e-05         0.930537       -0.356578      1.98393e-05     0.000338502
                     0.000452332     -6.0071e-05       -0.0966606        0.127481      0.000193888     -0.00019226        -0.881547       -0.422811
                        0.931199       -0.356742      5.49931e-05    -0.000246411        0.0224468       0.0530247      0.000433015     2.93213e-05
                     3.21387e-05      0.00021407        -0.881397       -0.422924       0.00034731     1.36344e-05       -0.0407431        0.154649
281722                 0.0183872       0.0541947      0.000403731     6.83042e-05         0.930402       -0.356934      1.97042e-05     0.000338842
                     0.000452364    -6.04127e-05       -0.0965899        0.127509      0.000193634    -0.000192317        -0.881772       -0.422347
                        0.931063       -0.357097      5.48812e-05    -0.000246467        0.0224602       0.0530136      0.000433191     2.93855e-05
                     3.21864e-05     0.000214107        -0.881623       -0.422461      0.000347602     1.36566e-05       -0.0406464        0.154653
281724                 0.0184112       0.0541812      0.000403922     6.80001e-05         0.930266       -0.357289      1.95691e-05     0.000339181
                     0.000452394    -6.07545e-05       -0.0965192        0.127536       0.00019338    -0.000192374        -0.881996       -0.421883
                        0.930927       -0.357452      5.47693e-05    -0.000246523        0.0224737       0.0530025      0.000433368     2.94497e-05
                     3.22342e-05     0.000214145        -0.881848       -0.421998      0.000347894     1.36788e-05       -0.0405497        0.154658
281726                 0.0184351       0.0541677      0.000404113     6.76957e-05         0.930131       -0.357644      1.94341e-05      0.00033952
                     0.000452425    -6.10963e-05       -0.0964485        0.127564      0.000193125    -0.000192431        -0.882221       -0.421419
                        0.930791       -0.357807      5.46573e-05    -0.000246579        0.0224871       0.0529913      0.000433544      2.9514e-05
                     3.22821e-05     0.000214182        -0.882073       -0.421534      0.000348186      1.3701e-05        -0.040453        0.154662
281728                 0.0184591       0.0541542      0.000404303     6.73909e-05         0.929995       -0.357999       1.9299e-05     0.000339859
                     0.000452455    -6.14381e-05       -0.0963778        0.127592      0.000192869    -0.000192489        -0.882445       -0.420955
                        0.930654       -0.358161      5.45453e-05    -0.000246634        0.0225005       0.0529802       0.00043372     2.95784e-05
                       3.233e-05      0.00021422        -0.882298        -0.42107      0.000348478     1.37232e-05       -0.0403563        0.154666
281730                 0.0184831       0.0541407      0.000404493     6.70859e-05         0.929859       -0.358354       1.9164e-05     0.000340197
                     0.000452485      -6.178e-05       -0.0963071         0.12762      0.000192613    -0.000192547        -0.882668       -0.420491
                        0.930518       -0.358516      5.44332e-05     -0.00024669        0.0225138        0.052969      0.000433895     2.96429e-05
                     3.23781e-05     0.000214257        -0.882522       -0.420606      0.000348769     1.37454e-05       -0.0402596        0.154671
281732                  0.018507       0.0541271      0.000404682     6.67806e-05         0.929722       -0.358709       1.9029e-05     0.000340535
                     0.000452514    -6.21219e-05       -0.0962363        0.127647      0.000192357    -0.000192606        -0.882892       -0.420026
                        0.930381       -0.358871      5.43211e-05    -0.000246745        0.0225272       0.0529579      0.000434071     2.97075e-05
                     3.24262e-05     0.000214295        -0.882746       -0.420142      0.000349061     1.37675e-05       -0.0401629        0.154675
281734                  0.018531       0.0541136       0.00040487     6.64751e-05         0.929586       -0.359064       1.8894e-05     0.000340873
                     0.000452543    -6.24638e-05       -0.0961656        0.127675      0.000192099    -0.000192664        -0.883115       -0.419562
                        0.930244       -0.359225       5.4209e-05    -0.000246801        0.0225406       0.0529467      0.000434246     2.97721e-05
                     3.24744e-05     0.000214333         -0.88297       -0.419678      0.000349352     1.37897e-05       -0.0400663        0.154679
281736                 0.0185549          0.0541      0.000405058     6.61693e-05          0.92945       -0.359419      1.87591e-05      0.00034121
                     0.000452572    -6.28057e-05       -0.0960948        0.127702      0.000191842    -0.000192723        -0.883338       -0.419097
                        0.930108        -0.35958      5.40968e-05    -0.000246856         0.022554       0.0529356      0.000434422     2.98368e-05
                     3.25227e-05      0.00021437        -0.883194       -0.419214      0.000349643     1.38118e-05       -0.0399696        0.154683
281738                 0.0185788       0.0540864      0.000405245     6.58634e-05         0.929313       -0.359774      1.86243e-05     0.000341547
                     0.000452601    -6.31477e-05        -0.096024         0.12773      0.000191583    -0.000192783        -0.883561       -0.418632
                        0.929971       -0.359935      5.39846e-05    -0.000246911        0.0225674       0.0529244      0.000434597     2.99015e-05
                      3.2571e-05     0.000214408        -0.883418        -0.41875      0.000349934     1.38338e-05        -0.039873        0.154687
281740                 0.0186028       0.0540729      0.000405431     6.55574e-05         0.929176       -0.360129      1.84895e-05     0.000341884
                     0.000452629    -6.34897e-05       -0.0959533        0.127757      0.000191324    -0.000192842        -0.883783       -0.418168
                        0.929833       -0.360289      5.38723e-05    -0.000246966        0.0225807       0.0529133      0.000434772     2.99663e-05
                     3.26195e-05     0.000214445        -0.883641       -0.418285      0.000350225     1.38559e-05       -0.0397764        0.154691
281742                 0.0186267       0.0540593      0.000405617     6.52512e-05         0.929039       -0.360484      1.83548e-05      0.00034222
                     0.000452657    -6.38317e-05       -0.0958825        0.127785      0.000191065    -0.000192902        -0.884006       -0.417703
                        0.929696       -0.360643        5.376e-05    -0.000247021        0.0225941       0.0529021      0.000434946     3.00311e-05
                      3.2668e-05     0.000214483        -0.883864       -0.417821      0.000350516     1.38779e-05       -0.0396797        0.154695
281744                 0.0186506       0.0540457      0.000405802      6.4945e-05         0.928902       -0.360838      1.82202e-05     0.000342556
                     0.000452684    -6.41737e-05       -0.0958117        0.127812      0.000190805    -0.000192962        -0.884228       -0.417237
                        0.929559       -0.360998      5.36477e-05    -0.000247076        0.0226074       0.0528909      0.000435121     3.00959e-05
                     3.27167e-05     0.000214521        -0.884087       -0.417356      0.000350807        1.39e-05       -0.0395831        0.154698
281746                 0.0186745       0.0540321      0.000405987     6.46387e-05         0.928765       -0.361193      1.80857e-05     0.000342891
                     0.000452711    -6.45158e-05       -0.0957408         0.12784      0.000190544    -0.000193023         -0.88445       -0.416772
                        0.929421       -0.361352      5.35353e-05    -0.000247131        0.0226208       0.0528798      0.000435295     3.01608e-05
                     3.27654e-05     0.000214559         -0.88431       -0.416891      0.000351098      1.3922e-05       -0.0394865        0.154702
281748                 0.0186984       0.0540185      0.000406171     6.43324e-05         0.928628       -0.361548      1.79514e-05     0.000343226
                     0.000452738    -6.48579e-05         -0.09567        0.127867      0.000190283    -0.000193084        -0.884671       -0.416307
                        0.929283       -0.361706       5.3423e-05    -0.000247186        0.0226341       0.0528686       0.00043547     3.02256e-05
                     3.28142e-05     0.000214597        -0.884532       -0.416426      0.000351388     1.39439e-05       -0.0393899        0.154706
281750                 0.0187223       0.0540048      0.000406355     6.40262e-05         0.928491       -0.361902      1.78171e-05      0.00034356
                     0.000452765       -6.52e-05       -0.0955992        0.127894      0.000190021    -0.000193145        -0.884893       -0.415841
                        0.929146       -0.362061      5.33106e-05    -0.000247241        0.0226475       0.0528575      0.000435644     3.02905e-05
                      3.2863e-05     0.000214634        -0.884754       -0.415961      0.000351679     1.39659e-05       -0.0392934        0.154709
281752                 0.0187462       0.0539912      0.000406538       6.372e-05         0.928353       -0.362257      1.76831e-05     0.000343894
                     0.000452791    -6.55421e-05       -0.0955283        0.127922      0.000189759    -0.000193206        -0.885114       -0.415376
                        0.929008       -0.362415      5.31983e-05    -0.000247295        0.0226608       0.0528463      0.000435818     3.03554e-05
                      3.2912e-05     0.000214672        -0.884976       -0.415496      0.000351969     1.39879e-05       -0.0391968        0.154713
281754                 0.0187701       0.0539775       0.00040672     6.34141e-05         0.928215       -0.362611      1.75492e-05     0.000344227
                     0.000452816    -6.58842e-05       -0.0954574        0.127949      0.000189496    -0.000193268        -0.885335        -0.41491
                         0.92887       -0.362769       5.3086e-05    -0.000247349        0.0226741       0.0528351      0.000435991     3.04203e-05
                     3.29611e-05      0.00021471        -0.885197       -0.415031       0.00035226     1.40098e-05       -0.0391003        0.154716
281756                  0.018794       0.0539639      0.000406902     6.31085e-05         0.928078       -0.362966      1.74155e-05      0.00034456
                     0.000452842    -6.62264e-05       -0.0953866        0.127976      0.000189233     -0.00019333        -0.885555       -0.414444
                        0.928731       -0.363123      5.29738e-05    -0.000247403        0.0226874        0.052824      0.000436165     3.04852e-05
                     3.30102e-05     0.000214748        -0.885419       -0.414565       0.00035255     1.40317e-05       -0.0390037        0.154719
281758                 0.0188178       0.0539502      0.000407084     6.28033e-05          0.92794        -0.36332      1.72819e-05     0.000344892
                     0.000452867    -6.65685e-05       -0.0953157        0.128003      0.000188969    -0.000193392        -0.885776       -0.413978
                        0.928593       -0.363477      5.28619e-05    -0.000247457        0.0227008       0.0528128      0.000436338       3.055e-05
                     3.30594e-05     0.000214786         -0.88564         -0.4141       0.00035284     1.40536e-05       -0.0389072        0.154723
281760                 0.0188417       0.0539365      0.000407265      6.2499e-05         0.927802       -0.363674      1.71486e-05     0.000345224
                     0.000452892    -6.69107e-05       -0.0952448         0.12803      0.000188704    -0.000193455        -0.885996       -0.413512
                        0.928454       -0.363831      5.27505e-05    -0.000247511        0.0227141       0.0528016      0.000436511     3.06148e-05
                     3.31087e-05     0.000214824        -0.885861       -0.413634       0.00035313     1.40755e-05       -0.0388107        0.154726
281762                 0.0188656       0.0539229      0.000407446     6.21959e-05         0.927663       -0.364028      1.70155e-05     0.000345555
                     0.000452916    -6.72529e-05       -0.0951739        0.128057      0.000188439    -0.000193518        -0.886216       -0.413046
                        0.928316       -0.364185      5.26404e-05    -0.000247564        0.0227274       0.0527904      0.000436684     3.06796e-05
