! TOUCHSTONE file generated by CST MICROWAVE STUDIO
! Date and time: Tue Oct 14 07:25:35 2025
! Project name: Teste_Macro_Metasurface_Nanopilar.cst
! Parameters = {H=600; L_x=80; L_y=155; Lambda=1064; Max_L=200; Min_L=70; PathPara=1; Phi=0; Step_L=10; Theta=0; p=520; phaseX=180; phaseY=0}
! Header version: 2018
! Port assignment regex: !\s*Touchstone port\s*([0-9]+)\s*=\s*(CST MWS port|CST DS port)\s*([0-9]+|Zmin|Zmax)\s*\(\"(.*)\"\)(\s*mode\s*([0-9]+))?.*
! Touchstone port assignment:
! Touchstone port 1 = CST MWS port Zmax ("") mode 1
! Touchstone port 2 = CST MWS port Zmax ("") mode 2
! Touchstone port 3 = CST MWS port Zmin ("") mode 1
! Touchstone port 4 = CST MWS port Zmin ("") mode 2
! S-Parameters are not renormalized. Each port impedance will be approximated by the real part at minimum frequency. The values are described via the [Reference] keyword.
! Default impedance is overridden by [Reference]
[Version] 2.0
# GHz S RI R 376.73
[Number of Ports] 4
[Reference]
376.73 376.73 259.814 259.814 
[Number of Frequencies] 51
[Network Data]
281700                 0.0626698      -0.0350524     -0.000342202     0.000569929        -0.741047        0.655053      0.000492121     0.000300293
                    -0.000414371     0.000472142        0.0137377       0.0615768     -0.000130364    -0.000494118         0.947128       -0.310601
                       -0.741178        0.655023     -0.000299052    -0.000605262       -0.0436113       0.0605177     -0.000612164     0.000307472
                     0.000358536      0.00036944         0.947492       -0.310728     -0.000518105      0.00014378         0.025294       0.0580799
281702                  0.062652      -0.0351121     -0.000341816     0.000570142        -0.740717        0.655426      0.000492421     0.000299938
                    -0.000414127     0.000472419        0.0137639       0.0615642     -0.000130684    -0.000494166          0.94701       -0.310959
                       -0.740847        0.655396     -0.000299464    -0.000605164       -0.0436082       0.0605361     -0.000612258     0.000307912
                     0.000358701     0.000369348         0.947375       -0.311086     -0.000518131     0.000143862        0.0253093       0.0580663
281704                 0.0626343      -0.0351718      -0.00034143     0.000570354        -0.740386        0.655799       0.00049272     0.000299585
                    -0.000413883     0.000472696          0.01379       0.0615517     -0.000131005    -0.000494213         0.946893       -0.311317
                       -0.740516        0.655769     -0.000299876    -0.000605066       -0.0436051       0.0605545      -0.00061235     0.000308349
                     0.000358866     0.000369257         0.947258       -0.311443     -0.000518157     0.000143944        0.0253247       0.0580526
281706                 0.0626164      -0.0352315     -0.000341043     0.000570566        -0.740055        0.656172      0.000493018     0.000299233
                    -0.000413638     0.000472973        0.0138162       0.0615392     -0.000131326    -0.000494261         0.946775       -0.311674
                       -0.740185        0.656142     -0.000300288    -0.000604966        -0.043602        0.060573      -0.00061244     0.000308783
                     0.000359031     0.000369165         0.947141       -0.311801     -0.000518183     0.000144026          0.02534       0.0580389
281708                 0.0625986      -0.0352911     -0.000340656     0.000570776        -0.739724        0.656544      0.000493314     0.000298884
                    -0.000413393      0.00047325        0.0138423       0.0615266     -0.000131646    -0.000494308         0.946658       -0.312032
                       -0.739854        0.656514       -0.0003007    -0.000604866       -0.0435989       0.0605914     -0.000612527     0.000309214
                     0.000359196     0.000369072         0.947023       -0.312159     -0.000518209     0.000144108        0.0253553       0.0580253
281710                 0.0625807      -0.0353508     -0.000340269     0.000570985        -0.739392        0.656917      0.000493609     0.000298537
                    -0.000413148     0.000473527        0.0138684        0.061514     -0.000131967    -0.000494355          0.94654        -0.31239
                       -0.739522        0.656887     -0.000301112    -0.000604765       -0.0435958       0.0606099     -0.000612613     0.000309641
                     0.000359362      0.00036898         0.946906       -0.312516     -0.000518235      0.00014419        0.0253706       0.0580116
281712                 0.0625627      -0.0354105     -0.000339881     0.000571194        -0.739061        0.657289      0.000493902     0.000298191
                    -0.000412903     0.000473804        0.0138946       0.0615015     -0.000132288    -0.000494402         0.946422       -0.312747
                       -0.739191        0.657259     -0.000301524    -0.000604663       -0.0435926       0.0606284     -0.000612696     0.000310065
                     0.000359527     0.000368888         0.946788       -0.312873      -0.00051826     0.000144272        0.0253859       0.0579979
281714                 0.0625448      -0.0354701     -0.000339493     0.000571401        -0.738729        0.657661      0.000494194     0.000297847
                    -0.000412658      0.00047408        0.0139207       0.0614889     -0.000132609    -0.000494449         0.946304       -0.313105
                       -0.738859        0.657631     -0.000301936     -0.00060456       -0.0435895       0.0606469     -0.000612778     0.000310486
                     0.000359692     0.000368796          0.94667       -0.313231     -0.000518286     0.000144354        0.0254011       0.0579843
281716                 0.0625268      -0.0355297     -0.000339104     0.000571607        -0.738397        0.658033      0.000494485     0.000297506
                    -0.000412412     0.000474356        0.0139468       0.0614763     -0.000132931    -0.000494495         0.946185       -0.313462
                       -0.738527        0.658003     -0.000302349    -0.000604456       -0.0435864       0.0606654     -0.000612857     0.000310903
                     0.000359857     0.000368703         0.946552       -0.313588     -0.000518312     0.000144436        0.0254164       0.0579706
281718                 0.0625087      -0.0355894     -0.000338715     0.000571812        -0.738065        0.658404      0.000494774     0.000297166
                    -0.000412166     0.000474632        0.0139729       0.0614637     -0.000133252    -0.000494542         0.946067       -0.313819
                       -0.738195        0.658374     -0.000302761    -0.000604352       -0.0435832        0.060684     -0.000612934     0.000311318
                     0.000360022     0.000368611         0.946434       -0.313945     -0.000518337     0.000144518        0.0254317       0.0579569
281720                 0.0624906       -0.035649     -0.000338326     0.000572016        -0.737733        0.658776      0.000495062     0.000296827
                     -0.00041192     0.000474908         0.013999       0.0614511     -0.000133573    -0.000494588         0.945948       -0.314177
                       -0.737862        0.658746     -0.000303173    -0.000604246         -0.04358       0.0607026     -0.000613009     0.000311729
                     0.000360188     0.000368518         0.946316       -0.314303     -0.000518363       0.0001446         0.025447       0.0579432
281722                 0.0624725      -0.0357086     -0.000337936     0.000572219          -0.7374        0.659147      0.000495349     0.000296491
                    -0.000411673     0.000475184        0.0140251       0.0614384     -0.000133895    -0.000494634          0.94583       -0.314534
                        -0.73753        0.659117     -0.000303586     -0.00060414       -0.0435769       0.0607212     -0.000613082     0.000312137
                     0.000360353     0.000368426         0.946198        -0.31466     -0.000518388     0.000144683        0.0254622       0.0579296
281724                 0.0624544      -0.0357681     -0.000337546     0.000572421        -0.737067        0.659518      0.000495635     0.000296156
                    -0.000411427      0.00047546        0.0140512       0.0614258     -0.000134217     -0.00049468         0.945711       -0.314891
                       -0.737197        0.659488     -0.000303998    -0.000604032       -0.0435737       0.0607398     -0.000613152     0.000312543
                     0.000360518     0.000368333         0.946079       -0.315017     -0.000518414     0.000144765        0.0254775       0.0579159
281726                 0.0624362      -0.0358277     -0.000337156     0.000572622        -0.736735        0.659889       0.00049592     0.000295823
                     -0.00041118     0.000475735        0.0140773       0.0614131     -0.000134538    -0.000494726         0.945592       -0.315249
                       -0.736864        0.659859     -0.000304411    -0.000603924       -0.0435705       0.0607584      -0.00061322     0.000312946
                     0.000360683      0.00036824         0.945961       -0.315374     -0.000518439     0.000144847        0.0254927       0.0579022
281728                  0.062418      -0.0358873     -0.000336765     0.000572821        -0.736402         0.66026      0.000496204     0.000295492
                    -0.000410933      0.00047601        0.0141034       0.0614005      -0.00013486    -0.000494772         0.945473       -0.315606
                       -0.736531         0.66023     -0.000304823    -0.000603815       -0.0435673       0.0607771     -0.000613288     0.000313347
                     0.000360849     0.000368148         0.945842       -0.315731     -0.000518464      0.00014493        0.0255079       0.0578885
281730                 0.0623997      -0.0359468     -0.000336374      0.00057302        -0.736068        0.660631      0.000496486     0.000295163
                    -0.000410686     0.000476285        0.0141295       0.0613878     -0.000135182    -0.000494818         0.945354       -0.315963
                       -0.736198        0.660601     -0.000305235    -0.000603705       -0.0435641       0.0607957     -0.000613355     0.000313743
                     0.000361014     0.000368055         0.945723       -0.316088      -0.00051849     0.000145012        0.0255232       0.0578748
281732                 0.0623814      -0.0360064     -0.000335983     0.000573218        -0.735735        0.661001      0.000496768     0.000294836
                    -0.000410438      0.00047656        0.0141555       0.0613751     -0.000135504    -0.000494863         0.945234        -0.31632
                       -0.735864        0.660971     -0.000305648    -0.000603594       -0.0435609       0.0608144      -0.00061342     0.000314135
                     0.000361179     0.000367962         0.945604       -0.316445     -0.000518515     0.000145094        0.0255384       0.0578611
281734                 0.0623631      -0.0360659     -0.000335591     0.000573414        -0.735401        0.661371      0.000497048     0.000294512
                    -0.000410191     0.000476835        0.0141816       0.0613624     -0.000135826    -0.000494908         0.945115       -0.316677
                       -0.735531        0.661342      -0.00030606    -0.000603482       -0.0435577       0.0608331     -0.000613483     0.000314524
                     0.000361345     0.000367869         0.945485       -0.316802      -0.00051854     0.000145177        0.0255536       0.0578474
281736                 0.0623447      -0.0361254     -0.000335199      0.00057361        -0.735068        0.661741      0.000497327     0.000294189
                    -0.000409943      0.00047711        0.0142077       0.0613497     -0.000136148    -0.000494954         0.944995       -0.317034
                       -0.735197        0.661712     -0.000306473    -0.000603369       -0.0435544       0.0608519     -0.000613543      0.00031491
                      0.00036151     0.000367775         0.945366       -0.317159     -0.000518565     0.000145259        0.0255688       0.0578337
281738                 0.0623263      -0.0361849     -0.000334807     0.000573804        -0.734734        0.662111      0.000497605     0.000293868
                    -0.000409695     0.000477385        0.0142337        0.061337     -0.000136471    -0.000494999         0.944876       -0.317391
                       -0.734863        0.662082     -0.000306885    -0.000603255       -0.0435512       0.0608706     -0.000613601     0.000315293
                     0.000361675     0.000367682         0.945246       -0.317516      -0.00051859     0.000145342         0.025584         0.05782
281740                 0.0623079      -0.0362444     -0.000334414     0.000573997          -0.7344        0.662481      0.000497881     0.000293549
                    -0.000409448     0.000477659        0.0142597       0.0613243     -0.000136793    -0.000495043         0.944756       -0.317748
                       -0.734529        0.662451     -0.000307298    -0.000603141        -0.043548       0.0608894     -0.000613657     0.000315672
                      0.00036184     0.000367589         0.945127       -0.317873     -0.000518615     0.000145425        0.0255992       0.0578063
281742                 0.0622894      -0.0363039     -0.000334021      0.00057419        -0.734065        0.662851      0.000498157     0.000293231
                      -0.0004092     0.000477933        0.0142858       0.0613116     -0.000137115    -0.000495088         0.944636       -0.318105
                       -0.734194        0.662821      -0.00030771    -0.000603025       -0.0435447       0.0609082     -0.000613711     0.000316048
                     0.000362004     0.000367496         0.945007        -0.31823      -0.00051864     0.000145507        0.0256144       0.0577926
281744                 0.0622709      -0.0363633     -0.000333628     0.000574381        -0.733731         0.66322      0.000498431     0.000292916
                    -0.000408955     0.000478208        0.0143118       0.0612988     -0.000137438    -0.000495133         0.944516       -0.318462
                        -0.73386        0.663191     -0.000308122    -0.000602909       -0.0435414        0.060927     -0.000613763     0.000316421
                     0.000362165     0.000367403         0.944887       -0.318586     -0.000518665      0.00014559        0.0256295       0.0577789
281746                 0.0622524      -0.0364228     -0.000333234     0.000574571        -0.733396        0.663589      0.000498704     0.000292603
                    -0.000408728     0.000478483        0.0143378       0.0612861     -0.000137761    -0.000495177         0.944395       -0.318818
                       -0.733525         0.66356     -0.000308535    -0.000602791       -0.0435382       0.0609458     -0.000613813     0.000316791
                     0.000362306     0.000367314         0.944767       -0.318943     -0.000518689     0.000145673        0.0256447       0.0577652
281748                 0.0622338      -0.0364822      -0.00033284      0.00057476        -0.733061        0.663958      0.000498976     0.000292292
                    -0.000408425     0.000478753        0.0143639       0.0612733     -0.000138083    -0.000495222         0.944275       -0.319175
                        -0.73319        0.663929     -0.000308947    -0.000602673       -0.0435349       0.0609647     -0.000613862     0.000317158
                     0.000362532      0.00036721         0.944647         -0.3193     -0.000518714     0.000145755        0.0256599       0.0577515
281750                 0.0622151      -0.0365417     -0.000332445     0.000574947        -0.732726        0.664327      0.000499246     0.000291982
                     -0.00040819     0.000479027        0.0143899       0.0612605     -0.000138407    -0.000495267         0.944154       -0.319532
                       -0.732855        0.664298      -0.00030936    -0.000602554       -0.0435316       0.0609836     -0.000613908     0.000317522
                     0.000362682     0.000367119         0.944527       -0.319656     -0.000518741     0.000145836         0.025675       0.0577378
281752                 0.0621965      -0.0366011     -0.000332049     0.000575132        -0.732391        0.664696      0.000499516     0.000291675
                    -0.000407943     0.000479301        0.0144159       0.0612477     -0.000138725    -0.000495306         0.944034       -0.319888
                        -0.73252        0.664667     -0.000309775    -0.000602434       -0.0435283       0.0610025     -0.000613953     0.000317883
                     0.000362845     0.000367026         0.944406       -0.320013     -0.000518763     0.000145922        0.0256902       0.0577241
281754                 0.0621778      -0.0366605      -0.00033166     0.000575322        -0.732056        0.665064      0.000499784     0.000291369
                    -0.000407694     0.000479574        0.0144419       0.0612349      -0.00013905    -0.000495351         0.943913       -0.320245
                       -0.732184        0.665035      -0.00031018    -0.000602313        -0.043525       0.0610213     -0.000613996      0.00031824
                     0.000363009     0.000366932         0.944286       -0.320369     -0.000518787     0.000146005        0.0257053       0.0577104
281756                 0.0621591      -0.0367199     -0.000331263     0.000575506         -0.73172        0.665433      0.000500051     0.000291065
                    -0.000407445     0.000479847        0.0144678       0.0612221     -0.000139373    -0.000495395         0.943792       -0.320602
                       -0.731849        0.665403     -0.000310595    -0.000602191       -0.0435217       0.0610403     -0.000614037     0.000318595
                     0.000363174     0.000366838         0.944165       -0.320726     -0.000518812     0.000146088        0.0257204       0.0576966
281758                 0.0621403      -0.0367793     -0.000330867     0.000575689        -0.731384        0.665801      0.000500317     0.000290763
                    -0.000407195      0.00048012        0.0144938       0.0612093     -0.000139697    -0.000495439         0.943671       -0.320958
                       -0.731513        0.665772     -0.000311007    -0.000602068       -0.0435183       0.0610592     -0.000614076     0.000318946
                      0.00036334     0.000366744         0.944044       -0.321082     -0.000518836     0.000146171        0.0257356       0.0576829
281760                 0.0621215      -0.0368386     -0.000330471     0.000575871        -0.731048        0.666169      0.000500582     0.000290463
                    -0.000406944     0.000480393        0.0145198       0.0611965      -0.00014002    -0.000495482          0.94355       -0.321315
                       -0.731177         0.66614      -0.00031142    -0.000601944        -0.043515       0.0610782     -0.000614113     0.000319295
                     0.000363505      0.00036665         0.943924       -0.321439      -0.00051886     0.000146254        0.0257507       0.0576692
281762                 0.0621027       -0.036898     -0.000330075     0.000576053        -0.730712        0.666537      0.000500846     0.000290165
                    -0.000406693     0.000480665        0.0145458       0.0611836     -0.000140343    -0.000495525         0.943428       -0.321671
                       -0.730841        0.666508     -0.000311832    -0.000601819       -0.0435117       0.0610972     -0.000614149      0.00031964
