! TOUCHSTONE file generated by CST MICROWAVE STUDIO
! Date and time: Tue Oct 14 07:24:53 2025
! Project name: Teste_Macro_Metasurface_Nanopilar.cst
! Parameters = {H=600; L_x=70; L_y=120; Lambda=1064; Max_L=200; Min_L=70; PathPara=1; Phi=0; Step_L=10; Theta=0; p=520; phaseX=180; phaseY=0}
! Header version: 2018
! Port assignment regex: !\s*Touchstone port\s*([0-9]+)\s*=\s*(CST MWS port|CST DS port)\s*([0-9]+|Zmin|Zmax)\s*\(\"(.*)\"\)(\s*mode\s*([0-9]+))?.*
! Touchstone port assignment:
! Touchstone port 1 = CST MWS port Zmax ("") mode 1
! Touchstone port 2 = CST MWS port Zmax ("") mode 2
! Touchstone port 3 = CST MWS port Zmin ("") mode 1
! Touchstone port 4 = CST MWS port Zmin ("") mode 2
! S-Parameters are not renormalized. Each port impedance will be approximated by the real part at minimum frequency. The values are described via the [Reference] keyword.
! Default impedance is overridden by [Reference]
[Version] 2.0
# GHz S RI R 376.73
[Number of Ports] 4
[Reference]
376.73 376.73 259.814 259.814 
[Number of Frequencies] 51
[Network Data]
281700                -0.0375092       -0.019237        7.516e-05    -0.000177961          0.72847       -0.680175     -0.000157537    -7.31875e-05
                     0.000441632     -0.00040094       -0.0418123        0.122214     -2.77204e-05    -0.000262414         0.987066       0.0922407
                        0.727882       -0.680278      2.86544e-05    -0.000290855       -0.0170202       -0.037942     -0.000384889     2.45154e-06
                    -0.000117352    -0.000148289         0.987308       0.0920136     -0.000289238    -0.000100298        0.0184335        0.127884
281702                -0.0375158      -0.0192373      7.50002e-05    -0.000177931         0.728193       -0.680471     -0.000157593    -7.31867e-05
                     0.000441412    -0.000401278         -0.04177        0.122226     -2.78444e-05    -0.000262402           0.9871        0.091884
                        0.727605       -0.680573      2.85869e-05    -0.000290931       -0.0170511      -0.0379348     -0.000384768     2.64518e-06
                    -0.000117452    -0.000148238         0.987341       0.0916571     -0.000289263    -0.000100247        0.0184822        0.127874
281704                -0.0375223      -0.0192376        7.484e-05    -0.000177902         0.727915       -0.680767     -0.000157649    -7.31861e-05
                     0.000441191    -0.000401614       -0.0417277        0.122237     -2.79683e-05     -0.00026239         0.987133       0.0915273
                        0.727328       -0.680868      2.85194e-05    -0.000291006       -0.0170821      -0.0379277     -0.000384647     2.83829e-06
                    -0.000117554    -0.000148187         0.987375       0.0913005     -0.000289288    -0.000100196        0.0185309        0.127865
281706                -0.0375289      -0.0192378      7.46796e-05    -0.000177873         0.727638       -0.681062     -0.000157705    -7.31857e-05
                     0.000440966    -0.000401951       -0.0416854        0.122249     -2.80922e-05    -0.000262378         0.987167       0.0911705
                        0.727051       -0.681163      2.84519e-05     -0.00029108        -0.017113      -0.0379205     -0.000384526     3.03087e-06
                    -0.000117656    -0.000148137         0.987408       0.0909439     -0.000289313    -0.000100145        0.0185796        0.127855
281708                -0.0375354      -0.0192381       7.4519e-05    -0.000177843         0.727361       -0.681357     -0.000157762    -7.31854e-05
                     0.000440739    -0.000402287        -0.041643         0.12226     -2.82161e-05    -0.000262366           0.9872       0.0908138
                        0.726774       -0.681457      2.83842e-05    -0.000291154       -0.0171439      -0.0379133     -0.000384405     3.22292e-06
                    -0.000117758    -0.000148087         0.987441       0.0905874     -0.000289338    -0.000100094        0.0186284        0.127845
281710                 -0.037542      -0.0192384      7.43581e-05    -0.000177814         0.727083       -0.681653     -0.000157819    -7.31854e-05
                      0.00044051    -0.000402622       -0.0416007        0.122272       -2.834e-05    -0.000262354         0.987233       0.0904571
                        0.726496       -0.681752      2.83166e-05    -0.000291228       -0.0171748       -0.037906     -0.000384284     3.41445e-06
                    -0.000117861    -0.000148038         0.987473       0.0902308     -0.000289362    -0.000100043        0.0186771        0.127835
281712                -0.0375486      -0.0192386      7.41969e-05    -0.000177785         0.726805       -0.681948     -0.000157876    -7.31856e-05
                     0.000440279    -0.000402956       -0.0415584        0.122283     -2.84638e-05    -0.000262342         0.987266       0.0901003
                        0.726219       -0.682046      2.82489e-05    -0.000291302       -0.0172057      -0.0378988     -0.000384163     3.60545e-06
                    -0.000117965     -0.00014799         0.987506       0.0898741     -0.000289387    -9.99925e-05        0.0187258        0.127825
281714                -0.0375551      -0.0192389      7.40355e-05    -0.000177755         0.726528       -0.682243     -0.000157933     -7.3186e-05
                     0.000440045     -0.00040329       -0.0415161        0.122295     -2.85876e-05     -0.00026233         0.987299       0.0897435
                        0.725941        -0.68234      2.81812e-05    -0.000291375       -0.0172366      -0.0378915     -0.000384043     3.79593e-06
                     -0.00011807    -0.000147942         0.987538       0.0895175     -0.000289412     -9.9942e-05        0.0187745        0.127815
281716                -0.0375617      -0.0192391      7.38738e-05    -0.000177726          0.72625       -0.682538      -0.00015799    -7.31866e-05
                     0.000439808    -0.000403624       -0.0414737        0.122306     -2.87114e-05    -0.000262318         0.987332       0.0893867
                        0.725663       -0.682635      2.81134e-05    -0.000291448       -0.0172675      -0.0378842     -0.000383922      3.9859e-06
                    -0.000118175    -0.000147895         0.987571       0.0891609     -0.000289437    -9.98914e-05        0.0188232        0.127805
281718                -0.0375683      -0.0192394      7.37119e-05    -0.000177697         0.725972       -0.682832     -0.000158048    -7.31873e-05
                     0.000439569    -0.000403957       -0.0414314        0.122318     -2.88352e-05    -0.000262306         0.987364       0.0890299
                        0.725385       -0.682929      2.80456e-05     -0.00029152       -0.0172984      -0.0378769     -0.000383801     4.17535e-06
                    -0.000118281    -0.000147849         0.987603       0.0888042     -0.000289461    -9.98407e-05        0.0188718        0.127795
281720                -0.0375749      -0.0192396      7.35496e-05    -0.000177668         0.725694       -0.683127     -0.000158106    -7.31883e-05
                     0.000439327    -0.000404289       -0.0413891        0.122329     -2.89589e-05    -0.000262294         0.987397       0.0886731
                        0.725107       -0.683223      2.79777e-05    -0.000291592       -0.0173293      -0.0378695      -0.00038368     4.36429e-06
                    -0.000118387    -0.000147803         0.987635       0.0884476     -0.000289486      -9.979e-05        0.0189205        0.127785
281722                -0.0375815      -0.0192399      7.33871e-05    -0.000177638         0.725415       -0.683422     -0.000158165    -7.31894e-05
                     0.000439083     -0.00040462       -0.0413467        0.122341     -2.90827e-05    -0.000262282         0.987429       0.0883163
                        0.724829       -0.683517      2.79098e-05    -0.000291663       -0.0173602      -0.0378622     -0.000383559     4.55273e-06
                    -0.000118493    -0.000147758         0.987667       0.0880909     -0.000289511    -9.97392e-05        0.0189692        0.127775
281724                -0.0375881      -0.0192401      7.32244e-05    -0.000177609         0.725137       -0.683716     -0.000158223    -7.31907e-05
                     0.000438836    -0.000404952       -0.0413044        0.122352     -2.92064e-05     -0.00026227         0.987461       0.0879595
                        0.724551        -0.68381      2.78419e-05    -0.000291734       -0.0173911      -0.0378548     -0.000383438     4.74066e-06
                      -0.0001186    -0.000147715         0.987699       0.0877342     -0.000289535    -9.96884e-05        0.0190179        0.127765
281726                -0.0375947      -0.0192404      7.30613e-05     -0.00017758         0.724858        -0.68401     -0.000158282    -7.31921e-05
                     0.000438586    -0.000405282       -0.0412621        0.122363     -2.93301e-05    -0.000262258         0.987494       0.0876026
                        0.724273       -0.684104      2.77739e-05    -0.000291805        -0.017422      -0.0378474     -0.000383317     4.92808e-06
                    -0.000118708    -0.000147672         0.987731       0.0873776     -0.000289559    -9.96375e-05        0.0190665        0.127755
281728                -0.0376013      -0.0192406       7.2898e-05     -0.00017755          0.72458       -0.684305     -0.000158341    -7.31937e-05
                     0.000438334    -0.000405612       -0.0412197        0.122375     -2.94538e-05    -0.000262246         0.987526       0.0872458
                        0.723994       -0.684398      2.77059e-05    -0.000291875       -0.0174528        -0.03784     -0.000383196     5.11501e-06
                    -0.000118815    -0.000147629         0.987762       0.0870208     -0.000289584    -9.95865e-05        0.0191152        0.127745
281730                -0.0376079      -0.0192409      7.27343e-05    -0.000177521         0.724301       -0.684599       -0.0001584    -7.31955e-05
                     0.000438079    -0.000405942       -0.0411774        0.122386     -2.95776e-05    -0.000262234         0.987557       0.0868889
                        0.723716       -0.684691      2.76378e-05    -0.000291945       -0.0174837      -0.0378325     -0.000383075     5.30144e-06
                    -0.000118923    -0.000147588         0.987794       0.0866641     -0.000289608    -9.95355e-05        0.0191639        0.127735
281732                -0.0376145      -0.0192411      7.25704e-05    -0.000177492         0.724022       -0.684893      -0.00015846    -7.31975e-05
                     0.000437822    -0.000406271        -0.041135        0.122397     -2.97014e-05    -0.000262222         0.987589        0.086532
                        0.723437       -0.684984      2.75697e-05    -0.000292015       -0.0175146      -0.0378251     -0.000382954     5.48737e-06
                    -0.000119031    -0.000147547         0.987825       0.0863074     -0.000289632    -9.94844e-05        0.0192125        0.127725
281734                -0.0376211      -0.0192414      7.24062e-05    -0.000177463         0.723743       -0.685187     -0.000158519    -7.31996e-05
                     0.000437561      -0.0004066       -0.0410926        0.122409     -2.98251e-05     -0.00026221         0.987621       0.0861751
                        0.723158       -0.685278      2.75016e-05    -0.000292084       -0.0175455      -0.0378176     -0.000382833     5.67282e-06
                    -0.000119139    -0.000147508         0.987856       0.0859507     -0.000289656    -9.94334e-05        0.0192612        0.127715
281736                -0.0376277      -0.0192416      7.22417e-05    -0.000177434         0.723464        -0.68548     -0.000158579    -7.32018e-05
                     0.000437298    -0.000406928       -0.0410503         0.12242     -2.99484e-05    -0.000262198         0.987652       0.0858182
                        0.722879       -0.685571      2.74335e-05    -0.000292152       -0.0175764      -0.0378101     -0.000382712     5.85777e-06
                    -0.000119248    -0.000147468         0.987887       0.0855939      -0.00028968    -9.93822e-05        0.0193098        0.127705
281738                -0.0376344      -0.0192418      7.20769e-05    -0.000177404         0.723185       -0.685774      -0.00015864    -7.32042e-05
                     0.000437032    -0.000407257       -0.0410079        0.122431     -3.00717e-05    -0.000262186         0.987683       0.0854613
                          0.7226       -0.685864      2.73653e-05     -0.00029222       -0.0176072      -0.0378026     -0.000382591     6.04224e-06
                    -0.000119357     -0.00014743         0.987918       0.0852372     -0.000289704    -9.93311e-05        0.0193584        0.127695
281740                 -0.037641      -0.0192421      7.19118e-05    -0.000177375         0.722905       -0.686067       -0.0001587    -7.32068e-05
                     0.000436764    -0.000407586       -0.0409656        0.122443      -3.0195e-05    -0.000262174         0.987715       0.0851043
                        0.722321       -0.686157      2.72971e-05    -0.000292288       -0.0176381       -0.037795      -0.00038247     6.22623e-06
                    -0.000119467    -0.000147392         0.987949       0.0848804     -0.000289728    -9.92799e-05        0.0194071        0.127685
281742                -0.0376476      -0.0192423      7.17464e-05    -0.000177346         0.722626       -0.686361     -0.000158761    -7.32095e-05
                     0.000436492    -0.000407916       -0.0409232        0.122454     -3.03185e-05    -0.000262162         0.987746       0.0847474
                        0.722041       -0.686449      2.72289e-05    -0.000292356        -0.017669      -0.0377874     -0.000382349     6.40974e-06
                    -0.000119579    -0.000147354          0.98798       0.0845236     -0.000289752    -9.92287e-05        0.0194557        0.127675
281744                -0.0376543      -0.0192425      7.15807e-05    -0.000177317         0.722346       -0.686654     -0.000158822    -7.32123e-05
                     0.000436217    -0.000408251       -0.0408808        0.122465     -3.04419e-05    -0.000262149         0.987777       0.0843904
                        0.721762       -0.686742      2.71606e-05    -0.000292423       -0.0176998      -0.0377799     -0.000382228     6.59278e-06
                    -0.000119694    -0.000147317          0.98801       0.0841668     -0.000289776    -9.91775e-05        0.0195043        0.127665
281746                -0.0376609      -0.0192428      7.14147e-05    -0.000177288         0.722066       -0.686947     -0.000158883    -7.32152e-05
                     0.000435939    -0.000408612       -0.0408384        0.122476     -3.05653e-05    -0.000262137         0.987807       0.0840335
                        0.721482       -0.687035      2.70924e-05    -0.000292489       -0.0177307      -0.0377723     -0.000382107     6.77534e-06
                    -0.000119817    -0.000147286         0.988041         0.08381       -0.0002898    -9.91262e-05        0.0195529        0.127654
281748                -0.0376675       -0.019243      7.12484e-05    -0.000177258         0.721787       -0.687241     -0.000158945    -7.32183e-05
                     0.000435743    -0.000408732       -0.0407961        0.122488     -3.06888e-05    -0.000262125         0.987838       0.0836765
                        0.721202       -0.687327      2.70241e-05    -0.000292555       -0.0177616      -0.0377646     -0.000381986     6.95745e-06
                    -0.000119946    -0.000147283         0.988071       0.0834532     -0.000289823     -9.9075e-05        0.0196016        0.127644
281750                -0.0376743      -0.0192432      7.10817e-05    -0.000177229         0.721507       -0.687533     -0.000159007    -7.32215e-05
                     0.000435389    -0.000409162       -0.0407537        0.122499     -3.08122e-05    -0.000262113         0.987869       0.0833195
                        0.720923       -0.687619      2.69559e-05    -0.000292621       -0.0177924       -0.037757     -0.000381866      7.1391e-06
                    -0.000120017    -0.000147291         0.988101       0.0830964     -0.000289847    -9.90237e-05        0.0196502        0.127634
281752                -0.0376809      -0.0192434      7.09147e-05      -0.0001772         0.721226       -0.687826     -0.000159069    -7.32248e-05
                     0.000435099      -0.0004095       -0.0407113         0.12251     -3.09355e-05      -0.0002621         0.987899       0.0829625
                        0.720643       -0.687912      2.68876e-05    -0.000292687       -0.0178233      -0.0377493     -0.000381745     7.32032e-06
                    -0.000120092    -0.000147246         0.988131       0.0827395      -0.00028987    -9.89724e-05        0.0196988        0.127624
281754                -0.0376876      -0.0192437      7.07474e-05    -0.000177171         0.720946       -0.688119     -0.000159131     -7.3228e-05
                     0.000434809    -0.000409829       -0.0406689        0.122521     -3.10589e-05    -0.000262088         0.987929       0.0826055
                        0.720363       -0.688204      2.68194e-05    -0.000292752       -0.0178541      -0.0377416     -0.000381624     7.50115e-06
                    -0.000120189    -0.000147202         0.988161       0.0823827     -0.000289894     -9.8921e-05        0.0197474        0.127613
281756                -0.0376943      -0.0192439      7.05797e-05    -0.000177142         0.720666       -0.688412     -0.000159193    -7.32311e-05
                     0.000434516    -0.000410155       -0.0406265        0.122532     -3.11822e-05    -0.000262076         0.987959       0.0822485
                        0.720083       -0.688496      2.67514e-05    -0.000292816        -0.017885      -0.0377339     -0.000381503     7.68174e-06
                    -0.000120292    -0.000147163         0.988191       0.0820258     -0.000289917    -9.88697e-05         0.019796        0.127603
281758                -0.0377009      -0.0192441      7.04116e-05    -0.000177112         0.720385       -0.688704     -0.000159257     -7.3232e-05
                     0.000434221    -0.000410478       -0.0405841        0.122543     -3.13056e-05    -0.000262064          0.98799       0.0818914
                        0.719802       -0.688788      2.66838e-05    -0.000292881       -0.0179158      -0.0377262     -0.000381384      7.8632e-06
                    -0.000120396    -0.000147128         0.988221        0.081669     -0.000289941    -9.88183e-05        0.0198445        0.127593
281760                -0.0377076      -0.0192443      7.02428e-05    -0.000177082         0.720105       -0.688997     -0.000159318    -7.32438e-05
                     0.000433923    -0.000410801       -0.0405417        0.122555     -3.14289e-05    -0.000262051         0.988019       0.0815344
                        0.719522       -0.689079      2.66183e-05    -0.000292945       -0.0179467      -0.0377184     -0.000381259     8.03581e-06
                    -0.000120499    -0.000147096          0.98825       0.0813121     -0.000289964    -9.87669e-05        0.0198931        0.127583
281762                -0.0377143      -0.0192445      7.00869e-05    -0.000177062         0.719824       -0.689289     -0.000159382    -7.32455e-05
                     0.000433621    -0.000411123       -0.0404993        0.122566     -3.15521e-05    -0.000262039         0.988049       0.0811773
                        0.719241       -0.689371      2.65121e-05    -0.000292987       -0.0179775      -0.0377107     -0.000381139     8.21732e-06
