! TOUCHSTONE file generated by CST MICROWAVE STUDIO
! Date and time: Tue Oct 14 07:29:42 2025
! Project name: Teste_Macro_Metasurface_Nanopilar.cst
! Parameters = {H=600; L_x=145; L_y=170; Lambda=1064; Max_L=200; Min_L=70; PathPara=1; Phi=0; Step_L=10; Theta=0; p=520; phaseX=180; phaseY=0}
! Header version: 2018
! Port assignment regex: !\s*Touchstone port\s*([0-9]+)\s*=\s*(CST MWS port|CST DS port)\s*([0-9]+|Zmin|Zmax)\s*\(\"(.*)\"\)(\s*mode\s*([0-9]+))?.*
! Touchstone port assignment:
! Touchstone port 1 = CST MWS port Zmax ("") mode 1
! Touchstone port 2 = CST MWS port Zmax ("") mode 2
! Touchstone port 3 = CST MWS port Zmin ("") mode 1
! Touchstone port 4 = CST MWS port Zmin ("") mode 2
! S-Parameters are not renormalized. Each port impedance will be approximated by the real part at minimum frequency. The values are described via the [Reference] keyword.
! Default impedance is overridden by [Reference]
[Version] 2.0
# GHz S RI R 376.73
[Number of Ports] 4
[Reference]
376.73 376.73 259.814 259.814 
[Number of Frequencies] 51
[Network Data]
281700                 -0.165042       0.0126104      0.000267757    -0.000799929         0.723628        0.663638       0.00127963     -0.00105067
                     0.000289363    -0.000805707        -0.230266        0.134346       0.00157912    -0.000533296         0.359884        0.883371
                        0.723743        0.664016       0.00160059    -0.000514419       0.00154365        0.160869       0.00132032     0.000411951
                      0.00120631     -0.00106406         0.359773        0.883498       0.00113167     0.000423728        -0.250571       0.0493881
281702                 -0.165039       0.0126272      0.000267505    -0.000799623         0.723911        0.663331       0.00127828     -0.00105128
                     0.000289085     -0.00080529        -0.230146        0.134306       0.00157826    -0.000533958         0.360389        0.883209
                        0.724026        0.663709       0.00159963    -0.000515105       0.00166516        0.160867       0.00132028     0.000410376
                      0.00120525     -0.00106422         0.360279        0.883336       0.00113142       0.0004225        -0.250403       0.0496294
281704                 -0.165035        0.012644      0.000267245    -0.000799267         0.724194        0.663024       0.00127692     -0.00105189
                     0.000288807    -0.000804872        -0.230027        0.134266        0.0015774     -0.00053462         0.360895        0.883047
                        0.724309        0.663401       0.00159867    -0.000515813       0.00178665        0.160864       0.00132025     0.000408801
                      0.00120419     -0.00106438         0.360784        0.883174       0.00113117     0.000421274        -0.250235       0.0498704
281706                 -0.165032       0.0126607      0.000266978    -0.000798861         0.724477        0.662716       0.00127557      -0.0010525
                      0.00028853    -0.000804455        -0.229909        0.134226       0.00157654     -0.00053528           0.3614        0.882885
                        0.724591        0.663093       0.00159772    -0.000516545       0.00190813        0.160862       0.00132021     0.000407226
                      0.00120313     -0.00106454          0.36129        0.883011       0.00113093     0.000420048        -0.250067       0.0501111
281708                 -0.165028       0.0126775      0.000266703    -0.000798404          0.72476        0.662409       0.00127423     -0.00105311
                     0.000288253    -0.000804037         -0.22979        0.134186       0.00157568     -0.00053594         0.361904        0.882722
                        0.724874        0.662785       0.00159676      -0.0005173        0.0020296        0.160859       0.00132017     0.000405652
                      0.00120207      -0.0010647         0.361795        0.882848       0.00113068     0.000418824        -0.249899       0.0503515
281710                 -0.165025       0.0126943      0.000266419    -0.000797899         0.725042        0.662101       0.00127289     -0.00105373
                     0.000287977     -0.00080362        -0.229671        0.134147       0.00157482    -0.000536598         0.362409        0.882559
                        0.725157        0.662477       0.00159581    -0.000518077       0.00215106        0.160857       0.00132014     0.000404078
                      0.00120102     -0.00106486         0.362299        0.882684       0.00113043     0.000417601        -0.249731       0.0505916
281712                 -0.165021        0.012711      0.000266127     -0.00079735         0.725325        0.661793       0.00127155     -0.00105434
                     0.000287702    -0.000803202        -0.229553        0.134107       0.00157396    -0.000537256         0.362913        0.882396
                        0.725439        0.662168       0.00159486    -0.000518872        0.0022725        0.160854        0.0013201     0.000402504
                      0.00119996     -0.00106502         0.362803        0.882521       0.00113018     0.000416379        -0.249563       0.0508314
281714                 -0.165018       0.0127278      0.000265828    -0.000796769         0.725607        0.661485       0.00127022     -0.00105495
                     0.000287427    -0.000802784        -0.229434        0.134067        0.0015731    -0.000537913         0.363417        0.882232
                        0.725722         0.66186        0.0015939    -0.000519682       0.00239393        0.160851       0.00132006     0.000400931
                       0.0011989     -0.00106517         0.363307        0.882356       0.00112993     0.000415158        -0.249394       0.0510708
281716                 -0.165015       0.0127446      0.000265525    -0.000796171          0.72589        0.661177       0.00126889     -0.00105556
                     0.000287153    -0.000802367        -0.229316        0.134028       0.00157224    -0.000538568         0.363921        0.882068
                        0.726004        0.661551       0.00159295    -0.000520498       0.00251535        0.160848       0.00132002     0.000399358
                      0.00119785     -0.00106533         0.363811        0.882192       0.00112967     0.000413939        -0.249226       0.0513099
281718                 -0.165011       0.0127614      0.000265222    -0.000795585         0.726172        0.660869       0.00126756     -0.00105618
                     0.000286882    -0.000801949        -0.229198        0.133988       0.00157138    -0.000539223         0.364425        0.881904
                        0.726286        0.661243         0.001592    -0.000521307       0.00263675        0.160845       0.00131999     0.000397785
                      0.00119679     -0.00106549         0.364315        0.882027       0.00112942     0.000412721        -0.249057       0.0515488
281720                 -0.165008       0.0127783       0.00026493    -0.000795054         0.726454        0.660561       0.00126624     -0.00105679
                     0.000286612    -0.000801532         -0.22908        0.133948       0.00157053    -0.000539877         0.364928         0.88174
                        0.726568        0.660934       0.00159104    -0.000522089       0.00275814        0.160842       0.00131995     0.000396212
                      0.00119573     -0.00106564         0.364818        0.881862       0.00112917     0.000411503        -0.248889       0.0517873
281722                 -0.165005       0.0127951      0.000264661    -0.000794647         0.726735        0.660252       0.00126492      -0.0010574
                     0.000286346    -0.000801117        -0.228963        0.133909       0.00156967     -0.00054053         0.365431        0.881575
                         0.72685        0.660625       0.00159009    -0.000522814       0.00287952        0.160839       0.00131991      0.00039464
                      0.00119465     -0.00106577         0.365322        0.881697       0.00112892     0.000410287         -0.24872       0.0520254
281724                 -0.165001       0.0128118      0.000264436    -0.000794466         0.727017        0.659944        0.0012636     -0.00105802
                     0.000286082    -0.000800707        -0.228846        0.133869       0.00156881    -0.000541182         0.365934         0.88141
                        0.727131        0.660317       0.00158914    -0.000523437       0.00300088        0.160835       0.00131987     0.000393068
                      0.00119366     -0.00106595         0.365825        0.881532       0.00112866     0.000409073        -0.248551       0.0522633
281726                 -0.164998       0.0128287      0.000264287    -0.000794661         0.727299        0.659635       0.00126229     -0.00105863
                     0.000285818    -0.000800305        -0.228729         0.13383       0.00156796    -0.000541833         0.366437        0.881245
                        0.727412        0.660007       0.00158818    -0.000523887       0.00312223        0.160832       0.00131983     0.000391497
                       0.0011926     -0.00106611         0.366328        0.881368       0.00112841     0.000407859        -0.248382       0.0525009
281728                 -0.164994       0.0128455      0.000264251    -0.000795453          0.72758        0.659326       0.00126099     -0.00105925
                     0.000285546    -0.000799909        -0.228612         0.13379        0.0015671    -0.000542483         0.366939        0.881079
                        0.727694        0.659698       0.00158723    -0.000524067       0.00324357        0.160829        0.0013198     0.000389926
                      0.00119154     -0.00106626         0.366832        0.881204       0.00112816     0.000406646        -0.248213       0.0527381
281730                 -0.164991       0.0128624      0.000264371    -0.000797148         0.727861        0.659018       0.00125968     -0.00105986
                     0.000285265    -0.000799512        -0.228496        0.133751       0.00156625    -0.000543132         0.367442        0.880914
                        0.727975        0.659389       0.00158628    -0.000523829       0.00336489        0.160825       0.00131976     0.000388355
                      0.00119049     -0.00106641         0.367336        0.881041        0.0011279     0.000405435        -0.248044        0.052975
281732                 -0.164988       0.0128792       0.00026467    -0.000800151         0.728143        0.658709       0.00125838     -0.00106048
                      0.00028498    -0.000799109        -0.228381        0.133711        0.0015654     -0.00054378         0.367944        0.880747
                        0.728256         0.65908        0.0015853    -0.000522972        0.0034862        0.160822       0.00131972     0.000386785
                      0.00118945     -0.00106657         0.367842        0.880881       0.00112765     0.000404225        -0.247875       0.0532116
281734                 -0.164985       0.0128961       0.00026511    -0.000804944         0.728424        0.658399       0.00125709     -0.00106109
                     0.000284695    -0.000798702        -0.228268        0.133671       0.00156454    -0.000544427         0.368445        0.880581
                        0.728537         0.65877       0.00158425    -0.000521228        0.0036075        0.160818       0.00131968     0.000385215
                       0.0011884     -0.00106672         0.368349        0.880727       0.00112739     0.000403016        -0.247706       0.0534479
281736                 -0.164981        0.012913      0.000265523    -0.000811988         0.728704         0.65809        0.0012558     -0.00106171
                     0.000284411    -0.000798292        -0.228156        0.133631       0.00156369    -0.000545074         0.368947        0.880414
                        0.728818         0.65846       0.00158297    -0.000518281       0.00372878        0.160814       0.00131964     0.000383645
                      0.00118735     -0.00106687          0.36886        0.880584       0.00112714     0.000401808        -0.247537       0.0536839
281738                 -0.164978       0.0129298      0.000265553    -0.000821506         0.728985        0.657781       0.00125451     -0.00106232
                     0.000284129    -0.000797881        -0.228048        0.133588       0.00156284    -0.000545719         0.369448        0.880247
                        0.729098        0.658151       0.00158121    -0.000513853       0.00385005         0.16081        0.0013196     0.000382076
                      0.00118631     -0.00106702         0.369367        0.880479       0.00112688     0.000400601        -0.247368       0.0539196
281740                 -0.164975       0.0129467      0.000264714    -0.000833169         0.729266        0.657472       0.00125323     -0.00106293
                     0.000283849    -0.000797471        -0.227943        0.133538       0.00156199    -0.000546363         0.369949         0.88008
                        0.729379        0.657841       0.00157855    -0.000507888       0.00397131        0.160806       0.00131956     0.000380507
                      0.00118526     -0.00106717         0.369742        0.880471       0.00112662     0.000399395        -0.247199        0.054155
281742                 -0.164971       0.0129636      0.000262654    -0.000845913         0.729546        0.657162       0.00125195     -0.00106355
                      0.00028357    -0.000797061        -0.227834        0.133475       0.00156114    -0.000547007          0.37045        0.879912
                        0.729659        0.657531       0.00157455    -0.000500821       0.00409255        0.160802       0.00131953     0.000378939
                      0.00118422     -0.00106732         0.370029        0.880033       0.00112637     0.000398191        -0.247029         0.05439
281744                 -0.164968       0.0129805      0.000259493    -0.000858171         0.729826        0.656852       0.00125068     -0.00106416
                     0.000283292    -0.000796652        -0.227701        0.133407       0.00156028    -0.000547649         0.370951        0.879744
                        0.729939        0.657221       0.00156914    -0.000493661       0.00421378        0.160798       0.00131949     0.000377371
                      0.00118318     -0.00106747         0.370658        0.879779       0.00112611     0.000396987         -0.24686       0.0546248
281746                 -0.164965       0.0129974      0.000255859    -0.000868531         0.730107        0.656543       0.00124941     -0.00106478
                     0.000283015    -0.000796244        -0.227558        0.133363       0.00155943    -0.000548291         0.371451        0.879576
                        0.730219         0.65691       0.00156295    -0.000487599         0.004335        0.160794       0.00131945     0.000375803
                      0.00118214     -0.00106762         0.371208         0.87961       0.00112585     0.000395785         -0.24669       0.0548592
281748                 -0.164962       0.0130143      0.000252524    -0.000876272         0.730387        0.656233       0.00124814     -0.00106539
                     0.000282738    -0.000795837        -0.227427         0.13333       0.00155858    -0.000548932         0.371951        0.879407
                        0.730499          0.6566       0.00155704    -0.000483342        0.0044562         0.16079       0.00131941     0.000374236
                       0.0011811     -0.00106777          0.37173        0.879445       0.00112559     0.000394583        -0.246521       0.0550933
281750                 -0.164958       0.0130312      0.000249995    -0.000881405         0.730666        0.655923       0.00124688     -0.00106601
                     0.000282462    -0.000795431        -0.227305        0.133298       0.00155773    -0.000549572         0.372451        0.879239
                        0.730779         0.65629       0.00155228    -0.000480887       0.00457738        0.160786       0.00131937      0.00037267
                      0.00118006     -0.00106792         0.372241        0.879279       0.00112533     0.000393384        -0.246351       0.0553271
281752                 -0.164955       0.0130481        0.0002484    -0.000884371         0.730946        0.655613       0.00124562     -0.00106662
                     0.000282186    -0.000795026        -0.227187        0.133263       0.00155689    -0.000550211          0.37295         0.87907
                        0.731059        0.655979         0.001549    -0.000479828       0.00469856        0.160781       0.00131933     0.000371103
                      0.00117902     -0.00106806         0.372746        0.879112       0.00112507     0.000392185        -0.246181       0.0555606
281754                 -0.164952        0.013065      0.000247613    -0.000885731         0.731226        0.655302       0.00124436     -0.00106723
                     0.000281911    -0.000794622         -0.22707        0.133226       0.00155604    -0.000550849          0.37345          0.8789
                        0.731338        0.655669       0.00154704    -0.000479714       0.00481972        0.160777       0.00131929     0.000369538
                      0.00117798     -0.00106821         0.373248        0.878943       0.00112481     0.000390988        -0.246011       0.0557938
281756                 -0.164949        0.013082      0.000247413    -0.000885992         0.731505        0.654992       0.00124311     -0.00106784
                     0.000281636    -0.000794219        -0.226955        0.133188       0.00155519    -0.000551486         0.373949        0.878731
                        0.731618        0.655358       0.00154604    -0.000480204       0.00494086        0.160772       0.00131925     0.000367973
                      0.00117695     -0.00106836         0.373749        0.878774       0.00112455     0.000389791        -0.245841       0.0560267
281758                 -0.164945       0.0130989      0.000247588    -0.000885551         0.731785        0.654682       0.00124187     -0.00106846
                     0.000281362    -0.000793817         -0.22684        0.133149       0.00155434    -0.000552122         0.374448        0.878561
                        0.731897        0.655047       0.00154568    -0.000481066       0.00506199        0.160768       0.00131921     0.000366408
                      0.00117591      -0.0010685         0.374248        0.878604       0.00112429     0.000388595        -0.245672       0.0562593
281760                 -0.164942       0.0131159      0.000247973    -0.000884693         0.732064        0.654371       0.00124063     -0.00106907
                     0.000281089    -0.000793417        -0.226725         0.13311        0.0015535    -0.000552758         0.374947         0.87839
                        0.732176        0.654736       0.00154566     -0.00048215       0.00518311        0.160763       0.00131917     0.000364844
                      0.00117488     -0.00106865         0.374746        0.878433       0.00112403     0.000387401        -0.245502       0.0564916
281762                 -0.164939       0.0131328      0.000248457    -0.000883613         0.732343         0.65406       0.00123939     -0.00106968
                     0.000280817    -0.000793017        -0.226611         0.13307       0.00155265    -0.000553392         0.375445         0.87822
                        0.732455        0.654425       0.00154581    -0.000483355       0.00530421        0.160758       0.00131913     0.000363281
