! TOUCHSTONE file generated by CST MICROWAVE STUDIO
! Date and time: Tue Oct 14 07:27:08 2025
! Project name: Teste_Macro_Metasurface_Nanopilar.cst
! Parameters = {H=600; L_x=105; L_y=145; Lambda=1064; Max_L=200; Min_L=70; PathPara=1; Phi=0; Step_L=10; Theta=0; p=520; phaseX=180; phaseY=0}
! Header version: 2018
! Port assignment regex: !\s*Touchstone port\s*([0-9]+)\s*=\s*(CST MWS port|CST DS port)\s*([0-9]+|Zmin|Zmax)\s*\(\"(.*)\"\)(\s*mode\s*([0-9]+))?.*
! Touchstone port assignment:
! Touchstone port 1 = CST MWS port Zmax ("") mode 1
! Touchstone port 2 = CST MWS port Zmax ("") mode 2
! Touchstone port 3 = CST MWS port Zmin ("") mode 1
! Touchstone port 4 = CST MWS port Zmin ("") mode 2
! S-Parameters are not renormalized. Each port impedance will be approximated by the real part at minimum frequency. The values are described via the [Reference] keyword.
! Default impedance is overridden by [Reference]
[Version] 2.0
# GHz S RI R 376.73
[Number of Ports] 4
[Reference]
376.73 376.73 259.814 259.814 
[Number of Frequencies] 51
[Network Data]
281700                 -0.047853       -0.130228     -0.000641051     0.000535319        -0.159539        0.971296      0.000249395      -0.0001801
                    -0.000469836     0.000616069         -0.17026      -0.0757059     -0.000408295    -9.26245e-05         -0.49621       -0.838811
                       -0.159334        0.971211     -0.000395346     1.14327e-05       -0.0858622        0.109025      0.000897665     0.000328111
                     0.000317276    -0.000274611        -0.496572       -0.839181      0.000791591     0.000403928       -0.0150088        0.184922
281702                -0.0479054       -0.130232     -0.000640858     0.000535851         -0.15909        0.971367      0.000249522    -0.000180268
                    -0.000469558     0.000616446        -0.170295      -0.0756429      -0.00040834    -9.24538e-05        -0.496631        -0.83856
                       -0.158885        0.971282     -0.000394803     1.16728e-05       -0.0858128        0.109092      0.000897778     0.000327775
                     0.000317068    -0.000274895        -0.496993       -0.838931      0.000791827     0.000403739       -0.0148949        0.184937
281704                -0.0479578       -0.130236     -0.000640664     0.000536382        -0.158641        0.971438      0.000249649    -0.000180435
                    -0.000469279     0.000616824        -0.170329      -0.0755798     -0.000408384    -9.22831e-05        -0.497051       -0.838308
                       -0.158436        0.971352      -0.00039426     1.19108e-05       -0.0857633        0.109158      0.000897891     0.000327438
                      0.00031686    -0.000275179        -0.497413        -0.83868      0.000792063      0.00040355        -0.014781        0.184951
281706                -0.0480102        -0.13024     -0.000640469     0.000536914        -0.158192        0.971508      0.000249776    -0.000180603
                       -0.000469     0.000617202        -0.170363      -0.0755168     -0.000408428    -9.21125e-05        -0.497472       -0.838056
                       -0.157987        0.971423     -0.000393717     1.21467e-05       -0.0857138        0.109225      0.000898002     0.000327101
                     0.000316652    -0.000275464        -0.497834       -0.838429      0.000792299     0.000403362       -0.0146671        0.184966
281708                -0.0480626       -0.130244     -0.000640272     0.000537445        -0.157743        0.971579      0.000249904    -0.000180771
                    -0.000468721     0.000617579        -0.170398      -0.0754537     -0.000408472     -9.1942e-05        -0.497892       -0.837804
                       -0.157537        0.971493     -0.000393173     1.23805e-05       -0.0856642        0.109291      0.000898113     0.000326763
                     0.000316443    -0.000275748        -0.498254       -0.838178      0.000792535     0.000403173       -0.0145532        0.184981
281710                -0.0481151       -0.130248     -0.000640074     0.000537976        -0.157293        0.971649      0.000250033    -0.000180939
                    -0.000468442     0.000617957        -0.170432      -0.0753906     -0.000408516    -9.17716e-05        -0.498312       -0.837552
                       -0.157088        0.971563      -0.00039263     1.26121e-05       -0.0856146        0.109357      0.000898223     0.000326425
                     0.000316234    -0.000276032        -0.498674       -0.837927      0.000792771     0.000402985       -0.0144393        0.184995
281712                -0.0481675       -0.130252     -0.000639876     0.000538507        -0.156844        0.971719      0.000250162    -0.000181107
                    -0.000468163     0.000618335        -0.170466      -0.0753275      -0.00040856    -9.16013e-05        -0.498732       -0.837299
                       -0.156639        0.971633     -0.000392086     1.28417e-05       -0.0855649        0.109424      0.000898333     0.000326087
                     0.000316025    -0.000276317        -0.499095       -0.837675      0.000793008     0.000402797       -0.0143254        0.185009
281714                  -0.04822       -0.130256     -0.000639676     0.000539037        -0.156395        0.971788      0.000250291    -0.000181274
                    -0.000467883     0.000618712          -0.1705      -0.0752643     -0.000408603     -9.1431e-05        -0.499152       -0.837046
                       -0.156189        0.971702     -0.000391542      1.3069e-05       -0.0855151         0.10949      0.000898442     0.000325748
                     0.000315816    -0.000276602        -0.499515       -0.837423      0.000793244     0.000402609       -0.0142114        0.185024
281716                -0.0482724        -0.13026     -0.000639474     0.000539568        -0.155946        0.971858      0.000250421    -0.000181441
                    -0.000467604      0.00061909        -0.170534      -0.0752012     -0.000408647    -9.12609e-05        -0.499572       -0.836793
                        -0.15574        0.971772     -0.000390998     1.32943e-05       -0.0854654        0.109557       0.00089855     0.000325408
                     0.000315607    -0.000276887        -0.499935       -0.837171      0.000793481     0.000402421       -0.0140974        0.185038
281718                -0.0483249       -0.130264     -0.000639272     0.000540098        -0.155496        0.971927      0.000250552    -0.000181609
                    -0.000467324     0.000619468        -0.170569       -0.075138     -0.000408691    -9.10908e-05        -0.499992        -0.83654
                        -0.15529        0.971841     -0.000390454     1.35174e-05       -0.0854155        0.109623      0.000898658     0.000325068
                     0.000315397    -0.000277171        -0.500354       -0.836919      0.000793717     0.000402233       -0.0139834        0.185052
281720                -0.0483773       -0.130268     -0.000639068     0.000540628        -0.155047        0.971996      0.000250682    -0.000181776
                    -0.000467045     0.000619846        -0.170603      -0.0750748     -0.000408735    -9.09209e-05        -0.500411       -0.836286
                       -0.154841         0.97191      -0.00038991     1.37383e-05       -0.0853656        0.109689      0.000898765     0.000324728
                     0.000315187    -0.000277456        -0.500774       -0.836667      0.000793954     0.000402045       -0.0138694        0.185066
281722                -0.0484298       -0.130272     -0.000638864     0.000541158        -0.154598        0.972065      0.000250813    -0.000181942
                    -0.000466765     0.000620223        -0.170637      -0.0750116     -0.000408779     -9.0751e-05        -0.500831       -0.836033
                       -0.154392        0.971978     -0.000389366      1.3957e-05       -0.0853157        0.109756      0.000898872     0.000324387
                     0.000314977    -0.000277741        -0.501194       -0.836414      0.000794191     0.000401857       -0.0137554        0.185081
281724                -0.0484823       -0.130275     -0.000638658     0.000541688        -0.154148        0.972133      0.000250944    -0.000182109
                    -0.000466485     0.000620601        -0.170671      -0.0749484     -0.000408823    -9.05813e-05         -0.50125       -0.835779
                       -0.153942        0.972047     -0.000388822     1.41735e-05       -0.0852657        0.109822      0.000898978     0.000324046
                     0.000314767    -0.000278027        -0.501613       -0.836161      0.000794427      0.00040167       -0.0136414        0.185095
281726                -0.0485348       -0.130279     -0.000638451     0.000542217        -0.153699        0.972202      0.000251075    -0.000182276
                    -0.000466205     0.000620979        -0.170705      -0.0748851     -0.000408866    -9.04116e-05         -0.50167       -0.835525
                       -0.153493        0.972115     -0.000388278     1.43879e-05       -0.0852157        0.109888      0.000899083     0.000323704
                     0.000314556    -0.000278312        -0.502032       -0.835908      0.000794664     0.000401482       -0.0135273        0.185108
281728                -0.0485872       -0.130283     -0.000638243     0.000542747        -0.153249         0.97227      0.000251207    -0.000182442
                    -0.000465925     0.000621357        -0.170739      -0.0748219      -0.00040891     -9.0242e-05        -0.502089        -0.83527
                       -0.153043        0.972183     -0.000387734        1.46e-05       -0.0851656        0.109954      0.000899189     0.000323362
                     0.000314346    -0.000278597        -0.502452       -0.835655      0.000794902     0.000401295       -0.0134133        0.185122
281730                -0.0486397       -0.130287     -0.000638033     0.000543276          -0.1528        0.972338      0.000251338    -0.000182609
                    -0.000465645     0.000621734        -0.170773      -0.0747586     -0.000408954    -9.00725e-05        -0.502508       -0.835016
                       -0.152593        0.972251      -0.00038719       1.481e-05       -0.0851155         0.11002      0.000899293     0.000323019
                     0.000314135    -0.000278883        -0.502871       -0.835401      0.000795139     0.000401108       -0.0132992        0.185136
281732                -0.0486922       -0.130291     -0.000637823     0.000543805         -0.15235        0.972406       0.00025147    -0.000182775
                    -0.000465365     0.000622112        -0.170807      -0.0746953     -0.000408998    -8.99031e-05        -0.502927       -0.834761
                       -0.152144        0.972319     -0.000386646     1.50177e-05       -0.0850653        0.110087      0.000899398     0.000322676
                     0.000313924    -0.000279168         -0.50329       -0.835148      0.000795376     0.000400921       -0.0131851         0.18515
281734                -0.0487447       -0.130294     -0.000637611     0.000544333        -0.151901        0.972473      0.000251602    -0.000182941
                    -0.000465085      0.00062249        -0.170841       -0.074632     -0.000409041    -8.97338e-05        -0.503345       -0.834506
                       -0.151694        0.972386     -0.000386103     1.52232e-05        -0.085015        0.110153      0.000899502     0.000322333
                     0.000313712    -0.000279454        -0.503708       -0.834894      0.000795614     0.000400734        -0.013071        0.185163
281736                -0.0487972       -0.130298     -0.000637399     0.000544862        -0.151451         0.97254      0.000251734    -0.000183107
                    -0.000464805     0.000622868        -0.170875      -0.0745686     -0.000409085    -8.95646e-05        -0.503764       -0.834251
                       -0.151245        0.972454     -0.000385559     1.54265e-05       -0.0849648        0.110219      0.000899606     0.000321989
                     0.000313501    -0.000279739        -0.504127        -0.83464      0.000795851     0.000400547       -0.0129569        0.185177
281738                -0.0488497       -0.130302     -0.000637185      0.00054539        -0.151002        0.972608      0.000251866    -0.000183273
                    -0.000464524     0.000623246        -0.170909      -0.0745053     -0.000409129    -8.93955e-05        -0.504183       -0.833995
                       -0.150795        0.972521     -0.000385016     1.56276e-05       -0.0849144        0.110285      0.000899709     0.000321644
                     0.000313289    -0.000280025        -0.504546       -0.834385      0.000796089      0.00040036       -0.0128428         0.18519
281740                -0.0489023       -0.130305      -0.00063697     0.000545918        -0.150552        0.972674      0.000251998    -0.000183439
                    -0.000464244     0.000623624        -0.170942      -0.0744419     -0.000409172    -8.92265e-05        -0.504601        -0.83374
                       -0.150345        0.972588     -0.000384473     1.58265e-05       -0.0848641        0.110351      0.000899812     0.000321299
                     0.000313077    -0.000280311        -0.504964       -0.834131      0.000796327     0.000400173       -0.0127287        0.185204
281742                -0.0489548       -0.130309     -0.000636754     0.000546446        -0.150102        0.972741       0.00025213    -0.000183605
                    -0.000463964     0.000624001        -0.170976      -0.0743785     -0.000409216    -8.90576e-05        -0.505019       -0.833484
                       -0.149895        0.972654      -0.00038393     1.60231e-05       -0.0848136        0.110417      0.000899915     0.000320954
                     0.000312864    -0.000280597        -0.505383       -0.833876      0.000796565     0.000399987       -0.0126145        0.185217
281744                -0.0490073       -0.130313     -0.000636537     0.000546974        -0.149653        0.972808      0.000252262    -0.000183771
                    -0.000463683     0.000624379         -0.17101      -0.0743151     -0.000409259    -8.88887e-05        -0.505438       -0.833228
                       -0.149446        0.972721     -0.000383387     1.62175e-05       -0.0847631        0.110483      0.000900017     0.000320608
                     0.000312652    -0.000280883        -0.505801       -0.833621      0.000796804       0.0003998       -0.0125003         0.18523
281746                -0.0490599       -0.130316     -0.000636319     0.000547501        -0.149203        0.972874      0.000252394    -0.000183937
                    -0.000463402     0.000624757        -0.171044      -0.0742516     -0.000409303      -8.872e-05        -0.505856       -0.832972
                       -0.148996        0.972787     -0.000382844     1.64096e-05       -0.0847126        0.110549      0.000900119     0.000320262
                     0.000312439    -0.000281169        -0.506219       -0.833366      0.000797042     0.000399614       -0.0123862        0.185243
281748                -0.0491124        -0.13032       -0.0006361     0.000548028        -0.148753         0.97294      0.000252526    -0.000184104
                    -0.000463122     0.000625135        -0.171077      -0.0741882     -0.000409347    -8.85513e-05        -0.506274       -0.832715
                       -0.148546        0.972853     -0.000382302     1.65995e-05        -0.084662        0.110615      0.000900221     0.000319916
                     0.000312226    -0.000281455        -0.506637        -0.83311      0.000797281     0.000399427        -0.012272        0.185257
281750                -0.0491649       -0.130324      -0.00063588     0.000548555        -0.148304        0.973006      0.000252658     -0.00018427
                    -0.000462841     0.000625513        -0.171111      -0.0741247      -0.00040939    -8.83827e-05        -0.506691       -0.832459
                       -0.148096        0.972919      -0.00038176     1.67872e-05       -0.0846114        0.110681      0.000900323     0.000319569
                     0.000312013    -0.000281741        -0.507055       -0.832855       0.00079752     0.000399241       -0.0121578         0.18527
281752                -0.0492175       -0.130327     -0.000635658     0.000549082        -0.147854        0.973072       0.00025279    -0.000184436
                     -0.00046256     0.000625891        -0.171145      -0.0740612     -0.000409434    -8.82142e-05        -0.507109       -0.832202
                       -0.147646        0.972984     -0.000381219     1.69726e-05       -0.0845607        0.110747      0.000900424     0.000319222
                       0.0003118    -0.000282028        -0.507473       -0.832599      0.000797759     0.000399055       -0.0120435        0.185282
281754                  -0.04927       -0.130331     -0.000635436     0.000549609        -0.147404        0.973137      0.000252922    -0.000184602
                     -0.00046228     0.000626269        -0.171179      -0.0739977     -0.000409478    -8.80458e-05        -0.507527       -0.831945
                       -0.147197         0.97305     -0.000380678     1.71558e-05         -0.08451        0.110813      0.000900525     0.000318875
                     0.000311586    -0.000282314         -0.50789       -0.832343      0.000797999     0.000398869       -0.0119293        0.185295
281756                -0.0493226       -0.130334     -0.000635212     0.000550135        -0.146954        0.973202      0.000253055    -0.000184769
                    -0.000461999     0.000626647        -0.171212      -0.0739342     -0.000409521    -8.78775e-05        -0.507944       -0.831687
                       -0.146747        0.973115     -0.000380137     1.73368e-05       -0.0844592        0.110879      0.000900626     0.000318527
                     0.000311372    -0.000282601        -0.508308       -0.832087      0.000798238     0.000398683        -0.011815        0.185308
281758                -0.0493752       -0.130338     -0.000634988     0.000550661        -0.146505        0.973267      0.000253187    -0.000184935
                    -0.000461718     0.000627025        -0.171246      -0.0738707     -0.000409565    -8.77093e-05        -0.508361        -0.83143
                       -0.146297         0.97318     -0.000379596     1.75155e-05       -0.0844084        0.110945      0.000900727     0.000318179
                     0.000311158    -0.000282887        -0.508725        -0.83183      0.000798478     0.000398497       -0.0117008        0.185321
281760                -0.0494277       -0.130341     -0.000634762     0.000551187        -0.146055        0.973332      0.000253319    -0.000185102
                    -0.000461437     0.000627403        -0.171279      -0.0738071     -0.000409608    -8.75412e-05        -0.508779       -0.831172
                       -0.145847        0.973245     -0.000379056      1.7692e-05       -0.0843575        0.111011      0.000900827      0.00031783
                     0.000310944    -0.000283174        -0.509143       -0.831573      0.000798718     0.000398311       -0.0115865        0.185333
281762                -0.0494803       -0.130345     -0.000634535     0.000551713        -0.145605        0.973397       0.00025345    -0.000185268
                    -0.000461156     0.000627781        -0.171313      -0.0737435     -0.000409652    -8.73731e-05        -0.509196       -0.830914
                       -0.145397        0.973309     -0.000378516     1.78663e-05       -0.0843066        0.111077      0.000900928     0.000317481
