! TOUCHSTONE file generated by CST MICROWAVE STUDIO
! Date and time: Tue Oct 14 07:25:42 2025
! Project name: Teste_Macro_Metasurface_Nanopilar.cst
! Parameters = {H=600; L_x=85; L_y=70; Lambda=1064; Max_L=200; Min_L=70; PathPara=1; Phi=0; Step_L=10; Theta=0; p=520; phaseX=180; phaseY=0}
! Header version: 2018
! Port assignment regex: !\s*Touchstone port\s*([0-9]+)\s*=\s*(CST MWS port|CST DS port)\s*([0-9]+|Zmin|Zmax)\s*\(\"(.*)\"\)(\s*mode\s*([0-9]+))?.*
! Touchstone port assignment:
! Touchstone port 1 = CST MWS port Zmax ("") mode 1
! Touchstone port 2 = CST MWS port Zmax ("") mode 2
! Touchstone port 3 = CST MWS port Zmin ("") mode 1
! Touchstone port 4 = CST MWS port Zmin ("") mode 2
! S-Parameters are not renormalized. Each port impedance will be approximated by the real part at minimum frequency. The values are described via the [Reference] keyword.
! Default impedance is overridden by [Reference]
[Version] 2.0
# GHz S RI R 376.73
[Number of Ports] 4
[Reference]
376.73 376.73 259.814 259.814 
[Number of Frequencies] 51
[Network Data]
281700                -0.0606848         0.13005      0.000628956     0.000230001         0.966652        0.212355     -0.000110194    -8.64813e-05
                     0.000610652     0.000129348       -0.0424697        0.117538      9.73118e-05     1.53848e-05         0.986485        0.102211
                        0.966166        0.212549     -1.72084e-05     5.72012e-05      0.000507421         0.14353     -0.000530859    -2.27717e-05
                    -5.31629e-05     1.01111e-05         0.986253        0.101843     -0.000611412    -0.000119722        0.0174072         0.12379
281702                -0.0606409        0.130067      0.000628963      0.00022974         0.966729        0.212009     -0.000110188    -8.65144e-05
                     0.000610783     0.000129141        -0.042429        0.117549      9.73836e-05     1.53258e-05         0.986522        0.101854
                        0.966243        0.212202     -1.70702e-05     5.69278e-05       0.00056308        0.143527     -0.000530931    -2.25983e-05
                    -5.31855e-05     1.00595e-05         0.986291        0.101486     -0.000611518    -0.000119583        0.0174547         0.12378
281704                -0.0605969        0.130085      0.000628971     0.000229478         0.966805        0.211662     -0.000110183    -8.65475e-05
                     0.000610915     0.000128933       -0.0423883         0.11756      9.74553e-05     1.52668e-05         0.986559        0.101497
                        0.966319        0.211856     -1.69327e-05     5.66552e-05      0.000618736        0.143524     -0.000531003    -2.24247e-05
                    -5.32082e-05     1.00082e-05         0.986328         0.10113     -0.000611623    -0.000119444        0.0175022        0.123769
281706                 -0.060553        0.130102      0.000628979     0.000229217         0.966881        0.211316     -0.000110177    -8.65806e-05
                     0.000611046     0.000128724       -0.0423476        0.117571      9.75268e-05     1.52078e-05         0.986596        0.101141
                        0.966395        0.211509      -1.6796e-05     5.63833e-05       0.00067439        0.143521     -0.000531075    -2.22509e-05
                    -5.32309e-05     9.95716e-06         0.986365        0.100773     -0.000611728    -0.000119305        0.0175497        0.123759
281708                -0.0605091         0.13012      0.000628988     0.000228955         0.966957         0.21097      -0.00011017    -8.66138e-05
                     0.000611178     0.000128516        -0.042307        0.117581      9.75983e-05     1.51488e-05         0.986633        0.100784
                        0.966471        0.211163     -1.66599e-05      5.6112e-05      0.000730043        0.143518     -0.000531147    -2.20771e-05
                    -5.32536e-05     9.90642e-06         0.986402        0.100416     -0.000611833    -0.000119165        0.0175972        0.123748
281710                -0.0604652        0.130137      0.000628996     0.000228693         0.967033        0.210623     -0.000110164     -8.6647e-05
                     0.000611309     0.000128307       -0.0422663        0.117592      9.76696e-05     1.50898e-05         0.986669        0.100427
                        0.966547        0.210816     -1.65246e-05     5.58414e-05      0.000785693        0.143515     -0.000531219    -2.19031e-05
                    -5.32764e-05     9.85596e-06         0.986438        0.100059     -0.000611938    -0.000119026        0.0176447        0.123738
281712                -0.0604212        0.130154      0.000629005     0.000228431         0.967109        0.210276     -0.000110158    -8.66804e-05
                      0.00061144     0.000128098       -0.0422256        0.117603      9.77408e-05     1.50308e-05         0.986706        0.100071
                        0.966623         0.21047       -1.639e-05     5.55715e-05       0.00084134        0.143512     -0.000531291    -2.17289e-05
                    -5.32992e-05     9.80579e-06         0.986475       0.0997026     -0.000612043    -0.000118887        0.0176922        0.123727
281714                -0.0603773        0.130172      0.000629015     0.000228169         0.967185         0.20993     -0.000110151    -8.67137e-05
                     0.000611571     0.000127888       -0.0421849        0.117613      9.78118e-05     1.49718e-05         0.986742       0.0997139
                        0.966699        0.210123      -1.6256e-05     5.53022e-05      0.000896986        0.143509     -0.000531363    -2.15547e-05
                    -5.33221e-05     9.75591e-06         0.986511       0.0993459     -0.000612148    -0.000118747        0.0177397        0.123716
281716                -0.0603333        0.130189      0.000629025     0.000227907         0.967261        0.209583     -0.000110145    -8.67471e-05
                     0.000611703     0.000127678       -0.0421442        0.117624      9.78828e-05     1.49128e-05         0.986779       0.0993572
                        0.966775        0.209777     -1.61227e-05     5.50337e-05       0.00095263        0.143506     -0.000531435    -2.13802e-05
                     -5.3345e-05     9.70631e-06         0.986548       0.0989891     -0.000612252    -0.000118608        0.0177872        0.123706
281718                -0.0602894        0.130206      0.000629035     0.000227644         0.967336        0.209237     -0.000110138    -8.67806e-05
                     0.000611834     0.000127468       -0.0421035        0.117634      9.79537e-05     1.48539e-05         0.986815       0.0990004
                         0.96685         0.20943       -1.599e-05     5.47657e-05       0.00100827        0.143503     -0.000531507    -2.12057e-05
                     -5.3368e-05     9.65699e-06         0.986584       0.0986323     -0.000612357    -0.000118468        0.0178347        0.123695
281720                -0.0602454        0.130224      0.000629045     0.000227381         0.967412         0.20889     -0.000110131    -8.68141e-05
                     0.000611965     0.000127258       -0.0420628        0.117645      9.80244e-05      1.4795e-05         0.986851       0.0986436
                        0.966925        0.209084     -1.58581e-05     5.44985e-05       0.00106391          0.1435     -0.000531579     -2.1031e-05
                     -5.3391e-05     9.60796e-06          0.98662       0.0982755     -0.000612462    -0.000118329        0.0178821        0.123685
281722                -0.0602015        0.130241      0.000629056     0.000227118         0.967487        0.208543     -0.000110124    -8.68476e-05
                     0.000612097     0.000127047       -0.0420221        0.117656      9.80951e-05     1.47361e-05         0.986887       0.0982868
                        0.967001        0.208737     -1.57267e-05     5.42319e-05       0.00111955        0.143496     -0.000531651    -2.08562e-05
                    -5.34141e-05     9.55921e-06         0.986656       0.0979187     -0.000612567     -0.00011819        0.0179296        0.123674
281724                -0.0601575        0.130258      0.000629067     0.000226854         0.967562        0.208197     -0.000110117    -8.68813e-05
                     0.000612228     0.000126836       -0.0419814        0.117666      9.81656e-05     1.46772e-05         0.986923         0.09793
                        0.967076         0.20839     -1.55961e-05     5.39659e-05       0.00117518        0.143493     -0.000531724    -2.06812e-05
                    -5.34371e-05     9.51073e-06         0.986692       0.0975619     -0.000612671     -0.00011805        0.0179771        0.123663
281726                -0.0601135        0.130275      0.000629078     0.000226591         0.967637         0.20785      -0.00011011    -8.69149e-05
                     0.000612359     0.000126624       -0.0419407        0.117677      9.82361e-05     1.46184e-05         0.986958       0.0975732
                        0.967151        0.208044      -1.5466e-05     5.37006e-05       0.00123081         0.14349     -0.000531796    -2.05061e-05
                    -5.34603e-05     9.46254e-06         0.986727       0.0972051     -0.000612776    -0.000117911        0.0180245        0.123653
281728                -0.0600695        0.130293      0.000629089     0.000226327         0.967712        0.207503     -0.000110103    -8.69486e-05
                      0.00061249     0.000126412          -0.0419        0.117687      9.83064e-05     1.45596e-05         0.986994       0.0972164
                        0.967226        0.207697     -1.53366e-05     5.34359e-05       0.00128644        0.143487     -0.000531868    -2.03309e-05
                    -5.34834e-05     9.41463e-06         0.986763       0.0968483      -0.00061288    -0.000117771         0.018072        0.123642
281730                -0.0600256         0.13031      0.000629101     0.000226063         0.967787        0.207156     -0.000110095    -8.69824e-05
                     0.000612621       0.0001262       -0.0418593        0.117698      9.83767e-05     1.45009e-05         0.987029       0.0968595
                          0.9673         0.20735     -1.52078e-05     5.31719e-05       0.00134207        0.143484     -0.000531941    -2.01555e-05
                    -5.35066e-05       9.367e-06         0.986798       0.0964914     -0.000612985    -0.000117632        0.0181194        0.123631
281732                -0.0599816        0.130327      0.000629113     0.000225798         0.967862        0.206809     -0.000110088    -8.70162e-05
                     0.000612753     0.000125988       -0.0418186        0.117708      9.84468e-05     1.44421e-05         0.987064       0.0965027
                        0.967375        0.207003     -1.50796e-05     5.29085e-05        0.0013977         0.14348     -0.000532013      -1.998e-05
                    -5.35299e-05     9.31965e-06         0.986834       0.0961345     -0.000613089    -0.000117492        0.0181668         0.12362
281734                -0.0599376        0.130344      0.000629126     0.000225534         0.967936        0.206463      -0.00011008    -8.70501e-05
                     0.000612884     0.000125775       -0.0417779        0.117719      9.85169e-05     1.43834e-05           0.9871       0.0961458
                        0.967449        0.206656     -1.49521e-05     5.26457e-05       0.00145332        0.143477     -0.000532086    -1.98044e-05
                    -5.35532e-05     9.27257e-06         0.986869       0.0957777     -0.000613193    -0.000117352        0.0182143         0.12361
281736                -0.0598936        0.130361      0.000629138     0.000225269          0.96801        0.206116     -0.000110072     -8.7084e-05
                     0.000613015     0.000125562       -0.0417372        0.117729      9.85869e-05     1.43248e-05         0.987135       0.0957889
                        0.967524         0.20631     -1.48251e-05     5.23835e-05       0.00150894        0.143474     -0.000532159    -1.96286e-05
                    -5.35765e-05     9.22577e-06         0.986904       0.0954208     -0.000613297    -0.000117213        0.0182617        0.123599
281738                -0.0598496        0.130379      0.000629151     0.000225004         0.968085        0.205769     -0.000110064     -8.7118e-05
                     0.000613146     0.000125349       -0.0416964         0.11774      9.86568e-05     1.42662e-05         0.987169        0.095432
                        0.967598        0.205963     -1.46987e-05     5.21219e-05       0.00156456         0.14347     -0.000532231    -1.94527e-05
                    -5.35998e-05     9.17924e-06         0.986939       0.0950639     -0.000613402    -0.000117073        0.0183091        0.123588
281740                -0.0598056        0.130396      0.000629165     0.000224739         0.968159        0.205422     -0.000110056     -8.7152e-05
                     0.000613277     0.000125135       -0.0416557         0.11775      9.87266e-05     1.42076e-05         0.987204       0.0950751
                        0.967672        0.205616     -1.45729e-05      5.1861e-05       0.00162018        0.143467     -0.000532304    -1.92766e-05
                    -5.36232e-05     9.13299e-06         0.986974        0.094707     -0.000613506    -0.000116934        0.0183565        0.123577
281742                -0.0597616        0.130413      0.000629178     0.000224473         0.968233        0.205075     -0.000110048     -8.7186e-05
                     0.000613408     0.000124921        -0.041615        0.117761      9.87963e-05      1.4149e-05         0.987239       0.0947182
                        0.967746        0.205269     -1.44477e-05     5.16007e-05       0.00167579        0.143463     -0.000532377    -1.91004e-05
                    -5.36467e-05     9.08701e-06         0.987008       0.0943501      -0.00061361    -0.000116794        0.0184039        0.123566
281744                -0.0597176         0.13043      0.000629192     0.000224208         0.968307        0.204728      -0.00011004    -8.72201e-05
                     0.000613539     0.000124707       -0.0415743        0.117771      9.88659e-05     1.40905e-05         0.987273       0.0943613
                         0.96782        0.204922     -1.43231e-05     5.13409e-05        0.0017314         0.14346     -0.000532449    -1.89241e-05
                    -5.36701e-05     9.04131e-06         0.987043       0.0939931     -0.000613714    -0.000116654        0.0184513        0.123556
281746                -0.0596735        0.130447      0.000629206     0.000223942         0.968381        0.204381     -0.000110032    -8.72543e-05
                      0.00061367     0.000124492       -0.0415335        0.117782      9.89354e-05      1.4032e-05         0.987308       0.0940043
                        0.967894        0.204575      -1.4199e-05     5.10818e-05       0.00178701        0.143457     -0.000532522    -1.87476e-05
                    -5.36936e-05     8.99588e-06         0.987077       0.0936362     -0.000613817    -0.000116515        0.0184987        0.123545
281748                -0.0596295        0.130464       0.00062922     0.000223675         0.968454        0.204034     -0.000110023    -8.72885e-05
                     0.000613801     0.000124277       -0.0414928        0.117792      9.90049e-05     1.39735e-05         0.987342       0.0936474
                        0.967967        0.204228     -1.40755e-05     5.08233e-05       0.00184262        0.143453     -0.000532595    -1.85711e-05
                    -5.37171e-05     8.95071e-06         0.987111       0.0932792     -0.000613921    -0.000116375        0.0185461        0.123534
281750                -0.0595855        0.130481      0.000629235     0.000223409         0.968528        0.203687     -0.000110015    -8.73228e-05
                     0.000613932     0.000124062       -0.0414521        0.117802      9.90742e-05      1.3915e-05         0.987376       0.0932904
                        0.968041        0.203881     -1.39525e-05     5.05653e-05       0.00189822         0.14345     -0.000532668    -1.83943e-05
                    -5.37407e-05     8.90582e-06         0.987146       0.0929223     -0.000614025    -0.000116236        0.0185935        0.123523
281752                -0.0595415        0.130498       0.00062925     0.000223142         0.968601         0.20334     -0.000110006    -8.73571e-05
                     0.000614063     0.000123846       -0.0414113        0.117813      9.91435e-05     1.38566e-05          0.98741       0.0929334
                        0.968114        0.203534     -1.38301e-05      5.0308e-05       0.00195382        0.143446     -0.000532741    -1.82175e-05
                    -5.37643e-05      8.8612e-06          0.98718       0.0925653     -0.000614129    -0.000116096        0.0186409        0.123512
281754                -0.0594974        0.130515      0.000629265     0.000222875         0.968675        0.202993     -0.000109997    -8.73914e-05
                     0.000614194      0.00012363       -0.0413706        0.117823      9.92126e-05     1.37982e-05         0.987444       0.0925764
                        0.968187        0.203187     -1.37082e-05     5.00512e-05       0.00200942        0.143443     -0.000532814    -1.80405e-05
                    -5.37879e-05     8.81685e-06         0.987214       0.0922083     -0.000614232    -0.000115956        0.0186883        0.123501
281756                -0.0594534        0.130533       0.00062928     0.000222608         0.968748        0.202646     -0.000109988    -8.74258e-05
                     0.000614325     0.000123414       -0.0413298        0.117834      9.92817e-05     1.37399e-05         0.987477       0.0922194
                         0.96826         0.20284     -1.35869e-05      4.9795e-05       0.00206502        0.143439     -0.000532887    -1.78634e-05
                    -5.38116e-05     8.77277e-06         0.987247       0.0918513     -0.000614336    -0.000115816        0.0187356         0.12349
281758                -0.0594093         0.13055      0.000629295     0.000222341         0.968821        0.202298     -0.000109979    -8.74603e-05
                     0.000614455     0.000123197       -0.0412891        0.117844      9.93507e-05     1.36815e-05         0.987511       0.0918624
                        0.968333        0.202493     -1.34661e-05     4.95394e-05       0.00212062        0.143435     -0.000532961    -1.76861e-05
                    -5.38353e-05     8.72895e-06         0.987281       0.0914943     -0.000614439    -0.000115677         0.018783        0.123479
281760                -0.0593653        0.130567      0.000629311     0.000222073         0.968894        0.201951      -0.00010997    -8.74948e-05
                     0.000614586      0.00012298       -0.0412484        0.117854      9.94196e-05     1.36232e-05         0.987545       0.0915053
                        0.968406        0.202145     -1.33458e-05     4.92844e-05       0.00217621        0.143432     -0.000533034    -1.75087e-05
                     -5.3859e-05      8.6854e-06         0.987314       0.0911372     -0.000614542    -0.000115537        0.0188304        0.123468
281762                -0.0593212        0.130584      0.000629327     0.000221805         0.968966        0.201604     -0.000109961    -8.75293e-05
                     0.000614717     0.000122763       -0.0412076        0.117865      9.94883e-05     1.35649e-05         0.987578       0.0911483
                        0.968479        0.201798      -1.3226e-05     4.90299e-05        0.0022318        0.143428     -0.000533107    -1.73312e-05
