! TOUCHSTONE file generated by CST MICROWAVE STUDIO
! Date and time: Tue Oct 14 07:28:50 2025
! Project name: Teste_Macro_Metasurface_Nanopilar.cst
! Parameters = {H=600; L_x=130; L_y=200; Lambda=1064; Max_L=200; Min_L=70; PathPara=1; Phi=0; Step_L=10; Theta=0; p=520; phaseX=180; phaseY=0}
! Header version: 2018
! Port assignment regex: !\s*Touchstone port\s*([0-9]+)\s*=\s*(CST MWS port|CST DS port)\s*([0-9]+|Zmin|Zmax)\s*\(\"(.*)\"\)(\s*mode\s*([0-9]+))?.*
! Touchstone port assignment:
! Touchstone port 1 = CST MWS port Zmax ("") mode 1
! Touchstone port 2 = CST MWS port Zmax ("") mode 2
! Touchstone port 3 = CST MWS port Zmin ("") mode 1
! Touchstone port 4 = CST MWS port Zmin ("") mode 2
! S-Parameters are not renormalized. Each port impedance will be approximated by the real part at minimum frequency. The values are described via the [Reference] keyword.
! Default impedance is overridden by [Reference]
[Version] 2.0
# GHz S RI R 376.73
[Number of Ports] 4
[Reference]
376.73 376.73 259.814 259.814 
[Number of Frequencies] 51
[Network Data]
281700                 -0.192891      -0.0431789      7.70471e-05     0.000447851         0.900462        0.377367      -0.00029668     0.000154604
                       0.0001244     0.000345542        -0.196014       -0.358085      0.000367551     0.000201732          0.63498        0.635417
                        0.900551        0.377585      0.000316842     0.000310532          0.16425        0.103316     -0.000341904     8.42178e-06
                    -0.000243474    -0.000131484          0.63509         0.63503     -0.000358438    -6.34264e-05         0.359471        0.167913
281702                 -0.192918      -0.0431484      7.69333e-05     0.000448263         0.900617        0.376987     -0.000298435      0.00015425
                     0.000124312     0.000345587        -0.196283       -0.358269      0.000367867     0.000201534         0.635347        0.634825
                        0.900707        0.377204      0.000317401     0.000310537         0.164336        0.103218     -0.000342003     8.83256e-06
                    -0.000243833    -0.000131504         0.635456        0.634441      -0.00035836    -6.32017e-05         0.359946        0.167593
281704                 -0.192946      -0.0431179      7.68312e-05     0.000448673         0.900772        0.376606     -0.000300208     0.000153879
                     0.000124225     0.000345632        -0.196553       -0.358453      0.000368182     0.000201335         0.635713        0.634232
                        0.900863        0.376823      0.000317961     0.000310542         0.164422         0.10312     -0.000342106      9.2505e-06
                    -0.000244193    -0.000131522         0.635821        0.633853     -0.000358281    -6.29772e-05          0.36042         0.16727
281706                 -0.192973      -0.0430875      7.67422e-05     0.000449082         0.900927        0.376225        -0.000302     0.000153491
                     0.000124138     0.000345678        -0.196823       -0.358638      0.000368496     0.000201136         0.636078        0.633638
                        0.901018        0.376441      0.000318524     0.000310545         0.164507        0.103023     -0.000342214      9.6766e-06
                    -0.000244555    -0.000131538         0.636185        0.633264     -0.000358202     -6.2753e-05         0.360894        0.166944
281708                 -0.193001       -0.043057       7.6668e-05     0.000449489         0.901082        0.375845     -0.000303813     0.000153084
                     0.000124052     0.000345724        -0.197094       -0.358822      0.000368809     0.000200936         0.636441        0.633044
                        0.901173         0.37606      0.000319088     0.000310547         0.164593        0.102925     -0.000342328     1.01121e-05
                    -0.000244917    -0.000131554         0.636548        0.632675     -0.000358123     -6.2529e-05         0.361366        0.166614
281710                 -0.193028      -0.0430264      7.66107e-05     0.000449894         0.901236        0.375464     -0.000305647     0.000152657
                     0.000123966     0.000345771        -0.197365       -0.359006      0.000369122     0.000200735         0.636804         0.63245
                        0.901328        0.375679      0.000319655     0.000310549         0.164679        0.102827     -0.000342449     1.05584e-05
                    -0.000245279    -0.000131567          0.63691        0.632086     -0.000358043    -6.23053e-05         0.361838        0.166282
281712                 -0.193056      -0.0429959      7.65726e-05     0.000450296          0.90139        0.375083     -0.000307505     0.000152209
                     0.000123881     0.000345819        -0.197637        -0.35919      0.000369433     0.000200534         0.637165        0.631856
                        0.901483        0.375297      0.000320225     0.000310549         0.164764        0.102729     -0.000342578     1.10174e-05
                    -0.000245643    -0.000131579         0.637271        0.631497     -0.000357964    -6.20819e-05         0.362309        0.165947
281714                 -0.193083      -0.0429654      7.65565e-05     0.000450695         0.901545        0.374702     -0.000309388     0.000151739
                     0.000123796     0.000345868        -0.197909       -0.359374      0.000369743     0.000200333         0.637525        0.631261
                        0.901638        0.374916      0.000320797     0.000310549          0.16485        0.102631     -0.000342716     1.14913e-05
                    -0.000246007    -0.000131589          0.63763        0.630908     -0.000357884    -6.18586e-05         0.362777        0.165609
281716                 -0.193111      -0.0429348      7.65655e-05     0.000451089         0.901699        0.374321       -0.0003113     0.000151245
                     0.000123713     0.000345918        -0.198181       -0.359558       0.00037005      0.00020013         0.637883        0.630667
                        0.901792        0.374535      0.000321373     0.000310547         0.164935        0.102533     -0.000342867      1.1983e-05
                    -0.000246373    -0.000131596         0.637989        0.630319     -0.000357803    -6.16357e-05         0.363244        0.165267
281718                 -0.193138      -0.0429042      7.66037e-05     0.000451477         0.901853         0.37394     -0.000313245     0.000150724
                      0.00012363     0.000345969        -0.198455       -0.359742      0.000370354     0.000199926          0.63824        0.630071
                        0.901947        0.374153      0.000321952     0.000310544         0.165021        0.102435     -0.000343033     1.24959e-05
                    -0.000246739      -0.0001316         0.638346         0.62973     -0.000357723     -6.1413e-05         0.363707        0.164923
281720                 -0.193165      -0.0428736      7.66759e-05     0.000451858         0.902006        0.373559     -0.000315225     0.000150174
                     0.000123549     0.000346022        -0.198728       -0.359925      0.000370655     0.000199721         0.638596        0.629476
                        0.902101        0.373772      0.000322535      0.00031054         0.165106        0.102336     -0.000343217     1.30348e-05
                    -0.000247106      -0.0001316         0.638702         0.62914     -0.000357642    -6.11906e-05         0.364168        0.164576
281722                 -0.193193       -0.042843      7.67877e-05     0.000452229          0.90216        0.373178     -0.000317249      0.00014959
                      0.00012347     0.000346077        -0.199002       -0.360109       0.00037095     0.000199512          0.63895        0.628881
                        0.902254         0.37339      0.000323123     0.000310536         0.165192        0.102238     -0.000343425     1.36057e-05
                    -0.000247474    -0.000131597         0.639057        0.628551     -0.000357561    -6.09684e-05         0.364625        0.164228
281724                  -0.19322      -0.0428124      7.69464e-05     0.000452587         0.902313        0.372796     -0.000319325     0.000148968
                     0.000123392     0.000346135        -0.199277       -0.360292      0.000371238     0.000199297         0.639303        0.628285
                        0.902408        0.373009      0.000323717      0.00031053         0.165277         0.10214     -0.000343663     1.42169e-05
                    -0.000247844    -0.000131588         0.639411        0.627962     -0.000357479    -6.07465e-05         0.365078        0.163878
281726                 -0.193248      -0.0427817      7.71607e-05     0.000452927         0.902467        0.372415     -0.000321464     0.000148299
                     0.000123317     0.000346197        -0.199552       -0.360475      0.000371516     0.000199071         0.639654         0.62769
                        0.902562        0.372627      0.000324318     0.000310523         0.165362        0.102042      -0.00034394     1.48794e-05
                    -0.000248215    -0.000131572         0.639763        0.627374     -0.000357397    -6.05248e-05         0.365527        0.163528
281728                 -0.193275       -0.042751      7.74416e-05     0.000453245          0.90262        0.372034     -0.000323684     0.000147574
                     0.000123244     0.000346263        -0.199827       -0.360657      0.000371787      0.00019882         0.640004        0.627094
                        0.902715        0.372245      0.000324928     0.000310515         0.165447        0.101943     -0.000344271     1.56091e-05
                    -0.000248588    -0.000131548         0.640115        0.626786     -0.000357315    -6.03035e-05         0.365972        0.163178
281730                 -0.193302      -0.0427204      7.78032e-05     0.000453529         0.902773        0.371652      -0.00032601     0.000146777
                     0.000123175     0.000346335        -0.200104       -0.360839      0.000372068     0.000198529         0.640351        0.626499
                        0.902868        0.371864      0.000325549     0.000310506         0.165532        0.101845     -0.000344677      1.6429e-05
                    -0.000248965    -0.000131513         0.640465        0.626198     -0.000357232    -6.00823e-05         0.366413         0.16283
281732                  -0.19333      -0.0426897      7.82632e-05     0.000453768         0.902925        0.371271     -0.000328481     0.000145883
                      0.00012311     0.000346417        -0.200381        -0.36102      0.000372403     0.000198199         0.640696        0.625904
                        0.903021        0.371482      0.000326186     0.000310496         0.165617        0.101746     -0.000345189     1.73736e-05
                    -0.000249346    -0.000131462         0.640813        0.625611     -0.000357148    -5.98613e-05         0.366851        0.162484
281734                 -0.193357      -0.0426589      7.88443e-05     0.000453939         0.903078        0.370889     -0.000331163      0.00014485
                      0.00012305     0.000346513         -0.20066       -0.361201      0.000372822     0.000197899         0.641039         0.62531
                        0.903174          0.3711      0.000326844     0.000310486         0.165702        0.101648     -0.000345862      1.8498e-05
                    -0.000249736    -0.000131391         0.641161        0.625025     -0.000357063    -5.96404e-05         0.367287        0.162142
281736                 -0.193384      -0.0426282      7.95753e-05     0.000454009          0.90323        0.370508     -0.000334172     0.000143602
                     0.000122995      0.00034663        -0.200939        -0.36138      0.000373259     0.000197683         0.641379        0.624718
                        0.903326        0.370718      0.000327532     0.000310477         0.165787        0.101549     -0.000346794      1.9894e-05
                    -0.000250141    -0.000131289         0.641506        0.624441     -0.000356977    -5.94194e-05         0.367722        0.161804
281738                 -0.193412      -0.0425974      8.04913e-05     0.000453919         0.903383        0.370126     -0.000337728     0.000141984
                     0.000122943     0.000346782        -0.201221       -0.361559      0.000373653     0.000197516         0.641715        0.624128
                        0.903478        0.370337      0.000328268     0.000310469         0.165872         0.10145     -0.000348177     2.17274e-05
                    -0.000250579    -0.000131141         0.641851        0.623858     -0.000356889    -5.91977e-05         0.368157        0.161469
281740                 -0.193439      -0.0425667      8.16294e-05     0.000453563         0.903535        0.369744     -0.000342326      0.00013963
                     0.000122885     0.000346997        -0.201506       -0.361737      0.000374008     0.000197352         0.642047        0.623542
                        0.903631        0.369955      0.000329085     0.000310469         0.165957        0.101351     -0.000350445     2.43261e-05
                     -0.00025109    -0.000130928         0.642193        0.623279     -0.000356799    -5.89742e-05         0.368595        0.161138
281742                 -0.193466      -0.0425359      8.30027e-05     0.000452736         0.903687        0.369362     -0.000349292     0.000135432
                     0.000122768      0.00034733        -0.201794       -0.361914      0.000374341      0.00019718         0.642374        0.622965
                        0.903783        0.369573      0.000330055      0.00031049         0.166041        0.101253     -0.000354795     2.84173e-05
                    -0.000251791    -0.000130639         0.642532        0.622704     -0.000356705    -5.87457e-05         0.369036        0.160809
281744                 -0.193494       -0.042505       8.4479e-05      0.00045101         0.903839        0.368981     -0.000363642     0.000124102
                     0.000122365     0.000347826        -0.202089       -0.362091      0.000374663     0.000196998         0.642696        0.622403
                        0.903934        0.369191       0.00033138     0.000310584         0.166126        0.101154     -0.000365813     3.57218e-05
                    -0.000252966     -0.00013047         0.642864        0.622139     -0.000356612    -5.85054e-05         0.369481        0.160482
281746                 -0.193521      -0.0424742      8.51492e-05     0.000447528          0.90399        0.368599     -0.000400655     1.03704e-05
                      0.00012119     0.000347801        -0.202397        -0.36227       0.00037498     0.000196811         0.643019        0.621882
                        0.904086        0.368809      0.000333884     0.000311088         0.166211        0.101055     -0.000414942     4.06011e-05
                    -0.000254404    -0.000131511         0.643165          0.6216     -0.000356537    -5.82479e-05         0.369934        0.160155
281748                 -0.193548      -0.0424434      8.02494e-05     0.000442713         0.904142        0.368217     -0.000260748     0.000160426
                     0.000120965     0.000346316        -0.202765       -0.362543       0.00037529     0.000196625         0.643415         0.62152
                        0.904237        0.368427      0.000343545     0.000325159         0.166295        0.100956     -0.000361758     -9.6755e-05
                    -0.000253847    -0.000133152         0.643364        0.620736     -0.000356508    -5.80053e-05         0.370404        0.159824
281750                 -0.193576      -0.0424124      7.09894e-05     0.000454819         0.904293        0.367835     -0.000381585     6.41064e-05
                     0.000121569     0.000345177        -0.202919       -0.362691      0.000375502     0.000196379         0.643687        0.620328
                        0.904389        0.368044      0.000325674     0.000310582         0.166379        0.100857     -0.000350991     0.000159377
                    -0.000252617    -0.000133913         0.643924        0.620303      -0.00035651    -5.78931e-05         0.370779        0.159383
281752                 -0.193603      -0.0423815      8.85463e-05     0.000466847         0.904444        0.367453     -0.000335588      0.00014319
                     0.000120812     0.000344893        -0.203223        -0.36286      0.000375926     0.000196163         0.644047        0.620153
                         0.90454        0.367662      0.000329704     0.000312035         0.166464        0.100758      -0.00033993     4.49352e-06
                    -0.000253454    -0.000134798         0.644271        0.619786     -0.000356308    -5.75967e-05         0.371244        0.159157
281754                  -0.19363      -0.0423506      0.000111647     0.000462319         0.904595        0.367071     -0.000337537     0.000143552
                       0.0001207     0.000345603         -0.20352       -0.363046      0.000376245     0.000195968         0.644564        0.619648
                        0.904691         0.36728      0.000329928     0.000311206         0.166548        0.100659     -0.000338507     5.87532e-06
                    -0.000254218    -0.000134057         0.644623        0.619256     -0.000356259    -5.73839e-05         0.371714        0.158833
281756                 -0.193657      -0.0423196      0.000145209      0.00043616         0.904746        0.366688     -0.000340506     0.000142684
                     0.000120839     0.000345942        -0.203812       -0.363236       0.00037656     0.000195761         0.645036        0.618993
                        0.904842        0.366898      0.000330911     0.000310804         0.166632        0.100559     -0.000338625      7.9565e-06
                    -0.000254506    -0.000133615         0.644991        0.618735     -0.000356185    -5.71754e-05          0.37218        0.158501
281758                 -0.193685      -0.0422886      0.000130049      0.00032883         0.904896        0.366306     -0.000343363     0.000141651
                     0.000120916     0.000346123        -0.204101       -0.363428      0.000376875      0.00019555         0.645423        0.618311
                        0.904993        0.366515      0.000331773     0.000310629         0.166717         0.10046     -0.000338953     9.62635e-06
                    -0.000254787    -0.000133376         0.645393        0.618227     -0.000356104    -5.69644e-05         0.372645        0.158165
281760                 -0.193712      -0.0422575      9.50263e-06     0.000368299         0.905047        0.365924     -0.000346052     0.000140598
                      0.00012094     0.000346245        -0.204389        -0.36362       0.00037719     0.000195337         0.645767        0.617648
                        0.905143        0.366133      0.000332545     0.000310527         0.166801        0.100361     -0.000339284     1.09556e-05
                    -0.000255097    -0.000133229         0.645858        0.617715     -0.000356021    -5.67515e-05         0.373111        0.157825
281762                 -0.193739      -0.0422264       1.3024e-05     0.000421251         0.905197        0.365541     -0.000348608     0.000139548
                     0.000120931      0.00034634        -0.204677       -0.363811      0.000377505     0.000195122         0.646097        0.617006
                        0.905293         0.36575      0.000333263     0.000310456         0.166885        0.100261     -0.000339579     1.20483e-05
