! TOUCHSTONE file generated by CST MICROWAVE STUDIO
! Date and time: Tue Oct 14 07:26:19 2025
! Project name: Teste_Macro_Metasurface_Nanopilar.cst
! Parameters = {H=600; L_x=90; L_y=200; Lambda=1064; Max_L=200; Min_L=70; PathPara=1; Phi=0; Step_L=10; Theta=0; p=520; phaseX=180; phaseY=0}
! Header version: 2018
! Port assignment regex: !\s*Touchstone port\s*([0-9]+)\s*=\s*(CST MWS port|CST DS port)\s*([0-9]+|Zmin|Zmax)\s*\(\"(.*)\"\)(\s*mode\s*([0-9]+))?.*
! Touchstone port assignment:
! Touchstone port 1 = CST MWS port Zmax ("") mode 1
! Touchstone port 2 = CST MWS port Zmax ("") mode 2
! Touchstone port 3 = CST MWS port Zmin ("") mode 1
! Touchstone port 4 = CST MWS port Zmin ("") mode 2
! S-Parameters are not renormalized. Each port impedance will be approximated by the real part at minimum frequency. The values are described via the [Reference] keyword.
! Default impedance is overridden by [Reference]
[Version] 2.0
# GHz S RI R 376.73
[Number of Ports] 4
[Reference]
376.73 376.73 259.814 259.814 
[Number of Frequencies] 51
[Network Data]
281700                 -0.916065        0.191776     -0.000109763    -0.000132988        -0.166176        0.247885     -0.000139821    -8.07853e-05
                     2.35213e-05     0.000209693       -0.0163062       -0.140789      0.000158159     0.000325059         0.190599       -0.967289
                       -0.166402        0.247973      0.000483309      9.7496e-05       -0.0505015       -0.926905      0.000389066     -0.00017766
                    -0.000297067     3.69103e-05         0.189834       -0.966929      0.000145303    -0.000285111       -0.0669739        0.124777
281702                 -0.915807        0.192375     -0.000110627    -0.000133168         -0.16622        0.248352      -0.00013986    -8.09701e-05
                     2.36959e-05     0.000209431       -0.0163599       -0.140803      0.000158571      0.00032477         0.190169        -0.96737
                       -0.166446         0.24844      0.000483261     9.64079e-05       -0.0514113       -0.926725      0.000389211    -0.000177999
                    -0.000297032     3.71005e-05         0.189404       -0.967009       0.00014517    -0.000285108       -0.0669185         0.12483
281704                 -0.915548        0.192974     -0.000111492    -0.000133346        -0.166263        0.248819       -0.0001399    -8.11547e-05
                       2.387e-05     0.000209169       -0.0164137       -0.140818      0.000158983     0.000324481         0.189738       -0.967451
                       -0.166489        0.248907       0.00048321       9.532e-05       -0.0523207       -0.926545      0.000389355     -0.00017834
                    -0.000296996     3.72906e-05         0.188974        -0.96709      0.000145038    -0.000285105       -0.0668632        0.124883
281706                 -0.915289        0.193573      -0.00011236    -0.000133521        -0.166305        0.249286     -0.000139941     -8.1339e-05
                     2.40435e-05     0.000208907       -0.0164674       -0.140832      0.000159395     0.000324191         0.189308       -0.967531
                       -0.166531        0.249375      0.000483154     9.42323e-05       -0.0532297       -0.926363      0.000389497    -0.000178681
                     -0.00029696     3.74806e-05         0.188544        -0.96717      0.000144906    -0.000285101       -0.0668078        0.124936
281708                  -0.91503        0.194171     -0.000113229    -0.000133693        -0.166346        0.249753     -0.000139982     -8.1523e-05
                     2.42163e-05     0.000208645       -0.0165212       -0.140847      0.000159806     0.000323901         0.188877       -0.967612
                       -0.166572        0.249843      0.000483096     9.31449e-05       -0.0541384        -0.92618      0.000389639    -0.000179023
                    -0.000296923     3.76705e-05         0.188114        -0.96725      0.000144774    -0.000285097       -0.0667523        0.124989
281710                 -0.914769        0.194769       -0.0001141    -0.000133862        -0.166387         0.25022     -0.000140025    -8.17068e-05
                     2.43885e-05     0.000208381        -0.016575       -0.140861      0.000160216      0.00032361         0.188447       -0.967692
                       -0.166613         0.25031      0.000483033     9.20578e-05       -0.0550466       -0.925996      0.000389779    -0.000179365
                    -0.000296887     3.78603e-05         0.187683        -0.96733      0.000144641    -0.000285093       -0.0666968        0.125041
281712                 -0.914509        0.195366     -0.000114973    -0.000134029        -0.166427        0.250688     -0.000140069    -8.18902e-05
                     2.45601e-05     0.000208118       -0.0166288       -0.140876      0.000160626     0.000323319         0.188016       -0.967772
                       -0.166653        0.250778      0.000482967      9.0971e-05       -0.0559544       -0.925812      0.000389919    -0.000179709
                     -0.00029685       3.805e-05         0.187253        -0.96741      0.000144509    -0.000285088       -0.0666413        0.125094
281714                 -0.914248        0.195963     -0.000115848    -0.000134192        -0.166466        0.251155     -0.000140114    -8.20734e-05
                     2.47311e-05     0.000207854       -0.0166826        -0.14089      0.000161036     0.000323027         0.187585       -0.967852
                       -0.166693        0.251246      0.000482897     8.98844e-05       -0.0568618       -0.925626      0.000390057    -0.000180053
                    -0.000296813     3.82395e-05         0.186823        -0.96749      0.000144377    -0.000285083       -0.0665857        0.125147
281716                 -0.913986         0.19656     -0.000116725    -0.000134353        -0.166505        0.251623      -0.00014016    -8.22564e-05
                     2.49015e-05     0.000207589       -0.0167364       -0.140905      0.000161445     0.000322734         0.187155       -0.967931
                       -0.166731        0.251714      0.000482824     8.87982e-05       -0.0577689       -0.925439      0.000390194    -0.000180398
                    -0.000296775     3.84289e-05         0.186393       -0.967569      0.000144245    -0.000285077       -0.0665301          0.1252
281718                 -0.913724        0.197156     -0.000117603    -0.000134511        -0.166542        0.252091     -0.000140207     -8.2439e-05
                     2.50713e-05     0.000207324       -0.0167903       -0.140919      0.000161854     0.000322441         0.186724        -0.96801
                       -0.166769        0.252182      0.000482747     8.77122e-05       -0.0586755       -0.925251       0.00039033    -0.000180744
                    -0.000296738     3.86182e-05         0.185962       -0.967648      0.000144113    -0.000285071       -0.0664745        0.125253
281720                 -0.913461        0.197752     -0.000118484    -0.000134666        -0.166579        0.252559     -0.000140255    -8.26214e-05
                     2.52404e-05     0.000207059       -0.0168441       -0.140933      0.000162262     0.000322147         0.186293        -0.96809
                       -0.166806        0.252651      0.000482666     8.66265e-05       -0.0595817       -0.925062      0.000390465    -0.000181091
                      -0.0002967     3.88074e-05         0.185532       -0.967727      0.000143982    -0.000285065       -0.0664188        0.125306
281722                 -0.913198        0.198347     -0.000119366    -0.000134818        -0.166616        0.253027     -0.000140304    -8.28036e-05
                      2.5409e-05     0.000206793        -0.016898       -0.140948       0.00016267     0.000321853         0.185862       -0.968169
                       -0.166843        0.253119      0.000482582     8.55412e-05       -0.0604875       -0.924872      0.000390598    -0.000181438
                    -0.000296662     3.89964e-05         0.185102       -0.967806       0.00014385    -0.000285058       -0.0663631        0.125358
281724                 -0.912934        0.198942     -0.000120251    -0.000134967        -0.166651        0.253495     -0.000140355    -8.29854e-05
                     2.55769e-05     0.000206526       -0.0169519       -0.140962      0.000163077     0.000321558         0.185432       -0.968247
                       -0.166878        0.253588      0.000482494     8.44562e-05       -0.0613929       -0.924681      0.000390731    -0.000181787
                    -0.000296624     3.91853e-05         0.184671       -0.967885      0.000143719    -0.000285052       -0.0663073        0.125411
281726                  -0.91267        0.199537     -0.000121137    -0.000135113        -0.166686        0.253963     -0.000140406    -8.31671e-05
                     2.57443e-05     0.000206259       -0.0170058       -0.140976      0.000163484     0.000321262         0.185001       -0.968326
                       -0.166913        0.254056      0.000482402     8.33715e-05       -0.0622978       -0.924489      0.000390863    -0.000182136
                    -0.000296586     3.93741e-05         0.184241       -0.967963      0.000143587    -0.000285044       -0.0662515        0.125464
281728                 -0.912405        0.200131     -0.000122025    -0.000135257         -0.16672        0.254431     -0.000140458    -8.33484e-05
                     2.59111e-05     0.000205992       -0.0170597        -0.14099      0.000163891     0.000320966          0.18457       -0.968404
                       -0.166948        0.254525      0.000482307     8.22872e-05       -0.0632024       -0.924296      0.000390993    -0.000182486
                    -0.000296547     3.95627e-05          0.18381       -0.968042      0.000143456    -0.000285037       -0.0661957        0.125517
281730                  -0.91214        0.200725     -0.000122915    -0.000135397        -0.166753          0.2549     -0.000140511    -8.35295e-05
                     2.60772e-05     0.000205724       -0.0171136       -0.141005      0.000164297      0.00032067         0.184139       -0.968483
                       -0.166981        0.254994      0.000482208     8.12032e-05       -0.0641065       -0.924102      0.000391123    -0.000182836
                    -0.000296509     3.97512e-05          0.18338        -0.96812      0.000143325    -0.000285029       -0.0661398        0.125569
281732                 -0.911874        0.201319     -0.000123807    -0.000135535        -0.166786        0.255368     -0.000140565    -8.37103e-05
                     2.62428e-05     0.000205456       -0.0171676       -0.141019      0.000164702     0.000320372         0.183708       -0.968561
                       -0.167014        0.255463      0.000482106     8.01196e-05       -0.0650103       -0.923907      0.000391251    -0.000183188
                     -0.00029647     3.99395e-05         0.182949       -0.968198      0.000143194    -0.000285021       -0.0660839        0.125622
281734                 -0.911608        0.201912     -0.000124701    -0.000135669        -0.166818        0.255837      -0.00014062    -8.38909e-05
                     2.64078e-05     0.000205187       -0.0172215       -0.141033      0.000165108     0.000320074         0.183277       -0.968639
                       -0.167046        0.255932         0.000482     7.90364e-05       -0.0659136       -0.923711      0.000391378     -0.00018354
                     -0.00029643     4.01276e-05         0.182518       -0.968275      0.000143064    -0.000285013        -0.066028        0.125674
281736                 -0.911341        0.202504     -0.000125596    -0.000135801        -0.166849        0.256305     -0.000140676    -8.40712e-05
                     2.65722e-05     0.000204917       -0.0172755       -0.141047      0.000165513     0.000319776         0.182846       -0.968716
                       -0.167077        0.256401       0.00048189     7.79536e-05       -0.0668165       -0.923514      0.000391505    -0.000183893
                    -0.000296391     4.03157e-05         0.182088       -0.968353      0.000142933    -0.000285004        -0.065972        0.125727
281738                 -0.911074        0.203097     -0.000126494     -0.00013593         -0.16688        0.256774     -0.000140733    -8.42513e-05
                      2.6736e-05     0.000204647       -0.0173295       -0.141061      0.000165917     0.000319476         0.182415       -0.968794
                       -0.167108         0.25687      0.000481776     7.68711e-05       -0.0677189       -0.923315       0.00039163    -0.000184247
                    -0.000296352     4.05035e-05         0.181657        -0.96843      0.000142803    -0.000284995       -0.0659159         0.12578
281740                 -0.910806        0.203688     -0.000127393    -0.000136056         -0.16691        0.257243     -0.000140791    -8.44311e-05
                     2.68992e-05     0.000204377       -0.0173834       -0.141076      0.000166321     0.000319176         0.181983       -0.968871
                       -0.167138        0.257339      0.000481659     7.57891e-05        -0.068621       -0.923116      0.000391754    -0.000184601
                    -0.000296312     4.06912e-05         0.181226       -0.968507      0.000142673    -0.000284986       -0.0658599        0.125832
281742                 -0.910538         0.20428     -0.000128294    -0.000136179        -0.166939        0.257712      -0.00014085    -8.46106e-05
                     2.70619e-05     0.000204106       -0.0174375        -0.14109      0.000166725     0.000318876         0.181552       -0.968948
                       -0.167167        0.257809      0.000481539     7.47074e-05       -0.0695226       -0.922916      0.000391877    -0.000184957
                    -0.000296272     4.08787e-05         0.180796       -0.968584      0.000142543    -0.000284977       -0.0658038        0.125885
281744                 -0.910269        0.204871     -0.000129198    -0.000136299        -0.166967        0.258181      -0.00014091    -8.47899e-05
                      2.7224e-05     0.000203834       -0.0174915       -0.141104      0.000167128     0.000318575         0.181121       -0.969025
                       -0.167195        0.258278      0.000481414     7.36262e-05       -0.0704238       -0.922715         0.000392    -0.000185313
                    -0.000296232      4.1066e-05         0.180365       -0.968661      0.000142413    -0.000284967       -0.0657476        0.125937
281746                 -0.909999        0.205462     -0.000130102    -0.000136415        -0.166994         0.25865     -0.000140971     -8.4969e-05
                     2.73855e-05     0.000203562       -0.0175455       -0.141118      0.000167531     0.000318273          0.18069       -0.969102
                       -0.167223        0.258748      0.000481286     7.25454e-05       -0.0713246       -0.922513      0.000392121     -0.00018567
                    -0.000296192     4.12531e-05         0.179934       -0.968737      0.000142284    -0.000284957       -0.0656915         0.12599
281748                  -0.90973        0.206052     -0.000131009    -0.000136529        -0.167021        0.259119     -0.000141033    -8.51477e-05
                     2.75465e-05     0.000203289       -0.0175996       -0.141132      0.000167934      0.00031797         0.180258       -0.969178
                        -0.16725        0.259217      0.000481155      7.1465e-05        -0.072225       -0.922309      0.000392241    -0.000186028
                    -0.000296151       4.144e-05         0.179503       -0.968814      0.000142155    -0.000284947       -0.0656352        0.126042
281750                 -0.909459        0.206642     -0.000131918     -0.00013664        -0.167047        0.259589     -0.000141096    -8.53263e-05
                     2.77069e-05     0.000203016       -0.0176536       -0.141146      0.000168336     0.000317667         0.179827       -0.969255
                       -0.167276        0.259687      0.000481019     7.03851e-05       -0.0731249       -0.922105       0.00039236    -0.000186386
                    -0.000296111     4.16267e-05         0.179072        -0.96889      0.000142025    -0.000284937        -0.065579        0.126095
281752                 -0.909189        0.207232     -0.000132828    -0.000136748        -0.167073        0.260058     -0.000141159    -8.55046e-05
                     2.78667e-05     0.000202742       -0.0177077        -0.14116      0.000168738     0.000317363         0.179396       -0.969331
                       -0.167302        0.260157       0.00048088     6.93056e-05       -0.0740244         -0.9219      0.000392478    -0.000186745
                     -0.00029607     4.18132e-05         0.178641       -0.968966      0.000141897    -0.000284926       -0.0655227        0.126147
281754                 -0.908917        0.207821     -0.000133741    -0.000136853        -0.167097        0.260527     -0.000141224    -8.56826e-05
                      2.8026e-05     0.000202467       -0.0177618       -0.141174       0.00016914     0.000317058         0.178964       -0.969407
                       -0.167327        0.260627      0.000480738     6.82266e-05       -0.0749235       -0.921693      0.000392595    -0.000187106
                    -0.000296029     4.19994e-05          0.17821       -0.969042      0.000141768    -0.000284916       -0.0654664        0.126199
281756                 -0.908645        0.208409     -0.000134655    -0.000136955        -0.167121        0.260997      -0.00014129    -8.58604e-05
                     2.81847e-05     0.000202192       -0.0178159       -0.141188      0.000169541     0.000316752         0.178533       -0.969482
                       -0.167351        0.261097      0.000480591      6.7148e-05       -0.0758221       -0.921486      0.000392711    -0.000187466
                    -0.000295988     4.21854e-05         0.177779       -0.969117       0.00014164    -0.000284905         -0.06541        0.126252
281758                 -0.908373        0.208998     -0.000135571    -0.000137054        -0.167145        0.261467     -0.000141357     -8.6038e-05
                     2.83429e-05     0.000201917         -0.01787       -0.141202      0.000169942     0.000316446         0.178101       -0.969558
                       -0.167374        0.261567      0.000480441       6.607e-05       -0.0767203       -0.921278      0.000392826    -0.000187828
                    -0.000295947     4.23711e-05         0.177348       -0.969193      0.000141512    -0.000284894       -0.0653536        0.126304
281760                   -0.9081        0.209586     -0.000136489     -0.00013715        -0.167167        0.261936     -0.000141424    -8.62153e-05
                     2.85006e-05      0.00020164       -0.0179241       -0.141216      0.000170342     0.000316139          0.17767       -0.969633
                       -0.167397        0.262037      0.000480288     6.49923e-05       -0.0776181       -0.921068       0.00039294    -0.000188191
                    -0.000295906     4.25566e-05         0.176917       -0.969268      0.000141384    -0.000284883       -0.0652972        0.126356
281762                 -0.907827        0.210173     -0.000137408    -0.000137243        -0.167189        0.262406     -0.000141493    -8.63924e-05
                     2.86578e-05     0.000201363       -0.0179782        -0.14123      0.000170742     0.000315832         0.177238       -0.969709
                       -0.167418        0.262507       0.00048013     6.39152e-05       -0.0785154       -0.920858      0.000393053    -0.000188554
