! TOUCHSTONE file generated by CST MICROWAVE STUDIO
! Date and time: Tue Oct 14 07:30:43 2025
! Project name: Teste_Macro_Metasurface_Nanopilar.cst
! Parameters = {H=600; L_x=160; L_y=195; Lambda=1064; Max_L=200; Min_L=70; PathPara=1; Phi=0; Step_L=10; Theta=0; p=520; phaseX=180; phaseY=0}
! Header version: 2018
! Port assignment regex: !\s*Touchstone port\s*([0-9]+)\s*=\s*(CST MWS port|CST DS port)\s*([0-9]+|Zmin|Zmax)\s*\(\"(.*)\"\)(\s*mode\s*([0-9]+))?.*
! Touchstone port assignment:
! Touchstone port 1 = CST MWS port Zmax ("") mode 1
! Touchstone port 2 = CST MWS port Zmax ("") mode 2
! Touchstone port 3 = CST MWS port Zmin ("") mode 1
! Touchstone port 4 = CST MWS port Zmin ("") mode 2
! S-Parameters are not renormalized. Each port impedance will be approximated by the real part at minimum frequency. The values are described via the [Reference] keyword.
! Default impedance is overridden by [Reference]
[Version] 2.0
# GHz S RI R 376.73
[Number of Ports] 4
[Reference]
376.73 376.73 259.814 259.814 
[Number of Frequencies] 51
[Network Data]
281700                 -0.257342       -0.103547     -0.000282348    -0.000189402         0.949177        0.122107      0.000102739    -0.000433367
                    -0.000391127    -0.000187776        -0.248297        -0.16043      1.73354e-05    -0.000418924         0.781747        0.538428
                        0.949257        0.122231      7.20734e-05    -0.000380824          0.27299      -0.0364168      0.000466749    -0.000220136
                     0.000138435    -0.000448873          0.78105        0.538486      0.000502222    -0.000157288         0.235698        0.177909
281702                 -0.257386       -0.103481     -0.000282669     -0.00018927         0.949336        0.121647      9.99644e-05    -0.000454418
                    -0.000391199    -0.000187619         -0.24833       -0.160311      2.05803e-05    -0.000407459         0.781991        0.538092
                        0.949303        0.121839      7.16653e-05    -0.000381128         0.272979       -0.036579      0.000553221    -0.000200677
                     0.000138192    -0.000448918         0.781309        0.538139      0.000478114    -0.000170773         0.235765         0.17776
281704                 -0.257429       -0.103416      -0.00028299    -0.000189138         0.949394        0.121291      9.70576e-05    -0.000455834
                    -0.000391272    -0.000187461        -0.248363       -0.160191      1.96819e-05    -0.000403709         0.782236        0.537753
                        0.949349        0.121447       7.1256e-05    -0.000381432          0.27297       -0.036729      0.000544027    -0.000210398
                     0.000137949    -0.000448963         0.781568        0.537792      0.000491881    -0.000177671         0.235831         0.17761
281706                 -0.257472        -0.10335     -0.000283312    -0.000189005         0.949439        0.120911      9.58184e-05    -0.000456264
                    -0.000391344    -0.000187303        -0.248395       -0.160072      1.87465e-05    -0.000402073          0.78248        0.537413
                        0.949395        0.121055      7.08455e-05    -0.000381734         0.272964      -0.0368792      0.000540979    -0.000212966
                     0.000137706    -0.000449009         0.781826        0.537445      0.000495664    -0.000176484         0.235897        0.177461
281708                 -0.257516       -0.103284     -0.000283635    -0.000188872         0.949483        0.120525      9.50898e-05    -0.000456502
                    -0.000391416    -0.000187145        -0.248428       -0.159953      1.79443e-05    -0.000401233         0.782725        0.537072
                         0.94944        0.120663      7.04338e-05    -0.000382035         0.272959      -0.0370298      0.000539391    -0.000214228
                     0.000137463    -0.000449055         0.782084        0.537098       0.00049717    -0.000175549         0.235963        0.177311
281710                 -0.257559       -0.103218     -0.000283958    -0.000188739         0.949527        0.120137      9.45806e-05    -0.000456677
                    -0.000391487    -0.000186986        -0.248461       -0.159834      1.72444e-05    -0.000400772         0.782971         0.53673
                        0.949485        0.120271       7.0021e-05    -0.000382335         0.272955      -0.0371806      0.000538368     -0.00021503
                      0.00013722    -0.000449102         0.782342        0.536751      0.000497968    -0.000174868         0.236029        0.177162
281712                 -0.257602       -0.103153     -0.000284282    -0.000188605          0.94957        0.119747      9.41852e-05    -0.000456823
                    -0.000391558    -0.000186827        -0.248493       -0.159715      1.66151e-05    -0.000400519         0.783217        0.536386
                         0.94953        0.119879      6.96071e-05    -0.000382634          0.27295      -0.0373316      0.000537623    -0.000215616
                     0.000136978    -0.000449149         0.782599        0.536404      0.000498462    -0.000174336         0.236095        0.177012
281714                 -0.257645       -0.103087     -0.000284606    -0.000188471         0.949614        0.119357      9.38565e-05    -0.000456956
                    -0.000391629    -0.000186667        -0.248526       -0.159596       1.6035e-05    -0.000400391         0.783464        0.536042
                        0.949575        0.119487      6.91921e-05    -0.000382932         0.272945      -0.0374827      0.000537035    -0.000216085
                     0.000136736    -0.000449197         0.782857        0.536056      0.000498801    -0.000173894         0.236161        0.176863
281716                 -0.257688       -0.103021     -0.000284931    -0.000188337         0.949658        0.118967      9.35704e-05     -0.00045708
                      -0.0003917    -0.000186508        -0.248558       -0.159478      1.54902e-05    -0.000400346         0.783712        0.535696
                         0.94962        0.119095       6.8776e-05    -0.000383229          0.27294      -0.0376338      0.000536545    -0.000216481
                     0.000136494    -0.000449246         0.783114        0.535709       0.00049905    -0.000173509         0.236226        0.176713
281718                 -0.257732       -0.102955     -0.000285257    -0.000188202         0.949701        0.118576      9.33136e-05    -0.000457199
                     -0.00039177    -0.000186348        -0.248591       -0.159359      1.49714e-05    -0.000400358         0.783961         0.53535
                        0.949665        0.118703      6.83587e-05    -0.000383525         0.272935       -0.037785      0.000536121    -0.000216828
                     0.000136252    -0.000449295         0.783371        0.535361      0.000499243    -0.000173163         0.236291        0.176563
281720                 -0.257775       -0.102889     -0.000285583    -0.000188067         0.949745        0.118185      9.30784e-05    -0.000457314
                     -0.00039184    -0.000186188        -0.248623        -0.15924      1.44721e-05    -0.000400413         0.784211        0.535003
                        0.949709        0.118311      6.79404e-05     -0.00038382          0.27293      -0.0379362      0.000535747    -0.000217142
                     0.000136011    -0.000449344         0.783627        0.535014      0.000499397    -0.000172844         0.236356        0.176413
281722                 -0.257818       -0.102823     -0.000285909    -0.000187932         0.949788        0.117794      9.28608e-05    -0.000457427
                     -0.00039191    -0.000186027        -0.248656       -0.159122      1.39877e-05      -0.0004005         0.784463        0.534656
                        0.949753        0.117919      6.75211e-05    -0.000384113         0.272925      -0.0380874      0.000535411    -0.000217427
                     0.000135769    -0.000449394         0.783884        0.534666      0.000499525    -0.000172546         0.236421        0.176263
281724                 -0.257861       -0.102757     -0.000286236    -0.000187797         0.949831        0.117403        9.266e-05    -0.000457536
                     -0.00039198    -0.000185866        -0.248688       -0.159003      1.35141e-05    -0.000400612         0.784716        0.534308
                        0.949798        0.117527      6.71006e-05    -0.000384406          0.27292      -0.0382386      0.000535114    -0.000217687
                     0.000135528    -0.000449445          0.78414        0.534319      0.000499634    -0.000172262         0.236486        0.176113
281726                 -0.257904       -0.102691     -0.000286563    -0.000187661         0.949875        0.117012      9.24827e-05    -0.000457642
                    -0.000392049    -0.000185705         -0.24872       -0.158885       1.3048e-05    -0.000400747         0.784974         0.53396
                        0.949842        0.117135      6.66792e-05    -0.000384697         0.272915      -0.0383899      0.000534872    -0.000217911
                     0.000135287    -0.000449496         0.784396        0.533971      0.000499728    -0.000171989          0.23655        0.175962
281728                 -0.257947       -0.102626     -0.000286891    -0.000187525         0.949917        0.116621       9.2372e-05    -0.000457736
                    -0.000392118    -0.000185543        -0.248753       -0.158767      1.25863e-05    -0.000400899         0.785243        0.533611
                        0.949885        0.116743      6.62567e-05    -0.000384988          0.27291      -0.0385411      0.000534789    -0.000218033
                     0.000135046    -0.000449548         0.784652        0.533623       0.00049981    -0.000171726         0.236612         0.17581
281730                  -0.25799        -0.10256     -0.000287219    -0.000187389          0.94996        0.116229      9.96149e-05    -0.000434525
                    -0.000392187    -0.000185382        -0.248785       -0.158649      1.21261e-05    -0.000401065         0.785614        0.533207
                        0.949929        0.116351      6.58332e-05    -0.000385277         0.272905      -0.0386924      0.000465418    -0.000222919
                     0.000134806      -0.0004496         0.784907        0.533275      0.000499884     -0.00017147         0.236663        0.175648
281732                 -0.258033       -0.102494     -0.000287548    -0.000187253         0.950003        0.115838      9.16219e-05    -0.000458014
                    -0.000392255    -0.000185219        -0.248817       -0.158531      1.16651e-05    -0.000401244         0.785632        0.532882
                        0.949973        0.115959      6.54086e-05    -0.000385565         0.272899      -0.0388436      0.000533356    -0.000219062
                     0.000134565    -0.000449653         0.785162        0.532927      0.000499951     -0.00017122         0.236766        0.175536
281734                 -0.258076       -0.102428     -0.000287877    -0.000187117         0.950045        0.115447      9.15255e-05    -0.000458108
                    -0.000392324    -0.000185057         -0.24885       -0.158413      1.12014e-05     -0.00040143         0.785923        0.532553
                        0.950016        0.115567       6.4983e-05    -0.000385852         0.272894      -0.0389949      0.000533299    -0.000219169
                     0.000134325    -0.000449707         0.785417        0.532579      0.000500013    -0.000170975         0.236819        0.175373
281736                 -0.258119       -0.102362     -0.000288207     -0.00018698         0.950088        0.115055      9.13709e-05     -0.00045821
                    -0.000392392    -0.000184894        -0.248882       -0.158295      1.07344e-05    -0.000401623         0.786186        0.532208
                        0.950059        0.115175      6.45565e-05    -0.000386137         0.272888      -0.0391462      0.000533105    -0.000219358
                     0.000134085    -0.000449761         0.785672        0.532231      0.000500069    -0.000170733         0.236881        0.175221
281738                 -0.258162       -0.102296     -0.000288538    -0.000186844          0.95013        0.114664      9.12036e-05    -0.000458315
                    -0.000392459    -0.000184731        -0.248914       -0.158177       1.0264e-05    -0.000401817         0.786444         0.53186
                        0.950102        0.114782      6.41289e-05    -0.000386422         0.272883      -0.0392974       0.00053288    -0.000219565
                     0.000133845    -0.000449815         0.785927        0.531883      0.000500122    -0.000170495         0.236944         0.17507
281740                 -0.258205       -0.102229     -0.000288868    -0.000186709         0.950172        0.114272      9.10322e-05     -0.00045842
                    -0.000392527    -0.000184568        -0.248946       -0.158059      9.79105e-06    -0.000402012         0.786699        0.531511
                        0.950145         0.11439      6.37006e-05    -0.000386704         0.272877      -0.0394487      0.000532646    -0.000219778
                     0.000133605     -0.00044987         0.786181        0.531535      0.000500171     -0.00017026         0.237008        0.174919
281742                 -0.258248       -0.102163     -0.000289196    -0.000186575         0.950214        0.113881      9.08595e-05    -0.000458525
                    -0.000392594    -0.000184404        -0.248979       -0.157942      9.31647e-06    -0.000402207         0.786954        0.531162
                        0.950188        0.113998      6.32734e-05    -0.000386986         0.272871         -0.0396      0.000532408    -0.000219992
                     0.000133365    -0.000449926         0.786435        0.531186      0.000500218    -0.000170027         0.237072        0.174769
281744                 -0.258291       -0.102097     -0.000289523    -0.000186437         0.950255        0.113489      9.06866e-05    -0.000458631
                    -0.000392661    -0.000184241        -0.249011       -0.157824      8.84137e-06    -0.000402399         0.787208        0.530813
                         0.95023        0.113606      6.28449e-05    -0.000387269         0.272865      -0.0397513       0.00053217    -0.000220206
                     0.000133125    -0.000449983         0.786689        0.530838      0.000500263    -0.000169797         0.237136        0.174619
281746                 -0.258334       -0.102031     -0.000289851    -0.000186298         0.950297        0.113098      9.05138e-05    -0.000458736
                    -0.000392727    -0.000184076        -0.249043       -0.157707      8.36666e-06     -0.00040259         0.787462        0.530463
                        0.950272        0.113214      6.24131e-05    -0.000387551         0.272859      -0.0399026      0.000531931     -0.00022042
                     0.000132885     -0.00045004         0.786943        0.530489      0.000500306    -0.000169568           0.2372        0.174469
281748                 -0.258377       -0.101965     -0.000290182    -0.000186159         0.950338        0.112706      9.03414e-05    -0.000458842
                    -0.000392792    -0.000183912        -0.249075       -0.157589      7.89295e-06     -0.00040278         0.787716        0.530114
                        0.950315        0.112822      6.19805e-05    -0.000387831         0.272853      -0.0400538      0.000531694    -0.000220633
                     0.000132646      -0.0004501         0.787196        0.530141      0.000500347     -0.00016934         0.237263        0.174319
281750                  -0.25842       -0.101899     -0.000290512     -0.00018602         0.950379        0.112315      9.01695e-05    -0.000458947
                    -0.000392858    -0.000183742        -0.249107       -0.157472      7.42063e-06    -0.000402968          0.78797        0.529764
                        0.950357        0.112429      6.15473e-05    -0.000388109         0.272847      -0.0402051      0.000531457    -0.000220844
                     0.000132412    -0.000450159          0.78745        0.529792      0.000500387    -0.000169115         0.237327        0.174169
281752                 -0.258463       -0.101833     -0.000290843    -0.000185881          0.95042        0.111923       8.9998e-05    -0.000459052
                    -0.000392929    -0.000183578        -0.249139       -0.157355      6.94986e-06    -0.000403155         0.788223        0.529415
                        0.950399        0.112037      6.11132e-05    -0.000388387         0.272841      -0.0403564      0.000531222    -0.000221055
                     0.000132175    -0.000450213         0.787703        0.529444      0.000500425     -0.00016889         0.237391        0.174019
281754                 -0.258506       -0.101766     -0.000291174    -0.000185742         0.950461        0.111532       8.9827e-05    -0.000459157
                    -0.000392995    -0.000183415        -0.249171       -0.157238      6.48064e-06    -0.000403341         0.788477        0.529065
                         0.95044        0.111645      6.06783e-05    -0.000388663         0.272834      -0.0405077      0.000530987    -0.000221264
                     0.000131935     -0.00045027         0.787955        0.529095      0.000500463    -0.000168667         0.237454        0.173869
281756                 -0.258549         -0.1017     -0.000291506    -0.000185602         0.950502         0.11114      8.96564e-05    -0.000459261
                     -0.00039306     -0.00018325        -0.249203       -0.157121      6.01288e-06    -0.000403527          0.78873        0.528716
                        0.950482        0.111253      6.02426e-05    -0.000388938         0.272828       -0.040659      0.000530754    -0.000221472
                     0.000131696    -0.000450329         0.788208        0.528746      0.000500501    -0.000168444         0.237518        0.173719
281758                 -0.258591       -0.101634     -0.000291837    -0.000185463         0.950543        0.110749      8.94862e-05    -0.000459366
                    -0.000393125    -0.000183084        -0.249235       -0.157004      5.54643e-06    -0.000403713         0.788983        0.528366
                        0.950523         0.11086      5.98061e-05    -0.000389212         0.272821      -0.0408103      0.000530521     -0.00022168
                     0.000131457    -0.000450389          0.78846        0.528397      0.000500538    -0.000168223         0.237581        0.173568
281760                 -0.258634       -0.101568     -0.000292168    -0.000185323         0.950583        0.110357      8.93164e-05    -0.000459471
                     -0.00039319    -0.000182918        -0.249267       -0.156887      5.08111e-06    -0.000403899         0.789236        0.528016
                        0.950565        0.110468      5.93687e-05    -0.000389485         0.272815      -0.0409616       0.00053029    -0.000221886
                     0.000131219    -0.000450449         0.788712        0.528048      0.000500575    -0.000168003         0.237645        0.173418
281762                 -0.258677       -0.101502       -0.0002925    -0.000185184         0.950623        0.109965      8.91468e-05    -0.000459575
                    -0.000393255    -0.000182752        -0.249299        -0.15677      4.61674e-06    -0.000404084         0.789489        0.527667
                        0.950606        0.110076      5.89304e-05    -0.000389757         0.272808      -0.0411129      0.000530059    -0.000222092
