! TOUCHSTONE file generated by CST MICROWAVE STUDIO
! Date and time: Tue Oct 14 07:29:59 2025
! Project name: Teste_Macro_Metasurface_Nanopilar.cst
! Parameters = {H=600; L_x=150; L_y=155; Lambda=1064; Max_L=200; Min_L=70; PathPara=1; Phi=0; Step_L=10; Theta=0; p=520; phaseX=180; phaseY=0}
! Header version: 2018
! Port assignment regex: !\s*Touchstone port\s*([0-9]+)\s*=\s*(CST MWS port|CST DS port)\s*([0-9]+|Zmin|Zmax)\s*\(\"(.*)\"\)(\s*mode\s*([0-9]+))?.*
! Touchstone port assignment:
! Touchstone port 1 = CST MWS port Zmax ("") mode 1
! Touchstone port 2 = CST MWS port Zmax ("") mode 2
! Touchstone port 3 = CST MWS port Zmin ("") mode 1
! Touchstone port 4 = CST MWS port Zmin ("") mode 2
! S-Parameters are not renormalized. Each port impedance will be approximated by the real part at minimum frequency. The values are described via the [Reference] keyword.
! Default impedance is overridden by [Reference]
[Version] 2.0
# GHz S RI R 376.73
[Number of Ports] 4
[Reference]
376.73 376.73 259.814 259.814 
[Number of Frequencies] 51
[Network Data]
281700                 -0.211962        0.118383       0.00018294    -0.000939454          0.43695        0.857296       0.00145045    -0.000141547
                     0.000415127     -0.00106681        -0.268559        0.179897       0.00123802    -0.000429041         0.285817        0.888546
                        0.437408        0.857051       0.00138449     -0.00046911        -0.215318       0.0905277        0.0010298      0.00128819
                      0.00156962     -0.00011373         0.286479        0.889036       0.00107085      0.00125662        -0.310328     -0.00940079
281702                 -0.211883        0.118364      0.000182015    -0.000938424         0.437394        0.857096        0.0014496    -0.000142584
                     0.000413885      -0.0010667        -0.268378        0.179845       0.00123715     -0.00042956         0.286384        0.888439
                        0.437851         0.85685        0.0013835    -0.000470081        -0.215163       0.0907021          0.00103      0.00128666
                      0.00156875    -0.000114811         0.287047        0.888928       0.00107099      0.00125515        -0.310165     -0.00905445
281704                 -0.211804        0.118345      0.000181094    -0.000937393         0.437837        0.856896       0.00144874     -0.00014362
                     0.000412645     -0.00106658        -0.268198        0.179792       0.00123628    -0.000430079         0.286951        0.888332
                        0.438295         0.85665       0.00138251    -0.000471051        -0.215008       0.0908762        0.0010302      0.00128513
                      0.00156789    -0.000115891         0.287614        0.888819       0.00107114      0.00125369        -0.310002     -0.00870856
281706                 -0.211724        0.118326      0.000180176    -0.000936362         0.438281        0.856695       0.00144789    -0.000144655
                     0.000411405     -0.00106645        -0.268018         0.17974       0.00123541    -0.000430596         0.287518        0.888224
                        0.438739        0.856449       0.00138152    -0.000472019        -0.214852       0.0910501       0.00103039       0.0012836
                      0.00156703    -0.000116969         0.288182        0.888711       0.00107128      0.00125222        -0.309838     -0.00836313
281708                 -0.211645        0.118307      0.000179261    -0.000935331         0.438724        0.856494       0.00144704    -0.000145689
                     0.000410166     -0.00106632        -0.267838        0.179688       0.00123455    -0.000431112         0.288085        0.888116
                        0.439182        0.856248       0.00138052    -0.000472986        -0.214697       0.0912238       0.00103058      0.00128207
                      0.00156616    -0.000118046         0.288748        0.888602       0.00107142      0.00125076        -0.309675     -0.00801814
281710                 -0.211566        0.118288       0.00017835      -0.0009343         0.439168        0.856293       0.00144619    -0.000146722
                     0.000408929     -0.00106619        -0.267658        0.179635       0.00123368    -0.000431627         0.288651        0.888008
                        0.439625        0.856046       0.00137953    -0.000473952        -0.214542       0.0913973       0.00103077      0.00128054
                      0.00156529     -0.00011912         0.289315        0.888492       0.00107156      0.00124929        -0.309511     -0.00767361
281712                 -0.211487        0.118269      0.000177444    -0.000933268         0.439611        0.856092       0.00144533    -0.000147754
                     0.000407692     -0.00106606        -0.267479        0.179583       0.00123281     -0.00043214         0.289217        0.887899
                        0.440068        0.855845       0.00137853    -0.000474916        -0.214386       0.0915707       0.00103096      0.00127902
                      0.00156442    -0.000120193         0.289881        0.888382       0.00107169      0.00124783        -0.309347     -0.00732953
281714                 -0.211409         0.11825      0.000176542    -0.000932236         0.440054        0.855891       0.00144448    -0.000148785
                     0.000406456     -0.00106592          -0.2673        0.179531       0.00123195    -0.000432653         0.289783        0.887789
                        0.440511        0.855643       0.00137754    -0.000475879         -0.21423       0.0917438       0.00103115      0.00127749
                      0.00156355    -0.000121264         0.290447        0.888272       0.00107183      0.00124636        -0.309183      -0.0069859
281716                  -0.21133        0.118231      0.000175645    -0.000931203         0.440497        0.855689       0.00144363    -0.000149815
                      0.00040522     -0.00106578        -0.267121        0.179478       0.00123108    -0.000433164         0.290348         0.88768
                        0.440954        0.855441       0.00137654    -0.000476841        -0.214075       0.0919166       0.00103134      0.00127596
                      0.00156268    -0.000122333         0.291013        0.888161       0.00107196       0.0012449        -0.309019     -0.00664271
281718                 -0.211251        0.118212      0.000174754    -0.000930172         0.440939        0.855487       0.00144277    -0.000150843
                     0.000403986     -0.00106563        -0.266943        0.179426       0.00123021    -0.000433674         0.290913        0.887569
                        0.441396        0.855238       0.00137554    -0.000477802        -0.213919       0.0920893       0.00103152      0.00127444
                       0.0015618    -0.000123401         0.291579         0.88805       0.00107209      0.00124343        -0.308855     -0.00629997
281720                 -0.211173        0.118193       0.00017387     -0.00092914         0.441382        0.855285       0.00144192    -0.000151871
                     0.000402752     -0.00106549        -0.266765        0.179374       0.00122934    -0.000434182         0.291478        0.887459
                        0.441838        0.855036       0.00137453    -0.000478763        -0.213763       0.0922618        0.0010317      0.00127291
                      0.00156093    -0.000124466         0.292144        0.887938       0.00107222      0.00124197         -0.30869     -0.00595769
281722                 -0.211094        0.118174      0.000172996     -0.00092811         0.441824        0.855083       0.00144107    -0.000152897
                     0.000401518     -0.00106533        -0.266587        0.179321       0.00122847     -0.00043469         0.292043        0.887348
                         0.44228        0.854833       0.00137353    -0.000479723        -0.213608       0.0924341       0.00103188      0.00127139
                      0.00156005     -0.00012553         0.292709        0.887826       0.00107235      0.00124051        -0.308526     -0.00561585
281724                 -0.211016        0.118156      0.000172135    -0.000927082         0.442266         0.85488       0.00144021    -0.000153922
                     0.000400285     -0.00106518        -0.266409        0.179269        0.0012276    -0.000435196         0.292607        0.887236
                        0.442722         0.85463       0.00137252    -0.000480684        -0.213452       0.0926062       0.00103206      0.00126987
                      0.00155917    -0.000126592         0.293274        0.887713       0.00107247      0.00123904        -0.308361     -0.00527445
281726                 -0.210937        0.118137      0.000171295    -0.000926059         0.442708        0.854677       0.00143936    -0.000154946
                     0.000399053     -0.00106502        -0.266232        0.179216       0.00122674    -0.000435701         0.293171        0.887124
                        0.443164        0.854427       0.00137151    -0.000481647        -0.213296       0.0927781       0.00103224      0.00126834
                      0.00155829    -0.000127653         0.293838        0.887601       0.00107259      0.00123758        -0.308196      -0.0049335
281728                 -0.210859        0.118118       0.00017049    -0.000925049         0.443149        0.854474        0.0014385    -0.000155969
                     0.000397821     -0.00106486        -0.266054        0.179164       0.00122587    -0.000436205         0.293735        0.887012
                        0.443605        0.854224       0.00137048    -0.000482617         -0.21314       0.0929497       0.00103241      0.00126682
                      0.00155741    -0.000128711         0.294402        0.887487       0.00107271      0.00123612        -0.308031       -0.004593
281730                 -0.210781        0.118099      0.000169756    -0.000924072         0.443591        0.854271       0.00143765    -0.000156991
                      0.00039659      -0.0010647        -0.265877        0.179112         0.001225    -0.000436708         0.294298          0.8869
                        0.444047         0.85402       0.00136944    -0.000483608        -0.212984       0.0931212       0.00103259       0.0012653
                      0.00155653    -0.000129768         0.294966        0.887374       0.00107283      0.00123465        -0.307865     -0.00425295
281732                 -0.210703         0.11808      0.000169199    -0.000923231         0.444032        0.854068        0.0014368    -0.000158011
                     0.000395359     -0.00106453        -0.265701        0.179059       0.00122413    -0.000437209         0.294861        0.886786
                        0.444488        0.853816       0.00136827    -0.000484694        -0.212828       0.0932924       0.00103276      0.00126378
                      0.00155565    -0.000130822         0.295529         0.88726       0.00107295      0.00123319          -0.3077     -0.00391333
281734                 -0.210625        0.118061      0.000168969    -0.000923485         0.444473        0.853864       0.00143594     -0.00015903
                     0.000394129     -0.00106436        -0.265524        0.179006       0.00122326    -0.000437709         0.295424        0.886673
                        0.444929        0.853612       0.00136846    -0.000483768        -0.212672       0.0934635       0.00103293      0.00126226
                      0.00155476    -0.000131875         0.296093        0.887145       0.00107307      0.00123173        -0.307534     -0.00357417
281736                 -0.210547        0.118042      0.000164756    -0.000922302         0.444914         0.85366       0.00143509    -0.000160048
                     0.000392899     -0.00106419        -0.265348        0.178955       0.00122239    -0.000438208         0.295987        0.886559
                         0.44537        0.853408       0.00136674    -0.000486109        -0.212516       0.0936343        0.0010331      0.00126074
                      0.00155388    -0.000132927         0.296656         0.88703       0.00107318      0.00123027        -0.307369     -0.00323544
281738                 -0.210469        0.118024      0.000164632    -0.000920035         0.445355        0.853456       0.00143423    -0.000161064
                     0.000391669     -0.00106402        -0.265172        0.178902       0.00122152    -0.000438706          0.29655        0.886445
                         0.44581        0.853203       0.00136565    -0.000487147        -0.212359        0.093805       0.00103327      0.00125922
                      0.00155299    -0.000133976         0.297219        0.886915       0.00107329      0.00122881        -0.307203     -0.00289716
281740                 -0.210391        0.118005      0.000164096    -0.000918826         0.445796        0.853252       0.00143338    -0.000162079
                      0.00039044     -0.00106384        -0.264997         0.17885       0.00122065    -0.000439203         0.297112         0.88633
                        0.446251        0.852998       0.00136462    -0.000488121        -0.212203       0.0939754       0.00103344       0.0012577
                       0.0015521    -0.000135023         0.297781        0.886799        0.0010734      0.00122735        -0.307037     -0.00255932
281742                 -0.210314        0.117986      0.000163378    -0.000917737         0.446236        0.853047       0.00143253    -0.000163092
                     0.000389211     -0.00106366        -0.264821        0.178798       0.00121978    -0.000439699         0.297673        0.886215
                        0.446691        0.852793       0.00136359    -0.000489077        -0.212047       0.0941457        0.0010336      0.00125618
                      0.00155122    -0.000136069         0.298343        0.886683       0.00107351      0.00122589         -0.30687     -0.00222192
281744                 -0.210236        0.117967       0.00016259    -0.000916677         0.446676        0.852842       0.00143167    -0.000164103
                     0.000387983     -0.00106348        -0.264646        0.178745       0.00121891    -0.000440194         0.298235        0.886099
                        0.447131        0.852588       0.00136258    -0.000490023        -0.211891       0.0943157       0.00103377      0.00125467
                      0.00155033    -0.000137113         0.298905        0.886566       0.00107361      0.00122443        -0.306704     -0.00188496
281746                 -0.210159        0.117948       0.00016177    -0.000915626         0.447117        0.852637       0.00143082    -0.000165111
                     0.000386755      -0.0010633        -0.264471        0.178693       0.00121804     -0.00044069         0.298796        0.885983
                        0.447571        0.852383       0.00136156    -0.000490964        -0.211734       0.0944855       0.00103394      0.00125315
                      0.00154944    -0.000138154         0.299467        0.886449       0.00107372      0.00122297        -0.306537     -0.00154844
281748                 -0.210081         0.11793      0.000160933    -0.000914578         0.447556        0.852432       0.00142998    -0.000166113
                     0.000385528     -0.00106311        -0.264296         0.17864       0.00121717    -0.000441187         0.299357        0.885867
                        0.448011        0.852177       0.00136055    -0.000491901        -0.211578       0.0946552       0.00103411      0.00125164
                      0.00154855    -0.000139194         0.300028        0.886332       0.00107382      0.00122151        -0.306371     -0.00121236
281750                 -0.210004        0.117911      0.000160085    -0.000913532         0.447996        0.852227       0.00142915    -0.000167098
                     0.000384301     -0.00106292        -0.264122        0.178588       0.00121631    -0.000441689         0.299918         0.88575
                        0.448451        0.851971       0.00135953    -0.000492836        -0.211421       0.0948246        0.0010343      0.00125013
                      0.00154765    -0.000140232         0.300589        0.886214       0.00107393      0.00122005        -0.306204    -0.000876693
281752                 -0.209926        0.117892      0.000159232    -0.000912487         0.448435        0.852021        0.0014284    -0.000167618
                     0.000383074     -0.00106273        -0.263948        0.178535       0.00121545    -0.000442215         0.300479        0.885633
                         0.44889        0.851765       0.00135852    -0.000493767        -0.211265       0.0949938       0.00103468      0.00124845
                      0.00154676    -0.000141269          0.30115        0.886096       0.00107405      0.00121859        -0.306037    -0.000541065
281754                 -0.209849        0.117873      0.000158376    -0.000911442         0.448873        0.851824        0.0014273     -0.00016922
                     0.000381848     -0.00106254        -0.263774        0.178483       0.00121435    -0.000442877         0.301039        0.885516
                        0.449329        0.851559       0.00135751    -0.000494696        -0.211107        0.095162       0.00103445      0.00124701
                      0.00154587    -0.000142303          0.30171        0.885978       0.00107387      0.00121686        -0.305869    -0.000206909
281756                 -0.209772        0.117855      0.000157517    -0.000910397         0.449315        0.851609       0.00142649    -0.000170199
                     0.000380622     -0.00106235          -0.2636        0.178431       0.00121359    -0.000443052         0.301599        0.885398
                        0.449768        0.851353        0.0013565    -0.000495623        -0.210952       0.0953317       0.00103464      0.00124554
                      0.00154497    -0.000143335         0.302271        0.885859       0.00107417      0.00121565        -0.305702     0.000127454
281758                 -0.209695        0.117836      0.000156656    -0.000909351         0.449754        0.851403       0.00142564    -0.000171195
                     0.000379396     -0.00106215        -0.263427        0.178378       0.00121276    -0.000443557         0.302158        0.885279
                        0.450207        0.851146       0.00135548    -0.000496547        -0.210795       0.0955003       0.00103481      0.00124404
                      0.00154408    -0.000144366         0.302831        0.885739       0.00107427       0.0012142        -0.305534     0.000461346
281760                 -0.209618        0.117817      0.000155795    -0.000908305         0.450193        0.851196       0.00142479    -0.000172194
                     0.000378171     -0.00106195        -0.263254        0.178326        0.0012119    -0.000444048         0.302718        0.885161
                        0.450646        0.850939       0.00135447     -0.00049747        -0.210638       0.0956687       0.00103497      0.00124254
                      0.00154318    -0.000145395          0.30339         0.88562       0.00107437      0.00121274        -0.305367     0.000794793
281762                 -0.209541        0.117799      0.000154933    -0.000907259         0.450631        0.850989       0.00142394    -0.000173194
                     0.000376946     -0.00106175        -0.263081        0.178273       0.00121103    -0.000444534         0.303277        0.885041
                        0.451084        0.850732       0.00135346     -0.00049839        -0.210481       0.0958369       0.00103512      0.00124103
