! TOUCHSTONE file generated by CST MICROWAVE STUDIO
! Date and time: Tue Oct 14 07:32:19 2025
! Project name: Teste_Macro_Metasurface_Nanopilar.cst
! Parameters = {H=600; L_x=190; L_y=75; Lambda=1064; Max_L=200; Min_L=70; PathPara=1; Phi=0; Step_L=10; Theta=0; p=520; phaseX=180; phaseY=0}
! Header version: 2018
! Port assignment regex: !\s*Touchstone port\s*([0-9]+)\s*=\s*(CST MWS port|CST DS port)\s*([0-9]+|Zmin|Zmax)\s*\(\"(.*)\"\)(\s*mode\s*([0-9]+))?.*
! Touchstone port assignment:
! Touchstone port 1 = CST MWS port Zmax ("") mode 1
! Touchstone port 2 = CST MWS port Zmax ("") mode 2
! Touchstone port 3 = CST MWS port Zmin ("") mode 1
! Touchstone port 4 = CST MWS port Zmin ("") mode 2
! S-Parameters are not renormalized. Each port impedance will be approximated by the real part at minimum frequency. The values are described via the [Reference] keyword.
! Default impedance is overridden by [Reference]
[Version] 2.0
# GHz S RI R 376.73
[Number of Ports] 4
[Reference]
376.73 376.73 259.814 259.814 
[Number of Frequencies] 51
[Network Data]
281700                  0.017946        0.063912      0.000466734     1.14257e-05         0.944442       -0.319466      0.000311741    -8.25132e-05
                     0.000558003     0.000188153       -0.0630222       -0.269204      3.60153e-05    -8.24864e-05         0.234925         0.92516
                        0.944465       -0.319369      0.000187647    -9.80946e-05        0.0244873       0.0620135     -0.000354207     -0.00021627
                     0.000370488    -2.66958e-05         0.234743        0.925136     -0.000526628    -0.000481627        0.0756591        0.264775
281702                 0.0179731       0.0639001      0.000466542     1.11152e-05         0.944322       -0.319821      0.000311856    -8.26598e-05
                     0.000558081     0.000188029       -0.0631249       -0.269229      3.60476e-05    -8.25819e-05         0.235368        0.925033
                        0.944345       -0.319724      0.000187504     -9.8177e-05         0.024505       0.0620022     -0.000354179    -0.000216074
                     0.000370362    -2.65576e-05         0.235186        0.925009     -0.000526669    -0.000481237        0.0758377        0.264773
281704                 0.0180002       0.0638882      0.000466349     1.08052e-05         0.944202       -0.320176      0.000311971    -8.28066e-05
                     0.000558157     0.000187906       -0.0632276       -0.269254      3.60802e-05    -8.26776e-05         0.235811        0.924905
                        0.944225       -0.320079      0.000187361    -9.82592e-05        0.0245227       0.0619908     -0.000354151    -0.000215877
                     0.000370234      -2.642e-05         0.235628        0.924882     -0.000526708    -0.000480847        0.0760164        0.264771
281706                 0.0180273       0.0638762      0.000466156     1.04959e-05         0.944081       -0.320531      0.000312086    -8.29536e-05
                     0.000558233     0.000187783       -0.0633304       -0.269279      3.61133e-05    -8.27735e-05         0.236254        0.924778
                        0.944104       -0.320434      0.000187218    -9.83413e-05        0.0245404       0.0619794     -0.000354123    -0.000215681
                     0.000370106     -2.6283e-05         0.236071        0.924755     -0.000526747    -0.000480457        0.0761952        0.264769
281708                 0.0180545       0.0638642      0.000465963     1.01871e-05         0.943961       -0.320886        0.0003122    -8.31009e-05
                     0.000558308      0.00018766       -0.0634332       -0.269304      3.61467e-05    -8.28696e-05         0.236697         0.92465
                        0.943984       -0.320789      0.000187075    -9.84231e-05        0.0245582        0.061968     -0.000354095    -0.000215484
                     0.000369976    -2.61465e-05         0.236514        0.924627     -0.000526786    -0.000480068         0.076374        0.264767
281710                 0.0180816       0.0638523       0.00046577     9.87888e-06          0.94384       -0.321241      0.000312315    -8.32484e-05
                     0.000558383     0.000187536        -0.063536       -0.269329      3.61805e-05    -8.29657e-05          0.23714        0.924521
                        0.943863       -0.321144      0.000186931    -9.85047e-05        0.0245759       0.0619566     -0.000354067    -0.000215288
                     0.000369845    -2.60106e-05         0.236956          0.9245     -0.000526823    -0.000479679        0.0765528        0.264765
281712                 0.0181087       0.0638403      0.000465577     9.57125e-06         0.943719       -0.321596      0.000312429    -8.33962e-05
                     0.000558456     0.000187413       -0.0636388       -0.269354      3.62147e-05    -8.30621e-05         0.237583        0.924393
                        0.943742       -0.321499      0.000186788    -9.85862e-05        0.0245936       0.0619452     -0.000354038    -0.000215092
                     0.000369713    -2.58754e-05         0.237399        0.924372      -0.00052686    -0.000479291        0.0767316        0.264763
281714                 0.0181358       0.0638283      0.000465384     9.26421e-06         0.943598       -0.321951      0.000312543    -8.35443e-05
                     0.000558529     0.000187289       -0.0637417       -0.269379      3.62493e-05    -8.31586e-05         0.238026        0.924264
                        0.943621       -0.321854      0.000186644    -9.86674e-05        0.0246113       0.0619338      -0.00035401    -0.000214897
                     0.000369579    -2.57406e-05         0.237841        0.924244     -0.000526896    -0.000478902        0.0769105         0.26476
281716                 0.0181628       0.0638163       0.00046519     8.95775e-06         0.943477       -0.322305      0.000312657    -8.36925e-05
                     0.000558601     0.000187166       -0.0638445       -0.269404      3.62843e-05    -8.32552e-05         0.238468        0.924136
                          0.9435       -0.322209      0.000186499    -9.87485e-05         0.024629       0.0619224     -0.000353981    -0.000214701
                     0.000369445    -2.56065e-05         0.238283        0.924115     -0.000526931    -0.000478514        0.0770894        0.264758
281718                 0.0181899       0.0638043      0.000464997     8.65188e-06         0.943356        -0.32266      0.000312771    -8.38411e-05
                     0.000558672     0.000187043       -0.0639474       -0.269429      3.63198e-05    -8.33519e-05         0.238911        0.924007
                        0.943379       -0.322564      0.000186355    -9.88293e-05        0.0246467        0.061911     -0.000353952    -0.000214506
                     0.000369309     -2.5473e-05         0.238726        0.923987     -0.000526965    -0.000478126        0.0772683        0.264755
281720                  0.018217       0.0637922      0.000464803     8.34659e-06         0.943235       -0.323015      0.000312885    -8.39899e-05
                     0.000558742     0.000186919       -0.0640504       -0.269454      3.63556e-05    -8.34488e-05         0.239354        0.923877
                        0.943258       -0.322918       0.00018621    -9.89099e-05        0.0246643       0.0618996     -0.000353924     -0.00021431
                     0.000369172      -2.534e-05         0.239168        0.923858     -0.000526998    -0.000477739        0.0774472        0.264753
281722                 0.0182441       0.0637802      0.000464609     8.04189e-06         0.943113       -0.323369      0.000312998    -8.41389e-05
                     0.000558812     0.000186796       -0.0641534       -0.269479      3.63919e-05    -8.35458e-05         0.239796        0.923748
                        0.943136       -0.323273      0.000186065    -9.89904e-05         0.024682       0.0618882     -0.000353895    -0.000214115
                     0.000369034    -2.52076e-05          0.23961        0.923729     -0.000527031    -0.000477352        0.0776262         0.26475
281724                 0.0182711       0.0637681      0.000464414     7.73778e-06         0.942992       -0.323724      0.000313112    -8.42882e-05
                     0.000558881     0.000186672       -0.0642563       -0.269504      3.64286e-05     -8.3643e-05         0.240239        0.923618
                        0.943014       -0.323628       0.00018592    -9.90706e-05        0.0246997       0.0618767     -0.000353866     -0.00021392
                     0.000368895    -2.50757e-05         0.240052          0.9236     -0.000527062    -0.000476965        0.0778053        0.264747
281726                 0.0182982       0.0637561       0.00046422     7.43425e-06          0.94287       -0.324078      0.000313225    -8.44377e-05
                     0.000558949     0.000186549       -0.0643594       -0.269529      3.64658e-05    -8.37402e-05         0.240681        0.923488
                        0.942893       -0.323982      0.000185774    -9.91506e-05        0.0247174       0.0618653     -0.000353836    -0.000213726
                     0.000368754    -2.49444e-05         0.240494         0.92347     -0.000527093    -0.000476578        0.0779843        0.264744
281728                 0.0183253        0.063744      0.000464026     7.13131e-06         0.942748       -0.324433      0.000313338    -8.45875e-05
                     0.000559016     0.000186425       -0.0644624       -0.269553      3.65034e-05    -8.38375e-05         0.241123        0.923358
                        0.942771       -0.324337      0.000185629    -9.92304e-05         0.024735       0.0618539     -0.000353807    -0.000213531
                     0.000368613    -2.48137e-05         0.240936        0.923341     -0.000527123    -0.000476191        0.0781634        0.264741
281730                 0.0183523       0.0637319      0.000463831     6.82897e-06         0.942626       -0.324787      0.000313451    -8.47375e-05
                     0.000559082     0.000186302       -0.0645655       -0.269578      3.65415e-05     -8.3935e-05         0.241566        0.923228
                        0.942649       -0.324692      0.000185483      -9.931e-05        0.0247527       0.0618425     -0.000353778    -0.000213336
                      0.00036847    -2.46836e-05         0.241378        0.923211     -0.000527152    -0.000475805        0.0783425        0.264738
281732                 0.0183793       0.0637198      0.000463636     6.52721e-06         0.942504       -0.325142      0.000313563    -8.48878e-05
                     0.000559148     0.000186179       -0.0646686       -0.269603      3.65801e-05    -8.40325e-05         0.242008        0.923097
                        0.942527       -0.325046      0.000185337    -9.93893e-05        0.0247703        0.061831     -0.000353748    -0.000213142
                     0.000368326     -2.4554e-05          0.24182        0.923081      -0.00052718    -0.000475419        0.0785217        0.264734
281734                 0.0184064       0.0637077      0.000463441     6.22604e-06         0.942382       -0.325496      0.000313676    -8.50383e-05
                     0.000559212     0.000186055       -0.0647717       -0.269628      3.66191e-05    -8.41302e-05          0.24245        0.922967
                        0.942404         -0.3254       0.00018519    -9.94685e-05         0.024788       0.0618196     -0.000353718    -0.000212948
                     0.000368181     -2.4425e-05         0.242261         0.92295     -0.000527207    -0.000475033        0.0787008        0.264731
281736                 0.0184334       0.0636956      0.000463246     5.92546e-06         0.942259       -0.325851      0.000313788    -8.51891e-05
                     0.000559276     0.000185932       -0.0648749       -0.269652      3.66586e-05    -8.42279e-05         0.242892        0.922836
                        0.942282       -0.325755      0.000185044    -9.95474e-05        0.0248056       0.0618081     -0.000353688    -0.000212754
                     0.000368034    -2.42965e-05         0.242703         0.92282     -0.000527234    -0.000474647          0.07888        0.264727
281738                 0.0184604       0.0636835      0.000463051     5.62547e-06         0.942137       -0.326205        0.0003139    -8.53402e-05
                     0.000559339     0.000185809        -0.064978       -0.269677      3.66985e-05    -8.43257e-05         0.243334        0.922704
                        0.942159       -0.326109      0.000184897    -9.96262e-05        0.0248232       0.0617967     -0.000353658     -0.00021256
                     0.000367887    -2.41686e-05         0.243145        0.922689     -0.000527259    -0.000474261        0.0790593        0.264723
281740                 0.0184875       0.0636713      0.000462856     5.32607e-06         0.942014       -0.326559      0.000314012    -8.54915e-05
                     0.000559401     0.000185685       -0.0650813       -0.269702      3.67389e-05    -8.44236e-05         0.243776        0.922573
                        0.942037       -0.326464       0.00018475    -9.97047e-05        0.0248409       0.0617852     -0.000353628    -0.000212366
                     0.000367738    -2.40412e-05         0.243586        0.922558     -0.000527284    -0.000473876        0.0792386         0.26472
281742                 0.0185145       0.0636592      0.000462661     5.02726e-06         0.941892       -0.326913      0.000314124     -8.5643e-05
                     0.000559463     0.000185562       -0.0651845       -0.269726      3.67797e-05    -8.45217e-05         0.244218        0.922441
                        0.941914       -0.326818      0.000184603     -9.9783e-05        0.0248585       0.0617738     -0.000353598    -0.000212173
                     0.000367588    -2.39143e-05         0.244028        0.922427     -0.000527308    -0.000473492        0.0794179        0.264716
281744                 0.0185415        0.063647      0.000462465     4.72905e-06         0.941769       -0.327267      0.000314236    -8.57948e-05
                     0.000559524     0.000185439       -0.0652877       -0.269751      3.68209e-05    -8.46199e-05         0.244659        0.922309
                        0.941791       -0.327172      0.000184455    -9.98611e-05        0.0248761       0.0617623     -0.000353568    -0.000211979
                     0.000367436    -2.37881e-05         0.244469        0.922296     -0.000527331    -0.000473108        0.0795972        0.264712
281746                 0.0185685       0.0636348       0.00046227     4.43142e-06         0.941646       -0.327621      0.000314347    -8.59469e-05
                     0.000559584     0.000185316        -0.065391       -0.269775      3.68623e-05    -8.47186e-05         0.245101        0.922177
                        0.941668       -0.327526      0.000184307     -9.9939e-05        0.0248937       0.0617509     -0.000353537    -0.000211786
                     0.000367284    -2.36623e-05          0.24491        0.922164     -0.000527354    -0.000472727        0.0797766        0.264707
281748                 0.0185955       0.0636226      0.000462074     4.13438e-06         0.941522       -0.327976      0.000314459    -8.60992e-05
                     0.000559643     0.000185193       -0.0654943         -0.2698      3.69031e-05    -8.48187e-05         0.245543        0.922045
                        0.941545        -0.32788      0.000184159    -0.000100017        0.0249113       0.0617394     -0.000353507    -0.000211593
                      0.00036713    -2.35371e-05         0.245352        0.922032     -0.000527374    -0.000472353         0.079956        0.264703
281750                 0.0186225       0.0636104      0.000461878     3.83792e-06         0.941399        -0.32833       0.00031457    -8.62517e-05
                     0.000559701      0.00018507       -0.0655977       -0.269824      3.69449e-05    -8.49362e-05         0.245984        0.921913
                        0.941421       -0.328235      0.000184011    -0.000100094        0.0249289       0.0617279     -0.000353476      -0.0002114
                     0.000366975    -2.34123e-05         0.245793          0.9219     -0.000527365    -0.000471987        0.0801354        0.264699
281752                 0.0186495       0.0635982      0.000461683     3.54203e-06         0.941275       -0.328683      0.000314681    -8.64046e-05
                     0.000559758     0.000184947       -0.0657011       -0.269849      3.70053e-05    -8.50058e-05         0.246426         0.92178
                        0.941298       -0.328589      0.000183862    -0.000100172        0.0249465       0.0617165     -0.000353445    -0.000211207
                     0.000366818    -2.32882e-05         0.246234        0.921768     -0.000527365    -0.000471557        0.0803148        0.264694
281754                 0.0186764        0.063586      0.000461488     3.24667e-06         0.941152       -0.329037      0.000314791    -8.65577e-05
                     0.000559815     0.000184824       -0.0658044       -0.269873      3.70435e-05     -8.5105e-05         0.246867        0.921647
                        0.941174       -0.328943      0.000183712     -0.00010025        0.0249641        0.061705     -0.000353414    -0.000211014
                      0.00036666    -2.31645e-05         0.246675        0.921635       -0.0005274    -0.000471161        0.0804943         0.26469
281756                 0.0187034       0.0635738      0.000461296     2.95179e-06         0.941028       -0.329391      0.000314902     -8.6711e-05
                     0.000559869     0.000184702       -0.0659079       -0.269897      3.70868e-05    -8.52035e-05         0.247309        0.921514
                         0.94105       -0.329296       0.00018356    -0.000100328        0.0249817       0.0616935     -0.000353383    -0.000210821
                     0.000366501    -2.30418e-05         0.247116        0.921503     -0.000527424    -0.000470775        0.0806738        0.264685
281758                 0.0187304       0.0635615      0.000461121     2.65806e-06         0.940904       -0.329745      0.000315012    -8.68646e-05
                     0.000559922     0.000184578       -0.0660113       -0.269922      3.71315e-05    -8.53016e-05          0.24775         0.92138
                        0.940927        -0.32965      0.000183394    -0.000100411        0.0249993        0.061682     -0.000353352    -0.000210629
                      0.00036634    -2.29211e-05         0.247557         0.92137     -0.000527443    -0.000470389        0.0808534         0.26468
281760                 0.0187574       0.0635493       0.00046087     2.36976e-06          0.94078       -0.330099      0.000315122    -8.70185e-05
                     0.000559977     0.000184452       -0.0661148       -0.269946      3.71772e-05    -8.53995e-05         0.248191        0.921247
                        0.940803       -0.330004      0.000183295    -0.000100458        0.0250168       0.0616705      -0.00035332    -0.000210436
                      0.00036618    -2.28021e-05         0.247998        0.921237     -0.000527459    -0.000470003         0.081033        0.264675
281762                 0.0187843        0.063537      0.000460687     2.07368e-06         0.940656       -0.330453      0.000315232    -8.71727e-05
                     0.000560032     0.000184329       -0.0662183        -0.26997      3.72236e-05    -8.54973e-05         0.248632        0.921113
                        0.940678       -0.330358       0.00018313    -0.000100546        0.0250344       0.0616591     -0.000353289    -0.000210244
