! TOUCHSTONE file generated by CST MICROWAVE STUDIO
! Date and time: Tue Oct 14 07:33:13 2025
! Project name: Teste_Macro_Metasurface_Nanopilar.cst
! Parameters = {H=600; L_x=200; L_y=190; Lambda=1064; Max_L=200; Min_L=70; PathPara=1; Phi=0; Step_L=10; Theta=0; p=520; phaseX=180; phaseY=0}
! Header version: 2018
! Port assignment regex: !\s*Touchstone port\s*([0-9]+)\s*=\s*(CST MWS port|CST DS port)\s*([0-9]+|Zmin|Zmax)\s*\(\"(.*)\"\)(\s*mode\s*([0-9]+))?.*
! Touchstone port assignment:
! Touchstone port 1 = CST MWS port Zmax ("") mode 1
! Touchstone port 2 = CST MWS port Zmax ("") mode 2
! Touchstone port 3 = CST MWS port Zmin ("") mode 1
! Touchstone port 4 = CST MWS port Zmin ("") mode 2
! S-Parameters are not renormalized. Each port impedance will be approximated by the real part at minimum frequency. The values are described via the [Reference] keyword.
! Default impedance is overridden by [Reference]
[Version] 2.0
# GHz S RI R 376.73
[Number of Ports] 4
[Reference]
376.73 376.73 259.814 259.814 
[Number of Frequencies] 51
[Network Data]
281700                   -0.3721       -0.148681      0.000598203     6.31841e-07         0.912727    -0.000955796      0.000442785     0.000463157
                     0.000571188      -2.626e-05        -0.435367       -0.150649      0.000162228     0.000486581         0.881172      -0.0744484
                        0.912835     -0.00105467      0.000253519     0.000607765          0.36966       -0.150459     -0.000110734     0.000579187
                     0.000240238     0.000487457         0.881001      -0.0741235     -0.000422811     0.000417804         0.401599       -0.222329
281702                 -0.372158       -0.148573      0.000594632     2.13098e-06         0.912715     -0.00132334      0.000434433     0.000498877
                     0.000571539    -2.64142e-05        -0.435427       -0.150519      0.000160971     0.000482594         0.881006      -0.0748608
                        0.912826     -0.00142284      0.000252812     0.000607858         0.369597       -0.150653     -0.000183628     0.000504339
                     0.000243117     0.000482465         0.880971      -0.0744691     -0.000426121     0.000413083         0.401493       -0.222539
281704                 -0.372216       -0.148466      0.000590032     7.17421e-07         0.912703     -0.00169165       0.00042767     0.000518454
                     0.000571958    -2.64226e-05        -0.435485        -0.15039      0.000159568     0.000478767         0.880902      -0.0752249
                        0.912818     -0.00179145      0.000251939     0.000607953         0.369535       -0.150847     -0.000208663     0.000469676
                     0.000244725     0.000478006         0.880933      -0.0748141     -0.000430319     0.000408366         0.401386       -0.222748
281706                 -0.372274       -0.148358      0.000587595    -3.27343e-06         0.912691     -0.00206055      0.000422354     0.000530438
                     0.000572554     -2.6247e-05        -0.435543       -0.150261      0.000158017     0.000475112         0.880828      -0.0755813
                        0.912811     -0.00216046      0.000250845     0.000608027         0.369472        -0.15104     -0.000221235     0.000450231
                     0.000245545     0.000474217         0.880888      -0.0751637     -0.000435611     0.000403931          0.40128       -0.222958
281708                 -0.372332       -0.148251      0.000587795    -6.94367e-06          0.91268     -0.00242989      0.000418076     0.000538274
                     0.000573535    -2.59252e-05        -0.435599       -0.150131      0.000156317     0.000471642         0.880769      -0.0759376
                        0.912803     -0.00252983      0.000249458     0.000608032         0.369408       -0.151234     -0.000228938     0.000437932
                     0.000245919     0.000471066         0.880841      -0.0755203     -0.000442131     0.000400235         0.401175       -0.223167
281710                  -0.37239       -0.148143      0.000589005    -9.28079e-06          0.91267     -0.00279956       0.00041453     0.000543603
                     0.000575149     -2.5757e-05        -0.435654       -0.149999      0.000154469     0.000468373         0.880719       -0.076295
                        0.912796     -0.00289954      0.000247681     0.000607875         0.369345       -0.151428     -0.000234275     0.000429527
                     0.000246065     0.000468456         0.880795      -0.0758826     -0.000449795     0.000397914          0.40107       -0.223376
281712                 -0.372449       -0.148036      0.000590284    -1.06505e-05          0.91266     -0.00316947       0.00041151     0.000547306
                     0.000577248    -2.63685e-05         -0.43571       -0.149866      0.000152469     0.000465326         0.880673      -0.0766536
                        0.912789     -0.00326954      0.000245403      0.00060737         0.369282       -0.151622     -0.000238296     0.000423471
                     0.000246111     0.000466285         0.880752      -0.0762477     -0.000458121     0.000397654         0.400965       -0.223585
281714                 -0.372508       -0.147928       0.00059138    -1.14806e-05          0.91265     -0.00353957       0.00040888     0.000549896
                     0.000578999    -2.79701e-05        -0.435767       -0.149732      0.000150317     0.000462524          0.88063      -0.0770133
                        0.912782      -0.0036398      0.000242552     0.000606163         0.369218       -0.151815     -0.000241514      0.00041894
                     0.000246131     0.000464462         0.880712      -0.0766138     -0.000466157     0.000399884         0.400861       -0.223794
281716                 -0.372566        -0.14782      0.000592275    -1.20233e-05          0.91264     -0.00390979      0.000406543     0.000551691
                     0.000579875     -2.9877e-05        -0.435824       -0.149597      0.000148011     0.000459998         0.880589      -0.0773738
                        0.912775     -0.00401032      0.000239268     0.000603651         0.369155       -0.152009      -0.00024421     0.000415453
                     0.000246164     0.000462913         0.880674      -0.0769797      -0.00047271     0.000404402         0.400757       -0.224002
281718                 -0.372625       -0.147713      0.000593003    -1.24106e-05         0.912631      -0.0042801      0.000404433     0.000552899
                     0.000580154     -3.1503e-05        -0.435883       -0.149462      0.000145551      0.00045779          0.88055       -0.077735
                        0.912768     -0.00438106      0.000236323     0.000599087         0.369091       -0.152202     -0.000246547     0.000412713
                     0.000246231     0.000461578         0.880637      -0.0773451     -0.000476867       0.0004103         0.400653       -0.224211
281720                 -0.372684       -0.147605      0.000593604    -1.27112e-05         0.912621     -0.00465047      0.000402502     0.000553662
                     0.000580223    -3.27684e-05        -0.435942       -0.149327      0.000142944     0.000455951         0.880511      -0.0780967
                        0.912761       -0.004752      0.000235492     0.000592424         0.369027       -0.152396     -0.000248629     0.000410525
                      0.00024634     0.000460412         0.880601      -0.0777099     -0.000478426     0.000416345         0.400549        -0.22442
281722                 -0.372743       -0.147497      0.000594107     -1.2962e-05         0.912612     -0.00502087      0.000400714      0.00055408
                     0.000580268    -3.37778e-05        -0.436002       -0.149193      0.000140206     0.000454549         0.880473      -0.0784589
                        0.912755     -0.00512313      0.000238411      0.00058566         0.368963       -0.152589     -0.000250525     0.000408758
                     0.000246494     0.000459381         0.880565      -0.0780742     -0.000477854     0.000421536         0.400445       -0.224628
281724                 -0.372801       -0.147389      0.000594535    -1.31835e-05         0.912603     -0.00539129      0.000399043     0.000554224
                      0.00058035    -3.46314e-05        -0.436061        -0.14906      0.000137371     0.000453671         0.880435      -0.0788214
                        0.912748     -0.00549443      0.000244063     0.000581675         0.368899       -0.152783      -0.00025228     0.000407318
                     0.000246693     0.000458457         0.880529      -0.0784381      -0.00047591     0.000425377         0.400341       -0.224837
281726                  -0.37286       -0.147281      0.000594905    -1.33875e-05         0.912594     -0.00576171      0.000397466     0.000554148
                     0.000580479    -3.53944e-05        -0.436121       -0.148926      0.000134506     0.000453423         0.880398      -0.0791842
                        0.912741      -0.0058659      0.000249683     0.000580989         0.368835       -0.152976     -0.000253928     0.000406139
                     0.000246933     0.000457619         0.880494      -0.0788015     -0.000473296     0.000427812         0.400238       -0.225045
281728                  -0.37292       -0.147174      0.000595229    -1.35809e-05         0.912584     -0.00613212      0.000395969     0.000553892
                     0.000580649    -3.61054e-05        -0.436181       -0.148793      0.000131736     0.000453927          0.88036      -0.0795473
                        0.912734     -0.00623751       0.00025379     0.000582162         0.368771       -0.153169     -0.000255494      0.00040517
                      0.00024721     0.000456851         0.880458      -0.0791645     -0.000470503     0.000429021         0.400134       -0.225254
281730                 -0.372979       -0.147066      0.000595515     -1.3768e-05         0.912575     -0.00650251      0.000394538     0.000553488
                     0.000580851    -3.67877e-05         -0.43624        -0.14866      0.000129269     0.000455293         0.880323      -0.0799105
                        0.912728     -0.00660925       0.00025639     0.000583899         0.368706       -0.153363     -0.000256995     0.000404375
                     0.000247521     0.000456138         0.880422      -0.0795273     -0.000467821     0.000429263         0.400031       -0.225462
281732                 -0.373038       -0.146958       0.00059577    -1.39513e-05         0.912566     -0.00687287      0.000393162     0.000552958
                     0.000581076    -3.74557e-05          -0.4363       -0.148527       0.00012742     0.000457576         0.880285       -0.080274
                        0.912721     -0.00698113       0.00025793     0.000585596         0.368642       -0.153556     -0.000258447     0.000403724
                      0.00024786     0.000455471         0.880386      -0.0798898     -0.000465388     0.000428778         0.399928       -0.225671
281734                 -0.373097        -0.14685      0.000595999    -1.41326e-05         0.912556     -0.00724319      0.000391832     0.000552321
                     0.000581316    -3.81192e-05        -0.436359       -0.148394      0.000126612     0.000460678         0.880248      -0.0806376
                        0.912714     -0.00735312      0.000258797     0.000587061         0.368577       -0.153749     -0.000259859     0.000403195
                     0.000248224      0.00045484         0.880349       -0.080252     -0.000463254     0.000427766         0.399824       -0.225879
281736                 -0.373157       -0.146742      0.000596204    -1.43128e-05         0.912547     -0.00761348      0.000390541     0.000551592
                     0.000581566    -3.87857e-05        -0.436418       -0.148261       0.00012728      0.00046424          0.88021      -0.0810014
                        0.912707     -0.00772522      0.000259244     0.000588274         0.368512       -0.153942     -0.000261242     0.000402772
                     0.000248606     0.000454238         0.880313      -0.0806141     -0.000461424     0.000426375         0.399721       -0.226087
281738                 -0.373216       -0.146634      0.000596389    -1.44925e-05         0.912537     -0.00798372      0.000389282     0.000550782
                     0.000581817    -3.94616e-05        -0.436478       -0.148129      0.000129678     0.000467608         0.880172      -0.0813654
                          0.9127     -0.00809742      0.000259423     0.000589265         0.368447       -0.154136     -0.000262604     0.000402441
                     0.000249003     0.000453659         0.880276       -0.080976     -0.000459876     0.000424715         0.399617       -0.226296
281740                 -0.373276       -0.146527      0.000596555    -1.46721e-05         0.912527     -0.00835392      0.000388047     0.000549901
                     0.000582064    -4.01541e-05        -0.436537       -0.147996      0.000133637     0.000469979         0.880135      -0.0817296
                        0.912693     -0.00846971       0.00025942     0.000590079         0.368382       -0.154329     -0.000263952     0.000402191
                     0.000249406     0.000453097         0.880238      -0.0813377     -0.000458582     0.000422862         0.399514       -0.226504
281742                 -0.373335       -0.146419      0.000596701    -1.48516e-05         0.912517     -0.00872407      0.000386832     0.000548955
                       0.0005823    -4.08717e-05        -0.436595       -0.147863      0.000138516     0.000470753         0.880096      -0.0820939
                        0.912686      -0.0088421      0.000259286     0.000590759         0.368317       -0.154522     -0.000265291     0.000402015
                     0.000249811     0.000452546         0.880201      -0.0816993     -0.000457511      0.00042087          0.39941       -0.226712
281744                 -0.373395       -0.146311      0.000596829    -1.50308e-05         0.912507     -0.00909416      0.000385628     0.000547948
                     0.000582518    -4.16268e-05        -0.436654        -0.14773      0.000143465     0.000469812         0.880058      -0.0824585
                        0.912679     -0.00921455      0.000259046     0.000591342         0.368252       -0.154715     -0.000266631     0.000401907
                     0.000250207     0.000451999         0.880163      -0.0820607     -0.000456637     0.000418776         0.399307       -0.226921
281746                 -0.373455       -0.146204      0.000596937    -1.52093e-05         0.912496      -0.0094642      0.000384428     0.000546885
                     0.000582708    -4.24381e-05        -0.436713       -0.147598      0.000147796     0.000467507          0.88002      -0.0828233
                        0.912672     -0.00958707      0.000258711     0.000591864         0.368186       -0.154908     -0.000267976     0.000401867
                     0.000250584     0.000451448         0.880126       -0.082422     -0.000455933     0.000416606         0.399203       -0.227129
281748                 -0.373514       -0.146097      0.000597022    -1.53862e-05         0.912485     -0.00983417      0.000383223     0.000545765
                      0.00058286     -4.3337e-05        -0.436772       -0.147465      0.000151186     0.000464386         0.879981      -0.0831885
                        0.912664     -0.00995965      0.000258284     0.000592362         0.368121       -0.155101     -0.000269336     0.000401892
                     0.000250923      0.00045088         0.880088      -0.0827832     -0.000455379     0.000414376         0.399099       -0.227337
281750                 -0.373574        -0.14599      0.000597081      -1.556e-05         0.912474      -0.0102041         0.000382      0.00054459
                     0.000582963    -4.43801e-05        -0.436831       -0.147333      0.000153626     0.000460949         0.879941      -0.0835542
                        0.912657      -0.0103322      0.000257759     0.000592877         0.368055       -0.155294     -0.000270722     0.000401989
                       0.0002512     0.000450276         0.880049      -0.0831442     -0.000454959     0.000412095         0.398995       -0.227545
281752                 -0.373633       -0.145883      0.000597108    -1.57281e-05         0.912463      -0.0105739      0.000380743     0.000543357
                     0.000583019    -4.56769e-05        -0.436889         -0.1472      0.000155273     0.000457537         0.879901      -0.0839205
                         0.91265      -0.0107048      0.000257129     0.000593463          0.36799       -0.155487     -0.000272145     0.000402166
                     0.000251372     0.000449595         0.880011       -0.083505      -0.00045466     0.000409766         0.398892       -0.227753
281754                 -0.373692       -0.145776      0.000597094    -1.58856e-05         0.912452      -0.0109437      0.000379425     0.000542066
                     0.000583092    -4.74534e-05        -0.436948       -0.147068      0.000156335     0.000454334          0.87986      -0.0842876
                        0.912643      -0.0110773      0.000256389     0.000594197         0.367924        -0.15568     -0.000273626     0.000402442
                     0.000251368      0.00044875         0.879972      -0.0838654     -0.000454471      0.00040739         0.398788       -0.227961
281756                 -0.373751        -0.14567      0.000597024    -1.60232e-05          0.91244      -0.0113135      0.000378006     0.000540716
                     0.000583564    -5.01552e-05        -0.437007       -0.146937      0.000156999      0.00045142         0.879817      -0.0846553
                        0.912636      -0.0114496      0.000255556     0.000595192         0.367858       -0.155873     -0.000275191     0.000402854
                     0.000251066     0.000447507         0.879934      -0.0842254     -0.000454388     0.000404961         0.398684       -0.228169
281758                 -0.373809       -0.145563      0.000596874    -1.61218e-05         0.912428      -0.0116831      0.000376421     0.000539318
                     0.000586111    -5.39977e-05        -0.437065       -0.146807      0.000157414     0.000448807          0.87977      -0.0850228
                         0.91263      -0.0118215      0.000254704     0.000596614         0.367792       -0.156066     -0.000276882     0.000403472
                     0.000250373     0.000445121         0.879897      -0.0845843     -0.000454407     0.000402469         0.398579       -0.228377
281760                 -0.373867       -0.145456      0.000596607    -1.61389e-05         0.912415      -0.0120528      0.000374562     0.000537913
                       0.0005927    -5.48121e-05        -0.437121        -0.14668      0.000157691     0.000446477         0.879719      -0.0853866
                        0.912623      -0.0121926      0.000254052     0.000598668         0.367726       -0.156259     -0.000278765     0.000404446
                     0.000250916     0.000439226         0.879861      -0.0849396      -0.00045453     0.000399896         0.398475       -0.228585
281762                 -0.373925       -0.145349      0.000596167    -1.59712e-05         0.912401      -0.0124226      0.000372264     0.000536639
                     0.000595678    -5.01652e-05        -0.437164       -0.146548      0.000157907     0.000444396         0.879668      -0.0857424
                        0.912617      -0.0125626        0.0002541      0.00060147         0.367659       -0.156452     -0.000280925     0.000406133
