! TOUCHSTONE file generated by CST MICROWAVE STUDIO
! Date and time: Tue Oct 14 07:27:37 2025
! Project name: Teste_Macro_Metasurface_Nanopilar.cst
! Parameters = {H=600; L_x=115; L_y=85; Lambda=1064; Max_L=200; Min_L=70; PathPara=1; Phi=0; Step_L=10; Theta=0; p=520; phaseX=180; phaseY=0}
! Header version: 2018
! Port assignment regex: !\s*Touchstone port\s*([0-9]+)\s*=\s*(CST MWS port|CST DS port)\s*([0-9]+|Zmin|Zmax)\s*\(\"(.*)\"\)(\s*mode\s*([0-9]+))?.*
! Touchstone port assignment:
! Touchstone port 1 = CST MWS port Zmax ("") mode 1
! Touchstone port 2 = CST MWS port Zmax ("") mode 2
! Touchstone port 3 = CST MWS port Zmin ("") mode 1
! Touchstone port 4 = CST MWS port Zmin ("") mode 2
! S-Parameters are not renormalized. Each port impedance will be approximated by the real part at minimum frequency. The values are described via the [Reference] keyword.
! Default impedance is overridden by [Reference]
[Version] 2.0
# GHz S RI R 376.73
[Number of Ports] 4
[Reference]
376.73 376.73 259.814 259.814 
[Number of Frequencies] 51
[Network Data]
281700                0.00227274       0.0787622     -8.84885e-05     0.000262624          0.97547        -0.20207     -0.000152362    -0.000392022
                    -0.000193007     6.08642e-05       -0.0565341      -0.0524583     -0.000258263    -0.000267488         0.531385       -0.839366
                        0.975697       -0.202083     -0.000310332    -0.000134293        0.0290466       0.0734226      0.000189353    -7.82305e-05
                    -0.000158973    -0.000344329         0.531541       -0.839276      0.000156036     2.13429e-05       -0.0715781      -0.0275715
281702                0.00230313       0.0787547     -8.83495e-05     0.000262827         0.975395       -0.202435      -0.00015253    -0.000392085
                    -0.000193078     6.09353e-05       -0.0565569      -0.0524529     -0.000258379    -0.000267444         0.531026       -0.839592
                        0.975622       -0.202447     -0.000310386    -0.000134063        0.0290706       0.0734061      0.000189423     -7.8342e-05
                    -0.000159079    -0.000344319         0.531182       -0.839502      0.000156179     2.13193e-05       -0.0716069      -0.0275333
281704                 0.0023334       0.0787472     -8.82102e-05     0.000263032          0.97532       -0.202799     -0.000152699    -0.000392148
                    -8.09478e-05     9.00237e-05       -0.0565798      -0.0524475     -0.000258496    -0.000267399         0.530667       -0.839818
                         0.97555       -0.202812     -0.000310442    -0.000133829        0.0290945       0.0733896      0.000189493    -7.84555e-05
                     -0.00024388    -0.000192081         0.530823       -0.839727      0.000156323     2.12957e-05       -0.0716357      -0.0274951
281706                0.00236351       0.0787394     -8.80704e-05     0.000263237         0.975245       -0.203164     -0.000152869    -0.000392211
                    -0.000132805     0.000129919       -0.0566026      -0.0524421     -0.000258615    -0.000267354         0.530308       -0.840044
                        0.975481       -0.203178     -0.000310498    -0.000133594        0.0291184       0.0733731      0.000189562    -7.85715e-05
                    -0.000216547    -0.000261278         0.530464       -0.839953      0.000156466     2.12722e-05       -0.0716645      -0.0274568
281708                0.00239339       0.0787314     -8.79299e-05     0.000263443         0.975169       -0.203529     -0.000153038    -0.000392275
                     -0.00014391     0.000129505       -0.0566254      -0.0524367     -0.000258736    -0.000267309         0.529948        -0.84027
                         0.97542       -0.203547     -0.000310553    -0.000133357        0.0291424       0.0733567      0.000189632    -7.86903e-05
                    -0.000212364     -0.00026936         0.530105       -0.840178      0.000156611     2.12487e-05       -0.0716932      -0.0274185
281710                0.00242297       0.0787228     -8.77889e-05     0.000263649         0.975093       -0.203893     -0.000153208    -0.000392338
                    -0.000147535     0.000128932       -0.0566483      -0.0524313     -0.000258857    -0.000267265         0.529589       -0.840495
                        0.975372       -0.203919     -0.000310607    -0.000133119        0.0291663       0.0733402      0.000189704    -7.88122e-05
                    -0.000211012    -0.000271958         0.529746       -0.840403      0.000156755     2.12253e-05        -0.071722      -0.0273802
281712                0.00245211       0.0787134     -8.76472e-05     0.000263855         0.975017       -0.204258     -0.000153379    -0.000392402
                    -0.000149111      0.00012864       -0.0566711      -0.0524259     -0.000258979     -0.00026722         0.529229       -0.840721
                        0.975363       -0.204302     -0.000310662    -0.000132881        0.0291902       0.0733236      0.000189777    -7.89371e-05
                    -0.000210458    -0.000273075         0.529386       -0.840628        0.0001569     2.12018e-05       -0.0717507      -0.0273419
281714                0.00248085        0.078702     -8.75049e-05     0.000264061         0.974941       -0.204622      -0.00015355    -0.000392467
                    -0.000149906     0.000128505        -0.056694      -0.0524204     -0.000259102    -0.000267177          0.52887       -0.840946
                        0.975535       -0.204735     -0.000310715    -0.000132643        0.0292141       0.0733071      0.000189855    -7.90643e-05
                    -0.000210214    -0.000273624         0.529026       -0.840853      0.000157046     2.11784e-05       -0.0717793      -0.0273035
281716                0.00251086       0.0786855      -8.7362e-05     0.000264267         0.974865       -0.204987     -0.000153721    -0.000392532
                    -0.000150342     0.000128454       -0.0567169       -0.052415     -0.000259225    -0.000267133          0.52851       -0.841171
                        0.973467       -0.204423     -0.000310768    -0.000132404         0.029238       0.0732906      0.000189937    -7.91926e-05
                    -0.000210113    -0.000273911         0.528667       -0.841077      0.000157192     2.11551e-05        -0.071808      -0.0272651
281718                0.00255492       0.0786632     -8.72185e-05     0.000264472         0.974789       -0.205351     -0.000153892    -0.000392598
                    -0.000150592     0.000128451       -0.0567397      -0.0524095     -0.000259349     -0.00026709          0.52815       -0.841396
                        0.974642       -0.205246      -0.00031082    -0.000132165        0.0292619       0.0732741      0.000190024    -7.93203e-05
                    -0.000210087    -0.000274062         0.528307       -0.841302      0.000157338     2.11317e-05       -0.0718366      -0.0272267
281720                0.00260911       0.0786696     -8.70744e-05     0.000264678         0.974713       -0.205716     -0.000154064    -0.000392665
                    -0.000150738     0.000128477       -0.0567626       -0.052404     -0.000259473    -0.000267047          0.52779       -0.841621
                         0.97469       -0.205649     -0.000310871    -0.000131926        0.0292858       0.0732576      0.000190115    -7.94456e-05
                    -0.000210103    -0.000274137         0.527947       -0.841526      0.000157485     2.11084e-05       -0.0718652      -0.0271883
281722                0.00263614       0.0786783     -8.69297e-05     0.000264884         0.974636        -0.20608     -0.000154236    -0.000392732
                    -0.000150822      0.00012852       -0.0567855      -0.0523986     -0.000259597    -0.000267004          0.52743       -0.841845
                        0.974658       -0.206027     -0.000310922    -0.000131687        0.0293096        0.073241      0.000190209    -7.95672e-05
                    -0.000210143    -0.000274165         0.527587        -0.84175      0.000157633     2.10852e-05       -0.0718938      -0.0271499
281724                0.00266099       0.0786756     -8.67844e-05      0.00026509         0.974559       -0.206445     -0.000154407    -0.000392802
                    -0.000150868     0.000128575       -0.0568083      -0.0523931     -0.000259722    -0.000266962          0.52707        -0.84207
                        0.974604       -0.206398     -0.000310972    -0.000131448        0.0293335       0.0732245      0.000190305    -7.96848e-05
                      -0.0002102    -0.000274165         0.527227       -0.841975       0.00015778      2.1062e-05       -0.0719224      -0.0271114
281726                0.00268798       0.0786697     -8.66384e-05     0.000265295         0.974483       -0.206809     -0.000154578    -0.000392873
                    -0.000150888     0.000128637       -0.0568312      -0.0523876     -0.000259847    -0.000266919         0.526709       -0.842294
                         0.97454       -0.206766     -0.000311022    -0.000131208        0.0293574       0.0732079        0.0001904    -7.97985e-05
                    -0.000210266    -0.000274146         0.526867       -0.842198      0.000157929      2.1039e-05        -0.071951      -0.0270729
281728                0.00271629       0.0786627     -8.64919e-05     0.000265501         0.974406       -0.207173     -0.000154747    -0.000392945
                    -0.000150891     0.000128705       -0.0568541      -0.0523821     -0.000259971    -0.000266877         0.526349       -0.842518
                        0.974471       -0.207132      -0.00031107    -0.000130969        0.0293812       0.0731913      0.000190494    -7.99091e-05
                    -0.000210338    -0.000274114         0.526507       -0.842422      0.000158078      2.1016e-05       -0.0719795      -0.0270344
281730                0.00274534       0.0786554     -8.63448e-05     0.000265706         0.974329       -0.207538     -0.000154914    -0.000393019
                    -0.000150883     0.000128776        -0.056877      -0.0523765     -0.000260096    -0.000266836         0.525988       -0.842742
                          0.9744       -0.207498     -0.000311118    -0.000130729         0.029405       0.0731748      0.000190587    -8.00173e-05
                    -0.000210415    -0.000274074         0.526146       -0.842646      0.000158227     2.09933e-05        -0.072008      -0.0269959
281732                0.00277482       0.0786479     -8.61971e-05     0.000265911         0.974251       -0.207902     -0.000155078    -0.000393093
                    -0.000150867      0.00012885       -0.0568998       -0.052371     -0.000260221    -0.000266794         0.525628       -0.842966
                        0.974326       -0.207863     -0.000311166    -0.000130489        0.0294289       0.0731582      0.000190677    -8.01241e-05
                    -0.000210495    -0.000274028         0.525786       -0.842869      0.000158378     2.09708e-05       -0.0720365      -0.0269573
281734                0.00280457       0.0786404     -8.60488e-05     0.000266116         0.974174       -0.208266     -0.000155238    -0.000393166
                    -0.000150846     0.000128926       -0.0569227      -0.0523655     -0.000260346    -0.000266752         0.525267        -0.84319
                        0.974251       -0.208228     -0.000311212     -0.00013025        0.0294527       0.0731416      0.000190766      -8.023e-05
                    -0.000210578    -0.000273977         0.525425       -0.843093      0.000158529     2.09484e-05        -0.072065      -0.0269187
281736                0.00283449       0.0786328     -8.58998e-05     0.000266321         0.974096        -0.20863     -0.000155395    -0.000393236
                     -0.00015082     0.000129004       -0.0569456      -0.0523599     -0.000260471    -0.000266711         0.524906       -0.843413
                        0.974175       -0.208592     -0.000311258     -0.00013001        0.0294765        0.073125      0.000190853    -8.03355e-05
                    -0.000210661    -0.000273924         0.525065       -0.843316      0.000158681     2.09262e-05       -0.0720934      -0.0268801
281738                0.00286453       0.0786252     -8.57503e-05     0.000266526         0.974019       -0.208995     -0.000155551    -0.000393302
                    -0.000150792     0.000129082       -0.0569685      -0.0523544     -0.000260596    -0.000266669         0.524545       -0.843637
                        0.974099       -0.208956     -0.000311304     -0.00012977        0.0295003       0.0731084      0.000190938    -8.04411e-05
                    -0.000210746    -0.000273868         0.524704       -0.843539      0.000158834     2.09037e-05       -0.0721219      -0.0268415
281740                0.00289465       0.0786175     -8.56002e-05     0.000266731         0.973941       -0.209359     -0.000155708    -0.000393365
                    -0.000150761     0.000129161       -0.0569914      -0.0523488     -0.000260721    -0.000266628         0.524184        -0.84386
                        0.974022        -0.20932     -0.000311348    -0.000129529        0.0295241       0.0730917      0.000191022    -8.05469e-05
                    -0.000210831    -0.000273811         0.524343       -0.843761      0.000158989     2.08806e-05       -0.0721503      -0.0268029
281742                0.00292481       0.0786099     -8.54495e-05     0.000266936         0.973863       -0.209723     -0.000155866    -0.000393424
                    -0.000150729     0.000129241       -0.0570143      -0.0523432     -0.000260846    -0.000266586         0.523823       -0.844084
                        0.973945       -0.209684     -0.000311392    -0.000129289        0.0295478       0.0730753      0.000191104    -8.06531e-05
                    -0.000210917    -0.000273753         0.523982       -0.843984      0.000159144     2.08567e-05       -0.0721786      -0.0267642
281744                0.00295502       0.0786022     -8.52981e-05      0.00026714         0.973785       -0.210087     -0.000156028    -0.000393482
                    -0.000150696     0.000129321       -0.0570372      -0.0523376     -0.000260971    -0.000266545         0.523471       -0.844311
                        0.973867       -0.210048     -0.000311436    -0.000129049        0.0295716       0.0730586      0.000191186    -8.07599e-05
                    -0.000211003    -0.000273693         0.523621       -0.844207        0.0001593     2.08321e-05       -0.0722069      -0.0267254
281746                0.00298525       0.0785945     -8.51462e-05     0.000267345         0.973707       -0.210451     -0.000156191    -0.000393539
                    -0.000150662     0.000129402       -0.0570601       -0.052332     -0.000261096    -0.000266504         0.523101       -0.844528
                         0.97379       -0.210412     -0.000311478    -0.000128808        0.0295954        0.073042      0.000191266    -8.08674e-05
                     -0.00021109    -0.000273634          0.52326       -0.844429      0.000159456     2.08069e-05       -0.0722353      -0.0266867
281748                0.00301549       0.0785868     -8.49936e-05     0.000267549         0.973629       -0.210815     -0.000156357    -0.000393597
                    -0.000150628     0.000129483        -0.057083      -0.0523264      -0.00026122    -0.000266462         0.522739       -0.844751
                        0.973712       -0.210776      -0.00031152    -0.000128568        0.0296192       0.0730254      0.000191346    -8.09758e-05
                    -0.000211176    -0.000273573         0.522898       -0.844651      0.000159612     2.07814e-05       -0.0722637       -0.026648
281750                0.00304575       0.0785791     -8.48405e-05     0.000267753          0.97355       -0.211179     -0.000156524    -0.000393656
                    -0.000150593     0.000129564        -0.057106      -0.0523208     -0.000261345     -0.00026642         0.522378       -0.844974
                        0.973633        -0.21114     -0.000311562    -0.000128327        0.0296429       0.0730087      0.000191424    -8.10853e-05
                    -0.000211263    -0.000273513         0.522537       -0.844873      0.000159768     2.07559e-05        -0.072292      -0.0266092
281752                  0.003076       0.0785714     -8.46867e-05     0.000267958         0.973472       -0.211543     -0.000156692    -0.000393716
                    -0.000150558     0.000129646       -0.0571289      -0.0523151      -0.00026147    -0.000266378         0.522016       -0.845196
                        0.973555       -0.211503     -0.000311602    -0.000128086        0.0296666       0.0729921      0.000191502    -8.11961e-05
                    -0.000211349    -0.000273452         0.522175       -0.845095      0.000159925     2.07302e-05       -0.0723202      -0.0265704
281754                0.00310626       0.0785636     -8.45324e-05     0.000268162         0.973393       -0.211907      -0.00015686    -0.000393776
                    -0.000150523     0.000129727       -0.0571518      -0.0523095     -0.000261594    -0.000266336         0.521655       -0.845418
                        0.973476       -0.211867     -0.000311642    -0.000127845        0.0296904       0.0729754       0.00019158    -8.13087e-05
                    -0.000211436    -0.000273391         0.521814       -0.845317      0.000160082     2.07046e-05       -0.0723485      -0.0265316
281756                0.00313652       0.0785558     -8.43774e-05     0.000268366         0.973314       -0.212271     -0.000157028    -0.000393837
                    -0.000150488     0.000129809       -0.0571747      -0.0523038     -0.000261719    -0.000266294         0.521293        -0.84564
                        0.973398       -0.212231     -0.000311681    -0.000127604        0.0297141       0.0729588      0.000191658    -8.14232e-05
                    -0.000211522     -0.00027333         0.521452       -0.845539       0.00016024     2.06788e-05       -0.0723768      -0.0264928
281758                0.00316678       0.0785481     -8.42218e-05     0.000268569         0.973235       -0.212635     -0.000157195    -0.000393898
                    -0.000150453     0.000129891       -0.0571977      -0.0522982     -0.000261844    -0.000266251         0.520931       -0.845862
                        0.973319       -0.212594      -0.00031172    -0.000127363        0.0297378       0.0729421      0.000191737    -8.15397e-05
                    -0.000211608    -0.000273269          0.52109        -0.84576      0.000160398      2.0653e-05        -0.072405       -0.026454
281760                0.00319703       0.0785403     -8.40656e-05     0.000268773         0.973156       -0.212999     -0.000157363     -0.00039396
                    -0.000150418     0.000129972       -0.0572206      -0.0522925      -0.00026197    -0.000266208         0.520569       -0.846084
                         0.97324       -0.212958     -0.000311757    -0.000127122        0.0297615       0.0729254      0.000191818    -8.16574e-05
                    -0.000211695    -0.000273208         0.520729       -0.845982      0.000160557     2.06271e-05       -0.0724332      -0.0264151
281762                0.00322727       0.0785325     -8.39088e-05     0.000268977         0.973077       -0.213363      -0.00015753    -0.000394022
                    -0.000150382     0.000130054       -0.0572435      -0.0522868     -0.000262096    -0.000266164         0.520207       -0.846305
                        0.973161       -0.213321     -0.000311795     -0.00012688        0.0297852       0.0729088      0.000191902    -8.17752e-05
