! TOUCHSTONE file generated by CST MICROWAVE STUDIO
! Date and time: Tue Oct 14 07:25:54 2025
! Project name: Teste_Macro_Metasurface_Nanopilar.cst
! Parameters = {H=600; L_x=85; L_y=155; Lambda=1064; Max_L=200; Min_L=70; PathPara=1; Phi=0; Step_L=10; Theta=0; p=520; phaseX=180; phaseY=0}
! Header version: 2018
! Port assignment regex: !\s*Touchstone port\s*([0-9]+)\s*=\s*(CST MWS port|CST DS port)\s*([0-9]+|Zmin|Zmax)\s*\(\"(.*)\"\)(\s*mode\s*([0-9]+))?.*
! Touchstone port assignment:
! Touchstone port 1 = CST MWS port Zmax ("") mode 1
! Touchstone port 2 = CST MWS port Zmax ("") mode 2
! Touchstone port 3 = CST MWS port Zmin ("") mode 1
! Touchstone port 4 = CST MWS port Zmin ("") mode 2
! S-Parameters are not renormalized. Each port impedance will be approximated by the real part at minimum frequency. The values are described via the [Reference] keyword.
! Default impedance is overridden by [Reference]
[Version] 2.0
# GHz S RI R 376.73
[Number of Ports] 4
[Reference]
376.73 376.73 259.814 259.814 
[Number of Frequencies] 51
[Network Data]
281700                 0.0230767      -0.0960762     -0.000265063    -0.000151006        -0.487404        0.859289     -0.000253588     1.81964e-05
                    -0.000161699    -0.000290945        0.0303402       0.0223876      0.000192101     0.000323207         0.860666       -0.504826
                        -0.48748        0.858997      -9.6249e-05     0.000252811       -0.0703911       0.0712591      0.000201718     0.000179681
                     -0.00022223     4.53222e-05         0.860674       -0.504816      0.000172574     0.000128983       0.00471332       0.0379966
281702                 0.0230334      -0.0961122     -0.000265143    -0.000150799        -0.486985        0.859524     -0.000253674     1.84371e-05
                    -0.000161862    -0.000290871        0.0303542       0.0223673      0.000192972     0.000323658         0.860469        -0.50516
                       -0.487061        0.859233      -9.6193e-05     0.000252864       -0.0703757       0.0713088      0.000201894      0.00017968
                    -0.000222216     4.54324e-05         0.860477       -0.505152      0.000172373     0.000128753       0.00471822       0.0379954
281704                 0.0229901      -0.0961483     -0.000265223    -0.000150593        -0.486566        0.859759     -0.000253761     1.86788e-05
                    -0.000162025    -0.000290797        0.0303683        0.022347      0.000193846     0.000324106         0.860272       -0.505495
                       -0.486643        0.859467     -9.61371e-05     0.000252916       -0.0703602       0.0713585      0.000202071      0.00017968
                    -0.000222201     4.55426e-05          0.86028       -0.505487       0.00017217     0.000128524       0.00472312       0.0379941
281706                 0.0229468      -0.0961843     -0.000265303    -0.000150386        -0.486146        0.859994     -0.000253848     1.89219e-05
                    -0.000162188    -0.000290724        0.0303823       0.0223267      0.000194722     0.000324551         0.860075       -0.505829
                       -0.486223        0.859702     -9.60811e-05     0.000252969       -0.0703446       0.0714081      0.000202249      0.00017968
                    -0.000222187     4.56528e-05         0.860083       -0.505822      0.000171964     0.000128295       0.00472803       0.0379929
281708                 0.0229034      -0.0962203     -0.000265383    -0.000150179        -0.485727        0.860229     -0.000253937     1.91668e-05
                    -0.000162351     -0.00029065        0.0303964       0.0223064        0.0001956     0.000324993         0.859878       -0.506163
                       -0.485804        0.859937     -9.60251e-05     0.000253022       -0.0703291       0.0714578      0.000202427     0.000179681
                    -0.000222172      4.5763e-05         0.859886       -0.506157      0.000171757     0.000128067       0.00473293       0.0379917
281710                 0.0228601      -0.0962563     -0.000265462    -0.000149973        -0.485308        0.860464     -0.000254024     1.94129e-05
                    -0.000162514    -0.000290576        0.0304104       0.0222861      0.000196481     0.000325432          0.85968       -0.506497
                       -0.485385        0.860171     -9.59692e-05     0.000253075       -0.0703135       0.0715075      0.000202607     0.000179682
                    -0.000222158     4.58733e-05         0.859689       -0.506492      0.000171548     0.000127839       0.00473783       0.0379905
281712                 0.0228167      -0.0962922     -0.000265541    -0.000149766        -0.484888        0.860698     -0.000254112     1.96594e-05
                    -0.000162677    -0.000290503        0.0304244       0.0222658      0.000197364     0.000325868         0.859483       -0.506831
                       -0.484966        0.860405     -9.59133e-05     0.000253128       -0.0702978       0.0715572      0.000202788     0.000179684
                    -0.000222143     4.59835e-05         0.859491       -0.506827      0.000171336     0.000127612       0.00474273       0.0379893
281714                 0.0227733      -0.0963282     -0.000265619    -0.000149559        -0.484469        0.860932       -0.0002542     1.99061e-05
                     -0.00016284    -0.000290429        0.0304384       0.0222455      0.000198249       0.0003263         0.859285       -0.507165
                       -0.484546        0.860639     -9.58573e-05     0.000253181       -0.0702822       0.0716069      0.000202971     0.000179687
                    -0.000222129     4.60938e-05         0.859294       -0.507162      0.000171123     0.000127386       0.00474763       0.0379881
281716                 0.0227298      -0.0963641     -0.000265698    -0.000149352        -0.484049        0.861166     -0.000254289     2.01531e-05
                    -0.000163003    -0.000290356        0.0304524       0.0222252      0.000199136     0.000326729         0.859087       -0.507498
                       -0.484127        0.860873     -9.58014e-05     0.000253233       -0.0702664       0.0716566      0.000203155     0.000179691
                    -0.000222114     4.62041e-05         0.859096       -0.507496      0.000170907      0.00012716       0.00475252       0.0379869
281718                 0.0226864         -0.0964     -0.000265776    -0.000149145        -0.483629          0.8614     -0.000254378     2.04007e-05
                    -0.000163165    -0.000290282        0.0304664       0.0222048      0.000200025     0.000327155          0.85889       -0.507832
                       -0.483707        0.861106     -9.57454e-05     0.000253286       -0.0702507       0.0717063      0.000203341     0.000179697
                      -0.0002221     4.63143e-05         0.858898       -0.507831      0.000170689     0.000126934       0.00475742       0.0379858
281720                 0.0226429      -0.0964359     -0.000265854    -0.000148938        -0.483209        0.861633     -0.000254468      2.0649e-05
                    -0.000163328    -0.000290209        0.0304804       0.0221845      0.000200917     0.000327578         0.858692       -0.508166
                       -0.483287        0.861339     -9.56894e-05     0.000253338       -0.0702349        0.071756      0.000203525     0.000179704
                    -0.000222085     4.64247e-05           0.8587       -0.508166      0.000170469      0.00012671       0.00476232       0.0379846
281722                 0.0225994      -0.0964717     -0.000265932    -0.000148731        -0.482789        0.861867      -0.00025456     2.08981e-05
                     -0.00016349    -0.000290135        0.0304944       0.0221641      0.000201811     0.000327997         0.858493       -0.508499
                       -0.482867        0.861572     -9.56334e-05     0.000253391       -0.0702191       0.0718058       0.00020371      0.00017971
                     -0.00022207      4.6535e-05         0.858502         -0.5085      0.000170247     0.000126486       0.00476722       0.0379834
281724                 0.0225559      -0.0965075     -0.000266009    -0.000148524        -0.482369          0.8621     -0.000254651      2.1148e-05
                    -0.000163652    -0.000290062        0.0305083       0.0221438      0.000202708     0.000328413         0.858295       -0.508833
                       -0.482447        0.861805     -9.55772e-05     0.000253443       -0.0702032       0.0718555      0.000203897     0.000179717
                    -0.000222055     4.66453e-05         0.858304       -0.508835      0.000170023     0.000126262       0.00477212       0.0379822
281726                 0.0225124      -0.0965434     -0.000266086    -0.000148317        -0.481949        0.862333     -0.000254744     2.13987e-05
                    -0.000163815    -0.000289988        0.0305223       0.0221234      0.000203606     0.000328825         0.858097       -0.509166
                       -0.482027        0.862038      -9.5521e-05     0.000253495       -0.0701873       0.0719052      0.000204086     0.000179724
                    -0.000222041     4.67557e-05         0.858105       -0.509169      0.000169797     0.000126039       0.00477702        0.037981
281728                 0.0224688      -0.0965791     -0.000266163     -0.00014811        -0.481528        0.862565     -0.000254837     2.16501e-05
                    -0.000163977    -0.000289915        0.0305362       0.0221031      0.000204507     0.000329234         0.857898       -0.509499
                       -0.481607         0.86227     -9.54647e-05     0.000253547       -0.0701714        0.071955      0.000204275     0.000179733
                    -0.000222026     4.68661e-05         0.857907       -0.509504      0.000169568     0.000125817       0.00478191       0.0379799
281730                 0.0224252      -0.0966149      -0.00026624    -0.000147902        -0.481108        0.862798     -0.000254931     2.19024e-05
                    -0.000164139    -0.000289842        0.0305502       0.0220827       0.00020541     0.000329639           0.8577       -0.509832
                       -0.481187        0.862502     -9.54083e-05     0.000253599       -0.0701554       0.0720048      0.000204466     0.000179742
                    -0.000222011     4.69765e-05         0.857708       -0.509838      0.000169338     0.000125596       0.00478681       0.0379787
281732                 0.0223816      -0.0966507     -0.000266316    -0.000147695        -0.480687         0.86303     -0.000255026     2.21555e-05
                    -0.000164301    -0.000289769        0.0305641       0.0220623      0.000206315     0.000330041         0.857501       -0.510165
                       -0.480767        0.862734     -9.53517e-05     0.000253652       -0.0701394       0.0720545      0.000204658     0.000179752
                    -0.000221996     4.70869e-05          0.85751       -0.510172      0.000169105     0.000125375       0.00479171       0.0379775
281734                  0.022338      -0.0966864     -0.000266392    -0.000147488        -0.480267        0.863262     -0.000255122     2.24094e-05
                    -0.000164463    -0.000289695         0.030578       0.0220419      0.000207222     0.000330439         0.857302       -0.510499
                       -0.480346        0.862966     -9.52951e-05     0.000253704       -0.0701234       0.0721043      0.000204851     0.000179762
                    -0.000221981     4.71973e-05         0.857311       -0.510506       0.00016887     0.000125156        0.0047966       0.0379764
281736                 0.0222944      -0.0967221     -0.000266468    -0.000147281        -0.479846        0.863494     -0.000255218     2.26641e-05
                    -0.000164624    -0.000289622        0.0305919       0.0220215      0.000208132     0.000330833         0.857103       -0.510831
                       -0.479925        0.863198     -9.52383e-05     0.000253756       -0.0701073       0.0721541      0.000205045     0.000179774
                    -0.000221966     4.73078e-05         0.857112        -0.51084      0.000168633     0.000124936        0.0048015       0.0379752
281738                 0.0222507      -0.0967578     -0.000266544    -0.000147073        -0.479425        0.863726     -0.000255315     2.29196e-05
                    -0.000164786    -0.000289549        0.0306058       0.0220011      0.000209044     0.000331223         0.856904       -0.511164
                       -0.479505        0.863429     -9.51815e-05     0.000253808       -0.0700912       0.0722039      0.000205241     0.000179786
                    -0.000221951     4.74182e-05         0.856913       -0.511174      0.000168394     0.000124718        0.0048064       0.0379741
281740                  0.022207      -0.0967934      -0.00026662    -0.000146866        -0.479004        0.863957     -0.000255412     2.31758e-05
                    -0.000164947    -0.000289476        0.0306197       0.0219807      0.000209958      0.00033161         0.856704       -0.511497
                       -0.479084         0.86366     -9.51246e-05      0.00025386       -0.0700751       0.0722536      0.000205438     0.000179799
                    -0.000221936     4.75287e-05         0.856713       -0.511508      0.000168152       0.0001245       0.00481129       0.0379729
281742                 0.0221633      -0.0968291     -0.000266695    -0.000146658        -0.478583        0.864189     -0.000255511     2.34329e-05
                    -0.000165109    -0.000289403        0.0306336       0.0219603      0.000210874     0.000331992         0.856505        -0.51183
                       -0.478663        0.863891     -9.50677e-05     0.000253912       -0.0700589       0.0723034      0.000205636     0.000179813
                    -0.000221921     4.76392e-05         0.856514       -0.511842      0.000167909     0.000124284       0.00481619       0.0379718
281744                 0.0221196      -0.0968647      -0.00026677    -0.000146451        -0.478162         0.86442      -0.00025561     2.36908e-05
                     -0.00016527    -0.000289331        0.0306474       0.0219399      0.000211793      0.00033237         0.856306       -0.512162
                       -0.478242        0.864122     -9.50107e-05     0.000253964       -0.0700426       0.0723533      0.000205835     0.000179828
                    -0.000221906     4.77497e-05         0.856314       -0.512175      0.000167663     0.000124068       0.00482108       0.0379706
281746                 0.0220758      -0.0969003     -0.000266845    -0.000146243         -0.47774         0.86465      -0.00025571     2.39494e-05
                    -0.000165432    -0.000289258        0.0306613       0.0219194      0.000212713     0.000332744         0.856106       -0.512495
                       -0.477821        0.864352     -9.49537e-05     0.000254017       -0.0700264       0.0724031      0.000206035     0.000179843
                    -0.000221891     4.78601e-05         0.856115       -0.512509      0.000167415     0.000123853       0.00482598       0.0379695
281748                 0.0220321      -0.0969358      -0.00026692    -0.000146035        -0.477319        0.864881      -0.00025581     2.42089e-05
                    -0.000165593    -0.000289186        0.0306751        0.021899      0.000213636     0.000333114         0.855906       -0.512827
                       -0.477399        0.864583     -9.48966e-05     0.000254069       -0.0700101       0.0724529      0.000206237     0.000179859
                    -0.000221876     4.79706e-05         0.855915       -0.512843      0.000167165     0.000123638       0.00483087       0.0379683
281750                 0.0219883      -0.0969714     -0.000266994    -0.000145827        -0.476897        0.865112     -0.000255911     2.44691e-05
                    -0.000165754    -0.000289114         0.030689       0.0218785      0.000214561     0.000333477         0.855706        -0.51316
                       -0.476978        0.864813     -9.48391e-05     0.000254122       -0.0699938       0.0725027       0.00020644     0.000179877
                    -0.000221861     4.80811e-05         0.855715       -0.513176      0.000166912     0.000123425       0.00483577       0.0379672
281752                 0.0219445      -0.0970069     -0.000267068    -0.000145617        -0.476476        0.865342     -0.000256013     2.47301e-05
                    -0.000165916    -0.000289042        0.0307028       0.0218581      0.000215488     0.000333833         0.855506       -0.513492
                       -0.476557        0.865043     -9.47799e-05     0.000254174       -0.0699774       0.0725525      0.000206644     0.000179894
                    -0.000221846     4.81915e-05         0.855515       -0.513509      0.000166657     0.000123213       0.00484066       0.0379661
281754                 0.0219006      -0.0970424     -0.000267138    -0.000145398        -0.476054        0.865572     -0.000256116     2.49919e-05
                    -0.000166078    -0.000288972        0.0307166       0.0218376       0.00021642     0.000334161         0.855306       -0.513824
                       -0.476135        0.865272     -9.47234e-05     0.000254224        -0.069961       0.0726024      0.000206849     0.000179913
                    -0.000221831     4.83017e-05         0.855315       -0.513843      0.000166396     0.000123003       0.00484555        0.037965
281756                 0.0218568      -0.0970779     -0.000267208    -0.000145223        -0.475632        0.865802     -0.000256219     2.52545e-05
                    -0.000166243    -0.000288906        0.0307304       0.0218172      0.000217359     0.000334669         0.855106       -0.514156
                       -0.475713        0.865502     -9.46668e-05     0.000254276       -0.0699445       0.0726522      0.000207056     0.000179933
                    -0.000221816     4.84116e-05         0.855114       -0.514176      0.000166148     0.000122785       0.00485045       0.0379638
281758                 0.0218129      -0.0971134     -0.000267288    -0.000145007         -0.47521        0.866031     -0.000256323     2.55178e-05
                    -0.000166418    -0.000288855        0.0307442       0.0217967      0.000218283     0.000334945         0.854905       -0.514488
                       -0.475292        0.865731     -9.46098e-05     0.000254329       -0.0699281       0.0727021      0.000207264     0.000179953
                    -0.000221802     4.85195e-05         0.854914       -0.514509      0.000165884     0.000122578       0.00485534       0.0379627
281760                  0.021769      -0.0971488     -0.000267362    -0.000144798        -0.474788        0.866261     -0.000256428      2.5782e-05
                    -0.000166555    -0.000288391         0.030758       0.0217762      0.000219218      0.00033528         0.854704        -0.51482
                        -0.47487         0.86596     -9.45527e-05     0.000254381       -0.0699115        0.072752      0.000207473     0.000179974
                    -0.000221765      4.8669e-05         0.854713       -0.514842       0.00016562     0.000122369       0.00486023       0.0379616
281762                 0.0217251      -0.0971843     -0.000267436     -0.00014459        -0.474366         0.86649     -0.000256534     2.60469e-05
                    -0.000166695    -0.000288629        0.0307718       0.0217557      0.000220156     0.000335618         0.854504       -0.515152
                       -0.474448        0.866189     -9.44954e-05     0.000254433        -0.069895       0.0728018      0.000207683     0.000179996
