! TOUCHSTONE file generated by CST MICROWAVE STUDIO
! Date and time: Tue Oct 14 07:29:59 2025
! Project name: Teste_Macro_Metasurface_Nanopilar.cst
! Parameters = {H=600; L_x=150; L_y=150; Lambda=1064; Max_L=200; Min_L=70; PathPara=1; Phi=0; Step_L=10; Theta=0; p=520; phaseX=180; phaseY=0}
! Header version: 2018
! Port assignment regex: !\s*Touchstone port\s*([0-9]+)\s*=\s*(CST MWS port|CST DS port)\s*([0-9]+|Zmin|Zmax)\s*\(\"(.*)\"\)(\s*mode\s*([0-9]+))?.*
! Touchstone port assignment:
! Touchstone port 1 = CST MWS port Zmax ("") mode 1
! Touchstone port 2 = CST MWS port Zmax ("") mode 2
! Touchstone port 3 = CST MWS port Zmin ("") mode 1
! Touchstone port 4 = CST MWS port Zmin ("") mode 2
! S-Parameters are not renormalized. Each port impedance will be approximated by the real part at minimum frequency. The values are described via the [Reference] keyword.
! Default impedance is overridden by [Reference]
[Version] 2.0
# GHz S RI R 376.73
[Number of Ports] 4
[Reference]
376.73 376.73 259.814 259.814 
[Number of Frequencies] 51
[Network Data]
281700                 -0.453381        0.271175      -0.00296437     0.000389514        0.0189019        0.820403      -0.00329955     -0.00200775
                      -0.0029595     0.000485576        -0.451605        0.271209       -0.0033921     -0.00224714        0.0214063        0.821352
                       0.0184158        0.820432      -0.00337063     -0.00224746        -0.419151       -0.291169      0.000237396     -0.00458347
                     -0.00347414     -0.00191635        0.0216057        0.821548      0.000141745     -0.00460504        -0.418992       -0.288579
281702                 -0.452903        0.271212       -0.0029566     0.000391752        0.0196674        0.820702      -0.00329551     -0.00199776
                     -0.00300211     0.000522108        -0.451078        0.271239      -0.00338819      -0.0022367        0.0221727        0.821647
                       0.0188779        0.820721      -0.00336676     -0.00223741        -0.419212       -0.290338      0.000230267      -0.0045717
                     -0.00352661     -0.00193744        0.0223723        0.821844      0.000134225      -0.0045932        -0.419047       -0.287749
281704                  -0.45237        0.271254      -0.00294884      0.00039396        0.0204327        0.820998      -0.00329146      -0.0019878
                     -0.00300063     0.000521155        -0.450552        0.271269      -0.00338426     -0.00222632         0.022939        0.821941
                       0.0196706        0.820976      -0.00336287     -0.00222739        -0.419271       -0.289508       0.00022318     -0.00455995
                     -0.00352353     -0.00193546        0.0231388        0.822139      0.000126788     -0.00458137        -0.419102        -0.28692
281706                 -0.451843        0.271288      -0.00294109      0.00039614        0.0211977        0.821294       -0.0032874     -0.00197787
                     -0.00299454     0.000522011        -0.450027        0.271298      -0.00338031       -0.002216        0.0237052        0.822234
                       0.0204459        0.821262      -0.00335897     -0.00221741        -0.419329       -0.288679      0.000216135     -0.00454822
                     -0.00351916     -0.00192817        0.0239051        0.822431      0.000119434     -0.00456955        -0.419155       -0.286091
281708                 -0.451317         0.27132      -0.00293336     0.000398292        0.0219625        0.821588      -0.00328333     -0.00196798
                     -0.00298731     0.000523541        -0.449503        0.271327      -0.00337635     -0.00220573        0.0244713        0.822525
                       0.0212157        0.821553      -0.00335505     -0.00220746        -0.419385       -0.287852      0.000209131     -0.00453651
                     -0.00351468     -0.00191937        0.0246714        0.822723       0.00011216     -0.00455775        -0.419207       -0.285264
281710                 -0.450793         0.27135      -0.00292565     0.000400416         0.022727        0.821881      -0.00327925     -0.00195812
                     -0.00297963     0.000525366        -0.448979        0.271355      -0.00337237     -0.00219553        0.0252373        0.822815
                       0.0219834        0.821845      -0.00335112     -0.00219755         -0.41944       -0.287026      0.000202169     -0.00452481
                     -0.00351019     -0.00190997        0.0254376        0.823013      0.000104965     -0.00454595        -0.419258       -0.284438
281712                  -0.45027         0.27138      -0.00291795     0.000402512        0.0234914        0.822173      -0.00327517     -0.00194828
                     -0.00297174     0.000527339        -0.448457        0.271382      -0.00336839     -0.00218539        0.0260032        0.823103
                       0.0227499        0.822136      -0.00334717     -0.00218767        -0.419494         -0.2862      0.000195248     -0.00451313
                     -0.00350572     -0.00190027        0.0262037        0.823301      9.78455e-05     -0.00453417        -0.419307       -0.283613
281714                 -0.449748        0.271409      -0.00291027     0.000404583        0.0242555        0.822464      -0.00327108     -0.00193848
                     -0.00296375     0.000529388        -0.447935        0.271408      -0.00336438      -0.0021753         0.026769         0.82339
                       0.0235158        0.822427      -0.00334321     -0.00217782        -0.419546       -0.285376      0.000188368     -0.00450147
                     -0.00350125     -0.00189042        0.0269696        0.823588      9.08001e-05      -0.0045224        -0.419355       -0.282789
281716                 -0.449227        0.271437       -0.0029026     0.000406627        0.0250194        0.822753      -0.00326698     -0.00192872
                      -0.0029557     0.000531478        -0.447414        0.271434      -0.00336037     -0.00216528        0.0275347        0.823676
                       0.0242812        0.822716      -0.00333924     -0.00216801        -0.419597       -0.284553      0.000181528     -0.00448983
                      -0.0034968     -0.00188049        0.0277355        0.823874      8.38263e-05     -0.00451063        -0.419402       -0.281966
281718                 -0.448707        0.271465      -0.00289495     0.000408646        0.0257831         0.82304      -0.00326287     -0.00191898
                     -0.00294763     0.000533587        -0.446894         0.27146      -0.00335634     -0.00215531        0.0283003         0.82396
                       0.0250463        0.823004      -0.00333526     -0.00215824        -0.419647       -0.283731      0.000174729     -0.00447821
                     -0.00349236     -0.00187053        0.0285012        0.824158      7.69216e-05     -0.00449888        -0.419447       -0.281144
281720                 -0.448187        0.271492      -0.00288732      0.00041064        0.0265466        0.823327      -0.00325875     -0.00190927
                     -0.00293955     0.000535702        -0.446374        0.271484       -0.0033523      -0.0021454        0.0290657        0.824242
                       0.0258112         0.82329      -0.00333126     -0.00214849        -0.419695       -0.282911      0.000167969     -0.00446661
                     -0.00348793     -0.00186054        0.0292668        0.824441      7.00833e-05     -0.00448714        -0.419491       -0.280324
281722                 -0.447669        0.271518       -0.0028797     0.000412609        0.0273099        0.823612      -0.00325463      -0.0018996
                     -0.00293146     0.000537814        -0.445856        0.271508      -0.00334825     -0.00213554        0.0298311        0.824523
                        0.026576        0.823575      -0.00332726     -0.00213879        -0.419742       -0.282091       0.00016125     -0.00445502
                      -0.0034835     -0.00185056        0.0300323        0.824722      6.33085e-05      -0.0044754        -0.419534       -0.279504
281724                 -0.447151        0.271544       -0.0028721     0.000414555        0.0280731        0.823896       -0.0032505     -0.00188996
                     -0.00292338     0.000539919        -0.445338        0.271532      -0.00334418     -0.00212574        0.0305964        0.824803
                       0.0273405        0.823859      -0.00332324     -0.00212911        -0.419788       -0.281273       0.00015457     -0.00444346
                     -0.00347908     -0.00184059        0.0307977        0.825002      5.65941e-05     -0.00446368        -0.419576       -0.278686
281726                 -0.446635        0.271569      -0.00286451     0.000416477        0.0288361        0.824178      -0.00324636     -0.00188034
                     -0.00291531     0.000542012        -0.444821        0.271554      -0.00334011     -0.00211599        0.0313615        0.825081
                        0.028105        0.824142      -0.00331921     -0.00211947        -0.419833       -0.280455       0.00014793     -0.00443191
                     -0.00347466     -0.00183064        0.0315629         0.82528      4.99367e-05     -0.00445197        -0.419616       -0.277868
281728                 -0.446119        0.271594      -0.00285694     0.000418376         0.029599        0.824459      -0.00324222     -0.00187076
                     -0.00290725      0.00054409        -0.444305        0.271577      -0.00333603     -0.00210628        0.0321265        0.825358
                       0.0288694        0.824423      -0.00331518     -0.00210986        -0.419876       -0.279639      0.000141328     -0.00442038
                     -0.00347025     -0.00182071         0.032328        0.825557      4.33322e-05     -0.00444028        -0.419655       -0.277052
281730                 -0.445603        0.271617      -0.00284939     0.000420253        0.0303618        0.824738      -0.00323807     -0.00186121
                     -0.00289921     0.000546152         -0.44379        0.271598      -0.00333193     -0.00209663        0.0328914        0.825634
                       0.0296336        0.824702      -0.00331113     -0.00210029        -0.419918       -0.278824      0.000134766     -0.00440887
                     -0.00346584      -0.0018108         0.033093        0.825833      3.67762e-05      -0.0044286        -0.419693       -0.276236
281732                 -0.445089        0.271641      -0.00284186     0.000422107        0.0311244        0.825017      -0.00323391     -0.00185169
                     -0.00289119     0.000548196        -0.443276        0.271619      -0.00332784     -0.00208702        0.0336562        0.825908
                       0.0303978        0.824981      -0.00330707     -0.00209074        -0.419959        -0.27801      0.000128242     -0.00439738
                     -0.00346143     -0.00180093        0.0338579        0.826107      3.02634e-05     -0.00441694        -0.419729       -0.275422
281734                 -0.444576        0.271663      -0.00283435      0.00042394         0.031887        0.825293      -0.00322975      -0.0018422
                     -0.00288319     0.000550221        -0.442762        0.271639      -0.00332373     -0.00207744        0.0344209         0.82618
                       0.0311618        0.825257      -0.00330301     -0.00208124        -0.419999       -0.277197      0.000121757     -0.00438591
                     -0.00345703     -0.00179108        0.0346226        0.826379      2.37873e-05      -0.0044053        -0.419765       -0.274609
281736                 -0.444063        0.271685      -0.00282685     0.000425752        0.0326495        0.825569      -0.00322558     -0.00183274
                     -0.00287521     0.000552227         -0.44225        0.271659      -0.00331962     -0.00206789        0.0351854        0.826451
                       0.0319258        0.825533      -0.00329894     -0.00207176        -0.420037       -0.276385       0.00011531     -0.00437445
                     -0.00345262     -0.00178127        0.0353872        0.826651      1.73398e-05     -0.00439368        -0.419799       -0.273797
281738                 -0.443551        0.271707      -0.00281937     0.000427543        0.0334121        0.825842       -0.0032214     -0.00182332
                     -0.00286724     0.000554212        -0.441738        0.271678      -0.00331551     -0.00205835        0.0359498        0.826721
                       0.0326896        0.825807      -0.00329485     -0.00206232        -0.420074       -0.275574      0.000108901     -0.00436302
                     -0.00344822      -0.0017715        0.0361517         0.82692      1.09096e-05      -0.0043821        -0.419832       -0.272986
281740                  -0.44304        0.271727      -0.00281191     0.000429314        0.0341747        0.826114      -0.00321722     -0.00181392
                      -0.0028593     0.000556176        -0.441227        0.271697       -0.0033114     -0.00204882        0.0367141        0.826989
                       0.0334534        0.826079      -0.00329077     -0.00205291         -0.42011       -0.274764       0.00010253      -0.0043516
                     -0.00344382     -0.00176175         0.036916        0.827189      4.48108e-06     -0.00437055        -0.419863       -0.272176
281742                  -0.44253        0.271747      -0.00280447     0.000431065        0.0349374        0.826385      -0.00321303     -0.00180455
                     -0.00285138     0.000558119        -0.440717        0.271715       -0.0033073     -0.00203926        0.0374782        0.827256
                       0.0342171        0.826351      -0.00328667     -0.00204353        -0.420145       -0.273954      9.61972e-05      -0.0043402
                     -0.00343941     -0.00175205        0.0376802        0.827456     -1.96996e-06     -0.00435905        -0.419894       -0.271367
281744                  -0.44202        0.271767      -0.00279704     0.000432796        0.0357005        0.826653      -0.00320883     -0.00179522
                     -0.00284349     0.000560041        -0.440207        0.271732       -0.0033032     -0.00202963        0.0382423        0.827522
                       0.0349807         0.82662      -0.00328257     -0.00203418        -0.420179       -0.273146      8.99019e-05     -0.00432882
                     -0.00343501     -0.00174238        0.0384442        0.827721     -8.48325e-06     -0.00434761        -0.419923       -0.270559
281746                 -0.441512        0.271786      -0.00278964     0.000434509        0.0364641         0.82692      -0.00320463     -0.00178591
                     -0.00283561     0.000561941        -0.439699        0.271749      -0.00329912     -0.00201986        0.0390061        0.827786
                       0.0357441        0.826889      -0.00327846     -0.00202487        -0.420211       -0.272338      8.36443e-05     -0.00431746
                      -0.0034306     -0.00173275        0.0392081        0.827985     -1.51306e-05     -0.00433625        -0.419951       -0.269753
281748                 -0.441004        0.271804      -0.00278225     0.000436202        0.0372287        0.827183      -0.00320042     -0.00177664
                     -0.00282776      0.00056382        -0.439191        0.271765      -0.00329503     -0.00200985        0.0397699        0.828049
                       0.0365075        0.827156      -0.00327435     -0.00201559        -0.420243        -0.27153      7.74246e-05     -0.00430612
                     -0.00342619     -0.00172315        0.0399719        0.828248     -2.20565e-05     -0.00432499        -0.419978       -0.268947
281750                 -0.440497        0.271822      -0.00277488     0.000437878        0.0379956        0.827442       -0.0031962      -0.0017674
                     -0.00281993     0.000565677        -0.438684         0.27178      -0.00329087     -0.00199939        0.0405335         0.82831
                       0.0372708        0.827421      -0.00327023     -0.00200634        -0.420274       -0.270721      7.12431e-05      -0.0042948
                     -0.00342178     -0.00171359        0.0407355         0.82851      -2.9591e-05      -0.0043138        -0.420003       -0.268142
281752                 -0.439991        0.271839      -0.00276753     0.000439535        0.0387676        0.827691      -0.00319197     -0.00175819
                     -0.00281213     0.000567513        -0.438178        0.271795      -0.00328641     -0.00198809        0.0412969         0.82857
                       0.0380339        0.827685      -0.00326611     -0.00199712        -0.420304       -0.269909      6.51007e-05     -0.00428349
                     -0.00341737     -0.00170408        0.0414989         0.82877     -3.85773e-05     -0.00430227        -0.420028       -0.267339
281754                 -0.439486        0.271856       -0.0027602     0.000441175         0.039554        0.827895      -0.00318773     -0.00174901
                     -0.00280434     0.000569326        -0.437672         0.27181      -0.00328075     -0.00197538        0.0420602        0.828829
                        0.038797        0.827948      -0.00326198     -0.00198793        -0.420337       -0.269079      5.89993e-05     -0.00427219
                     -0.00341296     -0.00169459        0.0422623        0.829028     -5.04211e-05     -0.00428722        -0.420051       -0.266536
281756                 -0.438981        0.271872      -0.00275289     0.000442798        0.0399188        0.828186      -0.00318348     -0.00173987
                     -0.00279658     0.000571118        -0.437168        0.271823      -0.00327106     -0.00196168        0.0428233        0.829086
                       0.0395599        0.828209      -0.00325785     -0.00197877        -0.419966       -0.265504      5.29431e-05     -0.00426091
                     -0.00340855     -0.00168515        0.0430254        0.829285     -5.38231e-05     -0.00426259        -0.420073       -0.265735
281758                 -0.438477        0.271887      -0.00274559     0.000444406          0.04094        0.828564      -0.00317919     -0.00173078
                     -0.00278885     0.000572889        -0.436664        0.271837      -0.00325567     -0.00195405        0.0435863        0.829342
                       0.0403227        0.828469      -0.00325371     -0.00196964        -0.420364       -0.267593      4.69443e-05     -0.00424962
                     -0.00340413     -0.00167574        0.0437884        0.829541     -4.88625e-05     -0.00425234        -0.420094       -0.264935
281760                 -0.437974        0.271902      -0.00273831        0.000446        0.0417362        0.828807      -0.00317481     -0.00172179
                     -0.00278113     0.000574638        -0.436161        0.271849      -0.00324685     -0.00195502        0.0443489        0.829596
                       0.0410854        0.828728      -0.00324956     -0.00196053        -0.420394       -0.266765      4.10521e-05     -0.00423827
                     -0.00339971     -0.00166638        0.0445513        0.829796     -5.23718e-05     -0.00424495        -0.420114       -0.264136
281762                 -0.437472        0.271916      -0.00273103     0.000447585         0.042509        0.829057      -0.00316951     -0.00171368
                     -0.00277344     0.000576365        -0.435659        0.271861      -0.00324507     -0.00195228        0.0451107        0.829855
                       0.0418479        0.828985      -0.00324541     -0.00195142        -0.420419       -0.265957      3.59081e-05     -0.00422624
