! TOUCHSTONE file generated by CST MICROWAVE STUDIO
! Date and time: Tue Oct 14 07:27:59 2025
! Project name: Teste_Macro_Metasurface_Nanopilar.cst
! Parameters = {H=600; L_x=120; L_y=110; Lambda=1064; Max_L=200; Min_L=70; PathPara=1; Phi=0; Step_L=10; Theta=0; p=520; phaseX=180; phaseY=0}
! Header version: 2018
! Port assignment regex: !\s*Touchstone port\s*([0-9]+)\s*=\s*(CST MWS port|CST DS port)\s*([0-9]+|Zmin|Zmax)\s*\(\"(.*)\"\)(\s*mode\s*([0-9]+))?.*
! Touchstone port assignment:
! Touchstone port 1 = CST MWS port Zmax ("") mode 1
! Touchstone port 2 = CST MWS port Zmax ("") mode 2
! Touchstone port 3 = CST MWS port Zmin ("") mode 1
! Touchstone port 4 = CST MWS port Zmin ("") mode 2
! S-Parameters are not renormalized. Each port impedance will be approximated by the real part at minimum frequency. The values are described via the [Reference] keyword.
! Default impedance is overridden by [Reference]
[Version] 2.0
# GHz S RI R 376.73
[Number of Ports] 4
[Reference]
376.73 376.73 259.814 259.814 
[Number of Frequencies] 51
[Network Data]
281700                 -0.156423      -0.0618216      1.48011e-06    -0.000223369        -0.299334       -0.931369      0.000466623    -5.64599e-05
                    -9.35031e-06    -0.000152306        -0.134482       0.0666377      0.000332689    -0.000278076        -0.860896       -0.466969
                       -0.299895       -0.931563      0.000180267    -0.000372309       -0.0900964        0.141284      9.52418e-05    -1.40392e-05
                     0.000375865    -9.15477e-05        -0.861153       -0.467424     -1.49957e-05     0.000258239        0.0155981         0.14847
281702                 -0.156452      -0.0617648      1.34232e-06    -0.000223497        -0.299793        -0.93122      0.000466725    -5.67218e-05
                    -9.45063e-06    -0.000152396        -0.134438       0.0666843       0.00033262    -0.000277932        -0.861146       -0.466514
                       -0.300354       -0.931413      0.000180095    -0.000372435       -0.0900144        0.141344      9.53634e-05    -1.40158e-05
                     0.000375881    -9.16846e-05        -0.861403       -0.466969     -1.46239e-05     0.000258191        0.0156918        0.148441
281704                 -0.156482       -0.061708      1.20437e-06    -0.000223624        -0.300252        -0.93107      0.000466828    -5.69839e-05
                    -9.55077e-06    -0.000152488        -0.134393       0.0667307      0.000332551    -0.000277787        -0.861395       -0.466059
                       -0.300813       -0.931264      0.000179924    -0.000372561       -0.0899323        0.141404      9.54851e-05    -1.39927e-05
                     0.000375897    -9.18217e-05        -0.861653       -0.466515     -1.42505e-05     0.000258142        0.0157854        0.148411
281706                 -0.156511      -0.0616512      1.06626e-06    -0.000223752         -0.30071        -0.93092       0.00046693    -5.72461e-05
                    -9.65061e-06     -0.00015258        -0.134349       0.0667772       0.00033248    -0.000277643        -0.861644       -0.465604
                       -0.301273       -0.931114      0.000179752    -0.000372687       -0.0898501        0.141464      9.56068e-05      -1.397e-05
                     0.000375913    -9.19587e-05        -0.861903        -0.46606     -1.38754e-05     0.000258092         0.015879        0.148382
281708                 -0.156541      -0.0615943      9.28013e-07    -0.000223879        -0.301169        -0.93077      0.000467032    -5.75086e-05
                     -9.7501e-06    -0.000152673        -0.134304       0.0668236      0.000332409    -0.000277497        -0.861893       -0.465149
                       -0.301732       -0.930963      0.000179581    -0.000372813       -0.0897679        0.141524      9.57285e-05    -1.39475e-05
                     0.000375929    -9.20958e-05        -0.862153       -0.465605     -1.34987e-05     0.000258042        0.0159726        0.148352
281710                  -0.15657      -0.0615375      7.89623e-07    -0.000224007        -0.301627       -0.930619      0.000467134    -5.77712e-05
                    -9.84925e-06    -0.000152767         -0.13426         0.06687      0.000332337    -0.000277352        -0.862142       -0.464694
                       -0.302191       -0.930813      0.000179409    -0.000372939       -0.0896857        0.141584      9.58502e-05    -1.39254e-05
                     0.000375945    -9.22329e-05        -0.862403        -0.46515     -1.31204e-05     0.000257992        0.0160662        0.148323
281712                   -0.1566      -0.0614806      6.51098e-07    -0.000224134        -0.302085       -0.930469      0.000467236     -5.8034e-05
                    -9.94808e-06    -0.000152861        -0.134215       0.0669163      0.000332264    -0.000277206         -0.86239       -0.464238
                        -0.30265       -0.930662      0.000179237    -0.000373064       -0.0896034        0.141644      9.59719e-05    -1.39036e-05
                      0.00037596      -9.237e-05        -0.862652       -0.464695     -1.27405e-05      0.00025794        0.0161597        0.148293
281714                 -0.156629      -0.0614237      5.12443e-07    -0.000224262        -0.302543       -0.930318      0.000467337     -5.8297e-05
                    -1.00466e-05    -0.000152955         -0.13417       0.0669627       0.00033219    -0.000277059        -0.862639       -0.463783
                       -0.303109       -0.930511      0.000179066     -0.00037319       -0.0895211        0.141704      9.60936e-05    -1.38821e-05
                     0.000375975    -9.25071e-05        -0.862901        -0.46424      -1.2359e-05     0.000257889        0.0162532        0.148264
281716                 -0.156659      -0.0613668      3.73662e-07    -0.000224389        -0.303002       -0.930167      0.000467438    -5.85602e-05
                    -1.01449e-05    -0.000153049        -0.134126        0.067009      0.000332116    -0.000276912        -0.862886       -0.463327
                       -0.303568        -0.93036      0.000178894    -0.000373315       -0.0894388        0.141764      9.62153e-05     -1.3861e-05
                      0.00037599    -9.26442e-05         -0.86315       -0.463784     -1.19759e-05     0.000257836        0.0163466        0.148234
281718                 -0.156688      -0.0613099      2.34763e-07    -0.000224516         -0.30346       -0.930015      0.000467539    -5.88236e-05
                    -1.02431e-05    -0.000153143        -0.134081       0.0670553      0.000332041    -0.000276765        -0.863134       -0.462871
                       -0.304027       -0.930208      0.000178722     -0.00037344       -0.0893563        0.141823      9.63371e-05    -1.38402e-05
                     0.000376005    -9.27813e-05        -0.863398       -0.463329     -1.15913e-05     0.000257783        0.0164401        0.148204
281720                 -0.156717       -0.061253      9.57492e-08    -0.000224643        -0.303918       -0.929864       0.00046764    -5.90871e-05
                    -1.03411e-05    -0.000153238        -0.134036       0.0671015      0.000331965    -0.000276617        -0.863382       -0.462415
                       -0.304485       -0.930057       0.00017855    -0.000373565       -0.0892739        0.141883      9.64589e-05      -1.382e-05
                      0.00037602    -9.29183e-05        -0.863647       -0.462873     -1.12051e-05     0.000257729        0.0165335        0.148174
281722                 -0.156747       -0.061196     -4.33719e-08     -0.00022477        -0.304376       -0.929712       0.00046774    -5.93508e-05
                     -1.0439e-05    -0.000153332        -0.133991       0.0671477      0.000331888    -0.000276469        -0.863629       -0.461959
                       -0.304944       -0.929905      0.000178378     -0.00037369       -0.0891914        0.141943      9.65813e-05    -1.38002e-05
                     0.000376035    -9.30553e-05        -0.863895       -0.462417     -1.08174e-05     0.000257674        0.0166268        0.148145
281724                 -0.156776      -0.0611391     -1.82595e-07    -0.000224898        -0.304833        -0.92956       0.00046784    -5.96147e-05
                    -1.05369e-05    -0.000153426        -0.133947       0.0671939       0.00033181    -0.000276321        -0.863876       -0.461503
                       -0.305403       -0.929753      0.000178206    -0.000373815       -0.0891089        0.142002      9.67047e-05    -1.37804e-05
                     0.000376049    -9.31923e-05        -0.864143       -0.461961     -1.04283e-05     0.000257619        0.0167202        0.148115
281726                 -0.156805      -0.0610821     -3.21915e-07    -0.000225025        -0.305291       -0.929408       0.00046794    -5.98787e-05
                    -1.06347e-05     -0.00015352        -0.133902       0.0672401      0.000331732    -0.000276172        -0.864123       -0.461046
                       -0.305861         -0.9296      0.000178034    -0.000373939       -0.0890263        0.142062       9.6828e-05    -1.37589e-05
                     0.000376063    -9.33292e-05         -0.86439       -0.461505     -1.00377e-05     0.000257563        0.0168135        0.148085
281728                 -0.156835      -0.0610251     -4.61324e-07    -0.000225152        -0.305749       -0.929255       0.00046804     -6.0143e-05
                    -1.07326e-05    -0.000153614        -0.133857       0.0672862      0.000331653    -0.000276023        -0.864369        -0.46059
                        -0.30632       -0.929448      0.000177862    -0.000374063       -0.0889437        0.142121      9.69493e-05    -1.37376e-05
                     0.000376077     -9.3466e-05        -0.864638       -0.461049     -9.64558e-06     0.000257506        0.0169067        0.148055
281730                 -0.156864      -0.0609681     -6.00817e-07    -0.000225279        -0.306207       -0.929102       0.00046814    -6.04073e-05
                    -1.08305e-05    -0.000153708        -0.133812       0.0673323      0.000331573    -0.000275874        -0.864615       -0.460133
                       -0.306778       -0.929295      0.000177689    -0.000374188        -0.088861        0.142181      9.70704e-05    -1.37177e-05
                     0.000376091    -9.36028e-05        -0.864885       -0.460592     -9.25205e-06     0.000257449            0.017        0.148024
281732                 -0.156893       -0.060911     -7.40389e-07    -0.000225406        -0.306664       -0.928949      0.000468239    -6.06718e-05
                    -1.09285e-05    -0.000153802        -0.133767       0.0673784      0.000331493    -0.000275724        -0.864861       -0.459676
                       -0.307236       -0.929142      0.000177517    -0.000374312       -0.0887783         0.14224      9.71917e-05    -1.36983e-05
                     0.000376105    -9.37395e-05        -0.865132       -0.460136      -8.8571e-06     0.000257391        0.0170932        0.147994
281734                 -0.156922       -0.060854     -8.80032e-07    -0.000225533        -0.307122       -0.928796      0.000468339    -6.09364e-05
                    -1.10266e-05    -0.000153896        -0.133723       0.0674244      0.000331412    -0.000275574        -0.865107       -0.459219
                       -0.307695       -0.928989      0.000177345    -0.000374435       -0.0886955          0.1423      9.73132e-05    -1.36794e-05
                     0.000376119    -9.38761e-05        -0.865378       -0.459679     -8.46075e-06     0.000257332        0.0171864        0.147964
281736                 -0.156952      -0.0607969     -1.01974e-06     -0.00022566        -0.307579       -0.928643      0.000468438     -6.1201e-05
                    -1.11249e-05     -0.00015399        -0.133678       0.0674705       0.00033133    -0.000275423        -0.865353       -0.458762
                       -0.308153       -0.928835      0.000177172    -0.000374559       -0.0886127        0.142359      9.74348e-05    -1.36607e-05
                     0.000376133    -9.40126e-05        -0.865625       -0.459222     -8.06301e-06     0.000257272        0.0172795        0.147934
281738                 -0.156981      -0.0607398     -1.15951e-06    -0.000225787        -0.308037       -0.928489      0.000468537    -6.14657e-05
                    -1.12232e-05    -0.000154084        -0.133633       0.0675165      0.000331248    -0.000275272        -0.865598       -0.458305
                       -0.308611       -0.928682         0.000177    -0.000374682       -0.0885299        0.142418      9.75565e-05    -1.36423e-05
                     0.000376146    -9.41491e-05        -0.865871       -0.458765     -7.66389e-06     0.000257211        0.0173726        0.147903
281740                  -0.15701      -0.0606827     -1.29933e-06    -0.000225914        -0.308494       -0.928335      0.000468636    -6.17303e-05
                    -1.13217e-05    -0.000154178        -0.133588       0.0675624      0.000331165    -0.000275121        -0.865843       -0.457848
                       -0.309069       -0.928528      0.000176827    -0.000374806        -0.088447        0.142477      9.76782e-05    -1.36241e-05
                      0.00037616    -9.42855e-05        -0.866117       -0.458308     -7.26342e-06      0.00025715        0.0174657        0.147873
281742                 -0.157039      -0.0606256      -1.4392e-06    -0.000226042        -0.308951       -0.928181      0.000468734     -6.1995e-05
                    -1.14204e-05    -0.000154271        -0.133543       0.0676083      0.000331081     -0.00027497        -0.866088        -0.45739
                       -0.309527       -0.928374      0.000176655    -0.000374929       -0.0883641        0.142536      9.77999e-05    -1.36061e-05
                     0.000376173    -9.44218e-05        -0.866363       -0.457851     -6.86161e-06     0.000257088        0.0175588        0.147842
281744                 -0.157068      -0.0605685     -1.57911e-06    -0.000226169        -0.309408       -0.928027      0.000468833    -6.22598e-05
                    -1.15192e-05    -0.000154365        -0.133498       0.0676542      0.000330997    -0.000274818        -0.866333       -0.456933
                       -0.309985       -0.928219      0.000176482    -0.000375052       -0.0882811        0.142596      9.79216e-05    -1.35884e-05
                     0.000376187     -9.4558e-05        -0.866608       -0.457394     -6.45847e-06     0.000257025        0.0176518        0.147811
281746                 -0.157097      -0.0605114     -1.71905e-06    -0.000226296        -0.309866       -0.927873      0.000468931    -6.25248e-05
                    -1.16182e-05    -0.000154459        -0.133453       0.0677001      0.000330912    -0.000274666        -0.866577       -0.456475
                       -0.310443       -0.928065      0.000176309    -0.000375174       -0.0881981        0.142655      9.80434e-05    -1.35708e-05
                       0.0003762    -9.46942e-05        -0.866853       -0.456936     -6.05403e-06     0.000256961        0.0177448        0.147781
281748                 -0.157126      -0.0604542     -1.85903e-06    -0.000226423        -0.310323       -0.927718      0.000469028    -6.27899e-05
                    -1.17174e-05    -0.000154552        -0.133408        0.067746      0.000330826    -0.000274513        -0.866821       -0.456017
                       -0.310901        -0.92791      0.000176136    -0.000375297        -0.088115        0.142714      9.81652e-05    -1.35536e-05
                     0.000376214    -9.48303e-05        -0.867098       -0.456479     -5.64829e-06     0.000256896        0.0178378         0.14775
281750                 -0.157155       -0.060397     -1.99903e-06    -0.000226551         -0.31078       -0.927563      0.000469125    -6.30552e-05
                    -1.18167e-05    -0.000154645        -0.133363       0.0677918       0.00033074    -0.000274361        -0.867065       -0.455559
                       -0.311358       -0.927755      0.000175964    -0.000375419       -0.0880319        0.142773       9.8287e-05    -1.35365e-05
                     0.000376227    -9.49664e-05        -0.867343       -0.456021     -5.24128e-06      0.00025683        0.0179307        0.147719
281752                 -0.157184      -0.0603398     -2.13905e-06    -0.000226678        -0.311237       -0.927408      0.000469222    -6.33207e-05
                    -1.19163e-05    -0.000154739        -0.133318       0.0678376      0.000330654    -0.000274208        -0.867309       -0.455101
                       -0.311816       -0.927599      0.000175791    -0.000375541       -0.0879488        0.142831      9.84088e-05    -1.35196e-05
                      0.00037624    -9.51024e-05        -0.867588       -0.455563     -4.83301e-06     0.000256764        0.0180236        0.147688
281754                 -0.157213      -0.0602826     -2.27908e-06    -0.000226805        -0.311693       -0.927252      0.000469319    -6.35864e-05
                    -1.20161e-05    -0.000154832        -0.133273       0.0678833      0.000330566    -0.000274055        -0.867552       -0.454643
                       -0.312274       -0.927444      0.000175618    -0.000375663       -0.0878656         0.14289      9.85305e-05     -1.3503e-05
                     0.000376254    -9.52385e-05        -0.867832       -0.455105     -4.42349e-06     0.000256696        0.0181165        0.147657
281756                 -0.157242      -0.0602254     -2.41913e-06    -0.000226933         -0.31215       -0.927097      0.000469416    -6.38522e-05
                    -1.21161e-05    -0.000154926        -0.133228       0.0679291      0.000330478    -0.000273901        -0.867795       -0.454184
                       -0.312731       -0.927288      0.000175445    -0.000375785       -0.0877824        0.142949      9.86523e-05    -1.34866e-05
                     0.000376267    -9.53745e-05        -0.868076       -0.454647     -4.01273e-06     0.000256628        0.0182093        0.147626
281758                 -0.157271      -0.0601681     -2.55918e-06    -0.000227061        -0.312607       -0.926941      0.000469512    -6.41183e-05
                    -1.22163e-05    -0.000155019        -0.133183       0.0679748       0.00033039    -0.000273747        -0.868038       -0.453726
                       -0.313189       -0.927132      0.000175272    -0.000375907       -0.0876991        0.143008      9.87741e-05    -1.34703e-05
                     0.000376281    -9.55105e-05         -0.86832       -0.454189     -3.60075e-06     0.000256559        0.0183021        0.147595
281760                   -0.1573      -0.0601109     -2.69924e-06    -0.000227189        -0.313064       -0.926785      0.000469608    -6.43845e-05
                    -1.23167e-05    -0.000155112        -0.133137       0.0680204      0.000330301    -0.000273593        -0.868281       -0.453267
                       -0.313646       -0.926976      0.000175099    -0.000376028       -0.0876158        0.143066      9.88959e-05    -1.34543e-05
                     0.000376294    -9.56465e-05        -0.868564        -0.45373     -3.18757e-06     0.000256488        0.0183949        0.147564
281762                 -0.157329      -0.0600536      -2.8393e-06    -0.000227317         -0.31352       -0.926628      0.000469705    -6.46509e-05
                    -1.24173e-05    -0.000155205        -0.133092       0.0680661      0.000330211    -0.000273439        -0.868523       -0.452808
                       -0.314103        -0.92682      0.000174925    -0.000376149       -0.0875324        0.143125      9.90177e-05    -1.34385e-05
