! TOUCHSTONE file generated by CST MICROWAVE STUDIO
! Date and time: Tue Oct 14 07:30:46 2025
! Project name: Teste_Macro_Metasurface_Nanopilar.cst
! Parameters = {H=600; L_x=165; L_y=80; Lambda=1064; Max_L=200; Min_L=70; PathPara=1; Phi=0; Step_L=10; Theta=0; p=520; phaseX=180; phaseY=0}
! Header version: 2018
! Port assignment regex: !\s*Touchstone port\s*([0-9]+)\s*=\s*(CST MWS port|CST DS port)\s*([0-9]+|Zmin|Zmax)\s*\(\"(.*)\"\)(\s*mode\s*([0-9]+))?.*
! Touchstone port assignment:
! Touchstone port 1 = CST MWS port Zmax ("") mode 1
! Touchstone port 2 = CST MWS port Zmax ("") mode 2
! Touchstone port 3 = CST MWS port Zmin ("") mode 1
! Touchstone port 4 = CST MWS port Zmin ("") mode 2
! S-Parameters are not renormalized. Each port impedance will be approximated by the real part at minimum frequency. The values are described via the [Reference] keyword.
! Default impedance is overridden by [Reference]
[Version] 2.0
# GHz S RI R 376.73
[Number of Ports] 4
[Reference]
376.73 376.73 259.814 259.814 
[Number of Frequencies] 51
[Network Data]
281700                 0.0219519       0.0510976     -0.000140203    -0.000191803         0.925441       -0.372985     -0.000161938      0.00015512
                    -0.000155647    -0.000124455        0.0117417       -0.131801     -0.000321675     0.000609407        -0.328995        0.928103
                          0.9252       -0.372552     -0.000274966     0.000247351        0.0195621       0.0524483      0.000171353    -1.21877e-05
                    -0.000245067     0.000240257         -0.32867        0.928235      5.83695e-05     0.000115197       -0.0729827        0.111441
281702                 0.0219753       0.0510831     -0.000140224    -0.000191744         0.925299       -0.373337     -0.000161849     0.000155886
                    -0.000155517    -0.000124466        0.0116869       -0.131831      -0.00032171      0.00060908         -0.32855        0.928257
                        0.925059       -0.372903     -0.000274788       0.0002475        0.0195749       0.0524393       0.00017139    -1.21372e-05
                    -0.000244848      0.00024027        -0.328225        0.928389      5.84911e-05     0.000115039        -0.072938          0.1115
281704                 0.0219987       0.0510686     -0.000140245    -0.000191685         0.925157       -0.373688      -0.00016176     0.000156654
                    -0.000155388    -0.000124477        0.0116321       -0.131861     -0.000321744     0.000608753        -0.328105        0.928411
                        0.924917       -0.373255      -0.00027461     0.000247648        0.0195878       0.0524302      0.000171427    -1.20855e-05
                    -0.000244628     0.000240282        -0.327779        0.928543      5.86128e-05     0.000114881       -0.0728932        0.111559
281706                 0.0220221       0.0510541     -0.000140266    -0.000191625         0.925015       -0.374039     -0.000161669     0.000157423
                    -0.000155258    -0.000124489        0.0115774       -0.131891     -0.000321779     0.000608425         -0.32766        0.928565
                        0.924775       -0.373607     -0.000274432     0.000247796        0.0196006       0.0524212      0.000171465    -1.20326e-05
                    -0.000244409     0.000240295        -0.327334        0.928697      5.87347e-05     0.000114722       -0.0728483        0.111617
281708                 0.0220455       0.0510396     -0.000140287    -0.000191566         0.924873       -0.374391     -0.000161577     0.000158194
                    -0.000155129    -0.000124502        0.0115225       -0.131921     -0.000321814     0.000608097        -0.327214        0.928719
                        0.924633       -0.373958     -0.000274254     0.000247944        0.0196135       0.0524121      0.000171503    -1.19788e-05
                     -0.00024419     0.000240307        -0.326888        0.928851      5.88567e-05     0.000114563       -0.0728034        0.111676
281710                 0.0220688       0.0510251     -0.000140307    -0.000191506         0.924731       -0.374742     -0.000161485     0.000158966
                    -0.000154999    -0.000124515        0.0114677       -0.131951     -0.000321848     0.000607769        -0.326769        0.928872
                        0.924491        -0.37431     -0.000274076     0.000248092        0.0196263       0.0524031      0.000171541    -1.19241e-05
                     -0.00024397     0.000240319        -0.326443        0.929004      5.89788e-05     0.000114404       -0.0727585        0.111735
281712                 0.0220922       0.0510106     -0.000140327    -0.000191447         0.924589       -0.375093     -0.000161391      0.00015974
                    -0.000154869    -0.000124529        0.0114129       -0.131981     -0.000321882      0.00060744        -0.326324        0.929025
                        0.924349       -0.374661     -0.000273898      0.00024824        0.0196392       0.0523941       0.00017158    -1.18685e-05
                    -0.000243751     0.000240331        -0.325997        0.929157       5.9101e-05     0.000114244       -0.0727135        0.111794
281714                 0.0221156       0.0509961     -0.000140348    -0.000191387         0.924446       -0.375445     -0.000161296     0.000160515
                    -0.000154739    -0.000124544         0.011358       -0.132011     -0.000321916      0.00060711        -0.325878        0.929178
                        0.924206       -0.375013      -0.00027372     0.000248387         0.019652        0.052385       0.00017162    -1.18122e-05
                    -0.000243531     0.000240343        -0.325551         0.92931      5.92234e-05     0.000114085       -0.0726685        0.111852
281716                 0.0221389       0.0509816     -0.000140367    -0.000191327         0.924303       -0.375796       -0.0001612     0.000161292
                    -0.000154609    -0.000124559        0.0113031       -0.132041      -0.00032195      0.00060678        -0.325432         0.92933
                        0.924064       -0.375364     -0.000273542     0.000248534        0.0196648        0.052376      0.000171659    -1.17553e-05
                    -0.000243311     0.000240355        -0.325105        0.929462      5.93459e-05     0.000113925       -0.0726234        0.111911
281718                 0.0221623        0.050967     -0.000140387    -0.000191267         0.924161       -0.376147     -0.000161104      0.00016207
                    -0.000154479    -0.000124575        0.0112482       -0.132071     -0.000321984      0.00060645        -0.324987        0.929483
                        0.923921       -0.375715     -0.000273363     0.000248681        0.0196777       0.0523669        0.0001717    -1.16977e-05
                    -0.000243091     0.000240367         -0.32466        0.929615      5.94685e-05     0.000113765       -0.0725783         0.11197
281720                 0.0221856       0.0509525     -0.000140407    -0.000191207         0.924018       -0.376498     -0.000161006      0.00016285
                    -0.000154349    -0.000124591        0.0111933       -0.132101     -0.000322018     0.000606119        -0.324541        0.929635
                        0.923778       -0.376066     -0.000273185     0.000248827        0.0196905       0.0523579       0.00017174    -1.16395e-05
                    -0.000242871     0.000240379        -0.324214        0.929767      5.95912e-05     0.000113604       -0.0725331        0.112028
281722                  0.022209       0.0509379     -0.000140426    -0.000191147         0.923875       -0.376849     -0.000160907     0.000163631
                    -0.000154218    -0.000124608        0.0111384        -0.13213     -0.000322051     0.000605788        -0.324095        0.929787
                        0.923635       -0.376418     -0.000273006     0.000248974        0.0197033       0.0523488       0.00017178    -1.15808e-05
                     -0.00024265      0.00024039        -0.323768        0.929919      5.97141e-05     0.000113444       -0.0724879        0.112087
281724                 0.0222323       0.0509233     -0.000140445    -0.000191087         0.923731         -0.3772     -0.000160807     0.000164413
                    -0.000154088    -0.000124626        0.0110834        -0.13216     -0.000322085     0.000605457         -0.32365        0.929939
                        0.923492       -0.376769     -0.000272828      0.00024912        0.0197161       0.0523398      0.000171821    -1.15216e-05
                     -0.00024243     0.000240401        -0.323321        0.930071       5.9837e-05     0.000113283       -0.0724427        0.112146
281726                 0.0222556       0.0509087     -0.000140465    -0.000191027         0.923588       -0.377551     -0.000160707     0.000165196
                    -0.000153957    -0.000124644        0.0110285        -0.13219     -0.000322118     0.000605125        -0.323204         0.93009
                        0.923349        -0.37712     -0.000272649     0.000249266        0.0197289       0.0523308      0.000171862    -1.14619e-05
                    -0.000242209     0.000240413        -0.322875        0.930222      5.99601e-05     0.000113122       -0.0723974        0.112204
281728                 0.0222789       0.0508941     -0.000140483    -0.000190966         0.923445       -0.377901     -0.000160605     0.000165981
                    -0.000153827    -0.000124663        0.0109735        -0.13222     -0.000322152     0.000604793        -0.322758        0.930242
                        0.923206       -0.377471     -0.000272471     0.000249411        0.0197417       0.0523217      0.000171903    -1.14018e-05
                    -0.000241989     0.000240424        -0.322429        0.930374      6.00833e-05     0.000112961        -0.072352        0.112263
281730                 0.0223022       0.0508795     -0.000140502    -0.000190906         0.923301       -0.378252     -0.000160502     0.000166767
                    -0.000153696    -0.000124683        0.0109185        -0.13225     -0.000322185     0.000604461        -0.322312        0.930393
                        0.923062       -0.377822     -0.000272292     0.000249557        0.0197545       0.0523127      0.000171945    -1.13413e-05
                    -0.000241768     0.000240435        -0.321983        0.930525      6.02066e-05     0.000112799       -0.0723067        0.112321
281732                 0.0223255       0.0508649     -0.000140521    -0.000190845         0.923157       -0.378603     -0.000160399     0.000167554
                    -0.000153565    -0.000124703        0.0108635       -0.132279     -0.000322218     0.000604128        -0.321866        0.930544
                        0.922918       -0.378173     -0.000272113     0.000249702        0.0197673       0.0523036      0.000171986    -1.12804e-05
                    -0.000241547     0.000240446        -0.321536        0.930676      6.03301e-05     0.000112637       -0.0722612         0.11238
281734                 0.0223488       0.0508503     -0.000140539    -0.000190785         0.923013       -0.378954     -0.000160294     0.000168342
                    -0.000153434    -0.000124724        0.0108084       -0.132309     -0.000322251     0.000603794         -0.32142        0.930694
                        0.922775       -0.378524     -0.000271935     0.000249847        0.0197801       0.0522946      0.000172028    -1.12192e-05
                    -0.000241326     0.000240457         -0.32109        0.930826      6.04536e-05     0.000112475       -0.0722157        0.112439
281736                 0.0223721       0.0508357     -0.000140558    -0.000190724         0.922869       -0.379304     -0.000160189     0.000169131
                    -0.000153303    -0.000124746        0.0107534       -0.132339     -0.000322284     0.000603461        -0.320973        0.930845
                        0.922631       -0.378874     -0.000271756     0.000249991        0.0197929       0.0522855       0.00017207    -1.11577e-05
                    -0.000241104     0.000240467        -0.320644        0.930977      6.05773e-05     0.000112313       -0.0721702        0.112497
281738                 0.0223954        0.050821     -0.000140576    -0.000190664         0.922725       -0.379655     -0.000160082     0.000169922
                    -0.000153172    -0.000124768        0.0106983       -0.132368     -0.000322317     0.000603127        -0.320527        0.930995
                        0.922487       -0.379225     -0.000271577     0.000250136        0.0198057       0.0522764      0.000172112    -1.10958e-05
                    -0.000240883     0.000240478        -0.320197        0.931127       6.0701e-05     0.000112151       -0.0721246        0.112556
281740                 0.0224187       0.0508064     -0.000140594    -0.000190603         0.922581       -0.380005     -0.000159975     0.000170713
                    -0.000153041    -0.000124791        0.0106432       -0.132398      -0.00032235     0.000602792        -0.320081        0.931145
                        0.922343       -0.379576     -0.000271398      0.00025028        0.0198185       0.0522674      0.000172154    -1.10336e-05
                    -0.000240662     0.000240488         -0.31975        0.931277      6.08249e-05     0.000111988        -0.072079        0.112614
281742                 0.0224419       0.0507917     -0.000140612    -0.000190542         0.922436       -0.380356     -0.000159867     0.000171505
                     -0.00015291    -0.000124814        0.0105881       -0.132428     -0.000322383     0.000602458        -0.319634        0.931295
                        0.922198       -0.379927     -0.000271219     0.000250424        0.0198312       0.0522583      0.000172196    -1.09712e-05
                     -0.00024044     0.000240499        -0.319304        0.931427      6.09488e-05     0.000111825       -0.0720334        0.112673
281744                 0.0224652        0.050777      -0.00014063    -0.000190481         0.922292       -0.380706     -0.000159757     0.000172299
                    -0.000152778    -0.000124838         0.010533       -0.132457     -0.000322416     0.000602123        -0.319188        0.931445
                        0.922054       -0.380277      -0.00027104     0.000250568         0.019844       0.0522493      0.000172239    -1.09085e-05
                    -0.000240218     0.000240509        -0.318857        0.931576      6.10729e-05     0.000111662       -0.0719876        0.112731
281746                 0.0224884       0.0507623     -0.000140648     -0.00019042         0.922147       -0.381056     -0.000159647     0.000173093
                    -0.000152647    -0.000124863        0.0104779       -0.132487     -0.000322448     0.000601788        -0.318742        0.931594
                        0.921909       -0.380628     -0.000270861     0.000250712        0.0198568       0.0522402      0.000172281    -1.08456e-05
                    -0.000239996     0.000240519         -0.31841        0.931726      6.11969e-05     0.000111499       -0.0719419         0.11279
281748                 0.0225117       0.0507476     -0.000140665    -0.000190359         0.922002       -0.381407     -0.000159536     0.000173888
                    -0.000152515    -0.000124888        0.0104227       -0.132516     -0.000322479     0.000601453        -0.318295        0.931743
                        0.921765       -0.380978     -0.000270682     0.000250855        0.0198695       0.0522312      0.000172324    -1.07825e-05
                    -0.000239774     0.000240529        -0.317963        0.931875      6.13208e-05     0.000111334       -0.0718961        0.112848
281750                 0.0225349       0.0507329     -0.000140683    -0.000190298         0.921857       -0.381757     -0.000159424     0.000174684
                    -0.000152384    -0.000124914        0.0103675       -0.132546     -0.000322511     0.000601112        -0.317848        0.931892
                         0.92162       -0.381329     -0.000270503     0.000250998        0.0198823       0.0522221      0.000172366    -1.07191e-05
                    -0.000239552     0.000240539        -0.317516        0.932024      6.14468e-05     0.000111172       -0.0718502        0.112906
281752                 0.0225582       0.0507182       -0.0001407    -0.000190237         0.921712       -0.382107     -0.000159311     0.000175481
                    -0.000152253     -0.00012494        0.0103124       -0.132575     -0.000322546     0.000600776        -0.317402        0.932041
                        0.921475       -0.381679     -0.000270323     0.000251141         0.019895        0.052213      0.000172409    -1.06555e-05
                     -0.00023933     0.000240548        -0.317069        0.932173      6.15708e-05     0.000111008       -0.0718043        0.112965
281754                 0.0225814       0.0507035     -0.000140717    -0.000190175         0.921567       -0.382457     -0.000159197     0.000176278
                    -0.000152123    -0.000124968        0.0102572       -0.132605     -0.000322579      0.00060044        -0.316955         0.93219
                         0.92133       -0.382029     -0.000270144     0.000251283        0.0199078        0.052204      0.000172451    -1.05918e-05
                    -0.000239107     0.000240557        -0.316622        0.932321      6.16953e-05     0.000110843       -0.0717584        0.113023
281756                 0.0226046       0.0506888     -0.000140734    -0.000190114         0.921422       -0.382807     -0.000159083     0.000177077
                    -0.000151998    -0.000124995        0.0102019       -0.132634     -0.000322612     0.000600103        -0.316508        0.932338
                        0.921185        -0.38238     -0.000269964     0.000251422        0.0199205       0.0521949      0.000172494    -1.05279e-05
                    -0.000238885     0.000240564        -0.316175        0.932469        6.182e-05     0.000110679       -0.0717124        0.113082
281758                 0.0226278        0.050674     -0.000140744    -0.000190054         0.921276       -0.383157     -0.000158967     0.000177876
                     -0.00015181     -0.00012502        0.0101467       -0.132664     -0.000322645     0.000599765        -0.316061        0.932486
                        0.921039        -0.38273     -0.000269787     0.000251569        0.0199333       0.0521858      0.000172537    -1.04638e-05
                    -0.000238659     0.000240598        -0.315728        0.932617      6.19448e-05     0.000110514       -0.0716664         0.11314
281760                  0.022651       0.0506593     -0.000140771    -0.000189991         0.921131       -0.383507      -0.00015885     0.000178675
                    -0.000151714    -0.000125052        0.0100914       -0.132693     -0.000322677     0.000599427        -0.315614        0.932634
                        0.920894        -0.38308     -0.000269607     0.000251711         0.019946       0.0521768       0.00017258    -1.03996e-05
                    -0.000238439     0.000240592        -0.315281        0.932765      6.20696e-05     0.000110349       -0.0716203        0.113198
281762                 0.0226742       0.0506445     -0.000140787     -0.00018993         0.920985       -0.383857     -0.000158733     0.000179476
                    -0.000151585    -0.000125082        0.0100362       -0.132723      -0.00032271     0.000599089        -0.315167        0.932781
                        0.920748        -0.38343     -0.000269428     0.000251852        0.0199587       0.0521677      0.000172622    -1.03353e-05
