! TOUCHSTONE file generated by CST MICROWAVE STUDIO
! Date and time: Tue Oct 14 07:27:55 2025
! Project name: Teste_Macro_Metasurface_Nanopilar.cst
! Parameters = {H=600; L_x=120; L_y=75; Lambda=1064; Max_L=200; Min_L=70; PathPara=1; Phi=0; Step_L=10; Theta=0; p=520; phaseX=180; phaseY=0}
! Header version: 2018
! Port assignment regex: !\s*Touchstone port\s*([0-9]+)\s*=\s*(CST MWS port|CST DS port)\s*([0-9]+|Zmin|Zmax)\s*\(\"(.*)\"\)(\s*mode\s*([0-9]+))?.*
! Touchstone port assignment:
! Touchstone port 1 = CST MWS port Zmax ("") mode 1
! Touchstone port 2 = CST MWS port Zmax ("") mode 2
! Touchstone port 3 = CST MWS port Zmin ("") mode 1
! Touchstone port 4 = CST MWS port Zmin ("") mode 2
! S-Parameters are not renormalized. Each port impedance will be approximated by the real part at minimum frequency. The values are described via the [Reference] keyword.
! Default impedance is overridden by [Reference]
[Version] 2.0
# GHz S RI R 376.73
[Number of Ports] 4
[Reference]
376.73 376.73 259.814 259.814 
[Number of Frequencies] 51
[Network Data]
281700                 -0.029372        0.112099     -0.000282049    -0.000478787         0.992567      0.00350662      3.99625e-05    -0.000174318
                    -0.000664795    -0.000771761        -0.059053      -0.0409896     -0.000195942    -0.000118722         0.596163       -0.795769
                        0.992686      0.00396651     -0.000164138    -0.000101784        0.0285319        0.112406     -0.000117476    -0.000546881
                     1.16795e-05    -9.29956e-05         0.596419       -0.795445     -9.66248e-05    -0.000581622       -0.0560536       -0.044113
281702                -0.0293321        0.112105     -0.000282314    -0.000478645         0.992568      0.00314497      3.98723e-05    -0.000174331
                    -0.000664319     -0.00077155       -0.0590702      -0.0409836     -0.000196017    -0.000118571         0.595828       -0.796018
                        0.992688      0.00360244      -0.00016408    -0.000101691        0.0285738        0.112392     -0.000117662    -0.000546906
                     1.18909e-05    -9.32812e-05         0.596085       -0.795694     -9.69353e-05    -0.000581689         -0.05609       -0.044084
281704                -0.0292922        0.112112     -0.000282581    -0.000478503          0.99257      0.00278332      3.97822e-05    -0.000174344
                    -0.000663911    -0.000771309       -0.0590874      -0.0409777     -0.000196092     -0.00011842         0.595494       -0.796267
                         0.99269      0.00323858     -0.000164022    -0.000101599        0.0286158        0.112377     -0.000117849     -0.00054693
                     1.20999e-05    -9.35399e-05          0.59575       -0.795943     -9.72456e-05    -0.000581757       -0.0561265      -0.0440551
281706                -0.0292523        0.112118     -0.000282848    -0.000478361         0.992571      0.00242167      3.96921e-05    -0.000174356
                    -0.000663575    -0.000771035       -0.0591045      -0.0409718     -0.000196166    -0.000118269         0.595159       -0.796516
                        0.992692      0.00287497     -0.000163963    -0.000101508        0.0286577        0.112362     -0.000118035    -0.000546955
                     1.23056e-05    -9.37681e-05         0.595416       -0.796192     -9.75559e-05    -0.000581824       -0.0561629      -0.0440261
281708                -0.0292124        0.112125     -0.000283116    -0.000478219         0.992572      0.00206002      3.96021e-05    -0.000174368
                     -0.00066332    -0.000770726       -0.0591217      -0.0409658     -0.000196241    -0.000118118         0.594824       -0.796765
                        0.992694      0.00251163     -0.000163902    -0.000101418        0.0286996        0.112348     -0.000118221     -0.00054698
                     1.25068e-05    -9.39619e-05         0.595081       -0.796441     -9.78661e-05    -0.000581891       -0.0561993      -0.0439972
281710                -0.0291724        0.112131     -0.000283385    -0.000478076         0.992573      0.00169836       3.9512e-05    -0.000174381
                    -0.000663151    -0.000770379       -0.0591389      -0.0409599     -0.000196315    -0.000117967         0.594489       -0.797013
                        0.992695      0.00214859     -0.000163841    -0.000101328        0.0287415        0.112333     -0.000118408    -0.000547004
                     1.27023e-05    -9.41167e-05         0.594747       -0.796689     -9.81763e-05    -0.000581958       -0.0562357      -0.0439681
281712                -0.0291325        0.112137     -0.000283655    -0.000477933         0.992574       0.0013367       3.9422e-05    -0.000174393
                    -0.000663079     -0.00076999       -0.0591561      -0.0409539     -0.000196388    -0.000117817         0.594154       -0.797262
                        0.992697      0.00178589     -0.000163779    -0.000101238        0.0287833        0.112318     -0.000118594    -0.000547028
                     1.28905e-05    -9.42273e-05         0.594412       -0.796938     -9.84863e-05    -0.000582024       -0.0562721      -0.0439391
281714                -0.0290925        0.112144     -0.000283926    -0.000477791         0.992575     0.000975047      3.93321e-05    -0.000174405
                    -0.000663112    -0.000769555       -0.0591732       -0.040948     -0.000196462    -0.000117667         0.593819        -0.79751
                        0.992698      0.00142355     -0.000163716    -0.000101149        0.0288252        0.112303     -0.000118781    -0.000547052
                     1.30698e-05    -9.42882e-05         0.594077       -0.797186     -9.87963e-05     -0.00058209       -0.0563085        -0.04391
281716                -0.0290525         0.11215     -0.000284197    -0.000477648         0.992576     0.000613388      3.92422e-05    -0.000174417
                    -0.000663262    -0.000769072       -0.0591904       -0.040942     -0.000196535    -0.000117517         0.593484       -0.797758
                        0.992698      0.00106164     -0.000163653    -0.000101059        0.0288671        0.112289     -0.000118968    -0.000547076
                     1.32381e-05    -9.42927e-05         0.593742       -0.797434     -9.91062e-05    -0.000582156       -0.0563449       -0.043881
281718                -0.0290125        0.112156     -0.000284469    -0.000477505         0.992576     0.000251728      3.91524e-05    -0.000174429
                    -0.000663539    -0.000768534       -0.0592076       -0.040936     -0.000196607    -0.000117367         0.593148       -0.798006
                        0.992699     0.000700193     -0.000163588    -0.000100969         0.028909        0.112274     -0.000119155      -0.0005471
                     1.33933e-05    -9.42336e-05         0.593407       -0.797682      -9.9416e-05    -0.000582222       -0.0563812      -0.0438518
281720                -0.0289724        0.112163     -0.000284741    -0.000477362         0.992577    -0.000109933      3.90627e-05     -0.00017444
                    -0.000663958    -0.000767938       -0.0592248        -0.04093      -0.00019668    -0.000117218         0.592813       -0.798254
                        0.992699     0.000339268     -0.000163523    -0.000100879        0.0289508        0.112259     -0.000119342    -0.000547124
                     1.35327e-05    -9.41028e-05         0.593072        -0.79793     -9.97258e-05    -0.000582287       -0.0564175      -0.0438227
281722                -0.0289324        0.112169     -0.000285014    -0.000477219         0.992577    -0.000471595      3.89732e-05    -0.000174451
                    -0.000664533    -0.000767278        -0.059242       -0.040924     -0.000196752    -0.000117068         0.592477       -0.798502
                        0.992699    -2.10739e-05     -0.000163457    -0.000100789        0.0289927        0.112244      -0.00011953    -0.000547148
                     1.36533e-05    -9.38914e-05         0.592736       -0.798178     -0.000100036    -0.000582352       -0.0564539      -0.0437935
281724                -0.0288923        0.112175     -0.000285287    -0.000477076         0.992577    -0.000833257       3.8884e-05    -0.000174462
                    -0.000665279    -0.000766548       -0.0592592       -0.040918     -0.000196824    -0.000116919         0.592142       -0.798749
                        0.992699    -0.000380762     -0.000163391    -0.000100697        0.0290345        0.112229     -0.000119717    -0.000547172
                     1.37519e-05    -9.35894e-05         0.592401       -0.798426     -0.000100345    -0.000582417       -0.0564902      -0.0437644
281726                -0.0288522        0.112181     -0.000285561    -0.000476934         0.992577     -0.00119492      3.87953e-05    -0.000174473
                    -0.000666212    -0.000765742       -0.0592764       -0.040912     -0.000196895     -0.00011677         0.591806       -0.798996
                        0.992698    -0.000739722     -0.000163325    -0.000100606        0.0290763        0.112215     -0.000119906    -0.000547196
                     1.38248e-05    -9.31864e-05         0.592065       -0.798673     -0.000100655    -0.000582481       -0.0565264      -0.0437351
281728                 -0.028812        0.112188     -0.000285835    -0.000476791         0.992577     -0.00155658      3.87074e-05    -0.000174482
                    -0.000667349    -0.000764854       -0.0592936       -0.040906     -0.000196966    -0.000116622          0.59147       -0.799244
                        0.992698     -0.00109787     -0.000163259    -0.000100514        0.0291182          0.1122     -0.000120095     -0.00054722
                     1.38682e-05    -9.26717e-05          0.59173       -0.798921     -0.000100964    -0.000582546       -0.0565627      -0.0437059
281730                -0.0287718        0.112194      -0.00028611    -0.000476648         0.992576     -0.00191825      3.86212e-05    -0.000174489
                    -0.000668705     -0.00076388       -0.0593108         -0.0409     -0.000197037    -0.000116473         0.591134       -0.799491
                        0.992697     -0.00145514     -0.000163192    -0.000100422          0.02916        0.112185     -0.000120286    -0.000547243
                      1.3878e-05    -9.20348e-05         0.591394       -0.799168     -0.000101274     -0.00058261        -0.056599      -0.0436766
281732                -0.0287316          0.1122     -0.000286384    -0.000476505         0.992576     -0.00227992      3.85379e-05    -0.000174488
                    -0.000670291    -0.000762816        -0.059328       -0.040894     -0.000197107    -0.000116325         0.590798       -0.799738
                        0.992695     -0.00181145     -0.000163126    -0.000100329        0.0292018         0.11217      -0.00012048    -0.000547267
                     1.38506e-05    -9.12675e-05         0.591058       -0.799415     -0.000101583    -0.000582674       -0.0566352      -0.0436474
281734                -0.0286913        0.112206     -0.000286659    -0.000476363         0.992575     -0.00264158      3.84237e-05    -0.000174449
                    -0.000672108    -0.000761663       -0.0593453       -0.040888     -0.000197177    -0.000116177         0.590462       -0.799985
                        0.992694     -0.00216678      -0.00016306    -0.000100236        0.0292436        0.112155     -0.000120683    -0.000547289
                     1.37832e-05    -9.03658e-05         0.590722       -0.799662     -0.000101892    -0.000582737       -0.0566714       -0.043618
281736                -0.0286511        0.112212     -0.000286935     -0.00047622         0.992575     -0.00300325      3.82887e-05    -0.000174525
                    -0.000674142    -0.000760429       -0.0593625      -0.0408819     -0.000197247    -0.000116029         0.590125       -0.800231
                        0.992692     -0.00252115     -0.000162994    -0.000100143        0.0292854         0.11214     -0.000120921    -0.000547288
                     1.36756e-05    -8.93351e-05         0.590386       -0.799909     -0.000102202      -0.0005828       -0.0567077      -0.0435887
281738                -0.0286107        0.112219      -0.00028721    -0.000476078         0.992574     -0.00336492      3.82202e-05    -0.000174548
                    -0.000676343    -0.000759134       -0.0593797      -0.0408759     -0.000197316    -0.000115882         0.589789       -0.800478
                         0.99269     -0.00287472     -0.000162928     -0.00010005        0.0293272        0.112125      -0.00012096    -0.000547205
                     1.35322e-05    -8.81986e-05          0.59005       -0.800156     -0.000102511    -0.000582863       -0.0567439      -0.0435593
281740                -0.0285704        0.112225     -0.000287486    -0.000475935         0.992573     -0.00372658      3.81382e-05     -0.00017456
                    -0.000678605    -0.000757822       -0.0593969      -0.0408698     -0.000197385    -0.000115734         0.589452       -0.800724
                        0.992687     -0.00322792     -0.000162863    -9.99568e-05        0.0293689         0.11211     -0.000121159    -0.000547323
                     1.33665e-05    -8.70126e-05         0.589713       -0.800402      -0.00010282    -0.000582926         -0.05678      -0.0435299
281742                -0.0285301        0.112231     -0.000287762    -0.000475793         0.992572     -0.00408825       3.8052e-05    -0.000174571
                    -0.000680717    -0.000756579       -0.0594142      -0.0408638     -0.000197454    -0.000115587         0.589116       -0.800971
                        0.992685      -0.0035816     -0.000162797    -9.98635e-05        0.0294107        0.112095     -0.000121361    -0.000547361
                     1.32092e-05    -8.58928e-05         0.589377       -0.800649     -0.000103129    -0.000582988       -0.0568162      -0.0435005
281744                -0.0284899        0.112237     -0.000288038     -0.00047565         0.992571     -0.00444992       3.7964e-05    -0.000174582
                    -0.000682282    -0.000755559       -0.0594314      -0.0408577     -0.000197522     -0.00011544         0.588779       -0.801217
                        0.992683     -0.00393749     -0.000162732    -9.97701e-05        0.0294525         0.11208     -0.000121556    -0.000547388
                     1.31221e-05    -8.50614e-05         0.589041       -0.800895     -0.000103438     -0.00058305       -0.0568524      -0.0434711
281746                -0.0284499        0.112243     -0.000288314    -0.000475508         0.992569     -0.00481159      3.78752e-05    -0.000174592
                    -0.000682588     -0.00075504       -0.0594486      -0.0408516      -0.00019759    -0.000115294         0.588442       -0.801463
                        0.992682     -0.00429872     -0.000162667    -9.96766e-05        0.0294942        0.112065     -0.000121747    -0.000547413
                     1.32226e-05    -8.49262e-05         0.588704       -0.801141     -0.000103747    -0.000583112       -0.0568885      -0.0434416
281748                -0.0284102        0.112249      -0.00028859    -0.000475366         0.992568     -0.00517326      3.77859e-05    -0.000174602
                    -0.000680406    -0.000755501       -0.0594659      -0.0408456     -0.000197657    -0.000115147         0.588105       -0.801709
                        0.992683     -0.00467071     -0.000162602    -9.95832e-05         0.029536         0.11205     -0.000121937    -0.000547436
                     1.37233e-05    -8.62051e-05         0.588367       -0.801387     -0.000104056    -0.000583174       -0.0569246      -0.0434121
281750                -0.0283712        0.112255     -0.000288867    -0.000475224         0.992566     -0.00553492      3.76963e-05    -0.000174613
                    -0.000673755    -0.000757723       -0.0594831      -0.0408395     -0.000197724    -0.000115001         0.587768       -0.801954
                        0.992686     -0.00506191     -0.000162537    -9.94898e-05        0.0295777        0.112035     -0.000122126    -0.000547459
                     1.49896e-05     -9.0088e-05          0.58803       -0.801633     -0.000104365    -0.000583235       -0.0569608      -0.0433826
281752                -0.0283334        0.112261     -0.000289143    -0.000475082         0.992565     -0.00589659      3.76065e-05    -0.000174623
                    -0.000659818    -0.000762854       -0.0595004      -0.0408334     -0.000197791    -0.000114855         0.587431         -0.8022
                        0.992688     -0.00548273     -0.000162473    -9.93964e-05        0.0296195         0.11202     -0.000122314    -0.000547482
                     1.75924e-05    -9.83379e-05         0.587693       -0.801879     -0.000104674    -0.000583296       -0.0569969      -0.0433531
281754                -0.0282974        0.112267      -0.00028942    -0.000474941         0.992563     -0.00625826      3.75165e-05    -0.000174633
                    -0.000635582    -0.000772239       -0.0595176      -0.0408273     -0.000197857    -0.000114709         0.587093       -0.802445
                         0.99268     -0.00593847     -0.000162409    -9.93031e-05        0.0296612        0.112005     -0.000122502    -0.000547504
                     2.22685e-05    -0.000112998         0.587356       -0.802124     -0.000104983    -0.000583356       -0.0570329      -0.0433235
281756                -0.0282638        0.112271     -0.000289698    -0.000474802         0.992561     -0.00661993      3.74264e-05    -0.000174643
                    -0.000600024    -0.000786609       -0.0595349      -0.0408212     -0.000197923    -0.000114563         0.586756       -0.802691
                        0.992648     -0.00641631     -0.000162345    -9.92099e-05        0.0297029         0.11199      -0.00012269    -0.000547526
                     2.95907e-05    -0.000135127         0.587019        -0.80237     -0.000105292    -0.000583417        -0.057069      -0.0432939
281758                -0.0282321        0.112272     -0.000289971     -0.00047467         0.992559      -0.0069816      3.73363e-05    -0.000174653
                    -0.000557248    -0.000804654       -0.0595521      -0.0408151     -0.000197989    -0.000114418         0.586419       -0.802936
                        0.992594     -0.00688537     -0.000162282    -9.91171e-05        0.0297446        0.111975     -0.000122878    -0.000547547
                     3.92437e-05    -0.000162659         0.586682       -0.802615     -0.000105601    -0.000583477       -0.0571051      -0.0432643
281760                -0.0281999        0.112271     -0.000290223    -0.000474526         0.992556     -0.00734327       3.7246e-05    -0.000174664
                    -0.000516514    -0.000822494       -0.0595694      -0.0408089     -0.000198054    -0.000114273         0.586081       -0.803181
                        0.992536      -0.0073225      -0.00016222    -9.90253e-05        0.0297863         0.11196     -0.000123066    -0.000547569
                     4.95276e-05    -0.000189833         0.586345        -0.80286      -0.00010591    -0.000583536       -0.0571411      -0.0432347
281762                -0.0281649        0.112269     -0.000290502    -0.000474363         0.992554     -0.00770494      3.71556e-05    -0.000174673
                    -0.000486477    -0.000835908       -0.0595866      -0.0408028     -0.000198119    -0.000114128         0.585743       -0.803426
                        0.992492     -0.00772692     -0.000162157    -9.89363e-05         0.029828        0.111945     -0.000123253     -0.00054759
