! TOUCHSTONE file generated by CST MICROWAVE STUDIO
! Date and time: Tue Oct 14 07:30:11 2025
! Project name: Teste_Macro_Metasurface_Nanopilar.cst
! Parameters = {H=600; L_x=155; L_y=100; Lambda=1064; Max_L=200; Min_L=70; PathPara=1; Phi=0; Step_L=10; Theta=0; p=520; phaseX=180; phaseY=0}
! Header version: 2018
! Port assignment regex: !\s*Touchstone port\s*([0-9]+)\s*=\s*(CST MWS port|CST DS port)\s*([0-9]+|Zmin|Zmax)\s*\(\"(.*)\"\)(\s*mode\s*([0-9]+))?.*
! Touchstone port assignment:
! Touchstone port 1 = CST MWS port Zmax ("") mode 1
! Touchstone port 2 = CST MWS port Zmax ("") mode 2
! Touchstone port 3 = CST MWS port Zmin ("") mode 1
! Touchstone port 4 = CST MWS port Zmin ("") mode 2
! S-Parameters are not renormalized. Each port impedance will be approximated by the real part at minimum frequency. The values are described via the [Reference] keyword.
! Default impedance is overridden by [Reference]
[Version] 2.0
# GHz S RI R 376.73
[Number of Ports] 4
[Reference]
376.73 376.73 259.814 259.814 
[Number of Frequencies] 51
[Network Data]
281700                 -0.114723       -0.123275     -3.59519e-06     0.000224284        -0.160309       -0.966251      5.31813e-05     0.000498286
                    -6.42018e-05      0.00025452       -0.0744548       -0.171081      0.000104643     0.000402019         0.108627        0.970788
                       -0.160864       -0.966137      4.31522e-06     0.000451735       -0.0673928        0.153741      0.000147819      0.00015372
                     3.52323e-05       0.0004583         0.108982        0.970544      0.000142806     0.000211583       -0.0334985        0.183061
281702                 -0.114778       -0.123243     -3.34458e-06      0.00022442         -0.16077       -0.966171      5.34308e-05     0.000498369
                     -6.4004e-05     0.000254719       -0.0745174       -0.171079      0.000104847     0.000401944         0.109067        0.970735
                       -0.161326       -0.966057      4.44993e-06     0.000451708       -0.0673089        0.153794      0.000147841     0.000153747
                     3.53883e-05     0.000458364         0.109422        0.970489      0.000142902     0.000211566       -0.0333937        0.183104
281704                 -0.114834       -0.123211     -3.09375e-06     0.000224555         -0.16123       -0.966091      5.36804e-05     0.000498452
                    -6.38061e-05     0.000254918       -0.0745801       -0.171077      0.000105051     0.000401869         0.109507        0.970681
                       -0.161787       -0.965977      4.58444e-06     0.000451682       -0.0672249        0.153846      0.000147862     0.000153775
                     3.55444e-05     0.000458428         0.109862        0.970435      0.000142998     0.000211549       -0.0332888        0.183146
281706                 -0.114889        -0.12318     -2.84271e-06     0.000224691        -0.161691       -0.966011      5.39303e-05     0.000498535
                    -6.36079e-05     0.000255116       -0.0746427       -0.171075      0.000105255     0.000401794         0.109948        0.970628
                       -0.162248       -0.965896      4.71876e-06     0.000451655       -0.0671409        0.153899      0.000147882     0.000153803
                     3.57008e-05     0.000458492         0.110303         0.97038      0.000143094     0.000211533       -0.0331839        0.183189
281708                 -0.114944       -0.123148     -2.59145e-06     0.000224826        -0.162151       -0.965931      5.41803e-05     0.000498618
                    -6.34096e-05     0.000255314       -0.0747053       -0.171073      0.000105459     0.000401719         0.110388        0.970574
                       -0.162709       -0.965816      4.85289e-06     0.000451628       -0.0670568        0.153951      0.000147903     0.000153831
                     3.58574e-05     0.000458556         0.110743        0.970325       0.00014319     0.000211516        -0.033079        0.183231
281710                    -0.115       -0.123116     -2.33997e-06     0.000224961        -0.162612       -0.965851      5.44304e-05       0.0004987
                     -6.3211e-05     0.000255512        -0.074768       -0.171071      0.000105662     0.000401644         0.110828         0.97052
                        -0.16317       -0.965735      4.98683e-06     0.000451602       -0.0669727        0.154004      0.000147924     0.000153859
                     3.60142e-05      0.00045862         0.111183         0.97027      0.000143285       0.0002115        -0.032974        0.183273
281712                 -0.115055       -0.123084     -2.08828e-06     0.000225096        -0.163072        -0.96577      5.46808e-05     0.000498782
                    -6.30123e-05     0.000255709       -0.0748306       -0.171069      0.000105866     0.000401568         0.111268        0.970465
                       -0.163631       -0.965653      5.12059e-06     0.000451575       -0.0668886        0.154056      0.000147944     0.000153887
                     3.61712e-05     0.000458684         0.111623        0.970215       0.00014338     0.000211484        -0.032869        0.183315
281714                  -0.11511       -0.123052     -1.83638e-06     0.000225231        -0.163533       -0.965689      5.49313e-05     0.000498864
                    -6.28134e-05     0.000255907       -0.0748933       -0.171067       0.00010607     0.000401492         0.111708        0.970411
                       -0.164092       -0.965572      5.25418e-06     0.000451548       -0.0668044        0.154108      0.000147964     0.000153915
                     3.63284e-05     0.000458748         0.112064        0.970159      0.000143476     0.000211468       -0.0327639        0.183357
281716                 -0.115166       -0.123021     -1.58428e-06     0.000225366        -0.163993       -0.965608       5.5182e-05     0.000498945
                    -6.26142e-05     0.000256104        -0.074956       -0.171065      0.000106274     0.000401416         0.112148        0.970356
                       -0.164553        -0.96549      5.38761e-06     0.000451521       -0.0667202        0.154161      0.000147985     0.000153943
                     3.64858e-05     0.000458812         0.112504        0.970103       0.00014357     0.000211451       -0.0326588        0.183399
281718                 -0.115221       -0.122989     -1.33196e-06     0.000225501        -0.164453       -0.965527      5.54329e-05     0.000499026
                     -6.2415e-05     0.000256301       -0.0750186       -0.171063      0.000106478      0.00040134         0.112589        0.970301
                       -0.165013       -0.965409       5.5209e-06     0.000451494       -0.0666359        0.154213      0.000148005     0.000153972
                     3.66434e-05     0.000458876         0.112944        0.970048      0.000143665     0.000211436       -0.0325537        0.183441
281720                 -0.115276       -0.122957     -1.07944e-06     0.000225635        -0.164914       -0.965445       5.5684e-05     0.000499107
                    -6.22155e-05     0.000256498       -0.0750813       -0.171061      0.000106682     0.000401264         0.113029        0.970246
                       -0.165474       -0.965327      5.65404e-06     0.000451467       -0.0665516        0.154265      0.000148025        0.000154
                     3.68012e-05      0.00045894         0.113384        0.969991      0.000143759      0.00021142       -0.0324485        0.183483
281722                 -0.115332       -0.122925     -8.26708e-07      0.00022577        -0.165374       -0.965364      5.59352e-05     0.000499187
                    -6.20159e-05     0.000256695        -0.075144       -0.171059      0.000106886     0.000401187         0.113469        0.970191
                       -0.165935       -0.965244      5.78705e-06      0.00045144       -0.0664673        0.154317      0.000148045     0.000154028
                     3.69591e-05     0.000459004         0.113824        0.969935      0.000143853     0.000211404       -0.0323433        0.183525
281724                 -0.115387       -0.122893     -5.73777e-07     0.000225904        -0.165834       -0.965282      5.61867e-05     0.000499267
                    -6.18161e-05     0.000256891       -0.0752066       -0.171057       0.00010709     0.000401111         0.113909        0.970135
                       -0.166396       -0.965162      5.91994e-06     0.000451413       -0.0663829        0.154369      0.000148064     0.000154057
                     3.71172e-05     0.000459068         0.114264        0.969879      0.000143947     0.000211389        -0.032238        0.183567
281726                 -0.115442       -0.122861     -3.20645e-07     0.000226039        -0.166294         -0.9652      5.64383e-05     0.000499347
                    -6.16161e-05     0.000257087       -0.0752693       -0.171055      0.000107295     0.000401034         0.114349         0.97008
                       -0.166857       -0.965079      6.05272e-06     0.000451386       -0.0662984        0.154421      0.000148084     0.000154086
                     3.72755e-05     0.000459133         0.114704        0.969822      0.000144041     0.000211374       -0.0321328        0.183609
281728                 -0.115498       -0.122829      -6.7312e-08     0.000226173        -0.166754       -0.965117      5.66901e-05     0.000499427
                     -6.1416e-05     0.000257283        -0.075332       -0.171052      0.000107499     0.000400957         0.114789        0.970024
                       -0.167317       -0.964996      6.18539e-06     0.000451358        -0.066214        0.154473      0.000148104     0.000154114
                     3.74339e-05     0.000459197         0.115144        0.969765      0.000144134     0.000211359       -0.0320274         0.18365
281730                 -0.115553       -0.122797      1.86219e-07     0.000226307        -0.167214       -0.965035      5.69422e-05     0.000499506
                    -6.12157e-05     0.000257479       -0.0753947        -0.17105      0.000107703      0.00040088         0.115229        0.969968
                       -0.167778       -0.964913      6.31797e-06     0.000451331       -0.0661295        0.154525      0.000148123     0.000154143
                     3.75924e-05     0.000459261         0.115584        0.969708      0.000144226     0.000211344        -0.031922        0.183692
281732                 -0.115608       -0.122765      4.39947e-07     0.000226442        -0.167674       -0.964952      5.71944e-05     0.000499585
                    -6.10153e-05     0.000257675       -0.0754574       -0.171048      0.000107908     0.000400803         0.115668        0.969911
                       -0.168239        -0.96483      6.45045e-06     0.000451303       -0.0660449        0.154577      0.000148143     0.000154172
                      3.7751e-05     0.000459325         0.116024         0.96965      0.000144319     0.000211329       -0.0318166        0.183734
281734                 -0.115663       -0.122732       6.9387e-07     0.000226576        -0.168135       -0.964869      5.74468e-05     0.000499664
                    -6.08147e-05     0.000257871       -0.0755201       -0.171046      0.000108112     0.000400726         0.116108        0.969855
                       -0.168699       -0.964746      6.58285e-06     0.000451276       -0.0659603        0.154629      0.000148162     0.000154201
                     3.79098e-05     0.000459389         0.116463        0.969593      0.000144411     0.000211315       -0.0317112        0.183775
281736                 -0.115719         -0.1227      9.47986e-07      0.00022671        -0.168595       -0.964786      5.76994e-05     0.000499742
                     -6.0614e-05     0.000258066       -0.0755828       -0.171043      0.000108317     0.000400649         0.116548        0.969798
                        -0.16916       -0.964662      6.71517e-06     0.000451248       -0.0658757         0.15468      0.000148181      0.00015423
                     3.80687e-05     0.000459454         0.116903        0.969535      0.000144502     0.000211301       -0.0316057        0.183817
281738                 -0.115774       -0.122668      1.20229e-06     0.000226844        -0.169055       -0.964702      5.79522e-05      0.00049982
                    -6.04132e-05     0.000258261       -0.0756455       -0.171041      0.000108522     0.000400571         0.116988        0.969741
                        -0.16962       -0.964578      6.84742e-06      0.00045122        -0.065791        0.154732        0.0001482     0.000154259
                     3.82276e-05     0.000459518         0.117343        0.969477      0.000144594     0.000211287       -0.0315001        0.183858
281740                 -0.115829       -0.122636      1.45679e-06     0.000226977        -0.169515       -0.964618      5.82053e-05     0.000499898
                    -6.02122e-05     0.000258456       -0.0757082       -0.171039      0.000108727     0.000400494         0.117428        0.969684
                       -0.170081       -0.964494       6.9796e-06     0.000451192       -0.0657063        0.154784      0.000148219     0.000154289
                     3.83867e-05     0.000459582         0.117783        0.969419      0.000144684     0.000211274       -0.0313946        0.183899
281742                 -0.115884       -0.122604      1.71148e-06     0.000227111        -0.169975       -0.964534      5.84585e-05     0.000499975
                    -6.00111e-05     0.000258651       -0.0757709       -0.171037      0.000108933     0.000400416         0.117868        0.969627
                       -0.170541       -0.964409      7.11172e-06     0.000451164       -0.0656216        0.154836      0.000148238     0.000154318
                     3.85458e-05     0.000459646         0.118223        0.969361      0.000144775      0.00021126        -0.031289        0.183941
281744                  -0.11594       -0.122571      1.96635e-06     0.000227245        -0.170435        -0.96445       5.8712e-05     0.000500053
                    -5.98099e-05     0.000258846       -0.0758336       -0.171034      0.000109138     0.000400338         0.118307        0.969569
                       -0.171002       -0.964325      7.24378e-06     0.000451136       -0.0655368        0.154887      0.000148257     0.000154347
                      3.8705e-05     0.000459711         0.118662        0.969302      0.000144864     0.000211248       -0.0311833        0.183982
281746                 -0.115995       -0.122539      2.22141e-06     0.000227378        -0.170895       -0.964366      5.89656e-05     0.000500129
                    -5.96085e-05      0.00025904       -0.0758964       -0.171032      0.000109344     0.000400261         0.118747        0.969512
                       -0.171462        -0.96424      7.37579e-06     0.000451107        -0.065452        0.154939      0.000148276     0.000154377
                     3.88643e-05     0.000459775         0.119102        0.969243      0.000144953     0.000211235       -0.0310776        0.184023
281748                  -0.11605       -0.122507      2.47664e-06     0.000227512        -0.171355       -0.964281      5.92195e-05     0.000500206
                    -5.94071e-05     0.000259235       -0.0759591       -0.171029       0.00010955     0.000400183         0.119187        0.969454
                       -0.171923       -0.964155      7.50774e-06     0.000451079       -0.0653671         0.15499      0.000148294     0.000154407
                     3.90237e-05      0.00045984         0.119542        0.969185      0.000145042     0.000211223       -0.0309719        0.184064
281750                 -0.116105       -0.122475      2.73206e-06     0.000227645        -0.171814       -0.964196      5.94736e-05     0.000500282
                    -5.92055e-05     0.000259429       -0.0760218       -0.171027      0.000109756     0.000400105         0.119626        0.969396
                       -0.172383       -0.964069      7.63966e-06      0.00045105       -0.0652822        0.155042      0.000148313     0.000154436
                     3.91831e-05     0.000459904         0.119981        0.969125       0.00014513     0.000211211       -0.0308661        0.184105
281752                  -0.11616       -0.122442      2.98765e-06     0.000227778        -0.172274       -0.964111      5.97279e-05     0.000500358
                    -5.90038e-05     0.000259623       -0.0760846       -0.171025      0.000109962     0.000400027         0.120066        0.969337
                       -0.172843       -0.963984      7.77153e-06     0.000451022       -0.0651973        0.155093      0.000148332     0.000154466
                     3.93425e-05     0.000459968         0.120421        0.969066      0.000145218       0.0002112       -0.0307603        0.184146
281754                 -0.116215        -0.12241      3.24342e-06     0.000227911        -0.172734       -0.964026      5.99824e-05     0.000500434
                    -5.88021e-05     0.000259817       -0.0761473       -0.171022      0.000110169     0.000399949         0.120506        0.969279
                       -0.173304       -0.963898      7.90336e-06     0.000450993       -0.0651123        0.155144       0.00014835     0.000154496
                      3.9502e-05     0.000460033          0.12086        0.969007      0.000145305     0.000211189       -0.0306545        0.184187
281756                 -0.116271       -0.122377      3.49936e-06     0.000228045        -0.173194        -0.96394      6.02372e-05      0.00050051
                    -5.86002e-05     0.000260011       -0.0762101        -0.17102      0.000110376     0.000399871         0.120945         0.96922
                       -0.173764       -0.963812      8.03517e-06     0.000450964       -0.0650273        0.155196      0.000148369     0.000154526
                     3.96616e-05     0.000460097           0.1213        0.968947      0.000145392     0.000211178       -0.0305486        0.184228
281758                 -0.116326       -0.122345      3.75547e-06     0.000228178        -0.173654       -0.963854      6.04921e-05     0.000500585
                    -5.83982e-05     0.000260204       -0.0762728       -0.171017      0.000110583     0.000399793         0.121385        0.969161
                       -0.174224       -0.963726      8.16695e-06     0.000450935       -0.0649422        0.155247      0.000148387     0.000154556
                     3.98212e-05     0.000460162         0.121739        0.968887      0.000145478     0.000211168       -0.0304426        0.184269
281760                 -0.116381       -0.122313      4.01174e-06      0.00022831        -0.174114       -0.963768      6.07473e-05      0.00050066
                    -5.81961e-05     0.000260398       -0.0763356       -0.171015      0.000110791     0.000399715         0.121824        0.969102
                       -0.174684       -0.963639      8.29872e-06     0.000450906       -0.0648571        0.155298      0.000148405     0.000154586
                     3.99808e-05     0.000460226         0.122179        0.968827      0.000145564     0.000211157       -0.0303367         0.18431
281762                 -0.116436        -0.12228      4.26817e-06     0.000228443        -0.174574       -0.963682      6.10027e-05     0.000500734
                     -5.7994e-05     0.000260591       -0.0763983       -0.171012      0.000110998     0.000399638         0.122264        0.969043
                       -0.175144       -0.963552      8.43048e-06     0.000450877        -0.064772        0.155349      0.000148423     0.000154617
