! TOUCHSTONE file generated by CST MICROWAVE STUDIO
! Date and time: Tue Oct 14 07:27:34 2025
! Project name: Teste_Macro_Metasurface_Nanopilar.cst
! Parameters = {H=600; L_x=110; L_y=200; Lambda=1064; Max_L=200; Min_L=70; PathPara=1; Phi=0; Step_L=10; Theta=0; p=520; phaseX=180; phaseY=0}
! Header version: 2018
! Port assignment regex: !\s*Touchstone port\s*([0-9]+)\s*=\s*(CST MWS port|CST DS port)\s*([0-9]+|Zmin|Zmax)\s*\(\"(.*)\"\)(\s*mode\s*([0-9]+))?.*
! Touchstone port assignment:
! Touchstone port 1 = CST MWS port Zmax ("") mode 1
! Touchstone port 2 = CST MWS port Zmax ("") mode 2
! Touchstone port 3 = CST MWS port Zmin ("") mode 1
! Touchstone port 4 = CST MWS port Zmin ("") mode 2
! S-Parameters are not renormalized. Each port impedance will be approximated by the real part at minimum frequency. The values are described via the [Reference] keyword.
! Default impedance is overridden by [Reference]
[Version] 2.0
# GHz S RI R 376.73
[Number of Ports] 4
[Reference]
376.73 376.73 259.814 259.814 
[Number of Frequencies] 51
[Network Data]
281700                 -0.155444        0.125146     -8.36984e-05     0.000181856         0.680153        0.697262      0.000112388    -8.49076e-05
                     8.17918e-05     0.000135115       -0.0812619      -0.0254785      0.000177952     1.46308e-06        -0.600133        0.786381
                        0.680088        0.697488      6.62847e-05     0.000128228        -0.128458        0.144248     -1.24149e-05    -4.93738e-05
                      0.00014345    -0.000122442         -0.60038        0.786063     -9.54052e-05     2.08557e-06       -0.0447851       -0.069303
281702                 -0.155398        0.125133     -8.36404e-05      0.00018189         0.680479        0.696957      0.000112396    -8.50574e-05
                     8.15677e-05     0.000135144       -0.0812624      -0.0254739      0.000177957     1.51498e-06        -0.599753        0.786671
                        0.680414        0.697182      6.61628e-05      0.00012811        -0.128309        0.144321     -1.23953e-05    -4.95091e-05
                      0.00014346    -0.000122485        -0.600001        0.786353      -9.5499e-05     2.02196e-06       -0.0448486      -0.0692611
281704                 -0.155352        0.125121     -8.35819e-05     0.000181924         0.680805        0.696653      0.000112405    -8.52078e-05
                     8.13447e-05     0.000135175       -0.0812628      -0.0254693      0.000177961     1.56724e-06        -0.599373        0.786961
                         0.68074        0.696877      6.60413e-05     0.000127992         -0.12816        0.144395     -1.23761e-05    -4.96453e-05
                     0.000143469    -0.000122528        -0.599621        0.786643     -9.55925e-05     1.95823e-06       -0.0449121      -0.0692191
281706                 -0.155306        0.125108     -8.35232e-05     0.000181958          0.68113        0.696348      0.000112413    -8.53587e-05
                     8.11219e-05     0.000135207       -0.0812633      -0.0254648      0.000177966     1.61985e-06        -0.598992        0.787251
                        0.681066        0.696571      6.59203e-05     0.000127874        -0.128012        0.144468     -1.23573e-05    -4.97824e-05
                     0.000143479     -0.00012257        -0.599242        0.786933     -9.56858e-05      1.8944e-06       -0.0449755      -0.0691771
281708                  -0.15526        0.125096      -8.3464e-05     0.000181992         0.681455        0.696043       0.00011242    -8.55102e-05
                     8.08988e-05      0.00013524       -0.0812638      -0.0254602       0.00017797     1.67282e-06        -0.598612        0.787541
                        0.681391        0.696265      6.57998e-05     0.000127756        -0.127863        0.144541      -1.2339e-05    -4.99203e-05
                     0.000143488    -0.000122613        -0.598862        0.787223     -9.57787e-05     1.83045e-06        -0.045039      -0.0691351
281710                 -0.155214        0.125083     -8.34044e-05     0.000182025         0.681781        0.695738      0.000112428    -8.56622e-05
                      8.0675e-05     0.000135273       -0.0812643      -0.0254556      0.000177974     1.72614e-06        -0.598231         0.78783
                        0.681717         0.69596      6.56797e-05     0.000127639        -0.127714        0.144614     -1.23211e-05    -5.00592e-05
                     0.000143497    -0.000122656        -0.598482        0.787513     -9.58714e-05     1.76637e-06       -0.0451023       -0.069093
281712                 -0.155168        0.125071     -8.33445e-05     0.000182058         0.682106        0.695433      0.000112435    -8.58148e-05
                     8.04503e-05     0.000135307       -0.0812648      -0.0254511      0.000177978     1.77983e-06         -0.59785         0.78812
                        0.682042        0.695653      6.55601e-05     0.000127521        -0.127565        0.144687     -1.23036e-05    -5.01989e-05
                     0.000143506    -0.000122699        -0.598102        0.787802     -9.59638e-05     1.70218e-06       -0.0451657      -0.0690508
281714                 -0.155122        0.125058     -8.32841e-05     0.000182091          0.68243        0.695128      0.000112441    -8.59679e-05
                     8.02247e-05      0.00013534       -0.0812653      -0.0254465      0.000177981     1.83387e-06        -0.597469        0.788409
                        0.682367        0.695347       6.5441e-05     0.000127403        -0.127417         0.14476     -1.22866e-05    -5.03395e-05
                     0.000143515    -0.000122742        -0.597722        0.788091     -9.60559e-05     1.63786e-06        -0.045229      -0.0690086
281716                 -0.155076        0.125046     -8.32234e-05     0.000182123         0.682755        0.694823      0.000112448    -8.61216e-05
                     7.99981e-05     0.000135373       -0.0812658       -0.025442      0.000177985     1.88829e-06        -0.597088        0.788698
                        0.682692        0.695041      6.53224e-05     0.000127285        -0.127268        0.144832       -1.227e-05     -5.0481e-05
                     0.000143525    -0.000122785        -0.597342        0.788381     -9.61477e-05     1.57341e-06       -0.0452923      -0.0689664
281718                 -0.155031        0.125033     -8.31623e-05     0.000182156          0.68308        0.694517      0.000112454    -8.62758e-05
                     7.97707e-05     0.000135405       -0.0812663      -0.0254374      0.000177988     1.94307e-06        -0.596707        0.788987
                        0.683017        0.694734      6.52042e-05     0.000127167        -0.127119        0.144905     -1.22538e-05    -5.06233e-05
                     0.000143534    -0.000122827        -0.596961        0.788669     -9.62393e-05     1.50882e-06       -0.0453555      -0.0689241
281720                 -0.154985        0.125021     -8.31008e-05     0.000182188         0.683404        0.694212       0.00011246    -8.64307e-05
                     7.95425e-05     0.000135435       -0.0812669      -0.0254328      0.000177992     1.99822e-06        -0.596325        0.789275
                        0.683342        0.694428      6.50865e-05     0.000127048         -0.12697        0.144977     -1.22382e-05    -5.07667e-05
                     0.000143543    -0.000122869        -0.596581        0.788958     -9.63306e-05      1.4441e-06       -0.0454188      -0.0688817
281722                 -0.154939        0.125008     -8.30389e-05     0.000182219         0.683728        0.693906      0.000112466    -8.65861e-05
                     7.93137e-05     0.000135464       -0.0812674      -0.0254283      0.000177995     2.05374e-06        -0.595944        0.789564
                        0.683667        0.694121      6.49693e-05      0.00012693        -0.126821         0.14505      -1.2223e-05    -5.09109e-05
                     0.000143552    -0.000122911          -0.5962        0.789247     -9.64216e-05     1.37924e-06       -0.0454819      -0.0688393
281724                 -0.154894        0.124996     -8.29766e-05     0.000182251         0.684052          0.6936      0.000112472     -8.6742e-05
                     7.90844e-05     0.000135492       -0.0812679      -0.0254237      0.000177998     2.10964e-06        -0.595562        0.789852
                        0.683991        0.693814      6.48526e-05     0.000126812        -0.126672        0.145122     -1.22083e-05     -5.1056e-05
                     0.000143561    -0.000122952        -0.595819        0.789535     -9.65123e-05     1.31423e-06       -0.0455451      -0.0687969
281726                 -0.154848        0.124983     -8.29139e-05     0.000182282         0.684376        0.693294      0.000112477    -8.68986e-05
                     7.88548e-05     0.000135518       -0.0812685      -0.0254192      0.000178001     2.16592e-06         -0.59518         0.79014
                        0.684316        0.693507      6.47364e-05     0.000126694        -0.126523        0.145194     -1.21941e-05    -5.12022e-05
                      0.00014357    -0.000122993        -0.595438        0.789823     -9.66028e-05     1.24908e-06       -0.0456082      -0.0687544
281728                 -0.154802        0.124971     -8.28508e-05     0.000182313           0.6847        0.692987      0.000112483    -8.70558e-05
                     7.86248e-05     0.000135542       -0.0812691      -0.0254147      0.000178004     2.22258e-06        -0.594799        0.790428
                         0.68464          0.6932      6.46206e-05     0.000126576        -0.126374        0.145266     -1.21804e-05    -5.13493e-05
                     0.000143579    -0.000123033        -0.595057        0.790111      -9.6693e-05     1.18378e-06       -0.0456712      -0.0687118
281730                 -0.154757        0.124958     -8.27873e-05     0.000182344         0.685024        0.692681      0.000112488    -8.72136e-05
                     7.83947e-05     0.000135564       -0.0812696      -0.0254101      0.000178006     2.27962e-06        -0.594417        0.790716
                        0.684964        0.692892      6.45054e-05     0.000126457        -0.126225        0.145337     -1.21673e-05    -5.14974e-05
                     0.000143588    -0.000123072        -0.594676        0.790399     -9.67829e-05     1.11832e-06       -0.0457343      -0.0686692
281732                 -0.154711        0.124946     -8.27235e-05     0.000182374         0.685347        0.692374      0.000112493     -8.7372e-05
                     7.81643e-05     0.000135585       -0.0812702      -0.0254056      0.000178009     2.33705e-06        -0.594034        0.791003
                        0.685288        0.692585      6.43906e-05     0.000126339        -0.126076        0.145409     -1.21549e-05    -5.16467e-05
                     0.000143597    -0.000123111        -0.594295        0.790686     -9.68726e-05     1.05271e-06       -0.0457973      -0.0686266
281734                 -0.154666        0.124933     -8.26593e-05     0.000182405          0.68567        0.692068      0.000112499    -8.75312e-05
                      7.7934e-05     0.000135605       -0.0812708      -0.0254011      0.000178011     2.39487e-06        -0.593652         0.79129
                        0.685611        0.692277      6.42764e-05      0.00012622        -0.125927        0.145481     -1.21433e-05    -5.17972e-05
                     0.000143606     -0.00012315        -0.593913        0.790974      -9.6962e-05     9.86933e-07       -0.0458602      -0.0685839
281736                  -0.15462        0.124921     -8.25949e-05     0.000182435         0.685994        0.691761      0.000112505    -8.76911e-05
                     7.77035e-05     0.000135622       -0.0812714      -0.0253965      0.000178014     2.45309e-06         -0.59327        0.791578
                        0.685935        0.691969      6.41628e-05     0.000126102        -0.125778        0.145552     -1.21329e-05    -5.19495e-05
                     0.000143615    -0.000123187        -0.593532        0.791261     -9.70511e-05     9.20995e-07       -0.0459231      -0.0685411
281738                 -0.154575        0.124908     -8.25303e-05     0.000182464         0.686317        0.691454      0.000112514    -8.78521e-05
                      7.7473e-05     0.000135638        -0.081272       -0.025392      0.000178016     2.51172e-06        -0.592887        0.791865
                        0.686258        0.691661      6.40497e-05     0.000125983        -0.125629        0.145623     -1.21245e-05    -5.21046e-05
                     0.000143624    -0.000123225         -0.59315        0.791548       -9.714e-05     8.54889e-07        -0.045986      -0.0684983
281740                 -0.154529        0.124896     -8.24659e-05     0.000182494         0.686639        0.691147       0.00011253    -8.80149e-05
                     7.72426e-05     0.000135652       -0.0812726      -0.0253875      0.000178018     2.57077e-06        -0.592504        0.792151
                        0.686581        0.691353      6.39374e-05     0.000125865         -0.12548        0.145695     -1.21211e-05     -5.2268e-05
                     0.000143632    -0.000123261        -0.592768        0.791834     -9.72286e-05     7.88611e-07       -0.0460489      -0.0684555
281742                 -0.154484        0.124883      -8.2403e-05     0.000182522         0.686962        0.690839      0.000112611    -8.81847e-05
                     7.70121e-05     0.000135664       -0.0812732      -0.0253829      0.000178021     2.63025e-06        -0.592121        0.792438
                        0.686904        0.691045      6.38262e-05     0.000125746        -0.125331        0.145766     -1.20882e-05    -5.25329e-05
                     0.000143641    -0.000123297        -0.592386        0.792121      -9.7317e-05     7.22154e-07       -0.0461117      -0.0684126
281744                 -0.154439        0.124871     -8.23559e-05     0.000182554         0.687285        0.690532      0.000112424    -8.83112e-05
                     7.67817e-05     0.000135675       -0.0812739      -0.0253784      0.000178023     2.69022e-06        -0.591738        0.792724
                        0.687227        0.690736      6.37161e-05     0.000125629        -0.125182        0.145836     -1.20429e-05    -5.25348e-05
                      0.00014365    -0.000123332        -0.592004        0.792407     -9.74052e-05     6.55508e-07       -0.0461744      -0.0683696
281746                 -0.154393        0.124858     -8.22465e-05      0.00018259         0.687607        0.690224      0.000112475    -8.84874e-05
                     7.65513e-05     0.000135684       -0.0812745      -0.0253739      0.000178025     2.75078e-06        -0.591355         0.79301
                         0.68755        0.690428      6.36035e-05     0.000125514        -0.125033        0.145907     -1.20539e-05    -5.26969e-05
                     0.000143658    -0.000123367        -0.591622        0.792694     -9.74932e-05     5.88647e-07       -0.0462372      -0.0683267
281748                 -0.154348        0.124845     -8.21878e-05     0.000182613         0.687929        0.689917      0.000112488     -8.8653e-05
                     7.63209e-05     0.000135691       -0.0812751      -0.0253694      0.000178028     2.81228e-06        -0.590972        0.793296
                        0.687873        0.690119      6.34901e-05     0.000125395        -0.124883        0.145978     -1.20503e-05     -5.2856e-05
                     0.000143667    -0.000123401        -0.591239         0.79298     -9.75812e-05     5.21483e-07       -0.0462999      -0.0682836
281750                 -0.154303        0.124833     -8.21222e-05      0.00018264         0.688251        0.689609      0.000112494    -8.88176e-05
                     7.60904e-05     0.000135697       -0.0812758      -0.0253649      0.000178035     2.87646e-06        -0.590589        0.793582
                        0.688195         0.68981      6.33788e-05     0.000125275        -0.124734        0.146049     -1.20441e-05    -5.30145e-05
                     0.000143676    -0.000123434        -0.590857        0.793266     -9.76702e-05     4.53231e-07       -0.0463626      -0.0682405
281752                 -0.154257         0.12482     -8.20549e-05     0.000182668         0.688573        0.689301      0.000112498    -8.89824e-05
                       7.586e-05       0.0001357       -0.0812764      -0.0253604      0.000178028     2.92166e-06        -0.590205        0.793868
                        0.688518        0.689501      6.32687e-05     0.000125156        -0.124585        0.146119     -1.20371e-05    -5.31733e-05
                     0.000143684    -0.000123467        -0.590474        0.793551     -9.77472e-05     3.85411e-07       -0.0464252      -0.0681974
281754                 -0.154212        0.124808     -8.19867e-05     0.000182695         0.688895        0.688993        0.0001125    -8.91475e-05
                     7.56295e-05     0.000135703       -0.0812771      -0.0253559      0.000178029     2.99015e-06        -0.589822        0.794153
                         0.68884        0.689192      6.31592e-05     0.000125037        -0.124436        0.146189       -1.203e-05    -5.33327e-05
                     0.000143693    -0.000123499        -0.590091        0.793837     -9.78388e-05      3.2015e-07       -0.0464878      -0.0681542
281756                 -0.154167        0.124795     -8.19178e-05     0.000182722         0.689217        0.688684      0.000112502    -8.93131e-05
                      7.5399e-05     0.000135703       -0.0812778      -0.0253514      0.000178031     3.05357e-06        -0.589438        0.794438
                        0.689162        0.688883      6.30503e-05     0.000124918        -0.124286         0.14626     -1.20232e-05    -5.34928e-05
                     0.000143701    -0.000123531        -0.589708        0.794122     -9.79261e-05     2.52446e-07       -0.0465504       -0.068111
281758                 -0.154122        0.124783     -8.18483e-05     0.000182749         0.689538        0.688376      0.000112503    -8.94793e-05
                     7.51684e-05     0.000135702       -0.0812785      -0.0253468      0.000178033     3.11661e-06        -0.589054        0.794723
                        0.689484        0.688573       6.2942e-05     0.000124798        -0.124137         0.14633     -1.20166e-05    -5.36538e-05
                     0.000143709    -0.000123562        -0.589325        0.794407     -9.80126e-05      1.8453e-07       -0.0466129      -0.0680677
281760                 -0.154077         0.12477     -8.17783e-05     0.000182776         0.689859        0.688067      0.000112503    -8.96461e-05
                     7.49377e-05     0.000135699       -0.0812792      -0.0253423      0.000178035     3.17979e-06         -0.58867        0.795008
                        0.689805        0.688264      6.28342e-05     0.000124679        -0.123988          0.1464     -1.20104e-05    -5.38156e-05
                     0.000143718    -0.000123593        -0.588942        0.794692     -9.80987e-05      1.1643e-07       -0.0466754      -0.0680243
281762                 -0.154032        0.124757     -8.17079e-05     0.000182803         0.690181        0.687759      0.000112503    -8.98134e-05
                     7.47069e-05     0.000135695       -0.0812799      -0.0253378      0.000178036     3.24325e-06        -0.588286        0.795293
                        0.690127        0.687954      6.27269e-05      0.00012456        -0.123838        0.146469     -1.20046e-05    -5.39783e-05
