! TOUCHSTONE file generated by CST MICROWAVE STUDIO
! Date and time: Tue Oct 14 07:28:22 2025
! Project name: Teste_Macro_Metasurface_Nanopilar.cst
! Parameters = {H=600; L_x=125; L_y=140; Lambda=1064; Max_L=200; Min_L=70; PathPara=1; Phi=0; Step_L=10; Theta=0; p=520; phaseX=180; phaseY=0}
! Header version: 2018
! Port assignment regex: !\s*Touchstone port\s*([0-9]+)\s*=\s*(CST MWS port|CST DS port)\s*([0-9]+|Zmin|Zmax)\s*\(\"(.*)\"\)(\s*mode\s*([0-9]+))?.*
! Touchstone port assignment:
! Touchstone port 1 = CST MWS port Zmax ("") mode 1
! Touchstone port 2 = CST MWS port Zmax ("") mode 2
! Touchstone port 3 = CST MWS port Zmin ("") mode 1
! Touchstone port 4 = CST MWS port Zmin ("") mode 2
! S-Parameters are not renormalized. Each port impedance will be approximated by the real part at minimum frequency. The values are described via the [Reference] keyword.
! Default impedance is overridden by [Reference]
[Version] 2.0
# GHz S RI R 376.73
[Number of Ports] 4
[Reference]
376.73 376.73 259.814 259.814 
[Number of Frequencies] 51
[Network Data]
281700                -0.0901353       -0.142543       0.00055046     0.000179248          0.11836        0.973668      0.000450981     6.47445e-05
                     0.000531718      0.00022268       -0.0496722      -0.0752356      0.000460832     0.000210241        -0.397568        0.905914
                        0.118491        0.973826      0.000583291      0.00026767       -0.0521312        0.159741      0.000796272    -6.66833e-05
                     0.000493458     0.000117054        -0.397299        0.905638      0.000754667     0.000116545       -0.0879071       0.0160769
281702                -0.0901859       -0.142534       0.00055077     0.000179288         0.118794        0.973612       0.00045107     6.44726e-05
                     0.000531934     0.000222503       -0.0497014      -0.0752412      0.000461045     0.000209904        -0.397138        0.906101
                        0.118926         0.97377       0.00058332     0.000267278       -0.0520395        0.159791      0.000796208    -6.69726e-05
                     0.000493535     0.000116674         -0.39687        0.905825       0.00075464     0.000116377       -0.0879164       0.0161426
281704                -0.0902365       -0.142525      0.000551079     0.000179326         0.119228        0.973555      0.000451159     6.42007e-05
                      0.00053215     0.000222326       -0.0497306      -0.0752469      0.000461254     0.000209568        -0.396709        0.906287
                         0.11936        0.973714       0.00058335     0.000266887       -0.0519478        0.159842      0.000796144    -6.72624e-05
                     0.000493613     0.000116295        -0.396441        0.906013      0.000754619     0.000116207       -0.0879256       0.0162082
281706                -0.0902871       -0.142517      0.000551388     0.000179362         0.119663        0.973499      0.000451248     6.39288e-05
                     0.000532367     0.000222148       -0.0497598      -0.0752525       0.00046146     0.000209234         -0.39628        0.906474
                        0.119795        0.973658       0.00058338     0.000266497        -0.051856        0.159892      0.000796079    -6.75526e-05
                      0.00049369     0.000115915        -0.396012        0.906199      0.000754603     0.000116035       -0.0879349       0.0162739
281708                -0.0903376       -0.142508      0.000551696     0.000179396         0.120097        0.973442      0.000451337     6.36569e-05
                     0.000532584      0.00022197       -0.0497891      -0.0752582      0.000461663     0.000208901         -0.39585         0.90666
                        0.120229        0.973601      0.000583411     0.000266108       -0.0517642        0.159942      0.000796014    -6.78431e-05
                     0.000493768     0.000115535        -0.395582        0.906386      0.000754592      0.00011586        -0.087944       0.0163396
281710                -0.0903882       -0.142499      0.000552003     0.000179428         0.120531        0.973385      0.000451426     6.33849e-05
                     0.000532801     0.000221792       -0.0498183      -0.0752638      0.000461862      0.00020857        -0.395421        0.906846
                        0.120663        0.973545      0.000583442     0.000265719       -0.0516723        0.159992      0.000795949    -6.81341e-05
                     0.000493844     0.000115155        -0.395153        0.906572      0.000754586     0.000115683       -0.0879531       0.0164053
281712                -0.0904388        -0.14249       0.00055231     0.000179459         0.120965        0.973328      0.000451515      6.3113e-05
                     0.000533018     0.000221614       -0.0498476      -0.0752694      0.000462059      0.00020824        -0.394991        0.907031
                        0.121098        0.973488      0.000583474     0.000265332       -0.0515804        0.160042      0.000795884    -6.84254e-05
                     0.000493921     0.000114775        -0.394723        0.906758      0.000754585     0.000115504       -0.0879622        0.016471
281714                -0.0904894       -0.142481      0.000552616     0.000179488           0.1214         0.97327      0.000451604      6.2841e-05
                     0.000533236     0.000221435       -0.0498768       -0.075275      0.000462253     0.000207912        -0.394561        0.907217
                        0.121532        0.973431      0.000583506     0.000264945       -0.0514885        0.160092      0.000795818    -6.87171e-05
                     0.000493997     0.000114395        -0.394294        0.906944      0.000754589     0.000115323       -0.0879712       0.0165368
281716                  -0.09054       -0.142472      0.000552922     0.000179515         0.121834        0.973213      0.000451694      6.2569e-05
                     0.000533454     0.000221256       -0.0499061      -0.0752806      0.000462444     0.000207585        -0.394132        0.907402
                        0.121967        0.973374      0.000583539     0.000264559       -0.0513965        0.160142      0.000795751    -6.90093e-05
                     0.000494073     0.000114015        -0.393864         0.90713      0.000754598      0.00011514       -0.0879802       0.0166025
281718                -0.0905906       -0.142464      0.000553227      0.00017954         0.122268        0.973155      0.000451783      6.2297e-05
                     0.000533672     0.000221077       -0.0499354      -0.0752861      0.000462631     0.000207259        -0.393702        0.907587
                        0.122401        0.973317      0.000583572     0.000264173       -0.0513045        0.160192      0.000795685    -6.93018e-05
                     0.000494149     0.000113634        -0.393434        0.907316      0.000754612     0.000114954       -0.0879891       0.0166683
281720                -0.0906412       -0.142455      0.000553532     0.000179564         0.122702        0.973097      0.000451873     6.20249e-05
                      0.00053389     0.000220898       -0.0499647      -0.0752917      0.000462816     0.000206935        -0.393272        0.907772
                        0.122835        0.973259      0.000583605     0.000263789       -0.0512124        0.160242      0.000795618    -6.95947e-05
                     0.000494225     0.000113254        -0.393005        0.907501      0.000754631     0.000114766        -0.087998       0.0167341
281722                -0.0906918       -0.142446      0.000553836     0.000179586         0.123136        0.973039      0.000451962     6.17529e-05
                     0.000534109     0.000220718        -0.049994      -0.0752972      0.000462998     0.000206613        -0.392842        0.907956
                        0.123269        0.973201      0.000583639     0.000263405       -0.0511203        0.160292      0.000795551     -6.9888e-05
                       0.0004943     0.000112873        -0.392575        0.907686      0.000754654     0.000114575       -0.0880068       0.0167999
281724                -0.0907424       -0.142437       0.00055414     0.000179606          0.12357         0.97298      0.000452052     6.14808e-05
                     0.000534328     0.000220538       -0.0500233      -0.0753028      0.000463177     0.000206292        -0.392412        0.908141
                        0.123704        0.973143      0.000583674     0.000263022       -0.0510281        0.160341      0.000795483    -7.01817e-05
                     0.000494375     0.000112493        -0.392145        0.907871      0.000754682     0.000114383       -0.0880156       0.0168657
281726                 -0.090793       -0.142428      0.000554443     0.000179624         0.124004        0.972922      0.000452141     6.12087e-05
                     0.000534547     0.000220358       -0.0500526      -0.0753083      0.000463353     0.000205972        -0.391982        0.908325
                        0.124138        0.973085      0.000583708      0.00026264       -0.0509359        0.160391      0.000795415    -7.04757e-05
                      0.00049445     0.000112112        -0.391714        0.908056      0.000754715     0.000114188       -0.0880243       0.0169315
281728                -0.0908436       -0.142419      0.000554746      0.00017964         0.124438        0.972863      0.000452231     6.09366e-05
                     0.000534766     0.000220177       -0.0500819      -0.0753138      0.000463526     0.000205655        -0.391551        0.908509
                        0.124572        0.973027      0.000583743     0.000262258       -0.0508437        0.160441      0.000795347    -7.07702e-05
                     0.000494525     0.000111732        -0.391284         0.90824      0.000754752     0.000113991        -0.088033       0.0169974
281730                -0.0908942        -0.14241      0.000555049     0.000179655         0.124872        0.972804      0.000452321     6.06645e-05
                     0.000534985     0.000219996       -0.0501113      -0.0753193      0.000463696     0.000205338        -0.391121        0.908693
                        0.125006        0.972968      0.000583777     0.000261877       -0.0507514         0.16049      0.000795278     -7.1065e-05
                     0.000494599     0.000111351        -0.390854        0.908425      0.000754794     0.000113792       -0.0880416       0.0170632
281732                -0.0909448       -0.142401      0.000555352     0.000179668         0.125306        0.972745       0.00045241     6.03923e-05
                     0.000535205     0.000219815       -0.0501406      -0.0753248      0.000463864     0.000205024        -0.390691        0.908876
                         0.12544         0.97291      0.000583812     0.000261496       -0.0506591         0.16054      0.000795209    -7.13603e-05
                     0.000494673      0.00011097        -0.390424        0.908609       0.00075484      0.00011359       -0.0880502       0.0171291
281734                -0.0909954       -0.142392      0.000555656     0.000179679         0.125739        0.972686        0.0004525     6.01202e-05
                     0.000535425     0.000219634       -0.0501699      -0.0753302      0.000464029     0.000204711         -0.39026         0.90906
                        0.125874        0.972851      0.000583845     0.000261116       -0.0505667        0.160589       0.00079514    -7.16559e-05
                     0.000494747     0.000110589        -0.389993        0.908793      0.000754891     0.000113386       -0.0880587        0.017195
281736                 -0.091046       -0.142383      0.000555962     0.000179688         0.126173        0.972626       0.00045259      5.9848e-05
                     0.000535646     0.000219452       -0.0501993      -0.0753357       0.00046419     0.000204399        -0.389829        0.909243
                        0.126308        0.972792      0.000583876     0.000260735       -0.0504743        0.160639      0.000795071    -7.19519e-05
                     0.000494821     0.000110208        -0.389563        0.908976      0.000754947      0.00011318       -0.0880672       0.0172609
281738                -0.0910966       -0.142374      0.000556274     0.000179696         0.126607        0.972566       0.00045268     5.95759e-05
                     0.000535866      0.00021927       -0.0502287      -0.0753411      0.000464349     0.000204089        -0.389399        0.909426
                        0.126742        0.972732      0.000583901     0.000260352       -0.0503818        0.160688      0.000795001    -7.22482e-05
                     0.000494894     0.000109827        -0.389132         0.90916      0.000755007     0.000112972       -0.0880756       0.0173268
281740                -0.0911472       -0.142365      0.000556602     0.000179702         0.127041        0.972506       0.00045277     5.93037e-05
                     0.000536087     0.000219088        -0.050258      -0.0753465      0.000464506     0.000203781        -0.388968        0.909609
                        0.127176        0.972673       0.00058391      0.00025996       -0.0502894        0.160737       0.00079493     -7.2545e-05
                     0.000494967     0.000109445        -0.388702        0.909343      0.000755071     0.000112762        -0.088084       0.0173927
281742                -0.0911978       -0.142356      0.000557037     0.000179743         0.127475        0.972446       0.00045286     5.90315e-05
                     0.000536308     0.000218906       -0.0502873      -0.0753519      0.000464659     0.000203475        -0.388537        0.909791
                         0.12761        0.972613      0.000583817      0.00025946       -0.0501968        0.160787       0.00079486    -7.28421e-05
                      0.00049504     0.000109064        -0.388271        0.909525       0.00075514     0.000112549       -0.0880923       0.0174587
281744                -0.0912485       -0.142347      0.000556917      0.00017984         0.127908        0.972386       0.00045295     5.87593e-05
                     0.000536529     0.000218723       -0.0503168      -0.0753574       0.00046481      0.00020317        -0.388106        0.909974
                        0.128044        0.972553      0.000584289     0.000259245       -0.0501042        0.160836      0.000794789    -7.31396e-05
                     0.000495113     0.000108683         -0.38784        0.909709      0.000755213     0.000112334       -0.0881006       0.0175246
281746                -0.0912991       -0.142338      0.000557336     0.000179744         0.128342        0.972326       0.00045304     5.84871e-05
                     0.000536751      0.00021854       -0.0503462      -0.0753627      0.000464958     0.000202866        -0.387675        0.910156
                        0.128478        0.972493       0.00058419     0.000258884       -0.0500116        0.160885      0.000794718    -7.34375e-05
                     0.000495185     0.000108301        -0.387409        0.909892       0.00075529     0.000112116       -0.0881088       0.0175906
281748                -0.0913497       -0.142329      0.000557661     0.000179731         0.128776        0.972265       0.00045313     5.82149e-05
                     0.000536973     0.000218357       -0.0503756      -0.0753681      0.000465104     0.000202565        -0.387244        0.910338
                        0.128912        0.972433      0.000584201     0.000258507        -0.049919        0.160934      0.000794646    -7.37357e-05
                     0.000495257      0.00010792        -0.386978        0.910074      0.000755372     0.000111897        -0.088117       0.0176566
281750                -0.0914003        -0.14232      0.000557968     0.000179726         0.129209        0.972204       0.00045322     5.79426e-05
                     0.000537195     0.000218174        -0.050405      -0.0753735      0.000465247     0.000202265        -0.386813        0.910519
                        0.129346        0.972373      0.000584229     0.000258132       -0.0498263        0.160983      0.000794575    -7.40344e-05
                     0.000495329     0.000107538        -0.386547        0.910256      0.000755458     0.000111675       -0.0881251       0.0177226
281752                -0.0914509       -0.142311      0.000558269     0.000179721         0.129643        0.972143       0.00045331     5.76704e-05
                     0.000537417      0.00021799       -0.0504345      -0.0753788      0.000465387     0.000201967        -0.386382        0.910701
                         0.12978        0.972312      0.000584264     0.000257758       -0.0497335        0.161032      0.000794503    -7.43333e-05
                     0.000495401     0.000107157        -0.386116        0.910438      0.000755548     0.000111451       -0.0881332       0.0177886
281754                -0.0915016       -0.142302      0.000558567     0.000179715         0.130076        0.972082        0.0004534     5.73982e-05
                      0.00053764     0.000217806       -0.0504639      -0.0753841      0.000465524     0.000201671        -0.385951        0.910882
                        0.130213        0.972251      0.000584303     0.000257386       -0.0496407        0.161081       0.00079443    -7.46327e-05
                     0.000495473     0.000106775        -0.385685         0.91062      0.000755642     0.000111224       -0.0881412       0.0178547
281756                -0.0915522       -0.142292      0.000558863     0.000179708          0.13051         0.97202       0.00045349      5.7126e-05
                     0.000537863     0.000217622       -0.0504933      -0.0753894      0.000465659     0.000201376        -0.385519        0.911063
                        0.130647         0.97219      0.000584343     0.000257015       -0.0495479         0.16113      0.000794357    -7.49324e-05
                     0.000495544     0.000106393        -0.385253        0.910802      0.000755741     0.000110996       -0.0881492       0.0179207
281758                -0.0916028       -0.142283      0.000559157     0.000179699         0.130944        0.971959       0.00045358     5.68538e-05
                     0.000538086     0.000217437       -0.0505228      -0.0753948      0.000465792     0.000201083        -0.385088        0.911244
                        0.131081        0.972129      0.000584384     0.000256644       -0.0494551        0.161179      0.000794284    -7.52325e-05
                     0.000495615     0.000106011        -0.384822        0.910983      0.000755843     0.000110765       -0.0881572       0.0179868
281760                -0.0916534       -0.142274       0.00055945     0.000179689         0.131377        0.971897      0.000453671     5.65816e-05
                     0.000538309     0.000217252       -0.0505522         -0.0754      0.000465922     0.000200792        -0.384656        0.911425
                        0.131514        0.972067      0.000584427     0.000256275       -0.0493622        0.161228      0.000794211     -7.5533e-05
                     0.000495686     0.000105629         -0.38439        0.911164       0.00075595     0.000110532        -0.088165       0.0180529
281762                -0.0917041       -0.142265      0.000559742     0.000179678          0.13181        0.971835      0.000453761     5.63094e-05
                     0.000538533     0.000217067       -0.0505817      -0.0754053      0.000466049     0.000200503        -0.384225        0.911605
                        0.131948        0.972006      0.000584471     0.000255906       -0.0492692        0.161277      0.000794137    -7.58338e-05
