! TOUCHSTONE file generated by CST MICROWAVE STUDIO
! Date and time: Tue Oct 14 07:33:14 2025
! Project name: Teste_Macro_Metasurface_Nanopilar.cst
! Parameters = {H=600; L_x=200; L_y=195; Lambda=1064; Max_L=200; Min_L=70; PathPara=1; Phi=0; Step_L=10; Theta=0; p=520; phaseX=180; phaseY=0}
! Header version: 2018
! Port assignment regex: !\s*Touchstone port\s*([0-9]+)\s*=\s*(CST MWS port|CST DS port)\s*([0-9]+|Zmin|Zmax)\s*\(\"(.*)\"\)(\s*mode\s*([0-9]+))?.*
! Touchstone port assignment:
! Touchstone port 1 = CST MWS port Zmax ("") mode 1
! Touchstone port 2 = CST MWS port Zmax ("") mode 2
! Touchstone port 3 = CST MWS port Zmin ("") mode 1
! Touchstone port 4 = CST MWS port Zmin ("") mode 2
! S-Parameters are not renormalized. Each port impedance will be approximated by the real part at minimum frequency. The values are described via the [Reference] keyword.
! Default impedance is overridden by [Reference]
[Version] 2.0
# GHz S RI R 376.73
[Number of Ports] 4
[Reference]
376.73 376.73 259.814 259.814 
[Number of Frequencies] 51
[Network Data]
281700                 -0.407073       -0.143211      0.000140392    -0.000118914         0.895276      -0.0783586     -1.21226e-05     1.31392e-05
                     0.000170799    -9.85801e-05        -0.437027       -0.140373      2.74709e-05    -6.53968e-05         0.876971       -0.115825
                        0.895126       -0.078547      7.73349e-05    -5.36469e-05         0.373476        -0.21264     -0.000198017    -0.000154783
                     3.04871e-05    -5.34726e-05         0.877238       -0.115925     -0.000242066    -9.60981e-05         0.383102       -0.249826
281702                 -0.407131       -0.143092      0.000140312    -0.000118853         0.895233      -0.0787227     -1.20328e-05      1.6562e-05
                     0.000169893    -9.91767e-05        -0.437086       -0.140241      2.70943e-05    -6.47524e-05         0.876926       -0.116176
                         0.89508      -0.0789141       7.7429e-05    -5.36573e-05         0.373383        -0.21284     -0.000199686    -0.000158447
                     3.04702e-05    -5.35196e-05         0.877181       -0.116284     -0.000242015    -9.53824e-05         0.382987       -0.250037
281704                  -0.40719       -0.142974      0.000140237    -0.000118785          0.89519      -0.0790868     -1.03942e-05     2.19616e-05
                     0.000169128    -9.96388e-05        -0.437145        -0.14011      2.68948e-05    -6.42194e-05         0.876882       -0.116525
                        0.895032      -0.0792791      7.75039e-05    -5.36749e-05         0.373289       -0.213041     -0.000201749    -0.000163238
                      3.0448e-05    -5.35654e-05         0.877124       -0.116642     -0.000241997    -9.46595e-05          0.38287       -0.250246
281706                  -0.40725       -0.142856      0.000140175    -0.000118706         0.895146      -0.0794506     -3.05099e-06     2.96618e-05
                     0.000168513    -9.99814e-05        -0.437203       -0.139978      2.68107e-05    -6.37611e-05          0.87684       -0.116869
                        0.894983      -0.0796389      7.75601e-05    -5.36973e-05         0.373195       -0.213241     -0.000204634    -0.000170188
                      3.0419e-05    -5.36095e-05         0.877068       -0.117001     -0.000242022    -9.39111e-05          0.38275       -0.250453
281708                 -0.407311       -0.142738      0.000140133    -0.000118622         0.895103       -0.079814      1.73868e-05     2.78682e-05
                     0.000168053    -0.000100219        -0.437262       -0.139847      2.68081e-05    -6.33488e-05         0.876802       -0.117205
                         0.89494      -0.0799909      7.75988e-05    -5.37222e-05         0.373101       -0.213442     -0.000209731    -0.000182199
                     3.03815e-05    -5.36515e-05         0.877011       -0.117359     -0.000242107    -9.31064e-05         0.382629       -0.250657
281710                 -0.407373       -0.142619      0.000140122    -0.000118547         0.895058      -0.0801766      2.14434e-05     3.45652e-06
                      0.00016775    -0.000100363        -0.437321       -0.139715      2.68696e-05    -6.29569e-05         0.876767       -0.117517
                        0.894911      -0.0803458      7.76208e-05    -5.37476e-05         0.373007       -0.213643     -0.000224952    -0.000211585
                     3.03326e-05    -5.36908e-05         0.876954       -0.117718     -0.000242291    -9.21884e-05          0.38251       -0.250857
281712                 -0.407435         -0.1425      0.000140135    -0.000118504         0.895012      -0.0805373      8.47482e-06    -5.27239e-06
                     0.000167602    -0.000100427         -0.43738       -0.139583      2.69913e-05    -6.25582e-05         0.876697       -0.117751
                        0.894884      -0.0807155      7.76274e-05    -5.37718e-05         0.372913       -0.213844     -0.000538953    -0.000265682
                     3.02684e-05    -5.37266e-05         0.876897       -0.118077     -0.000242668    -9.10395e-05         0.382394       -0.251055
281714                 -0.407496       -0.142379      0.000140142    -0.000118506         0.894965      -0.0808928      1.19962e-07    -5.01269e-06
                     0.000167604    -0.000100419        -0.437439       -0.139451      2.71878e-05    -6.21176e-05         0.876343       -0.118118
                        0.894849      -0.0810904      7.76196e-05    -5.37933e-05          0.37282       -0.214045     -0.000199501     -7.1744e-05
                     3.01831e-05    -5.37578e-05          0.87684       -0.118435     -0.000243512    -8.93746e-05         0.382281       -0.251252
281716                 -0.407558       -0.142259      0.000140117    -0.000118535         0.894914      -0.0812231     -4.77131e-06    -3.23397e-06
                      0.00016775    -0.000100347        -0.437498        -0.13932      2.75167e-05    -6.15831e-05         0.876357       -0.118693
                        0.894808      -0.0814642      7.75988e-05    -5.38105e-05         0.372726        -0.21425     -0.000197949    -0.000116471
                     3.00672e-05    -5.37828e-05         0.876783       -0.118794     -0.000246035     -8.6339e-05         0.382171       -0.251452
281718                 -0.407619       -0.142138      0.000140058    -0.000118562         0.895037      -0.0816142     -8.07368e-06    -1.28397e-06
                     0.000168031    -0.000100218        -0.437557       -0.139188      2.81699e-05    -6.08953e-05         0.876378       -0.119072
                        0.894765      -0.0818362       7.7566e-05    -5.38223e-05         0.372619       -0.214453     -0.000200066    -0.000131707
                     2.99051e-05     -5.3799e-05         0.876725       -0.119153     -0.000262318    -8.23895e-05         0.382061       -0.251653
281720                  -0.40768       -0.142018       0.00013998    -0.000118575         0.894892      -0.0820366     -1.06399e-05      7.0666e-07
                     0.000168437    -0.000100036        -0.437615       -0.139056      2.97575e-05    -6.02862e-05          0.87636       -0.119427
                        0.894722      -0.0822069      7.75225e-05    -5.38273e-05         0.372525       -0.214644     -0.000202009    -0.000140072
                      2.9669e-05     -5.3803e-05         0.876668       -0.119511     -0.000243983    -0.000111628         0.381951       -0.251856
281722                 -0.407741       -0.141897      0.000139895    -0.000118574          0.89483      -0.0823947     -1.28592e-05     2.83851e-06
                     0.000168954    -9.98046e-05        -0.437674       -0.138924      3.21684e-05    -6.19853e-05         0.876325       -0.119779
                        0.894678      -0.0825767      7.74697e-05    -5.38244e-05         0.372433       -0.214842     -0.000203748    -0.000145828
                     2.93029e-05    -5.37899e-05         0.876611        -0.11987     -0.000239402    -0.000100795         0.381842        -0.25206
281724                 -0.407802       -0.141776      0.000139808    -0.000118562          0.89478      -0.0827562     -1.49123e-05     5.28396e-06
                      0.00016957    -9.95261e-05        -0.437733       -0.138792      3.10131e-05       -6.45e-05         0.876284       -0.120131
                        0.894634      -0.0829459      7.74089e-05    -5.38124e-05         0.372339       -0.215042      -0.00020536    -0.000150353
                     2.86781e-05    -5.37561e-05         0.876553       -0.120229     -0.000239336    -9.74922e-05         0.381731       -0.252265
281726                 -0.407863       -0.141655      0.000139722    -0.000118541         0.894733      -0.0831193     -1.68499e-05      8.2798e-06
                     0.000170269     -9.9203e-05        -0.437792        -0.13866      2.96385e-05    -6.45076e-05         0.876239       -0.120483
                        0.894589      -0.0833148      7.73416e-05      -5.379e-05         0.372244       -0.215242     -0.000206901    -0.000154232
                     2.74201e-05    -5.37294e-05         0.876496       -0.120587     -0.000239429    -9.58991e-05          0.38162       -0.252471
281728                 -0.407923       -0.141535      0.000139639    -0.000118515         0.894688      -0.0834833     -1.85742e-05     1.21532e-05
                     0.000171037     -9.8837e-05         -0.43785       -0.138528      2.91383e-05    -6.40875e-05         0.876191       -0.120835
                        0.894545      -0.0836833      7.72695e-05     -5.3756e-05          0.37215       -0.215442     -0.000208405    -0.000157759
                     2.38857e-05    -5.42293e-05         0.876438       -0.120946     -0.000239489    -9.49306e-05         0.381509       -0.252677
281730                 -0.407984       -0.141414      0.000139558    -0.000118484         0.894643      -0.0838478     -1.97149e-05     1.73332e-05
                     0.000171857    -9.84306e-05        -0.437909       -0.138396      2.90078e-05    -6.37236e-05         0.876142       -0.121188
                          0.8945      -0.0840515      7.71946e-05    -5.37092e-05         0.372054       -0.215642     -0.000209897    -0.000161107
                     1.92155e-05    -7.66729e-05          0.87638       -0.121305      -0.00023951    -9.42641e-05         0.381396       -0.252885
281732                 -0.408044       -0.141293      0.000139481     -0.00011845         0.894598      -0.0842126      -1.9348e-05     2.42239e-05
                     0.000172713    -9.79866e-05        -0.437968       -0.138264      2.90324e-05    -6.34376e-05         0.876091        -0.12154
                        0.894456      -0.0844196      7.71193e-05    -5.36482e-05         0.371959       -0.215842     -0.000211393    -0.000164388
                     3.79796e-05    -5.96738e-05         0.876323       -0.121664       -0.0002395    -9.37714e-05         0.381283       -0.253093
281734                 -0.408104       -0.141172      0.000139405    -0.000118414         0.894554      -0.0845777     -1.56413e-05     3.25605e-05
                     0.000173589    -9.75086e-05        -0.438026       -0.138132       2.9132e-05    -6.32087e-05          0.87604       -0.121892
                        0.894411      -0.0847875      7.70463e-05    -5.35718e-05         0.371863       -0.216042     -0.000212909    -0.000167686
                     3.51539e-05    -5.66575e-05         0.876265       -0.122022     -0.000239464     -9.3391e-05         0.381168       -0.253302
281736                 -0.408164       -0.141051      0.000139332    -0.000118375         0.894509      -0.0849429     -6.45888e-06      3.9801e-05
                      0.00017447    -9.70015e-05        -0.438085          -0.138      2.92726e-05    -6.30193e-05         0.875988       -0.122245
                        0.894366      -0.0851553      7.69794e-05    -5.34789e-05         0.371768       -0.216242     -0.000214455    -0.000171072
                     3.40251e-05    -5.59214e-05         0.876207       -0.122381     -0.000239408    -9.30901e-05          0.38105       -0.253512
281738                 -0.408225       -0.140931      0.000139262    -0.000118334         0.894465      -0.0853082      6.99685e-06     4.07691e-05
                     0.000175342    -9.64711e-05        -0.438144       -0.137868      2.94381e-05    -6.28576e-05         0.875935       -0.122596
                        0.894321       -0.085523       7.6923e-05    -5.33689e-05         0.371672       -0.216442     -0.000216042    -0.000174617
                     3.34532e-05    -5.56388e-05         0.876149        -0.12274     -0.000239334    -9.28488e-05          0.38093       -0.253721
281740                 -0.408285        -0.14081      0.000139194    -0.000118291          0.89442      -0.0856736      1.81149e-05     3.37121e-05
                     0.000176191    -9.59242e-05        -0.438203       -0.137736      2.96199e-05     -6.2716e-05         0.875882       -0.122948
                        0.894276      -0.0858905      7.68828e-05    -5.32417e-05         0.371576       -0.216642      -0.00021768    -0.000178396
                     3.31211e-05    -5.55147e-05         0.876091       -0.123099     -0.000239245    -9.26546e-05         0.380806       -0.253928
281742                 -0.408345       -0.140689      0.000139129    -0.000118246         0.894376      -0.0860391      2.26349e-05     2.37266e-05
                     0.000177005    -9.53688e-05        -0.438261       -0.137603       2.9813e-05    -6.25892e-05         0.875829       -0.123299
                        0.894231       -0.086258      7.68654e-05    -5.30987e-05          0.37148       -0.216841     -0.000219378    -0.000182503
                     3.29139e-05    -5.54639e-05         0.876032       -0.123458     -0.000239141    -9.24991e-05         0.380679       -0.254131
281744                 -0.408405       -0.140568      0.000139067    -0.000118199         0.894331      -0.0864047      2.22924e-05     1.54031e-05
                     0.000177776    -9.48136e-05         -0.43832       -0.137471      3.00145e-05    -6.24735e-05         0.875775       -0.123649
                        0.894186      -0.0866254      7.68788e-05    -5.29437e-05         0.371383       -0.217041     -0.000221144    -0.000187056
                     3.27806e-05    -5.54533e-05         0.875974       -0.123817     -0.000239024    -9.23761e-05         0.380554       -0.254328
281746                 -0.408465       -0.140448      0.000139009     -0.00011815         0.894287      -0.0867703      1.99074e-05     9.69005e-06
                     0.000178494    -9.42676e-05        -0.438379       -0.137338      3.02224e-05    -6.23665e-05          0.87572       -0.123998
                         0.89414      -0.0869926      7.69314e-05    -5.27834e-05         0.371287       -0.217241     -0.000222978    -0.000192223
                     3.26955e-05    -5.54679e-05         0.875916       -0.124176     -0.000238894    -9.22812e-05         0.380434       -0.254522
281748                 -0.408525       -0.140327      0.000138954    -0.000118098         0.894242       -0.087136      1.70204e-05     6.01209e-06
                     0.000179153    -9.37402e-05        -0.438437       -0.137205      3.04354e-05    -6.22662e-05         0.875665       -0.124345
                        0.894095      -0.0873598      7.70308e-05    -5.26289e-05          0.37119        -0.21744     -0.000224871    -0.000198245
                     3.26443e-05    -5.54999e-05         0.875857       -0.124535     -0.000238752    -9.22106e-05         0.380317       -0.254716
281750                 -0.408585       -0.140206      0.000138904    -0.000118044         0.894198      -0.0875017      1.42145e-05     3.68472e-06
                     0.000179751    -9.32405e-05        -0.438496       -0.137072      3.06525e-05    -6.21711e-05         0.875609       -0.124691
                        0.894049      -0.0877269      7.71816e-05    -5.24967e-05         0.371094        -0.21764      -0.00022678    -0.000205491
                     3.26185e-05    -5.55454e-05         0.875799       -0.124894     -0.000238598    -9.21617e-05         0.380204       -0.254912
281752                 -0.408645       -0.140086      0.000138858    -0.000117987         0.894153      -0.0878674      1.16499e-05     2.22903e-06
                     0.000180285    -9.27775e-05        -0.438554       -0.136939       3.0873e-05    -6.20801e-05         0.875552       -0.125034
                        0.894004      -0.0880939      7.73818e-05     -5.2407e-05         0.370997       -0.217839     -0.000228583     -0.00021456
                     3.26131e-05    -5.56021e-05         0.875741       -0.125254     -0.000238431    -9.21322e-05         0.380091        -0.25511
281754                 -0.408705       -0.139965       0.00013882    -0.000117927         0.894108      -0.0882332      9.33348e-06     1.35096e-06
                     0.000180754    -9.23591e-05        -0.438612       -0.136806      3.10964e-05    -6.19924e-05         0.875493       -0.125372
                        0.893958      -0.0884608      7.76198e-05    -5.23814e-05           0.3709       -0.218039     -0.000229945    -0.000226475
                     3.26248e-05    -5.56694e-05         0.875682       -0.125615     -0.000238253      -9.212e-05         0.379978        -0.25531
281756                 -0.408765       -0.139844      0.000138789    -0.000117863         0.894063       -0.088599       7.2243e-06     8.79026e-07
                     0.000181159    -9.19927e-05         -0.43867       -0.136672      3.13223e-05    -6.19073e-05         0.875429       -0.125705
                        0.893912      -0.0888276      7.78732e-05    -5.24367e-05         0.370803       -0.218238     -0.000229914    -0.000243093
                     3.26517e-05    -5.57473e-05         0.875623       -0.125977     -0.000238064    -9.21234e-05         0.379864       -0.255511
281758                 -0.408824       -0.139724      0.000138768    -0.000117795         0.894018      -0.0889648      5.27253e-06     7.19261e-07
                     0.000181504    -9.16844e-05        -0.438728       -0.136539      3.15503e-05    -6.18241e-05         0.875353       -0.126028
                        0.893866      -0.0891943      7.81114e-05    -5.25784e-05         0.370706       -0.218438     -0.000225506      -0.0002679
                     3.26927e-05    -5.58367e-05         0.875563       -0.126339     -0.000237864     -9.2141e-05          0.37975       -0.255712
281760                 -0.408884       -0.139603      0.000138759    -0.000117724         0.893972      -0.0893307      3.43286e-06     8.28888e-07
                      0.00018179    -9.14394e-05        -0.438785       -0.136405      3.17802e-05    -6.17424e-05          0.87525       -0.126346
                         0.89382      -0.0895609      7.83039e-05    -5.27971e-05         0.370609       -0.218637     -0.000206122    -0.000306471
                     3.27471e-05    -5.59394e-05           0.8755       -0.126703     -0.000237652    -9.21715e-05         0.379635       -0.255914
281762                 -0.408944       -0.139483      0.000138767    -0.000117648         0.893927      -0.0896965      1.67049e-06     1.20281e-06
                     0.000182022    -9.12616e-05        -0.438841       -0.136272      3.20117e-05    -6.16618e-05         0.875097       -0.126691
                        0.893774      -0.0899274      7.84278e-05    -5.30707e-05         0.370512       -0.218836     -0.000134429     -0.00035081
