! TOUCHSTONE file generated by CST MICROWAVE STUDIO
! Date and time: Tue Oct 14 07:29:28 2025
! Project name: Teste_Macro_Metasurface_Nanopilar.cst
! Parameters = {H=600; L_x=145; L_y=70; Lambda=1064; Max_L=200; Min_L=70; PathPara=1; Phi=0; Step_L=10; Theta=0; p=520; phaseX=180; phaseY=0}
! Header version: 2018
! Port assignment regex: !\s*Touchstone port\s*([0-9]+)\s*=\s*(CST MWS port|CST DS port)\s*([0-9]+|Zmin|Zmax)\s*\(\"(.*)\"\)(\s*mode\s*([0-9]+))?.*
! Touchstone port assignment:
! Touchstone port 1 = CST MWS port Zmax ("") mode 1
! Touchstone port 2 = CST MWS port Zmax ("") mode 2
! Touchstone port 3 = CST MWS port Zmin ("") mode 1
! Touchstone port 4 = CST MWS port Zmin ("") mode 2
! S-Parameters are not renormalized. Each port impedance will be approximated by the real part at minimum frequency. The values are described via the [Reference] keyword.
! Default impedance is overridden by [Reference]
[Version] 2.0
# GHz S RI R 376.73
[Number of Ports] 4
[Reference]
376.73 376.73 259.814 259.814 
[Number of Frequencies] 51
[Network Data]
281700                -0.0268484        0.110582      0.000318402     0.000276553         0.993712      0.00177044      -0.00012673    -0.000222552
                     0.000362629     7.92325e-05        -0.156897        0.137305     -0.000243143    -5.04157e-06        -0.624468        -0.74232
                        0.993237       0.0017635     -0.000214478     1.80531e-05        0.0263961        0.110772      0.000360984     0.000151347
                    -0.000112495    -0.000202413        -0.624588       -0.742017      0.000343019      0.00020403        -0.162306        0.130582
281702                -0.0268095        0.110588      0.000318506     0.000276253         0.993713      0.00140883     -0.000126793     -0.00022252
                      0.00036268     7.90471e-05        -0.156833        0.137366     -0.000243152    -4.91959e-06        -0.624842       -0.742006
                        0.993238      0.00140202     -0.000214465     1.81391e-05        0.0264378        0.110759      0.000361178     0.000151245
                    -0.000112613    -0.000202363        -0.624962       -0.741704      0.000343121     0.000203932        -0.162223        0.130671
281704                -0.0267707        0.110594       0.00031861     0.000275952         0.993714      0.00104722     -0.000126855    -0.000222488
                     0.000362731     7.88599e-05        -0.156768        0.137427     -0.000243161    -4.79756e-06        -0.625216       -0.741693
                        0.993239      0.00104054     -0.000214452     1.82252e-05        0.0264795        0.110745      0.000361371     0.000151144
                    -0.000112732    -0.000202311        -0.625336        -0.74139      0.000343223     0.000203834        -0.162141         0.13076
281706                -0.0267319          0.1106      0.000318715     0.000275652         0.993715      0.00068561     -0.000126917    -0.000222456
                     0.000362781     7.86722e-05        -0.156703        0.137487      -0.00024317     -4.6755e-06         -0.62559       -0.741379
                         0.99324     0.000679061     -0.000214439     1.83116e-05        0.0265212        0.110731      0.000361565     0.000151042
                    -0.000112851     -0.00020226         -0.62571       -0.741076      0.000343325     0.000203736        -0.162058        0.130849
281708                 -0.026693        0.110606      0.000318819      0.00027535         0.993715     0.000323998     -0.000126978    -0.000222424
                     0.000362832     7.84843e-05        -0.156639        0.137548     -0.000243179    -4.55339e-06        -0.625963       -0.741065
                        0.993241     0.000317579     -0.000214425     1.83981e-05        0.0265629        0.110718      0.000361759     0.000150939
                    -0.000112969    -0.000202209        -0.626083       -0.740762      0.000343427     0.000203638        -0.161976        0.130938
281710                -0.0266542        0.110611      0.000318923     0.000275049         0.993716    -3.76148e-05      -0.00012704    -0.000222392
                     0.000362882     7.82965e-05        -0.156574        0.137609     -0.000243187    -4.43124e-06        -0.626337       -0.740751
                        0.993241    -4.39033e-05      -0.00021441     1.84848e-05        0.0266046        0.110704      0.000361954     0.000150837
                    -0.000113088    -0.000202157        -0.626457       -0.740448      0.000343528      0.00020354        -0.161893        0.131027
281712                -0.0266153        0.110617      0.000319027     0.000274747         0.993716    -0.000399229     -0.000127101     -0.00022236
                     0.000362932     7.81088e-05        -0.156509        0.137669     -0.000243196    -4.30906e-06         -0.62671       -0.740437
                        0.993242    -0.000405387     -0.000214395     1.85716e-05        0.0266463        0.110691      0.000362148     0.000150734
                    -0.000113206    -0.000202106         -0.62683       -0.740134       0.00034363     0.000203442         -0.16181        0.131115
281714                -0.0265765        0.110623       0.00031913     0.000274444         0.993716    -0.000760845     -0.000127162    -0.000222327
                     0.000362982     7.79213e-05        -0.156444         0.13773     -0.000243204    -4.18683e-06        -0.627083       -0.740123
                        0.993242    -0.000766871      -0.00021438     1.86586e-05        0.0266879        0.110677      0.000362342     0.000150631
                    -0.000113324    -0.000202054        -0.627203       -0.739819      0.000343732     0.000203343        -0.161727        0.131204
281716                -0.0265376        0.110629      0.000319234     0.000274141         0.993717     -0.00112246     -0.000127223    -0.000222295
                     0.000363032     7.77341e-05        -0.156379         0.13779     -0.000243212    -4.06456e-06        -0.627456       -0.739808
                        0.993242     -0.00112836     -0.000214365     1.87458e-05        0.0267296        0.110663      0.000362537     0.000150527
                    -0.000113443    -0.000202002        -0.627576       -0.739505      0.000343833     0.000203245        -0.161644        0.131293
281718                -0.0264988        0.110634      0.000319338     0.000273838         0.993717     -0.00148408     -0.000127284    -0.000222263
                     0.000363082     7.75471e-05        -0.156315         0.13785     -0.000243221    -3.94226e-06        -0.627828       -0.739493
                        0.993242     -0.00148984     -0.000214349     1.88332e-05        0.0267712         0.11065      0.000362731     0.000150423
                    -0.000113561     -0.00020195        -0.627949        -0.73919      0.000343935     0.000203146        -0.161562        0.131381
281720                -0.0264599         0.11064      0.000319441     0.000273534         0.993716      -0.0018457     -0.000127345     -0.00022223
                     0.000363132     7.73604e-05         -0.15625        0.137911     -0.000243229    -3.81992e-06        -0.628201       -0.739178
                        0.993242     -0.00185133     -0.000214332     1.89206e-05        0.0268129        0.110636      0.000362926     0.000150319
                    -0.000113679    -0.000201898        -0.628322       -0.738875      0.000344036     0.000203047        -0.161479         0.13147
281722                -0.0264211        0.110646      0.000319544     0.000273228         0.993716     -0.00220732     -0.000127406    -0.000222198
                     0.000363182      7.7174e-05        -0.156185        0.137971     -0.000243237    -3.69754e-06        -0.628573       -0.738863
                        0.993242     -0.00221281     -0.000214316     1.90077e-05        0.0268545        0.110622      0.000363121     0.000150215
                    -0.000113797    -0.000201846        -0.628694       -0.738559      0.000344138     0.000202948        -0.161396        0.131558
281724                -0.0263822        0.110651      0.000319649     0.000272924         0.993716     -0.00256894     -0.000127466    -0.000222166
                     0.000363231     7.69879e-05         -0.15612        0.138032     -0.000243245    -3.57513e-06        -0.628946       -0.738548
                        0.993241      -0.0025743     -0.000214293     1.90992e-05        0.0268962        0.110609      0.000363316      0.00015011
                    -0.000113915    -0.000201794        -0.629067       -0.738244      0.000344239     0.000202849        -0.161313        0.131646
281726                -0.0263434        0.110657      0.000319753      0.00027262         0.993715     -0.00293056     -0.000127526    -0.000222133
                     0.000363281     7.68021e-05        -0.156055        0.138092     -0.000243253    -3.45268e-06        -0.629318       -0.738232
                        0.993241     -0.00293579     -0.000214279     1.91857e-05        0.0269378        0.110595      0.000363511     0.000150005
                    -0.000114033    -0.000201742        -0.629439       -0.737928      0.000344341      0.00020275        -0.161229        0.131735
281728                -0.0263045        0.110663      0.000319856     0.000272314         0.993715     -0.00329218     -0.000127586    -0.000222101
                     0.000363331     7.66166e-05         -0.15599        0.138152     -0.000243261     -3.3302e-06         -0.62969       -0.737916
                         0.99324     -0.00329728     -0.000214261     1.92738e-05        0.0269794        0.110581      0.000363706       0.0001499
                    -0.000114151    -0.000201689        -0.629811       -0.737612      0.000344442     0.000202651        -0.161146        0.131823
281730                -0.0262657        0.110668      0.000319959     0.000272009         0.993714      -0.0036538     -0.000127646    -0.000222068
                      0.00036338     7.64314e-05        -0.155925        0.138212     -0.000243268    -3.20768e-06        -0.630062         -0.7376
                        0.993239     -0.00365877     -0.000214242     1.93623e-05         0.027021        0.110567      0.000363902     0.000149795
                    -0.000114269    -0.000201637        -0.630183       -0.737296      0.000344544     0.000202552        -0.161063        0.131911
281732                -0.0262268        0.110674      0.000320062     0.000271702         0.993713     -0.00401543     -0.000127705    -0.000222036
                      0.00036343     7.62465e-05         -0.15586        0.138273     -0.000243276    -3.08513e-06        -0.630433       -0.737284
                        0.993238     -0.00402025     -0.000214223     1.94509e-05        0.0270626        0.110554      0.000364097     0.000149689
                    -0.000114387    -0.000201584        -0.630555        -0.73698      0.000344645     0.000202452         -0.16098        0.131999
281734                 -0.026188        0.110679      0.000320165     0.000271396         0.993712     -0.00437705     -0.000127765    -0.000222003
                     0.000363479      7.6062e-05        -0.155795        0.138333     -0.000243284    -2.96255e-06        -0.630805       -0.736968
                        0.993237     -0.00438174     -0.000214204     1.95398e-05        0.0271042         0.11054      0.000364293     0.000149583
                    -0.000114505    -0.000201531        -0.630927       -0.736664      0.000344746     0.000202353        -0.160896        0.132087
281736                -0.0261491        0.110685      0.000320268     0.000271089         0.993711     -0.00473867     -0.000127824     -0.00022197
                     0.000363528     7.58777e-05         -0.15573        0.138393     -0.000243291    -2.83994e-06        -0.631176       -0.736651
                        0.993236     -0.00474323     -0.000214184     1.96289e-05        0.0271458        0.110526      0.000364488     0.000149477
                    -0.000114623    -0.000201478        -0.631298       -0.736347      0.000344848     0.000202253        -0.160813        0.132175
281738                -0.0261103        0.110691       0.00032037     0.000270781         0.993709      -0.0051003     -0.000127883    -0.000221938
                     0.000363577     7.56937e-05        -0.155665        0.138453     -0.000243299     -2.7173e-06        -0.631547       -0.736335
                        0.993235     -0.00510472     -0.000214163     1.97182e-05        0.0271874        0.110512      0.000364684      0.00014937
                    -0.000114741    -0.000201425         -0.63167        -0.73603      0.000344949     0.000202153         -0.16073        0.132263
281740                -0.0260714        0.110696      0.000320473     0.000270473         0.993708     -0.00546192     -0.000127942    -0.000221905
                     0.000363627       7.551e-05        -0.155599        0.138513     -0.000243306    -2.59463e-06        -0.631918       -0.736018
                        0.993233     -0.00546621     -0.000214142     1.98077e-05         0.027229        0.110498       0.00036488     0.000149263
                    -0.000114858    -0.000201372        -0.632041       -0.735713      0.000345051     0.000202053        -0.160646        0.132351
281742                -0.0260326        0.110702      0.000320576     0.000270165         0.993706     -0.00582354     -0.000128001    -0.000221872
                     0.000363676     7.53267e-05        -0.155534        0.138573     -0.000243314    -2.47193e-06        -0.632289       -0.735701
                        0.993232      -0.0058277     -0.000214121     1.98974e-05        0.0272706        0.110484      0.000365076     0.000149156
                    -0.000114976    -0.000201319        -0.632412       -0.735396      0.000345152     0.000201953        -0.160563        0.132439
281744                -0.0259937        0.110707      0.000320678     0.000269856         0.993705     -0.00618517     -0.000128059    -0.000221839
                     0.000363725     7.51436e-05        -0.155469        0.138633     -0.000243321    -2.34921e-06         -0.63266       -0.735383
                         0.99323     -0.00618919     -0.000214099     1.99872e-05        0.0273121         0.11047      0.000365272     0.000149049
                    -0.000115094    -0.000201266        -0.632783       -0.735079      0.000345253     0.000201853        -0.160479        0.132527
281746                -0.0259548        0.110713      0.000320781     0.000269547         0.993703     -0.00654679     -0.000128118    -0.000221806
                     0.000363774     7.49608e-05        -0.155404        0.138693     -0.000243328    -2.22645e-06        -0.633031       -0.735066
                        0.993228     -0.00655068     -0.000214077     2.00773e-05        0.0273537        0.110457      0.000365469     0.000148941
                    -0.000115211    -0.000201213        -0.633153       -0.734761      0.000345355     0.000201753        -0.160395        0.132615
281748                 -0.025916        0.110718      0.000320883     0.000269238         0.993701     -0.00690842     -0.000128176    -0.000221773
                     0.000363822     7.47784e-05        -0.155338        0.138753     -0.000243335    -2.10367e-06        -0.633401       -0.734748
                        0.993226     -0.00691217     -0.000214054     2.01675e-05        0.0273953        0.110443      0.000365665     0.000148833
                    -0.000115329    -0.000201159        -0.633524       -0.734443      0.000345456     0.000201653        -0.160312        0.132702
281750                -0.0258771        0.110724      0.000320985     0.000268928         0.993699     -0.00727004     -0.000128234     -0.00022174
                     0.000363871     7.45962e-05        -0.155273        0.138813     -0.000243343    -1.98086e-06        -0.633771        -0.73443
                        0.993224     -0.00727366     -0.000214031      2.0258e-05        0.0274368        0.110429      0.000365862     0.000148725
                    -0.000115446    -0.000201106        -0.633895       -0.734125      0.000345557     0.000201553        -0.160228         0.13279
281752                -0.0258382        0.110729      0.000321087     0.000268617         0.993697     -0.00763166     -0.000128291    -0.000221707
                      0.00036392     7.44144e-05        -0.155208        0.138873      -0.00024335    -1.85803e-06        -0.634141       -0.734112
                        0.993222     -0.00763515     -0.000214008     2.03486e-05        0.0274783        0.110415      0.000366058     0.000148616
                    -0.000115563    -0.000201052        -0.634265       -0.733807      0.000345659     0.000201453        -0.160144        0.132878
281754                -0.0257994        0.110735      0.000321189     0.000268307         0.993694     -0.00799328     -0.000128349    -0.000221674
                     0.000363969     7.42328e-05        -0.155142        0.138933     -0.000243357    -1.73517e-06        -0.634511       -0.733794
                         0.99322     -0.00799663     -0.000213984     2.04394e-05        0.0275199        0.110401      0.000366255     0.000148508
                    -0.000115681    -0.000200998        -0.634635       -0.733489       0.00034576     0.000201352         -0.16006        0.132965
281756                -0.0257605         0.11074      0.000321291     0.000267996         0.993692     -0.00835491     -0.000128406    -0.000221641
                     0.000364017     7.40516e-05        -0.155077        0.138993     -0.000243364    -1.61227e-06        -0.634881       -0.733476
                        0.993217     -0.00835812     -0.000213959     2.05305e-05        0.0275614        0.110387      0.000366453     0.000148399
                    -0.000115798    -0.000200944        -0.635005        -0.73317      0.000345862     0.000201252        -0.159977        0.133053
281758                -0.0257216        0.110745      0.000321393     0.000267684         0.993689     -0.00871653     -0.000128463    -0.000221608
                     0.000364066     7.38707e-05        -0.155012        0.139053     -0.000243371    -1.48936e-06        -0.635251       -0.733157
                        0.993215     -0.00871961     -0.000213934     2.06217e-05        0.0276029        0.110373       0.00036665      0.00014829
                    -0.000115915     -0.00020089        -0.635375       -0.732851      0.000345963     0.000201151        -0.159893         0.13314
281760                -0.0256828        0.110751      0.000321495     0.000267372         0.993686     -0.00907815     -0.000128518    -0.000221574
                     0.000364114       7.369e-05        -0.154946        0.139113     -0.000243377    -1.36641e-06         -0.63562       -0.732838
                        0.993212      -0.0090811     -0.000213909     2.07131e-05        0.0276444        0.110359      0.000366851     0.000148185
                    -0.000116032    -0.000200836        -0.635744       -0.732532      0.000346064      0.00020105        -0.159809        0.133227
281762                -0.0256439        0.110756      0.000321597      0.00026706         0.993683     -0.00943977     -0.000128584    -0.000221545
                     0.000364163     7.35097e-05        -0.154881        0.139172     -0.000243384    -1.24343e-06         -0.63599       -0.732519
                        0.993209     -0.00944259     -0.000213883     2.08047e-05        0.0276859        0.110345      0.000367031     0.000148052
