! TOUCHSTONE file generated by CST MICROWAVE STUDIO
! Date and time: Tue Oct 14 07:27:46 2025
! Project name: Teste_Macro_Metasurface_Nanopilar.cst
! Parameters = {H=600; L_x=115; L_y=150; Lambda=1064; Max_L=200; Min_L=70; PathPara=1; Phi=0; Step_L=10; Theta=0; p=520; phaseX=180; phaseY=0}
! Header version: 2018
! Port assignment regex: !\s*Touchstone port\s*([0-9]+)\s*=\s*(CST MWS port|CST DS port)\s*([0-9]+|Zmin|Zmax)\s*\(\"(.*)\"\)(\s*mode\s*([0-9]+))?.*
! Touchstone port assignment:
! Touchstone port 1 = CST MWS port Zmax ("") mode 1
! Touchstone port 2 = CST MWS port Zmax ("") mode 2
! Touchstone port 3 = CST MWS port Zmin ("") mode 1
! Touchstone port 4 = CST MWS port Zmin ("") mode 2
! S-Parameters are not renormalized. Each port impedance will be approximated by the real part at minimum frequency. The values are described via the [Reference] keyword.
! Default impedance is overridden by [Reference]
[Version] 2.0
# GHz S RI R 376.73
[Number of Ports] 4
[Reference]
376.73 376.73 259.814 259.814 
[Number of Frequencies] 51
[Network Data]
281700                 -0.106371       -0.186321      2.29381e-05      0.00118332         0.314906        0.919629     -0.000142444    -6.96252e-05
                    -4.10551e-06       0.0011739       -0.0669512       0.0123762     -0.000212349      0.00027448        -0.879459          0.4525
                        0.314437        0.919402     -0.000190522     6.18152e-05        0.0313932        0.211044      0.000801592    -0.000816629
                    -0.000174863    -8.74376e-05        -0.879514         0.45254       0.00096992      -0.0010283        0.0480342      -0.0444951
281702                 -0.106435       -0.186317      2.36117e-05      0.00118338         0.315319        0.919481     -0.000142439    -6.97708e-05
                     -3.4121e-06      0.00117405       -0.0669347       0.0123762     -0.000211964     0.000274983        -0.879228         0.45295
                        0.314849        0.919254     -0.000190586     6.19345e-05        0.0315304        0.211052      0.000801416    -0.000817078
                    -0.000175009    -8.74251e-05        -0.879283        0.452992      0.000969334      -0.0010291        0.0479781      -0.0445313
281704                   -0.1065       -0.186313      2.42854e-05      0.00118344         0.315731        0.919332     -0.000142436    -6.99146e-05
                     -2.7187e-06      0.00117419       -0.0669181       0.0123762     -0.000211578     0.000275485        -0.878997        0.453401
                         0.31526        0.919106     -0.000190651     6.20538e-05        0.0316677         0.21106      0.000801238    -0.000817527
                    -0.000175156    -8.74121e-05        -0.879053        0.453443      0.000968745     -0.00102991        0.0479219      -0.0445676
281706                 -0.106565       -0.186309      2.49591e-05       0.0011835         0.316143        0.919184     -0.000142435    -7.00566e-05
                    -2.02531e-06      0.00117433       -0.0669016       0.0123762     -0.000211191     0.000275988        -0.878766        0.453852
                        0.315672        0.918958     -0.000190715     6.21732e-05        0.0318049        0.211068      0.000801059    -0.000817976
                    -0.000175302    -8.73986e-05        -0.878821        0.453894      0.000968155     -0.00103072        0.0478656      -0.0446037
281708                  -0.10663       -0.186305       2.5633e-05      0.00118356         0.316555        0.919035     -0.000142436    -7.01967e-05
                    -1.33193e-06      0.00117447       -0.0668851       0.0123762     -0.000210802     0.000276492        -0.878535        0.454303
                        0.316084        0.918809      -0.00019078     6.22928e-05        0.0319423        0.211076      0.000800877    -0.000818424
                    -0.000175447    -8.73845e-05         -0.87859        0.454345      0.000967562     -0.00103152        0.0478093      -0.0446398
281710                 -0.106695       -0.186302      2.63069e-05      0.00118362         0.316967        0.918887     -0.000142439    -7.03349e-05
                    -6.38551e-07      0.00117461       -0.0668687       0.0123762     -0.000210411     0.000276996        -0.878304        0.454753
                        0.316495         0.91866     -0.000190844     6.24124e-05        0.0320796        0.211084      0.000800695    -0.000818871
                    -0.000175593      -8.737e-05        -0.878359        0.454796      0.000966967     -0.00103233        0.0477531      -0.0446759
281712                  -0.10676       -0.186298      2.69809e-05      0.00118367         0.317379        0.918738     -0.000142445    -7.04712e-05
                     5.48307e-08      0.00117475       -0.0668522       0.0123761     -0.000210019       0.0002775        -0.878072        0.455203
                        0.316907        0.918511     -0.000190909     6.25322e-05         0.032217        0.211092       0.00080051    -0.000819318
                    -0.000175738     -8.7355e-05        -0.878127        0.455247       0.00096637     -0.00103314        0.0476967      -0.0447119
281714                 -0.106825       -0.186294       2.7655e-05      0.00118373         0.317791        0.918588     -0.000142451    -7.06054e-05
                     7.48215e-07      0.00117489       -0.0668357       0.0123761     -0.000209625     0.000278004         -0.87784        0.455654
                        0.317319        0.918362     -0.000190974     6.26521e-05        0.0323543          0.2111      0.000800324    -0.000819765
                    -0.000175883    -8.73394e-05        -0.877895        0.455697      0.000965771     -0.00103395        0.0476404      -0.0447478
281716                  -0.10689        -0.18629      2.83292e-05      0.00118378         0.318203        0.918439      -0.00014246    -7.07375e-05
                      1.4416e-06      0.00117503       -0.0668193        0.012376      -0.00020923     0.000278509        -0.877608        0.456104
                         0.31773        0.918212     -0.000191038     6.27721e-05        0.0324918        0.211108      0.000800137    -0.000820211
                    -0.000176027    -8.73234e-05        -0.877663        0.456148      0.000965169     -0.00103477         0.047584      -0.0447837
281718                 -0.106955       -0.186286      2.90035e-05      0.00118384         0.318615        0.918289     -0.000142471    -7.08675e-05
                       2.135e-06      0.00117517       -0.0668028       0.0123759     -0.000208833     0.000279014        -0.877376        0.456554
                        0.318141        0.918063     -0.000191103     6.28923e-05        0.0326292        0.211115      0.000799948    -0.000820656
                    -0.000176172     -8.7307e-05         -0.87743        0.456598      0.000964566     -0.00103558        0.0475276      -0.0448196
281720                  -0.10702       -0.186281      2.96778e-05      0.00118389         0.319027         0.91814     -0.000142483    -7.09953e-05
                      2.8284e-06      0.00117531       -0.0667864       0.0123759     -0.000208434     0.000279519        -0.877143        0.457003
                        0.318553        0.917913     -0.000191168     6.30126e-05        0.0327667        0.211123      0.000799758    -0.000821102
                    -0.000176316      -8.729e-05        -0.877197        0.457048       0.00096396     -0.00103639        0.0474712      -0.0448554
281722                 -0.107085       -0.186277      3.03522e-05      0.00118394         0.319438         0.91799     -0.000142498    -7.11208e-05
                     3.52181e-06      0.00117544         -0.06677       0.0123758     -0.000208034     0.000280025         -0.87691        0.457453
                        0.318964        0.917763     -0.000191233      6.3133e-05        0.0329042         0.21113      0.000799566    -0.000821546
                     -0.00017646    -8.72726e-05        -0.876964        0.457498      0.000963352     -0.00103721        0.0474148      -0.0448911
281724                  -0.10715       -0.186273      3.10267e-05        0.001184          0.31985         0.91784     -0.000142513    -7.12441e-05
                     4.21522e-06      0.00117558       -0.0667536       0.0123757     -0.000207632     0.000280531        -0.876677        0.457903
                        0.319375        0.917613     -0.000191298     6.32536e-05        0.0330417        0.211138      0.000799373     -0.00082199
                    -0.000176603    -8.72547e-05        -0.876731        0.457948      0.000962741     -0.00103802        0.0473583      -0.0449268
281726                 -0.107215       -0.186269      3.17013e-05      0.00118405         0.320261        0.917689     -0.000142531     -7.1365e-05
                     4.90864e-06      0.00117571       -0.0667372       0.0123756     -0.000207228     0.000281037        -0.876444        0.458352
                        0.319786        0.917463     -0.000191363     6.33743e-05        0.0331792        0.211145      0.000799179    -0.000822434
                    -0.000176747    -8.72363e-05        -0.876498        0.458398      0.000962129     -0.00103884        0.0473018      -0.0449624
281728                  -0.10728       -0.186265      3.23759e-05       0.0011841         0.320673        0.917539      -0.00014255    -7.14835e-05
                     5.60205e-06      0.00117585       -0.0667208       0.0123754     -0.000206823     0.000281544        -0.876211        0.458802
                        0.320197        0.917312     -0.000191428     6.34952e-05        0.0333168        0.211152      0.000798983    -0.000822877
                     -0.00017689    -8.72175e-05        -0.876264        0.458848      0.000961514     -0.00103965        0.0472453       -0.044998
281730                 -0.107345       -0.186261      3.30506e-05      0.00118415         0.321084        0.917388      -0.00014257    -7.15996e-05
                     6.29542e-06      0.00117598       -0.0667044       0.0123753     -0.000206416     0.000282051        -0.875977        0.459251
                        0.320608        0.917161     -0.000191493     6.36163e-05        0.0334544        0.211159      0.000798786     -0.00082332
                    -0.000177033    -8.71983e-05         -0.87603        0.459297      0.000960897     -0.00104047        0.0471887      -0.0450335
281732                  -0.10741       -0.186257      3.37253e-05       0.0011842         0.321496        0.917237     -0.000142592    -7.17132e-05
                     6.98873e-06      0.00117611        -0.066688       0.0123752     -0.000206008     0.000282558        -0.875743          0.4597
                        0.321019         0.91701     -0.000191558     6.37376e-05        0.0335921        0.211166      0.000798589    -0.000823762
                    -0.000177176    -8.71786e-05        -0.875796        0.459747      0.000960277     -0.00104129        0.0471322      -0.0450689
281734                 -0.107475       -0.186253      3.44001e-05      0.00118425         0.321907        0.917086     -0.000142616    -7.18243e-05
                     7.68186e-06      0.00117625       -0.0666717        0.012375     -0.000205598     0.000283065        -0.875509        0.460149
                         0.32143        0.916859     -0.000191624      6.3859e-05        0.0337297        0.211173      0.000798389    -0.000824204
                    -0.000177319    -8.71584e-05        -0.875562        0.460196      0.000959656     -0.00104211        0.0470756      -0.0451043
281736                  -0.10754       -0.186249      3.50749e-05       0.0011843         0.322318        0.916935      -0.00014264    -7.19329e-05
                     8.37447e-06      0.00117638       -0.0666553       0.0123748     -0.000205186     0.000283573        -0.875274        0.460598
                         0.32184        0.916708     -0.000191689     6.39807e-05        0.0338674         0.21118      0.000798189    -0.000824645
                    -0.000177461    -8.71379e-05        -0.875327        0.460645      0.000959032     -0.00104293        0.0470189      -0.0451397
281738                 -0.107605       -0.186245      3.57498e-05      0.00118435         0.322729        0.916784     -0.000142666    -7.20388e-05
                     9.06482e-06       0.0011765        -0.066639       0.0123747     -0.000204772      0.00028408         -0.87504        0.461046
                        0.322251        0.916557     -0.000191755     6.41026e-05        0.0340051        0.211187      0.000797988    -0.000825086
                    -0.000177604    -8.71168e-05        -0.875093        0.461094      0.000958406     -0.00104375        0.0469623       -0.045175
281740                  -0.10767        -0.18624      3.64247e-05      0.00118439          0.32314        0.916632     -0.000142693    -7.21422e-05
                     9.81498e-06      0.00117665       -0.0666226       0.0123745     -0.000204357     0.000284588        -0.874805        0.461495
                        0.322662        0.916405     -0.000191821     6.42247e-05        0.0341429        0.211194      0.000797786    -0.000825527
                    -0.000177746    -8.70954e-05        -0.874858        0.461543      0.000957778     -0.00104457        0.0469056      -0.0452102
281742                 -0.107735       -0.186236      3.70997e-05      0.00118444         0.323551         0.91648     -0.000142722    -7.22429e-05
                     1.04645e-05      0.00117677       -0.0666063       0.0123743      -0.00020394     0.000285096         -0.87457        0.461943
                        0.323072        0.916253     -0.000191887     6.43471e-05        0.0342806          0.2112      0.000797582    -0.000825967
                    -0.000177888    -8.70735e-05        -0.874622        0.461992      0.000957147      -0.0010454        0.0468489      -0.0452454
281744                   -0.1078       -0.186232      3.77748e-05      0.00118449         0.323962        0.916328     -0.000142751    -7.23409e-05
                     1.11557e-05       0.0011769         -0.06659       0.0123741     -0.000203521     0.000285605        -0.874334        0.462392
                        0.323483        0.916101     -0.000191953     6.44698e-05        0.0344184        0.211207      0.000797378    -0.000826407
                     -0.00017803    -8.70511e-05        -0.874387        0.462441      0.000956515     -0.00104622        0.0467922      -0.0452805
281746                 -0.107866       -0.186228      3.84498e-05      0.00118453         0.324373        0.916176     -0.000142781    -7.24362e-05
                     1.18487e-05      0.00117703       -0.0665737       0.0123738     -0.000203101     0.000286113        -0.874099         0.46284
                        0.323893        0.915949     -0.000192019     6.45927e-05        0.0345562        0.211213      0.000797172    -0.000826846
                    -0.000178172    -8.70284e-05        -0.874151        0.462889       0.00095588     -0.00104704        0.0467354      -0.0453156
281748                 -0.107931       -0.186223       3.9125e-05      0.00118458         0.324784        0.916024     -0.000142813    -7.25288e-05
                     1.25422e-05      0.00117716       -0.0665574       0.0123736     -0.000202679     0.000286622        -0.873863        0.463288
                        0.324303        0.915796     -0.000192085     6.47159e-05        0.0346941         0.21122      0.000796966    -0.000827285
                    -0.000178314    -8.70052e-05        -0.873915        0.463338      0.000955242     -0.00104787        0.0466787      -0.0453506
281750                 -0.107996       -0.186219      3.98001e-05      0.00118462         0.325194        0.915871     -0.000142845    -7.26187e-05
                     1.32359e-05      0.00117728       -0.0665412       0.0123734     -0.000202255     0.000287131        -0.873627        0.463736
                        0.324713        0.915644     -0.000192152     6.48394e-05         0.034832        0.211226      0.000796759    -0.000827723
                    -0.000178455    -8.69815e-05        -0.873679        0.463786      0.000954603     -0.00104869        0.0466219      -0.0453856
281752                 -0.108061       -0.186215      4.04753e-05      0.00118466         0.325605        0.915718     -0.000142878    -7.27057e-05
                     1.39298e-05      0.00117741       -0.0665249       0.0123731      -0.00020183      0.00028764        -0.873391        0.464184
                        0.325124        0.915491     -0.000192219     6.49632e-05        0.0349699        0.211232      0.000796551    -0.000828161
                    -0.000178597    -8.69574e-05        -0.873443        0.464234      0.000953961     -0.00104952         0.046565      -0.0454205
281754                 -0.108126       -0.186211      4.11506e-05      0.00118471         0.326015        0.915565     -0.000142911      -7.279e-05
                     1.46239e-05      0.00117753       -0.0665086       0.0123729     -0.000201403     0.000288149        -0.873154        0.464632
                        0.325534        0.915338     -0.000192285     6.50873e-05        0.0351078        0.211238      0.000796341    -0.000828599
                    -0.000178738    -8.69329e-05        -0.873206        0.464682      0.000953317     -0.00105035        0.0465082      -0.0454554
281756                 -0.108191       -0.186206      4.18259e-05      0.00118475         0.326426        0.915412     -0.000142946    -7.28715e-05
                      1.5318e-05      0.00117766       -0.0664924       0.0123726     -0.000200974     0.000288658        -0.872918        0.465079
                        0.325944        0.915185     -0.000192353     6.52116e-05        0.0352457        0.211244      0.000796131    -0.000829037
                     -0.00017888    -8.69079e-05         -0.87297         0.46513      0.000952671     -0.00105117        0.0464513      -0.0454902
281758                 -0.108256       -0.186202      4.25012e-05      0.00118479         0.326836        0.915259     -0.000142981    -7.29501e-05
                     1.60122e-05      0.00117778       -0.0664762       0.0123723     -0.000200543     0.000289168        -0.872681        0.465527
                        0.326354        0.915032      -0.00019242     6.53359e-05        0.0353837         0.21125       0.00079592    -0.000829474
                    -0.000179021    -8.68825e-05        -0.872733        0.465578      0.000952022       -0.001052        0.0463944      -0.0455249
281760                 -0.108321       -0.186198      4.31765e-05      0.00118483         0.327247        0.915105     -0.000143017    -7.30259e-05
                     1.67065e-05       0.0011779       -0.0664599        0.012372     -0.000200111     0.000289677        -0.872444        0.465974
                        0.326764        0.914878     -0.000192488       6.546e-05        0.0355217        0.211256      0.000795709     -0.00082991
                    -0.000179162    -8.68566e-05        -0.872495        0.466026      0.000951371     -0.00105283        0.0463375      -0.0455596
281762                 -0.108387       -0.186193      4.38519e-05      0.00118487         0.327657        0.914952     -0.000143053    -7.30988e-05
                     1.74008e-05      0.00117803       -0.0664437       0.0123717     -0.000199677     0.000290187        -0.872206        0.466421
                        0.327173        0.914724     -0.000192556     6.55834e-05        0.0356598        0.211262      0.000795496    -0.000830346
