! TOUCHSTONE file generated by CST MICROWAVE STUDIO
! Date and time: Tue Oct 14 07:29:30 2025
! Project name: Teste_Macro_Metasurface_Nanopilar.cst
! Parameters = {H=600; L_x=145; L_y=80; Lambda=1064; Max_L=200; Min_L=70; PathPara=1; Phi=0; Step_L=10; Theta=0; p=520; phaseX=180; phaseY=0}
! Header version: 2018
! Port assignment regex: !\s*Touchstone port\s*([0-9]+)\s*=\s*(CST MWS port|CST DS port)\s*([0-9]+|Zmin|Zmax)\s*\(\"(.*)\"\)(\s*mode\s*([0-9]+))?.*
! Touchstone port assignment:
! Touchstone port 1 = CST MWS port Zmax ("") mode 1
! Touchstone port 2 = CST MWS port Zmax ("") mode 2
! Touchstone port 3 = CST MWS port Zmin ("") mode 1
! Touchstone port 4 = CST MWS port Zmin ("") mode 2
! S-Parameters are not renormalized. Each port impedance will be approximated by the real part at minimum frequency. The values are described via the [Reference] keyword.
! Default impedance is overridden by [Reference]
[Version] 2.0
# GHz S RI R 376.73
[Number of Ports] 4
[Reference]
376.73 376.73 259.814 259.814 
[Number of Frequencies] 51
[Network Data]
281700                0.00925252       0.0753843      -0.00019407     0.000420375         0.963586       -0.253597     -2.54589e-06    -1.27877e-05
                    -0.000225495      0.00047351        0.0116538        0.113907     -3.48865e-05     8.59075e-05        -0.984341       0.0324324
                        0.963724       -0.253183     -1.70277e-05     9.61005e-05        0.0289583       0.0704508      -0.00041506    -0.000225826
                     0.000112115    -8.73409e-05         -0.98347       0.0339294     -0.000258967    -0.000306652      -0.00682636        0.115271
281702                0.00928307       0.0753761     -0.000193814     0.000420538         0.963491       -0.253958     -2.60604e-06    -1.27433e-05
                    -0.000225235     0.000473719        0.0117163        0.113873     -3.48815e-05     8.59464e-05        -0.984327       0.0329505
                        0.963629       -0.253544     -1.70845e-05      9.6249e-05        0.0289804        0.070437     -0.000415208    -0.000225649
                     0.000112046     -8.7625e-05        -0.983454       0.0344474     -0.000259077    -0.000306604      -0.00677003        0.115247
281704                0.00931362       0.0753679     -0.000193559     0.000420701         0.963399       -0.254299     -2.66637e-06    -1.26991e-05
                    -0.000224975     0.000473928        0.0117787        0.113839      4.48855e-05     6.41815e-05        -0.984313       0.0334686
                        0.963533       -0.253905     -1.71405e-05     9.63985e-05        0.0290024       0.0704231     -0.000415355    -0.000225472
                     0.000111976    -8.79089e-05        -0.983438       0.0349654     -0.000325917    -0.000192728      -0.00671374        0.115224
281706                0.00934417       0.0753596     -0.000193304     0.000420864         0.963307       -0.254607     -2.72697e-06    -1.26551e-05
                    -0.000224715     0.000474136        0.0118411        0.113805     -7.72714e-05      0.00020146        -0.984299       0.0339867
                        0.963438       -0.254267     -1.71956e-05     9.65488e-05        0.0290242        0.070409     -0.000415502    -0.000225296
                     0.000111905    -8.81929e-05        -0.983423       0.0354833      -0.00312771      0.00124265      -0.00665748          0.1152
281708                0.00937471       0.0753514     -0.000193049     0.000421027         0.963203       -0.254856     -2.78797e-06    -1.26116e-05
                    -0.000224455     0.000474343        0.0119034        0.113771      -7.8645e-05     0.000157996        -0.984284       0.0345048
                        0.963343       -0.254628     -1.72499e-05        9.67e-05        0.0290459       0.0703946     -0.000415649    -0.000225119
                     0.000111833    -8.84771e-05        -0.983406       0.0360012      6.59791e-06    -0.000940797      -0.00660126        0.115177
281710                0.00940525       0.0753431     -0.000192794     0.000421189         0.963018       -0.254998     -2.84965e-06    -1.25692e-05
                    -0.000224195     0.000474551        0.0119658        0.113737     -7.66411e-05     0.000148404        -0.984269       0.0350229
                        0.963247       -0.254989     -1.73035e-05      9.6852e-05        0.0290673       0.0703798     -0.000415795    -0.000224942
                     0.000111759    -8.87615e-05         -0.98339       0.0365192     -5.82629e-05    -0.000742451      -0.00654507        0.115153
281712                0.00943578       0.0753348     -0.000192538     0.000421351           0.9625       -0.255103     -2.91263e-06    -1.25289e-05
                    -0.000223936     0.000474757        0.0120281        0.113703      -7.5638e-05     0.000144732        -0.984253        0.035541
                        0.963152        -0.25535     -1.73563e-05     9.70047e-05        0.0290885        0.070364     -0.000415942    -0.000224765
                     0.000111684    -8.90467e-05        -0.983373       0.0370371     -7.88859e-05    -0.000687156      -0.00648891        0.115129
281714                 0.0094663       0.0753265     -0.000192283     0.000421513         0.961789       -0.255853     -2.97881e-06    -1.24941e-05
                    -0.000223678     0.000474963        0.0120904        0.113669     -7.51091e-05     0.000142976        -0.984238       0.0360591
                        0.963056       -0.255711     -1.74084e-05     9.71581e-05        0.0291102       0.0703466     -0.000416089    -0.000224588
                     0.000111605    -8.93331e-05        -0.983356        0.037555     -8.80024e-05    -0.000663283      -0.00643279        0.115106
281716                0.00949682       0.0753182     -0.000192028     0.000421675          0.96177       -0.256749     -3.05726e-06    -1.24819e-05
                    -0.000223424     0.000475168        0.0121526        0.113635     -7.48098e-05     0.000142034        -0.984221       0.0365776
                         0.96296       -0.256072     -1.74599e-05      9.7312e-05        0.0291344        0.070327     -0.000416236    -0.000224409
                     0.000111519    -8.96222e-05        -0.983339       0.0380729     -9.26854e-05    -0.000650869       -0.0063767        0.115082
281718                0.00952733       0.0753099     -0.000191772     0.000421837         0.961877       -0.257288      -3.4156e-06    -1.53053e-05
                    -0.000223184     0.000475374        0.0122149          0.1136     -7.46313e-05     0.000141492        -0.984213       0.0370753
                        0.962864       -0.256433     -1.75109e-05     9.74664e-05        0.0291644       0.0703094     -0.000416385    -0.000224221
                      0.00011142    -8.99177e-05        -0.983321       0.0385908     -9.52843e-05    -0.000643696      -0.00632065        0.115058
281720                0.00955779       0.0753017     -0.000191517     0.000421999         0.961909       -0.257698     -3.09719e-06    -1.22479e-05
                    -0.000223048     0.000475841        0.0122771        0.113566     -7.45208e-05     0.000141169         -0.98419       0.0376119
                        0.962758       -0.256799     -1.75617e-05     9.76211e-05        0.0291943       0.0702992     -0.000416472    -0.000224129
                     0.000111281    -9.02335e-05        -0.983303       0.0391087     -9.67787e-05    -0.000639255      -0.00626463        0.115035
281722                0.00958848       0.0752932     -0.000191261     0.000422161         0.961888       -0.258073     -3.17835e-06    -1.22372e-05
                    -0.000222565     0.000475806        0.0123393        0.113532     -7.44507e-05     0.000140973        -0.984173       0.0381303
                        0.962671       -0.257153     -1.76125e-05     9.77758e-05        0.0292188       0.0702909     -0.000416665    -0.000223905
                     0.000110909    -9.07165e-05        -0.983285       0.0396265     -9.76391e-05    -0.000636366      -0.00620864        0.115011
281724                0.00961894       0.0752849     -0.000191004     0.000422323         0.961838       -0.258438     -3.24514e-06    -1.22021e-05
                    -0.000222325     0.000475999        0.0124014        0.113498     -7.44055e-05     0.000140855        -0.984156       0.0386484
                        0.962575       -0.257514     -1.76641e-05       9.793e-05        0.0292406       0.0702806     -0.000416813    -0.000223723
                     0.000111944    -9.05832e-05        -0.983267       0.0401444      -9.8114e-05    -0.000634411      -0.00615269        0.114987
281726                0.00964944       0.0752765     -0.000190746     0.000422486          0.96177         -0.2588     -3.30847e-06    -1.21608e-05
                     -0.00022207       0.0004762        0.0124635        0.113463     -7.43762e-05     0.000140786        -0.984138       0.0391664
                        0.962478       -0.257875     -1.77175e-05     9.80832e-05        0.0292619       0.0702689      -0.00041696    -0.000223546
                     0.000111445    -9.09273e-05        -0.983248       0.0406621     -9.83447e-05    -0.000633045      -0.00609677        0.114963
281728                0.00967993       0.0752681     -0.000190483     0.000422649         0.961693        -0.25916     -3.37045e-06     -1.2117e-05
                    -0.000221811     0.000476402        0.0125256        0.113429     -7.43573e-05      0.00014075        -0.984121       0.0396844
                        0.962381       -0.258235     -1.77757e-05     9.82338e-05        0.0292832       0.0702563     -0.000417106     -0.00022337
                     0.000111295    -9.12313e-05         -0.98323       0.0411798     -9.84158e-05    -0.000632061      -0.00604089        0.114939
281730                0.00971043       0.0752597      -0.00019021     0.000422811         0.961608       -0.259521     -3.43177e-06    -1.20719e-05
                    -0.000221549     0.000476604        0.0125877        0.113395     -7.43453e-05     0.000140736        -0.984103       0.0402024
                        0.962284       -0.258596     -1.78475e-05      9.8379e-05        0.0293047       0.0702432     -0.000417251    -0.000223194
                     0.000111191    -9.15225e-05        -0.983211       0.0416969     -9.83799e-05    -0.000631332      -0.00598504        0.114915
281732                0.00974092       0.0752513     -0.000189911     0.000422926          0.96152       -0.259881     -3.49272e-06    -1.20259e-05
                    -0.000221287     0.000476806        0.0126493         0.11336      -7.4338e-05     0.000140737        -0.984085       0.0407203
                        0.962187       -0.258957     -1.79717e-05     9.85187e-05        0.0293263       0.0702298     -0.000417397    -0.000223019
                     0.000111102    -9.18087e-05        -0.983202       0.0421994     -9.82711e-05    -0.000630775      -0.00592922        0.114891
281734                0.00977141       0.0752429     -0.000189738     0.000423044         0.961428       -0.260241     -3.55345e-06    -1.19793e-05
                    -0.000221024     0.000477007        0.0127121        0.113326     -7.43338e-05     0.000140747        -0.984066       0.0412383
                         0.96209       -0.259317     -1.82677e-05     9.89687e-05         0.029348       0.0702162     -0.000417542    -0.000222844
                     0.000111019    -9.20926e-05        -0.983168       0.0427358     -9.81121e-05    -0.000630336      -0.00587344        0.114867
281736                0.00980189       0.0752345     -0.000189501     0.000423236         0.961334       -0.260602     -3.61404e-06    -1.19323e-05
                     -0.00022076     0.000477208         0.012774        0.113291     -7.43318e-05     0.000140765        -0.984048       0.0417562
                        0.961993       -0.259678      -1.7844e-05     9.91448e-05        0.0293698       0.0702026     -0.000417687     -0.00022267
                     0.000110939     -9.2375e-05        -0.983149       0.0432528     -9.79183e-05    -0.000629978       -0.0058177        0.114843
281738                0.00983238        0.075226     -0.000189247     0.000423408         0.961239       -0.260962     -3.67453e-06     -1.1885e-05
                    -0.000220496     0.000477409         0.012836        0.113257     -7.43312e-05     0.000140787        -0.984029       0.0422741
                        0.961895       -0.260038     -1.78813e-05     9.91943e-05        0.0293916       0.0701889     -0.000417831    -0.000222495
                     0.000110861    -9.26565e-05        -0.983129       0.0437703     -9.77003e-05    -0.000629676      -0.00576199        0.114819
281740                0.00986285       0.0752176     -0.000188992     0.000423573         0.961143       -0.261323     -3.73495e-06    -1.18373e-05
                    -0.000220232     0.000477609        0.0128979        0.113222     -7.43316e-05     0.000140813         -0.98401        0.042792
                        0.961798       -0.260399      -1.7932e-05     9.93213e-05        0.0294135       0.0701751     -0.000417976    -0.000222321
                     0.000110783    -9.29373e-05        -0.983109        0.044288     -9.74656e-05    -0.000629413      -0.00570631        0.114795
281742                0.00989333       0.0752091     -0.000188737     0.000423736         0.961046       -0.261683     -3.79534e-06    -1.17894e-05
                    -0.000219968     0.000477809        0.0129598        0.113187     -7.43325e-05      0.00014084         -0.98399       0.0433099
                          0.9617       -0.260759     -1.79782e-05     9.94686e-05        0.0294354       0.0701613     -0.000418121    -0.000222147
                     0.000110707    -9.32176e-05        -0.983088       0.0448058     -9.72194e-05    -0.000629176      -0.00565067        0.114771
281744                0.00992379       0.0752007     -0.000188482     0.000423897         0.960948       -0.262044     -3.85568e-06    -1.17412e-05
                    -0.000219703     0.000478009        0.0130217        0.113153     -7.43339e-05      0.00014087         -0.98397       0.0438278
                        0.961602        -0.26112      -1.8021e-05     9.96239e-05        0.0294573       0.0701475     -0.000418265    -0.000221973
                      0.00011063    -9.34975e-05        -0.983067       0.0453235     -9.69657e-05    -0.000628956      -0.00559506        0.114747
281746                0.00995426       0.0751922     -0.000188228     0.000424057          0.96085       -0.262404     -3.91601e-06    -1.16928e-05
                    -0.000219437     0.000478208        0.0130836        0.113118     -7.43354e-05       0.0001409         -0.98395       0.0443456
                        0.961504        -0.26148     -1.80615e-05     9.97834e-05        0.0294792       0.0701336     -0.000418409      -0.0002218
                     0.000110554    -9.37771e-05        -0.983045       0.0458413     -9.67071e-05    -0.000628746      -0.00553948        0.114723
281748                0.00998472       0.0751837     -0.000187973     0.000424216         0.960751       -0.262765     -3.97632e-06    -1.16442e-05
                    -0.000219172     0.000478406        0.0131455        0.113083      -7.4337e-05      0.00014093         -0.98393       0.0448635
                        0.961406        -0.26184     -1.81001e-05     9.99454e-05        0.0295011       0.0701197     -0.000418553    -0.000221626
                     0.000110477    -9.40563e-05        -0.983024        0.046359     -9.64459e-05    -0.000628543      -0.00548394        0.114699
281750                 0.0100152       0.0751752     -0.000187719     0.000424375         0.960652       -0.263125     -4.03662e-06    -1.15953e-05
                    -0.000218906     0.000478604        0.0132073        0.113049     -7.43385e-05     0.000140961        -0.983909       0.0453813
                        0.961308       -0.262201     -1.81373e-05     0.000100109         0.029523       0.0701058     -0.000418697    -0.000221453
                       0.0001104    -9.43354e-05        -0.983002       0.0468768     -9.61833e-05    -0.000628342      -0.00542843        0.114675
281752                 0.0100456       0.0751666     -0.000187466     0.000424534         0.960553       -0.263486     -4.09691e-06    -1.15463e-05
                    -0.000218641     0.000478802        0.0132691        0.113014       -7.434e-05     0.000140992        -0.983889       0.0458991
                         0.96121       -0.262561     -1.81732e-05     0.000100274        0.0295449       0.0700919     -0.000418841     -0.00022128
                     0.000110323    -9.46141e-05        -0.982979       0.0473945     -9.59205e-05    -0.000628141      -0.00537296        0.114651
281754                 0.0100761       0.0751581     -0.000187212     0.000424693         0.960454       -0.263846     -4.15719e-06    -1.14971e-05
                    -0.000218374     0.000478999        0.0133309        0.112979     -7.43414e-05     0.000141022        -0.983867       0.0464169
                        0.961111       -0.262921      -1.8208e-05      0.00010044        0.0295668        0.070078     -0.000418985    -0.000221107
                     0.000110246    -9.48927e-05        -0.982957       0.0479123     -9.56583e-05    -0.000627938      -0.00531753        0.114626
281756                 0.0101065       0.0751495     -0.000186958     0.000424851         0.960354       -0.264206     -4.21747e-06    -1.14477e-05
                    -0.000218108     0.000479196        0.0133927        0.112944     -7.43426e-05     0.000141052        -0.983846       0.0469347
                        0.961013       -0.263281     -1.82418e-05     0.000100608        0.0295887       0.0700641     -0.000419128    -0.000220934
                     0.000110168    -9.51711e-05        -0.982934         0.04843     -9.53973e-05    -0.000627732      -0.00526212        0.114602
281758                  0.010137        0.075141     -0.000186705     0.000425009         0.960255       -0.264567     -4.27774e-06    -1.13981e-05
                    -0.000217842     0.000479392        0.0134544        0.112909     -7.43436e-05     0.000141082        -0.983824       0.0474525
                        0.960914       -0.263641     -1.82745e-05     0.000100775        0.0296106       0.0700502     -0.000419272    -0.000220762
                      0.00011009    -9.54493e-05        -0.982911       0.0489477     -9.51378e-05    -0.000627523      -0.00520675        0.114578
281760                 0.0101674       0.0751324     -0.000186451     0.000425167         0.960155       -0.264927     -4.33801e-06    -1.13483e-05
                    -0.000217575     0.000479588        0.0135161        0.112875     -7.43444e-05     0.000141112        -0.983802       0.0479703
                        0.960815       -0.264002     -1.83064e-05     0.000100944        0.0296325       0.0700363     -0.000419415     -0.00022059
                     0.000110011    -9.57273e-05        -0.982888       0.0494655     -9.48803e-05    -0.000627309      -0.00515142        0.114553
281762                 0.0101978       0.0751238     -0.000186198     0.000425324         0.960055       -0.265287     -4.39828e-06    -1.12983e-05
                    -0.000217308     0.000479783        0.0135778         0.11284     -7.43451e-05      0.00014114         -0.98378       0.0484881
                        0.960716       -0.264362     -1.83373e-05     0.000101113        0.0296544       0.0700223     -0.000419558    -0.000220417
