! TOUCHSTONE file generated by CST MICROWAVE STUDIO
! Date and time: Tue Oct 14 07:26:18 2025
! Project name: Teste_Macro_Metasurface_Nanopilar.cst
! Parameters = {H=600; L_x=90; L_y=190; Lambda=1064; Max_L=200; Min_L=70; PathPara=1; Phi=0; Step_L=10; Theta=0; p=520; phaseX=180; phaseY=0}
! Header version: 2018
! Port assignment regex: !\s*Touchstone port\s*([0-9]+)\s*=\s*(CST MWS port|CST DS port)\s*([0-9]+|Zmin|Zmax)\s*\(\"(.*)\"\)(\s*mode\s*([0-9]+))?.*
! Touchstone port assignment:
! Touchstone port 1 = CST MWS port Zmax ("") mode 1
! Touchstone port 2 = CST MWS port Zmax ("") mode 2
! Touchstone port 3 = CST MWS port Zmin ("") mode 1
! Touchstone port 4 = CST MWS port Zmin ("") mode 2
! S-Parameters are not renormalized. Each port impedance will be approximated by the real part at minimum frequency. The values are described via the [Reference] keyword.
! Default impedance is overridden by [Reference]
[Version] 2.0
# GHz S RI R 376.73
[Number of Ports] 4
[Reference]
376.73 376.73 259.814 259.814 
[Number of Frequencies] 51
[Network Data]
281700                 -0.572299       -0.500619      0.000631575      0.00010615         0.610457          0.1558       0.00018015    -0.000189809
                     0.000715877     0.000125079      5.80152e-05       -0.124715      0.000357878    -8.25386e-05         0.320521       -0.935014
                         0.61118        0.156282      0.000547044    -0.000124998         0.727977       -0.197249     -0.000104821     0.000790631
                     0.000185102    -0.000179627         0.320017       -0.934645      -0.00024927     0.000637828       -0.0753159       0.0994417
281702                 -0.572728       -0.500426      0.000631706      0.00010568          0.61033        0.155306      0.000180333    -0.000189949
                     0.000716007     0.000124658      1.18752e-05       -0.124734      0.000358118    -8.25417e-05         0.320113       -0.935151
                        0.611054        0.155787      0.000547285    -0.000125318         0.727988       -0.197949     -0.000104238     0.000790865
                     0.000185177     -0.00017974         0.319609       -0.934781     -0.000248756     0.000638049       -0.0752779       0.0994947
281704                 -0.573156       -0.500233      0.000631836     0.000105211         0.610202        0.154812      0.000180517    -0.000190089
                     0.000716137     0.000124237     -3.42792e-05       -0.124754       0.00035836    -8.25447e-05         0.319705       -0.935287
                        0.610927        0.155293      0.000547526    -0.000125638         0.727998       -0.198649     -0.000103655     0.000791098
                     0.000185252    -0.000179854         0.319201       -0.934918     -0.000248241      0.00063827       -0.0752399       0.0995478
281706                 -0.573585        -0.50004      0.000631966     0.000104741         0.610074        0.154318      0.000180701    -0.000190229
                     0.000716266     0.000123815     -8.04481e-05       -0.124773      0.000358602    -8.25477e-05         0.319297       -0.935424
                          0.6108        0.154799      0.000547767    -0.000125958         0.728008        -0.19935     -0.000103071     0.000791332
                     0.000185327    -0.000179967         0.318792       -0.935054     -0.000247727     0.000638491       -0.0752019       0.0996007
281708                 -0.574014       -0.499846      0.000632096     0.000104271         0.609945        0.153825      0.000180884    -0.000190368
                     0.000716395     0.000123393     -0.000126631       -0.124793      0.000358844    -8.25506e-05         0.318889        -0.93556
                        0.610672        0.154306      0.000548007    -0.000126279         0.728016       -0.200051     -0.000102487     0.000791566
                     0.000185402    -0.000180081         0.318384        -0.93519     -0.000247212     0.000638711       -0.0751638       0.0996537
281710                 -0.574443       -0.499652      0.000632226       0.0001038         0.609815        0.153331      0.000181068    -0.000190508
                     0.000716524     0.000122971     -0.000172829       -0.124812      0.000359088    -8.25536e-05         0.318481       -0.935696
                        0.610544        0.153812      0.000548248    -0.000126599         0.728025       -0.200752     -0.000101903     0.000791799
                     0.000185477    -0.000180195         0.317976       -0.935325     -0.000246698      0.00063893       -0.0751257       0.0997067
281712                 -0.574872       -0.499457      0.000632356      0.00010333         0.609685        0.152838      0.000181252    -0.000190648
                     0.000716652     0.000122548     -0.000219041       -0.124831      0.000359332    -8.25566e-05         0.318072       -0.935832
                        0.610415        0.153318      0.000548488     -0.00012692         0.728032       -0.201454     -0.000101319     0.000792033
                     0.000185552    -0.000180309         0.317568       -0.935461     -0.000246184      0.00063915       -0.0750876       0.0997597
281714                 -0.575301       -0.499262      0.000632486     0.000102859         0.609555        0.152344      0.000181435    -0.000190788
                     0.000716779     0.000122125     -0.000265268       -0.124851      0.000359577    -8.25596e-05         0.317664       -0.935968
                        0.610285        0.152825      0.000548728    -0.000127241         0.728039       -0.202156     -0.000100734     0.000792267
                     0.000185627    -0.000180423         0.317159       -0.935596      -0.00024567     0.000639369       -0.0750494       0.0998126
281716                  -0.57573       -0.499067      0.000632616     0.000102389         0.609424        0.151851      0.000181619    -0.000190928
                     0.000716906     0.000121702     -0.000311509        -0.12487      0.000359822    -8.25626e-05         0.317255       -0.936103
                        0.610155        0.152332      0.000548968    -0.000127562         0.728045       -0.202858     -0.000100149       0.0007925
                     0.000185702    -0.000180537         0.316751       -0.935732     -0.000245156     0.000639587       -0.0750112       0.0998655
281718                 -0.576159       -0.498871      0.000632745     0.000101918         0.609292        0.151358      0.000181803    -0.000191068
                     0.000717032     0.000121278     -0.000357764       -0.124889      0.000360069    -8.25656e-05         0.316847       -0.936239
                        0.610024        0.151838      0.000549208    -0.000127883          0.72805       -0.203561     -9.95638e-05     0.000792734
                     0.000185777    -0.000180651         0.316342       -0.935867     -0.000244642     0.000639806        -0.074973       0.0999185
281720                 -0.576588       -0.498675      0.000632875     0.000101447          0.60916        0.150866      0.000181987    -0.000191209
                     0.000717158     0.000120854     -0.000404033       -0.124909      0.000360316    -8.25687e-05         0.316438       -0.936374
                        0.609893        0.151345      0.000549448    -0.000128205         0.728055       -0.204263     -9.89782e-05     0.000792967
                     0.000185852    -0.000180765         0.315934       -0.936002     -0.000244129     0.000640023       -0.0749347       0.0999714
281722                 -0.577018       -0.498478      0.000633004     0.000100975         0.609027        0.150373      0.000182171    -0.000191349
                     0.000717284     0.000120429     -0.000450317       -0.124928      0.000360563    -8.25718e-05          0.31603       -0.936509
                        0.609761        0.150852      0.000549688    -0.000128526         0.728059       -0.204967     -9.83922e-05     0.000793201
                     0.000185926     -0.00018088         0.315525       -0.936136     -0.000243615     0.000640241       -0.0748964        0.100024
281724                 -0.577447       -0.498281      0.000633133     0.000100504         0.608894         0.14988      0.000182355    -0.000191489
                     0.000717409     0.000120004     -0.000496616       -0.124947      0.000360811     -8.2575e-05         0.315621       -0.936644
                        0.609629         0.15036      0.000549927    -0.000128848         0.728062        -0.20567     -9.78059e-05     0.000793434
                     0.000186001    -0.000180994         0.315116       -0.936271     -0.000243102     0.000640458        -0.074858        0.100077
281726                 -0.577877       -0.498083      0.000633262     0.000100033          0.60876        0.149388      0.000182539    -0.000191629
                     0.000717533     0.000119579     -0.000542928       -0.124966       0.00036106    -8.25782e-05         0.315212       -0.936779
                        0.609496        0.149867      0.000550166     -0.00012917         0.728065       -0.206374     -9.72192e-05     0.000793667
                     0.000186075    -0.000181108         0.314707       -0.936405     -0.000242589     0.000640675       -0.0748196         0.10013
281728                 -0.578306       -0.497886      0.000633391     9.95611e-05         0.608625        0.148895      0.000182723     -0.00019177
                     0.000717658     0.000119153     -0.000589255       -0.124986       0.00036131    -8.25815e-05         0.314803       -0.936913
                        0.609363        0.149374      0.000550406    -0.000129492         0.728067       -0.207078     -9.66322e-05     0.000793901
                      0.00018615    -0.000181223         0.314299       -0.936539     -0.000242076     0.000640891       -0.0747812        0.100183
281730                 -0.578736       -0.497687       0.00063352     9.90895e-05          0.60849        0.148403      0.000182907     -0.00019191
                     0.000717781     0.000118727     -0.000635596       -0.125005       0.00036156     -8.2585e-05         0.314394       -0.937047
                        0.609229        0.148882      0.000550644    -0.000129814         0.728068       -0.207782     -9.60449e-05     0.000794134
                     0.000186224    -0.000181337          0.31389       -0.936673     -0.000241563     0.000641107       -0.0747427        0.100236
281732                 -0.579165       -0.497489      0.000633649     9.86178e-05         0.608354        0.147911      0.000183091    -0.000192051
                     0.000717904       0.0001183     -0.000681951       -0.125024      0.000361811    -8.25888e-05         0.313985       -0.937182
                        0.609094         0.14839      0.000550883    -0.000130136         0.728068       -0.208487     -9.54572e-05     0.000794367
                     0.000186299    -0.000181452         0.313481       -0.936807     -0.000241051     0.000641322       -0.0747042        0.100289
281734                 -0.579595        -0.49729      0.000633778      9.8146e-05         0.608218        0.147419      0.000183276    -0.000192191
                     0.000718027     0.000117874     -0.000728321       -0.125043      0.000362062    -8.25931e-05         0.313576       -0.937315
                        0.608959        0.147898      0.000551122    -0.000130459         0.728068       -0.209192     -9.48691e-05       0.0007946
                     0.000186373    -0.000181567         0.313072       -0.936941     -0.000240538     0.000641534       -0.0746657        0.100341
281736                 -0.580025        -0.49709      0.000633907     9.76742e-05         0.608081        0.146928       0.00018346    -0.000192332
                     0.000718149     0.000117446     -0.000774705       -0.125062      0.000362311     -8.2598e-05         0.313167       -0.937449
                        0.608823        0.147406       0.00055136    -0.000130781         0.728067       -0.209897     -9.42807e-05     0.000794833
                     0.000186447    -0.000181681         0.312662       -0.937074     -0.000240023     0.000641749       -0.0746271        0.100394
281738                 -0.580454        -0.49689      0.000634036     9.72023e-05         0.607944        0.146436      0.000183644    -0.000192473
                     0.000718271     0.000117019     -0.000821103       -0.125081      0.000362559    -8.25916e-05         0.312758       -0.937583
                        0.608687        0.146914      0.000551598    -0.000131104         0.728066       -0.210602     -9.36918e-05     0.000795066
                     0.000186521    -0.000181796         0.312253       -0.937208     -0.000239509     0.000641964       -0.0745885        0.100447
281740                 -0.580884        -0.49669      0.000634164     9.67304e-05         0.607806        0.145944      0.000183829    -0.000192614
                     0.000718392     0.000116591     -0.000867515       -0.125101      0.000362822    -8.25935e-05         0.312349       -0.937716
                         0.60855        0.146422      0.000551836    -0.000131427         0.728064       -0.211308     -9.31025e-05     0.000795299
                     0.000186595    -0.000181911         0.311844       -0.937341     -0.000238996     0.000642179       -0.0745499          0.1005
281742                 -0.581314       -0.496489      0.000634293     9.62584e-05         0.607668        0.145453      0.000184013    -0.000192756
                     0.000718513     0.000116163     -0.000913942        -0.12512      0.000363078    -8.25992e-05          0.31194        -0.93785
                        0.608413        0.145931      0.000552074     -0.00013175         0.728061       -0.212014     -9.25126e-05     0.000795531
                     0.000186668    -0.000182026         0.311435       -0.937474     -0.000238484     0.000642393       -0.0745112        0.100552
281744                 -0.581744       -0.496288      0.000634421     9.57864e-05         0.607529        0.144962      0.000184198    -0.000192898
                     0.000718633     0.000115734     -0.000960383       -0.125139      0.000363334    -8.26038e-05          0.31153       -0.937983
                        0.608275        0.145439      0.000552311    -0.000132073         0.728057       -0.212721     -9.19221e-05     0.000795764
                     0.000186742    -0.000182141         0.311025       -0.937606     -0.000237971     0.000642607       -0.0744725        0.100605
281746                 -0.582174       -0.496087       0.00063455     9.53144e-05         0.607389        0.144471      0.000184384    -0.000193041
                     0.000718753     0.000115305      -0.00100684       -0.125158      0.000363591    -8.26079e-05         0.311121       -0.938116
                        0.608136        0.144948      0.000552549    -0.000132396         0.728053       -0.213427     -9.13308e-05     0.000795995
                     0.000186816    -0.000182257         0.310616       -0.937739     -0.000237459      0.00064282       -0.0744337        0.100658
281748                 -0.582604       -0.495885      0.000634678     9.48423e-05         0.607249         0.14398       0.00018457    -0.000193185
                     0.000718873     0.000114875      -0.00105331       -0.125177      0.000363848     -8.2612e-05         0.310711       -0.938248
                        0.607997        0.144457      0.000552786    -0.000132719         0.728048       -0.214134     -9.07377e-05     0.000796225
                     0.000186889    -0.000182372         0.310207       -0.937871     -0.000236947     0.000643033       -0.0743949        0.100711
281750                 -0.583034       -0.495683      0.000634806     9.43699e-05         0.607109        0.143489      0.000184759    -0.000193338
                     0.000718992     0.000114446      -0.00109979       -0.125196      0.000364105     -8.2616e-05         0.310302       -0.938381
                        0.607857        0.143966      0.000553023    -0.000133043         0.728042       -0.214842     -9.01392e-05      0.00079645
                     0.000186962    -0.000182487         0.309797       -0.938004     -0.000236435     0.000643245       -0.0743561        0.100763
281752                 -0.583465        -0.49548      0.000634935      9.3897e-05         0.606967        0.142998      0.000185057    -0.000193784
                      0.00071911     0.000114015      -0.00114629       -0.125215      0.000364364    -8.26201e-05         0.309892       -0.938513
                        0.607717        0.143475       0.00055326    -0.000133366         0.728036       -0.215549     -8.93327e-05     0.000796501
                     0.000187035    -0.000182603         0.309388       -0.938136     -0.000235923     0.000643457       -0.0743172        0.100816
281754                 -0.583895       -0.495277      0.000635067     9.34203e-05         0.606825        0.142508      0.000185107    -0.000193568
                     0.000719228     0.000113585      -0.00119281       -0.125234      0.000364623    -8.26241e-05         0.309482       -0.938646
                        0.607576        0.142984      0.000553501    -0.000133691         0.728029       -0.216257     -8.89913e-05     0.000796953
                     0.000187108    -0.000182718         0.308978       -0.938268     -0.000235411     0.000643669       -0.0742784        0.100869
281756                 -0.584325       -0.495073      0.000635188     9.29672e-05         0.606683        0.142018      0.000185298    -0.000193724
                     0.000719346     0.000113154      -0.00123932       -0.125253      0.000364882    -8.26283e-05         0.309073       -0.938778
                        0.607435        0.142493      0.000553724    -0.000134012         0.728021       -0.216965     -8.83897e-05     0.000797175
                     0.000187181    -0.000182834         0.308568       -0.938399     -0.000234899      0.00064388       -0.0742394        0.100921
281758                 -0.584755       -0.494869      0.000635316     9.24885e-05          0.60654        0.141527      0.000185484     -0.00019387
                     0.000719463     0.000112723      -0.00128586       -0.125272      0.000365143    -8.26325e-05         0.308663       -0.938909
                        0.607293        0.142003      0.000553964    -0.000134336         0.728012       -0.217674     -8.77944e-05     0.000797404
                     0.000187254    -0.000182949         0.308158       -0.938531     -0.000234387     0.000644091       -0.0742005        0.100974
281760                 -0.585186       -0.494665      0.000635444     9.20157e-05         0.606397        0.141037       0.00018567    -0.000194013
                      0.00071958     0.000112291      -0.00133242       -0.125291      0.000365404    -8.26369e-05         0.308253       -0.939041
                        0.607151        0.141512        0.0005542     -0.00013466         0.728003       -0.218382     -8.72003e-05     0.000797635
                     0.000187326    -0.000183065         0.307749       -0.938662     -0.000233876     0.000644302       -0.0741615        0.101027
281762                 -0.585616        -0.49446      0.000635572     9.15437e-05         0.606253        0.140547      0.000185855    -0.000194156
                     0.000719696     0.000111859      -0.00137898        -0.12531      0.000365666    -8.26413e-05         0.307843       -0.939173
                        0.607008        0.141022      0.000554436    -0.000134985         0.727993       -0.219091     -8.66064e-05     0.000797866
