! TOUCHSTONE file generated by CST MICROWAVE STUDIO
! Date and time: Tue Oct 14 07:30:19 2025
! Project name: Teste_Macro_Metasurface_Nanopilar.cst
! Parameters = {H=600; L_x=155; L_y=160; Lambda=1064; Max_L=200; Min_L=70; PathPara=1; Phi=0; Step_L=10; Theta=0; p=520; phaseX=180; phaseY=0}
! Header version: 2018
! Port assignment regex: !\s*Touchstone port\s*([0-9]+)\s*=\s*(CST MWS port|CST DS port)\s*([0-9]+|Zmin|Zmax)\s*\(\"(.*)\"\)(\s*mode\s*([0-9]+))?.*
! Touchstone port assignment:
! Touchstone port 1 = CST MWS port Zmax ("") mode 1
! Touchstone port 2 = CST MWS port Zmax ("") mode 2
! Touchstone port 3 = CST MWS port Zmin ("") mode 1
! Touchstone port 4 = CST MWS port Zmin ("") mode 2
! S-Parameters are not renormalized. Each port impedance will be approximated by the real part at minimum frequency. The values are described via the [Reference] keyword.
! Default impedance is overridden by [Reference]
[Version] 2.0
# GHz S RI R 376.73
[Number of Ports] 4
[Reference]
376.73 376.73 259.814 259.814 
[Number of Frequencies] 51
[Network Data]
281700                 -0.170872       0.0278056      6.06588e-05    -0.000149796         0.651933        0.732268      0.000590007    -0.000438836
                     8.32703e-05    -0.000116003        -0.177685       0.0428424      0.000453383    -0.000467774         0.597047        0.774859
                        0.651782         0.73241      0.000556882    -0.000475675        -0.046977        0.161233      0.000455891     4.88242e-05
                     0.000601609    -0.000390528         0.596958        0.774678      0.000459728     2.89439e-05       -0.0855952         0.15466
281702                 -0.170859       0.0278205      6.08011e-05    -0.000149873         0.652252        0.731987      0.000589931    -0.000438652
                     8.32799e-05    -0.000115997        -0.177662       0.0428523      0.000452668     -0.00046787         0.597395        0.774597
                        0.652101         0.73213      0.000556654    -0.000475876       -0.0468484        0.161261      0.000455697     4.86002e-05
                     0.000601386    -0.000390692         0.597304        0.774419       0.00045972     2.84188e-05       -0.0854595        0.154714
281704                 -0.170847       0.0278354      6.09465e-05    -0.000149937          0.65257        0.731706      0.000589855    -0.000438469
                      8.3295e-05     -0.00011599        -0.177639       0.0428621      0.000451956    -0.000467965         0.597743        0.774335
                         0.65242         0.73185      0.000556415    -0.000476074       -0.0467199        0.161289      0.000455503     4.83761e-05
                     0.000601157    -0.000390852          0.59765        0.774159      0.000459713     2.78961e-05       -0.0853238        0.154768
281706                 -0.170834       0.0278503      6.10949e-05    -0.000149989         0.652888        0.731425      0.000589778    -0.000438286
                     8.33162e-05    -0.000115986        -0.177617        0.042872      0.000451247    -0.000468058          0.59809        0.774072
                         0.65274        0.731569      0.000556164    -0.000476268       -0.0465914        0.161317      0.000455309     4.81519e-05
                     0.000600922     -0.00039101         0.597995        0.773898      0.000459705     2.73757e-05       -0.0851881        0.154822
281708                 -0.170821       0.0278652      6.12462e-05    -0.000150026         0.653206        0.731144      0.000589701    -0.000438106
                     8.33442e-05    -0.000115982        -0.177594       0.0428819       0.00045054    -0.000468149         0.598437         0.77381
                        0.653058        0.731288        0.0005559    -0.000476459       -0.0464628        0.161344      0.000455115     4.79275e-05
                      0.00060068    -0.000391163         0.598341        0.773637      0.000459698     2.68576e-05       -0.0850524        0.154876
281710                 -0.170808         0.02788      6.14003e-05    -0.000150046         0.653524        0.730863      0.000589623    -0.000437926
                     8.33799e-05    -0.000115979        -0.177572       0.0428917      0.000449837    -0.000468239         0.598785        0.773548
                        0.653377        0.731007      0.000555622    -0.000476645       -0.0463343        0.161372       0.00045492     4.77031e-05
                      0.00060043    -0.000391312         0.598687        0.773375      0.000459691     2.63419e-05       -0.0849166         0.15493
281712                 -0.170796       0.0278949      6.15568e-05    -0.000150048         0.653841        0.730582      0.000589545    -0.000437747
                     8.34243e-05    -0.000115979        -0.177549       0.0429015      0.000449137    -0.000468327         0.599132        0.773285
                        0.653696        0.730726      0.000555328    -0.000476827       -0.0462057        0.161399      0.000454726     4.74785e-05
                     0.000600171    -0.000391457         0.599033        0.773113      0.000459685     2.58287e-05       -0.0847809        0.154984
281714                 -0.170783       0.0279097      6.17154e-05    -0.000150029         0.654159          0.7303      0.000589467    -0.000437569
                     8.34787e-05     -0.00011598        -0.177526       0.0429114       0.00044844    -0.000468413         0.599478        0.773022
                        0.654014        0.730445      0.000555017    -0.000477003       -0.0460772        0.161426      0.000454531     4.72538e-05
                     0.000599903    -0.000391596          0.59938        0.772851      0.000459678     2.53178e-05       -0.0846451        0.155037
281716                  -0.17077       0.0279244      6.18753e-05    -0.000149987         0.654476        0.730019      0.000589389    -0.000437393
                     8.35444e-05    -0.000115984        -0.177504       0.0429211      0.000447746    -0.000468497         0.599825        0.772759
                        0.654333        0.730163      0.000554687    -0.000477174       -0.0459487        0.161453      0.000454336      4.7029e-05
                     0.000599625    -0.000391729         0.599726        0.772588      0.000459671     2.48093e-05       -0.0845094        0.155091
281718                 -0.170757       0.0279391      6.20357e-05    -0.000149919         0.654793        0.729737      0.000589311    -0.000437217
                     8.36231e-05     -0.00011599        -0.177481       0.0429309      0.000447055     -0.00046858         0.600172        0.772496
                        0.654651        0.729881      0.000554336    -0.000477337       -0.0458201         0.16148      0.000454141     4.68041e-05
                     0.000599335    -0.000391855         0.600073        0.772324      0.000459665     2.43033e-05       -0.0843736        0.155144
281720                 -0.170744       0.0279538      6.21954e-05    -0.000149822         0.655111        0.729455      0.000589232    -0.000437043
                     8.37167e-05    -0.000116001        -0.177459       0.0429407      0.000446367    -0.000468661         0.600518        0.772233
                        0.654969          0.7296      0.000553961    -0.000477494       -0.0456916        0.161507      0.000453946     4.65791e-05
                     0.000599032    -0.000391973          0.60042        0.772061      0.000459659     2.37997e-05       -0.0842378        0.155198
281722                 -0.170731       0.0279684      6.23528e-05    -0.000149694         0.655428        0.729173      0.000589152     -0.00043687
                     8.38274e-05    -0.000116015        -0.177436       0.0429505      0.000445682     -0.00046874         0.600865         0.77197
                        0.655287        0.729318       0.00055356    -0.000477641        -0.045563        0.161534      0.000453751      4.6354e-05
                     0.000598714    -0.000392083         0.600767        0.771797      0.000459653     2.32986e-05       -0.0841021        0.155251
281724                 -0.170717       0.0279828      6.25056e-05    -0.000149529         0.655744        0.728891      0.000589073    -0.000436698
                      8.3958e-05    -0.000116035        -0.177414       0.0429602         0.000445    -0.000468817         0.601211        0.771706
                        0.655605        0.729036      0.000553131    -0.000477779       -0.0454345        0.161561      0.000453555     4.61289e-05
                      0.00059838    -0.000392184         0.601114        0.771533      0.000459647     2.27999e-05       -0.0839663        0.155304
281726                 -0.170704       0.0279972       6.2651e-05    -0.000149326         0.656061        0.728609      0.000588993    -0.000436526
                     8.41114e-05    -0.000116061        -0.177391       0.0429699      0.000444322    -0.000468893         0.601557        0.771442
                        0.655923        0.728753      0.000552671    -0.000477906        -0.045306        0.161588       0.00045336     4.59036e-05
                     0.000598028    -0.000392274         0.601462        0.771268      0.000459641     2.23037e-05       -0.0838305        0.155357
281728                 -0.170691       0.0280114      6.27856e-05    -0.000149081         0.656378        0.728326      0.000588913    -0.000436356
                     8.42912e-05    -0.000116096        -0.177368       0.0429796      0.000443646    -0.000468967         0.601903        0.771179
                         0.65624        0.728471      0.000552177    -0.000478021       -0.0451775        0.161614      0.000453164     4.56782e-05
                     0.000597657    -0.000392352         0.601809        0.771004      0.000459635       2.181e-05       -0.0836947         0.15541
281730                 -0.170677       0.0280254      6.29049e-05    -0.000148791         0.656694        0.728044      0.000588833    -0.000436187
                      8.4501e-05     -0.00011614        -0.177346       0.0429893      0.000442973    -0.000469039         0.602249        0.770915
                        0.656558        0.728188      0.000551646    -0.000478122       -0.0450489        0.161641      0.000452969     4.54528e-05
                     0.000597264    -0.000392417         0.602157        0.770739      0.000459629     2.13187e-05       -0.0835589        0.155463
281732                 -0.170664       0.0280392      6.30039e-05    -0.000148456          0.65701        0.727761      0.000588752    -0.000436019
                     8.47447e-05    -0.000116197        -0.177323        0.042999      0.000442304     -0.00046911         0.602594        0.770651
                        0.656875        0.727906      0.000551078    -0.000478209       -0.0449204        0.161667      0.000452773     4.52272e-05
                     0.000596848    -0.000392468         0.602504        0.770474      0.000459624       2.083e-05       -0.0834231        0.155515
281734                  -0.17065       0.0280528      6.30774e-05    -0.000148078         0.657326        0.727478      0.000588671    -0.000435852
                     8.50253e-05    -0.000116269        -0.177301       0.0430087      0.000441637    -0.000469178          0.60294        0.770386
                        0.657192        0.727623      0.000550473    -0.000478282       -0.0447919        0.161694      0.000452577     4.50016e-05
                      0.00059641    -0.000392504         0.602851         0.77021      0.000459618     2.03437e-05       -0.0832873        0.155568
281736                 -0.170636        0.028066      6.31208e-05    -0.000147663         0.657642        0.727195       0.00058859    -0.000435686
                     8.53436e-05    -0.000116359        -0.177278       0.0430184      0.000440974    -0.000469245         0.603285        0.770122
                        0.657509         0.72734      0.000549833    -0.000478341       -0.0446634         0.16172      0.000452381     4.47759e-05
                     0.000595949    -0.000392527         0.603199        0.769945      0.000459613       1.986e-05       -0.0831514         0.15562
281738                 -0.170623        0.028079      6.31324e-05    -0.000147227         0.657958        0.726912      0.000588508    -0.000435521
                     8.56952e-05    -0.000116468        -0.177256       0.0430281      0.000440314     -0.00046931          0.60363        0.769858
                        0.657826        0.727057      0.000549169    -0.000478388       -0.0445349        0.161746      0.000452185     4.45501e-05
                     0.000595472    -0.000392539         0.603546         0.76968      0.000459607     1.93787e-05       -0.0830156        0.155673
281740                  -0.17061        0.028092      6.31174e-05    -0.000146796         0.658274        0.726629      0.000588426    -0.000435356
                      8.6065e-05    -0.000116594        -0.177233       0.0430378      0.000439657    -0.000469373         0.603975        0.769593
                        0.658143        0.726774      0.000548499    -0.000478432       -0.0444063        0.161772      0.000451989     4.43242e-05
                      0.00059499    -0.000392547         0.603892        0.769415      0.000459602        1.89e-05       -0.0828798        0.155725
281742                 -0.170597        0.028105       6.3095e-05    -0.000146417          0.65859        0.726346      0.000588343    -0.000435193
                     8.64166e-05    -0.000116727        -0.177211       0.0430475      0.000439003    -0.000469435          0.60432        0.769328
                         0.65846        0.726491       0.00054786    -0.000478487       -0.0442778        0.161798      0.000451792     4.40983e-05
                     0.000594525    -0.000392567         0.604239         0.76915      0.000459597     1.84238e-05       -0.0827439        0.155777
281744                 -0.170584       0.0281187      6.31077e-05    -0.000146163         0.658905        0.726063      0.000588261    -0.000435031
                      8.6677e-05    -0.000116838        -0.177189       0.0430574      0.000438352    -0.000469494         0.604665        0.769063
                        0.658776        0.726207      0.000547316    -0.000478582       -0.0441493        0.161824      0.000451596     4.38723e-05
                     0.000594118    -0.000392624         0.604584        0.768885      0.000459592     1.79501e-05       -0.0826081        0.155829
281746                 -0.170572       0.0281336      6.32337e-05    -0.000146159          0.65922        0.725779      0.000588178     -0.00043487
                      8.6719e-05    -0.000116876        -0.177166       0.0430673      0.000437704    -0.000469552          0.60501        0.768798
                        0.659093        0.725924      0.000546978    -0.000478762       -0.0440208         0.16185      0.000451399     4.36462e-05
                     0.000593839    -0.000392766         0.604928         0.76862      0.000459587     1.74789e-05       -0.0824722        0.155881
281748                 -0.170559       0.0281508      6.35887e-05    -0.000146607         0.659536        0.725496      0.000588095     -0.00043471
                     8.63613e-05    -0.000116768        -0.177144       0.0430775      0.000437059    -0.000469609         0.605354        0.768533
                        0.659409         0.72564      0.000547017    -0.000479101       -0.0438923        0.161876      0.000451203       4.342e-05
                     0.000593799    -0.000393063          0.60527        0.768356      0.000459582     1.70101e-05       -0.0823364        0.155933
281750                 -0.170548       0.0281714      6.42772e-05    -0.000147861         0.659851        0.725212      0.000588011    -0.000434551
                     8.54306e-05    -0.000116479        -0.177122       0.0430881      0.000436418    -0.000469664         0.605699        0.768267
                        0.659725        0.725357      0.000547678    -0.000479694       -0.0437638        0.161901      0.000451006     4.31937e-05
                     0.000594145    -0.000393603         0.605608        0.768093      0.000459577     1.65437e-05       -0.0822005        0.155985
281752                 -0.170541       0.0281947      6.51796e-05    -0.000150479         0.660166        0.724928      0.000587927    -0.000434393
                     8.39159e-05    -0.000116087        -0.177101       0.0430994       0.00043578    -0.000469717         0.606043        0.768002
                        0.660041        0.725075      0.000549251    -0.000480622       -0.0436353        0.161927      0.000450809     4.29674e-05
                     0.000595028    -0.000394456         0.605939        0.767835      0.000459572     1.60795e-05       -0.0820646        0.156036
281754                 -0.170539       0.0282149      6.54603e-05    -0.000154959          0.66048        0.724644      0.000587843    -0.000434237
                     8.20913e-05    -0.000115758        -0.177079       0.0431121      0.000435144    -0.000469769         0.606387        0.767736
                        0.660356        0.724794      0.000551952    -0.000481875       -0.0435068        0.161952      0.000450612     4.27409e-05
                     0.000596502    -0.000395605          0.60625        0.767601      0.000459568     1.56173e-05       -0.0819288        0.156088
281756                 -0.170537       0.0282284      6.35768e-05    -0.000160516         0.660795         0.72436      0.000587759    -0.000434082
                      8.0379e-05    -0.000115586        -0.177057       0.0431276      0.000434512    -0.000469821         0.606731        0.767471
                        0.660678        0.724538      0.000555709    -0.000483279       -0.0433783        0.161977      0.000450415     4.25143e-05
                     0.000598411    -0.000396898         0.606642        0.767497      0.000459564     1.51565e-05       -0.0817929        0.156139
281758                  -0.17053       0.0282394      5.94988e-05    -0.000164662         0.661109        0.724075      0.000587675    -0.000433931
                     7.90573e-05    -0.000115537        -0.177031       0.0431462       0.00043388    -0.000469876         0.607075        0.767205
                        0.660994        0.724203          0.00056    -0.000484542       -0.0432498        0.162003      0.000450218     4.22874e-05
                     0.000600388    -0.000398115         0.607132        0.767104      0.000459561     1.46953e-05        -0.081657         0.15619
281760                  -0.17052       0.0282512      5.54486e-05    -0.000166326         0.661424        0.723791      0.000587592    -0.000433785
                     7.81688e-05    -0.000115537        -0.176996       0.0431613      0.000433241    -0.000469938         0.607419        0.766938
                        0.661306        0.723926      0.000564029    -0.000485455       -0.0431214        0.162028      0.000450021     4.20599e-05
                      0.00060205    -0.000399097         0.607447        0.766788      0.000459561     1.42261e-05       -0.0815211        0.156242
281762                 -0.170509        0.028264      5.27866e-05    -0.000166596         0.661738        0.723506      0.000587511    -0.000433665
                     7.76262e-05    -0.000115542        -0.176962       0.0431661      0.000432549    -0.000469943         0.607762        0.766672
                        0.661621        0.723643      0.000567163    -0.000486017       -0.0429929        0.162053      0.000449822     4.18292e-05
