! TOUCHSTONE file generated by CST MICROWAVE STUDIO
! Date and time: Tue Oct 14 07:29:31 2025
! Project name: Teste_Macro_Metasurface_Nanopilar.cst
! Parameters = {H=600; L_x=145; L_y=90; Lambda=1064; Max_L=200; Min_L=70; PathPara=1; Phi=0; Step_L=10; Theta=0; p=520; phaseX=180; phaseY=0}
! Header version: 2018
! Port assignment regex: !\s*Touchstone port\s*([0-9]+)\s*=\s*(CST MWS port|CST DS port)\s*([0-9]+|Zmin|Zmax)\s*\(\"(.*)\"\)(\s*mode\s*([0-9]+))?.*
! Touchstone port assignment:
! Touchstone port 1 = CST MWS port Zmax ("") mode 1
! Touchstone port 2 = CST MWS port Zmax ("") mode 2
! Touchstone port 3 = CST MWS port Zmin ("") mode 1
! Touchstone port 4 = CST MWS port Zmin ("") mode 2
! S-Parameters are not renormalized. Each port impedance will be approximated by the real part at minimum frequency. The values are described via the [Reference] keyword.
! Default impedance is overridden by [Reference]
[Version] 2.0
# GHz S RI R 376.73
[Number of Ports] 4
[Reference]
376.73 376.73 259.814 259.814 
[Number of Frequencies] 51
[Network Data]
281700                 0.0280137      -0.0127755     -0.000310035     0.000426544         0.767785       -0.637137     -0.000130701    -0.000190375
                    -0.000419467     0.000222685        0.0376727      -0.0320689      0.000212944     4.05842e-05        -0.724932         0.67505
                        0.767604       -0.636806      0.000233453     0.000130988       -0.0176442       0.0260288     -0.000467319     0.000262143
                    -8.99548e-05    -2.51588e-05        -0.724738        0.674983     -0.000584558       0.0003825       -0.0355697       0.0379613
281702                 0.0280148      -0.0127992     -0.000309918     0.000426698         0.767529       -0.637445     -0.000130859    -0.000190272
                    -0.000419617     0.000222778        0.0376575       -0.032117      0.000212957      4.0589e-05        -0.724591        0.675414
                        0.767348       -0.637114      0.000233508     0.000130859       -0.0176469       0.0260398     -0.000467333     0.000262435
                    -8.98328e-05    -2.49801e-05        -0.724398        0.675347     -0.000584411     0.000382715       -0.0355792        0.037978
281704                 0.0280159      -0.0128228     -0.000309801     0.000426853         0.767272       -0.637752     -0.000131017    -0.000190169
                    -0.000419766     0.000222872        0.0376422      -0.0321651       0.00021297     4.05938e-05        -0.724251        0.675779
                        0.767092       -0.637422      0.000233562      0.00013073       -0.0176497       0.0260509     -0.000467348     0.000262728
                    -8.97107e-05    -2.48018e-05        -0.724057        0.675712     -0.000584263     0.000382929       -0.0355887       0.0379947
281706                 0.0280171      -0.0128464     -0.000309683     0.000427008         0.767015       -0.638059     -0.000131175    -0.000190066
                    -0.000419916     0.000222966        0.0376269      -0.0322131      0.000212984     4.05987e-05         -0.72391        0.676143
                        0.766836       -0.637729      0.000233617     0.000130601       -0.0176524        0.026062     -0.000467362     0.000263022
                    -8.95886e-05    -2.46238e-05        -0.723716        0.676076     -0.000584115     0.000383142       -0.0355982       0.0380114
281708                 0.0280182      -0.0128701     -0.000309566     0.000427163         0.766759       -0.638367     -0.000131334    -0.000189963
                    -0.000420065      0.00022306        0.0376116      -0.0322612      0.000212997     4.06037e-05        -0.723569        0.676507
                         0.76658       -0.638036      0.000233671     0.000130472       -0.0176551       0.0260731     -0.000467377     0.000263317
                    -8.94663e-05    -2.44462e-05        -0.723375         0.67644     -0.000583967     0.000383356       -0.0356077       0.0380282
281710                 0.0280193      -0.0128937     -0.000309449     0.000427318         0.766502       -0.638674     -0.000131492     -0.00018986
                    -0.000420214     0.000223155        0.0375963      -0.0323093      0.000213011     4.06089e-05        -0.723228        0.676871
                        0.766323       -0.638344      0.000233726     0.000130343       -0.0176578       0.0260843     -0.000467392     0.000263612
                     -8.9344e-05    -2.42689e-05        -0.723034        0.676803     -0.000583819     0.000383569       -0.0356172        0.038045
281712                 0.0280203      -0.0129174     -0.000309331     0.000427473         0.766245       -0.638981      -0.00013165    -0.000189757
                    -0.000420363     0.000223251        0.0375809      -0.0323573      0.000213026     4.06144e-05        -0.722886        0.677234
                        0.766067       -0.638651       0.00023378     0.000130214       -0.0176605       0.0260954     -0.000467407     0.000263909
                    -8.92216e-05     -2.4092e-05        -0.722692        0.677167      -0.00058367     0.000383782       -0.0356267       0.0380618
281714                 0.0280214       -0.012941     -0.000309214     0.000427627         0.765987       -0.639288     -0.000131809    -0.000189654
                    -0.000420511     0.000223347        0.0375655      -0.0324054       0.00021304     4.06202e-05        -0.722545        0.677598
                         0.76581       -0.638958      0.000233834     0.000130085       -0.0176631       0.0261065     -0.000467423     0.000264205
                    -8.90992e-05    -2.39155e-05        -0.722351         0.67753     -0.000583521     0.000383995       -0.0356362       0.0380786
281716                 0.0280225      -0.0129647     -0.000309096     0.000427782          0.76573       -0.639595     -0.000131967     -0.00018955
                    -0.000420659     0.000223443          0.03755      -0.0324534      0.000213055     4.06266e-05        -0.722203        0.677961
                        0.765553       -0.639265      0.000233888     0.000129956       -0.0176658       0.0261177     -0.000467439     0.000264502
                    -8.89767e-05    -2.37393e-05        -0.722009        0.677894     -0.000583372     0.000384208       -0.0356457       0.0380955
281718                 0.0280235      -0.0129883     -0.000308979     0.000427937         0.765473       -0.639902     -0.000132126    -0.000189447
                    -0.000420806      0.00022354        0.0375346      -0.0325014       0.00021307     4.06336e-05        -0.721862        0.678324
                        0.765296       -0.639572      0.000233942     0.000129827       -0.0176685       0.0261288     -0.000467455     0.000264799
                    -8.88543e-05    -2.35634e-05        -0.721667        0.678257     -0.000583223      0.00038442       -0.0356551       0.0381124
281720                 0.0280245       -0.013012     -0.000308861     0.000428092         0.765215       -0.640208     -0.000132285    -0.000189343
                    -0.000420954     0.000223638         0.037519      -0.0325494      0.000213084     4.06415e-05         -0.72152        0.678687
                        0.765039       -0.639879      0.000233996     0.000129698       -0.0176712         0.02614     -0.000467472     0.000265097
                    -8.87318e-05    -2.33879e-05        -0.721325        0.678619     -0.000583073     0.000384632       -0.0356646       0.0381293
281722                 0.0280256      -0.0130356     -0.000308743     0.000428247         0.764957       -0.640515     -0.000132443     -0.00018924
                    -0.000421101     0.000223736        0.0375035      -0.0325974      0.000213099     4.06501e-05        -0.721177         0.67905
                        0.764782       -0.640186       0.00023405     0.000129569       -0.0176738       0.0261511     -0.000467489     0.000265394
                    -8.86093e-05    -2.32127e-05        -0.720982        0.678982     -0.000582923     0.000384844        -0.035674       0.0381462
281724                 0.0280266      -0.0130593     -0.000308625     0.000428402           0.7647       -0.640822     -0.000132602    -0.000189136
                    -0.000421247     0.000223835        0.0374879      -0.0326454      0.000213112     4.06595e-05        -0.720835        0.679412
                        0.764524       -0.640492      0.000234104      0.00012944       -0.0176765       0.0261623     -0.000467506     0.000265692
                    -8.84869e-05    -2.30379e-05         -0.72064        0.679344     -0.000582772     0.000385055       -0.0356835       0.0381632
281726                 0.0280276      -0.0130829     -0.000308508     0.000428557         0.764442       -0.641128     -0.000132761    -0.000189033
                    -0.000421393     0.000223934        0.0374723      -0.0326934      0.000213124     4.06691e-05        -0.720492        0.679775
                        0.764267       -0.640799      0.000234157     0.000129311       -0.0176791       0.0261735     -0.000467523     0.000265989
                    -8.83645e-05    -2.28634e-05        -0.720297        0.679707     -0.000582621     0.000385266       -0.0356929       0.0381802
281728                 0.0280285      -0.0131066      -0.00030839     0.000428713         0.764184       -0.641434     -0.000132919    -0.000188929
                    -0.000421539     0.000224034        0.0374567      -0.0327414      0.000213135     4.06787e-05         -0.72015        0.680137
                        0.764009       -0.641105      0.000234211     0.000129181       -0.0176818       0.0261847      -0.00046754     0.000266286
                    -8.82421e-05    -2.26893e-05        -0.719954        0.680069     -0.000582469     0.000385477       -0.0357023       0.0381972
281730                 0.0280295      -0.0131303     -0.000308272     0.000428868         0.763925        -0.64174     -0.000133078    -0.000188825
                    -0.000421684     0.000224135        0.0374411      -0.0327893      0.000213145     4.06877e-05        -0.719807        0.680499
                        0.763752       -0.641411      0.000234264     0.000129052       -0.0176844       0.0261959     -0.000467558     0.000266583
                    -8.81198e-05    -2.25155e-05        -0.719611        0.680431     -0.000582317     0.000385688       -0.0357117       0.0382143
281732                 0.0280305      -0.0131539     -0.000308154     0.000429023         0.763667       -0.642046     -0.000133237    -0.000188722
                    -0.000421829     0.000224236        0.0374254      -0.0328373      0.000213155     4.06958e-05        -0.719464        0.680861
                        0.763494       -0.641718      0.000234317     0.000128923       -0.0176871       0.0262071     -0.000467575      0.00026688
                    -8.79976e-05     -2.2342e-05        -0.719268        0.680793     -0.000582164     0.000385898       -0.0357211       0.0382314
281734                 0.0280314      -0.0131776     -0.000308036     0.000429178         0.763409       -0.642352     -0.000133396    -0.000188618
                    -0.000421973     0.000224338        0.0374096      -0.0328852      0.000213164      4.0703e-05        -0.719121        0.681222
                        0.763236       -0.642024       0.00023437     0.000128793       -0.0176897       0.0262183     -0.000467592     0.000267177
                    -8.78755e-05    -2.21689e-05        -0.718925        0.681154      -0.00058201     0.000386109       -0.0357305       0.0382485
281736                 0.0280323      -0.0132013     -0.000307918     0.000429333          0.76315       -0.642658     -0.000133555    -0.000188514
                    -0.000422117      0.00022444        0.0373939      -0.0329332      0.000213173     4.07093e-05        -0.718777        0.681584
                        0.762978        -0.64233      0.000234423     0.000128664       -0.0176923       0.0262296     -0.000467609     0.000267474
                    -8.77535e-05    -2.19962e-05        -0.718581        0.681515     -0.000581855      0.00038632       -0.0357399       0.0382656
281738                 0.0280333       -0.013225     -0.000307799     0.000429489         0.762891       -0.642964     -0.000133714     -0.00018841
                    -0.000422261     0.000224543        0.0373781      -0.0329811      0.000213182     4.07148e-05        -0.718433        0.681945
                         0.76272       -0.642636      0.000234476     0.000128535       -0.0176949       0.0262408     -0.000467626     0.000267771
                    -8.76316e-05    -2.18237e-05        -0.718237        0.681877     -0.000581699     0.000386531       -0.0357493       0.0382828
281740                 0.0280342      -0.0132486     -0.000307681     0.000429644         0.762633        -0.64327     -0.000133872    -0.000188306
                    -0.000422403     0.000224647        0.0373623       -0.033029      0.000213192     4.07198e-05         -0.71809        0.682306
                        0.762461       -0.642942      0.000234529     0.000128406       -0.0176975        0.026252     -0.000467643     0.000268067
                    -8.75098e-05    -2.16517e-05        -0.717893        0.682238     -0.000581543     0.000386743       -0.0357586       0.0382999
281742                 0.0280351      -0.0132723     -0.000307563     0.000429799         0.762374       -0.643575     -0.000134031    -0.000188201
                    -0.000422546     0.000224751        0.0373464      -0.0330769      0.000213202     4.07244e-05        -0.717746        0.682667
                        0.762203       -0.643247      0.000234582     0.000128276       -0.0177001       0.0262633     -0.000467659     0.000268364
                    -8.73882e-05    -2.14799e-05        -0.717549        0.682599     -0.000581386     0.000386956        -0.035768       0.0383171
281744                 0.0280359       -0.013296     -0.000307445     0.000429955         0.762115       -0.643881      -0.00013419    -0.000188097
                    -0.000422688     0.000224856        0.0373306      -0.0331248      0.000213212     4.07288e-05        -0.717402        0.683028
                        0.761944       -0.643553      0.000234634     0.000128147       -0.0177027       0.0262746     -0.000467675     0.000268661
                    -8.72667e-05    -2.13085e-05        -0.717205        0.682959     -0.000581228      0.00038717       -0.0357773       0.0383344
281746                 0.0280368      -0.0133197     -0.000307326      0.00043011         0.761855       -0.644186     -0.000134349    -0.000187993
                    -0.000422829     0.000224962        0.0373147      -0.0331727      0.000213223      4.0733e-05        -0.717057        0.683389
                        0.761685       -0.643858      0.000234687     0.000128018       -0.0177053       0.0262858     -0.000467691     0.000268957
                    -8.71454e-05    -2.11375e-05        -0.716861         0.68332     -0.000581071     0.000387385       -0.0357866       0.0383516
281748                 0.0280377      -0.0133434     -0.000307208     0.000430265         0.761596       -0.644492     -0.000134508    -0.000187888
                     -0.00042297     0.000225068        0.0372987      -0.0332206      0.000213234     4.07372e-05        -0.716713        0.683749
                        0.761427       -0.644164      0.000234739     0.000127888       -0.0177079       0.0262971     -0.000467706     0.000269254
                    -8.70243e-05    -2.09669e-05        -0.716516         0.68368     -0.000580913     0.000387602        -0.035796       0.0383689
281750                 0.0280385      -0.0133671     -0.000307089     0.000430421         0.761337       -0.644797     -0.000134667    -0.000187784
                     -0.00042311     0.000225175        0.0372827      -0.0332684      0.000213246     4.07413e-05        -0.716368        0.684109
                        0.761168       -0.644469      0.000234791     0.000127759       -0.0177105       0.0263084     -0.000467721      0.00026955
                    -8.69034e-05    -2.07966e-05        -0.716171         0.68404     -0.000580757     0.000387819       -0.0358053       0.0383862
281752                 0.0280393      -0.0133908     -0.000306971     0.000430576         0.761077       -0.645102     -0.000134826     -0.00018768
                    -0.000423249     0.000225282        0.0372667      -0.0333163      0.000213258     4.07453e-05        -0.716023        0.684469
                        0.760908       -0.644774      0.000234843      0.00012763        -0.017713       0.0263197     -0.000467736     0.000269847
                    -8.67827e-05    -2.06266e-05        -0.715826          0.6844     -0.000580602     0.000388038       -0.0358146       0.0384036
281754                 0.0280402      -0.0134145     -0.000306852     0.000430732         0.760817       -0.645407     -0.000134985    -0.000187575
                    -0.000423388     0.000225391        0.0372507      -0.0333641      0.000213271     4.07492e-05        -0.715678        0.684829
                        0.760649       -0.645079      0.000234895       0.0001275       -0.0177156        0.026331     -0.000467751     0.000270143
                    -8.66623e-05    -2.04571e-05        -0.715481         0.68476     -0.000580448     0.000388257       -0.0358239       0.0384209
281756                  0.028041      -0.0134382     -0.000306733     0.000430888         0.760558       -0.645712     -0.000135145    -0.000187471
                    -0.000423526       0.0002255        0.0372346       -0.033412      0.000213284     4.07531e-05        -0.715333        0.685189
                         0.76039       -0.645384      0.000234947     0.000127371       -0.0177181       0.0263423     -0.000467765      0.00027044
                    -8.65421e-05    -2.02879e-05        -0.715136        0.685119     -0.000580297     0.000388477       -0.0358331       0.0384383
281758                 0.0280418      -0.0134619     -0.000306614     0.000431043         0.760298       -0.646016     -0.000135306    -0.000187369
                    -0.000423663     0.000225609        0.0372186      -0.0334598      0.000213298     4.07568e-05        -0.714988        0.685548
                         0.76013       -0.645689      0.000234999     0.000127242       -0.0177207       0.0263536     -0.000467778     0.000270736
                    -8.64221e-05    -2.01191e-05         -0.71479        0.685479     -0.000580147     0.000388696       -0.0358424       0.0384558
281760                 0.0280425      -0.0134856     -0.000306496     0.000431199         0.760038       -0.646321     -0.000135454    -0.000187293
                    -0.000423799      0.00022572        0.0372024      -0.0335076      0.000213313     4.07603e-05        -0.714642        0.685908
                        0.759871       -0.645994      0.000235051     0.000127112       -0.0177232        0.026365      -0.00046779     0.000271032
                    -8.63024e-05    -1.99507e-05        -0.714445        0.685838     -0.000580001     0.000388915       -0.0358517       0.0384732
281762                 0.0280433      -0.0135093     -0.000306377     0.000431354         0.759777       -0.646626     -0.000135606    -0.000187151
                    -0.000423935     0.000225831        0.0371863      -0.0335554      0.000213329     4.07634e-05        -0.714297        0.686267
                        0.759611       -0.646299      0.000235102     0.000126983       -0.0177258       0.0263763       -0.0004678     0.000271328
