! TOUCHSTONE file generated by CST MICROWAVE STUDIO
! Date and time: Tue Oct 14 07:28:16 2025
! Project name: Teste_Macro_Metasurface_Nanopilar.cst
! Parameters = {H=600; L_x=125; L_y=90; Lambda=1064; Max_L=200; Min_L=70; PathPara=1; Phi=0; Step_L=10; Theta=0; p=520; phaseX=180; phaseY=0}
! Header version: 2018
! Port assignment regex: !\s*Touchstone port\s*([0-9]+)\s*=\s*(CST MWS port|CST DS port)\s*([0-9]+|Zmin|Zmax)\s*\(\"(.*)\"\)(\s*mode\s*([0-9]+))?.*
! Touchstone port assignment:
! Touchstone port 1 = CST MWS port Zmax ("") mode 1
! Touchstone port 2 = CST MWS port Zmax ("") mode 2
! Touchstone port 3 = CST MWS port Zmin ("") mode 1
! Touchstone port 4 = CST MWS port Zmin ("") mode 2
! S-Parameters are not renormalized. Each port impedance will be approximated by the real part at minimum frequency. The values are described via the [Reference] keyword.
! Default impedance is overridden by [Reference]
[Version] 2.0
# GHz S RI R 376.73
[Number of Ports] 4
[Reference]
376.73 376.73 259.814 259.814 
[Number of Frequencies] 51
[Network Data]
281700                 0.0166573       0.0263666      0.000350347      0.00062406          0.89366       -0.444246      0.000835425    -0.000151304
                     0.000470997     0.000697765         -0.17679       0.0339821      0.000579696     0.000496141        -0.438857       -0.871581
                        0.893331       -0.444282      0.000509329     0.000340744        0.0108153       0.0297372       0.00083401    -0.000394172
                     0.000868594    -0.000102425        -0.438664       -0.871631      0.000781252    -0.000395591        -0.132127         0.12141
281702                 0.0166706       0.0263514      0.000350652     0.000624086         0.893487       -0.444593       0.00083537    -0.000151716
                     0.000471488      0.00069762        -0.176775        0.034051       0.00057992     0.000495991        -0.439294       -0.871361
                        0.893159       -0.444628      0.000509428     0.000340589         0.010818       0.0297303      0.000833813    -0.000394568
                     0.000868488    -0.000103013        -0.439102        -0.87141      0.000781214    -0.000395922        -0.132051        0.121489
281704                  0.016684       0.0263361      0.000350957     0.000624113         0.893315       -0.444939      0.000835316    -0.000152127
                      0.00047198     0.000697475         -0.17676       0.0341198      0.000580144     0.000495841        -0.439732        -0.87114
                        0.892986       -0.444975      0.000509527     0.000340435        0.0108206       0.0297234      0.000833616    -0.000394965
                     0.000868382    -0.000103601        -0.439539       -0.871189      0.000781176    -0.000396252        -0.131976        0.121569
281706                 0.0166974       0.0263209      0.000351262     0.000624139         0.893142       -0.445286      0.000835262    -0.000152538
                     0.000472472     0.000697329        -0.176744       0.0341887      0.000580368      0.00049569        -0.440169       -0.870919
                        0.892814       -0.445321      0.000509626      0.00034028        0.0108233       0.0297165       0.00083342    -0.000395361
                     0.000868275    -0.000104188        -0.439977       -0.870968      0.000781138    -0.000396581          -0.1319        0.121648
281708                 0.0167108       0.0263056      0.000351568     0.000624166          0.89297       -0.445632      0.000835207    -0.000152949
                     0.000472964     0.000697183        -0.176729       0.0342575      0.000580591     0.000495538        -0.440606       -0.870698
                        0.892641       -0.445667      0.000509725     0.000340126        0.0108259       0.0297095      0.000833222    -0.000395757
                     0.000868168    -0.000104775        -0.440414       -0.870746        0.0007811     -0.00039691        -0.131824        0.121727
281710                 0.0167241       0.0262904      0.000351874     0.000624193         0.892797       -0.445979      0.000835152     -0.00015336
                     0.000473456     0.000697037        -0.176714       0.0343263      0.000580815     0.000495386        -0.441042       -0.870476
                        0.892468       -0.446013      0.000509824     0.000339971        0.0108285       0.0297026      0.000833025    -0.000396153
                     0.000868061    -0.000105362        -0.440851       -0.870524      0.000781062    -0.000397239        -0.131749        0.121806
281712                 0.0167375       0.0262751       0.00035218      0.00062422         0.892624       -0.446325      0.000835097    -0.000153771
                     0.000473948      0.00069689        -0.176698       0.0343952      0.000581038     0.000495233        -0.441479       -0.870254
                        0.892295       -0.446359      0.000509922     0.000339817        0.0108312       0.0296957      0.000832828    -0.000396548
                     0.000867953    -0.000105948        -0.441288       -0.870302      0.000781024    -0.000397567        -0.131673        0.121885
281714                 0.0167508       0.0262599      0.000352487     0.000624247         0.892451       -0.446671      0.000835042    -0.000154182
                      0.00047444     0.000696743        -0.176683        0.034464      0.000581261      0.00049508        -0.441916       -0.870032
                        0.892121       -0.446705       0.00051002     0.000339662        0.0108338       0.0296888       0.00083263    -0.000396943
                     0.000867844    -0.000106534        -0.441725        -0.87008      0.000780986    -0.000397894        -0.131597        0.121964
281716                 0.0167642       0.0262446      0.000352794     0.000624274         0.892277       -0.447017      0.000834987    -0.000154592
                     0.000474933     0.000696595        -0.176667       0.0345328      0.000581484     0.000494926        -0.442352        -0.86981
                        0.891948       -0.447051      0.000510118     0.000339508        0.0108364       0.0296819      0.000832432    -0.000397338
                     0.000867735     -0.00010712        -0.442162       -0.869858      0.000780947    -0.000398221        -0.131521        0.122043
281718                 0.0167775       0.0262293      0.000353101     0.000624301         0.892104       -0.447363      0.000834931    -0.000155003
                     0.000475425     0.000696447        -0.176652       0.0346016      0.000581706     0.000494772        -0.442789       -0.869588
                        0.891774       -0.447396      0.000510216     0.000339353         0.010839        0.029675      0.000832235    -0.000397733
                     0.000867626    -0.000107706        -0.442599       -0.869635      0.000780909    -0.000398547        -0.131445        0.122122
281720                 0.0167908        0.026214      0.000353409     0.000624328          0.89193       -0.447709      0.000834875    -0.000155413
                     0.000475918     0.000696299        -0.176636       0.0346704      0.000581928     0.000494617        -0.443225       -0.869365
                        0.891601       -0.447742      0.000510314     0.000339199        0.0108416       0.0296681      0.000832036    -0.000398127
                     0.000867516    -0.000108291        -0.443036       -0.869412       0.00078087    -0.000398872        -0.131369        0.122201
281722                 0.0168041       0.0261987      0.000353717     0.000624355         0.891757       -0.448055       0.00083482    -0.000155824
                     0.000476411      0.00069615        -0.176621       0.0347392       0.00058215     0.000494462        -0.443661       -0.869142
                        0.891427       -0.448088      0.000510411     0.000339045        0.0108442       0.0296612      0.000831838    -0.000398521
                     0.000867406    -0.000108875        -0.443473       -0.869189      0.000780831    -0.000399198        -0.131293         0.12228
281724                 0.0168175       0.0261834      0.000354026     0.000624383         0.891583       -0.448401      0.000834763    -0.000156234
                     0.000476904     0.000696001        -0.176605        0.034808      0.000582372     0.000494306        -0.444098       -0.868919
                        0.891253       -0.448433      0.000510508     0.000338891        0.0108468       0.0296544       0.00083164    -0.000398915
                     0.000867296     -0.00010946        -0.443909       -0.868966      0.000780793    -0.000399522        -0.131217        0.122359
281726                 0.0168308       0.0261681      0.000354334      0.00062441         0.891409       -0.448747      0.000834707    -0.000156644
                     0.000477397     0.000695852         -0.17659       0.0348768      0.000582594     0.000494149        -0.444534       -0.868696
                        0.891079       -0.448779      0.000510605     0.000338736        0.0108494       0.0296475      0.000831441    -0.000399309
                     0.000867185    -0.000110044        -0.444346       -0.868742      0.000780754    -0.000399846        -0.131141        0.122438
281728                  0.016844       0.0261528      0.000354643     0.000624438         0.891235       -0.449093      0.000834651    -0.000157054
                      0.00047789     0.000695702        -0.176574       0.0349456      0.000582815     0.000493992        -0.444969       -0.868472
                        0.890905       -0.449124      0.000510702     0.000338582         0.010852       0.0296406      0.000831242    -0.000399702
                     0.000867074    -0.000110628        -0.444782       -0.868518      0.000780715     -0.00040017        -0.131065        0.122516
281730                 0.0168573       0.0261375      0.000354953     0.000624466         0.891061       -0.449438      0.000834594    -0.000157464
                     0.000478383     0.000695552        -0.176558       0.0350144      0.000583036     0.000493835        -0.445405       -0.868249
                         0.89073       -0.449469      0.000510799     0.000338428        0.0108546       0.0296337      0.000831043    -0.000400095
                     0.000866962    -0.000111211        -0.445218       -0.868294      0.000780676    -0.000400492        -0.130989        0.122595
281732                 0.0168706       0.0261222      0.000355263     0.000624494         0.890886       -0.449784      0.000834537    -0.000157874
                     0.000478876     0.000695402        -0.176543       0.0350831      0.000583257     0.000493676        -0.445841       -0.868025
                        0.890556       -0.449815      0.000510895     0.000338274        0.0108572       0.0296269      0.000830844    -0.000400488
                     0.000866851    -0.000111794        -0.445654        -0.86807      0.000780636    -0.000400815        -0.130912        0.122674
281734                 0.0168839       0.0261068      0.000355573     0.000624522         0.890712        -0.45013       0.00083448    -0.000158283
                      0.00047937     0.000695251        -0.176527       0.0351519      0.000583478     0.000493517        -0.446277       -0.867801
                        0.890381        -0.45016      0.000510991     0.000338121        0.0108598         0.02962      0.000830645     -0.00040088
                     0.000866738    -0.000112377         -0.44609       -0.867846      0.000780596    -0.000401136        -0.130836        0.122752
281736                 0.0168971       0.0260915      0.000355884      0.00062455         0.890537       -0.450475      0.000834423    -0.000158693
                     0.000479863     0.000695099        -0.176511       0.0352207      0.000583699     0.000493358        -0.446712       -0.867576
                        0.890206       -0.450505      0.000511087     0.000337967        0.0108624       0.0296131      0.000830445    -0.000401272
                     0.000866626    -0.000112959        -0.446526       -0.867621      0.000780556    -0.000401457        -0.130759        0.122831
281738                 0.0169104       0.0260762      0.000356195     0.000624579         0.890363       -0.450821      0.000834366    -0.000159102
                     0.000480357     0.000694947        -0.176495       0.0352894       0.00058392     0.000493197        -0.447148       -0.867352
                        0.890032        -0.45085      0.000511182     0.000337813        0.0108649       0.0296063      0.000830245    -0.000401664
                     0.000866513    -0.000113541        -0.446962       -0.867396      0.000780513    -0.000401775        -0.130683        0.122909
281740                 0.0169236       0.0260608      0.000356507     0.000624608         0.890188       -0.451166      0.000834308    -0.000159511
                     0.000480851     0.000694795         -0.17648       0.0353582      0.000584142     0.000493035        -0.447583       -0.867127
                        0.889857       -0.451195      0.000511277      0.00033766        0.0108675       0.0295994      0.000830046    -0.000402056
                     0.000866399    -0.000114123        -0.447398       -0.867171      0.000780466    -0.000402091        -0.130607        0.122987
281742                 0.0169369       0.0260455      0.000356819     0.000624637         0.890013       -0.451511       0.00083425     -0.00015992
                     0.000481345     0.000694643        -0.176464       0.0354269      0.000584368     0.000492869        -0.448018       -0.866902
                        0.889681        -0.45154      0.000511372     0.000337507        0.0108701       0.0295926      0.000829846    -0.000402447
                     0.000866286    -0.000114704        -0.447833       -0.866946      0.000780385    -0.000402406         -0.13053        0.123066
281744                 0.0169501       0.0260301      0.000357132     0.000624667         0.889838       -0.451856      0.000834192    -0.000160329
                     0.000481839      0.00069449        -0.176448       0.0354957      0.000584625     0.000492616        -0.448453       -0.866676
                        0.889506       -0.451885      0.000511467     0.000337354        0.0108726       0.0295857      0.000829646    -0.000402838
                     0.000866172    -0.000115285        -0.448269        -0.86672      0.000780409    -0.000402821        -0.130453        0.123144
281746                 0.0169633       0.0260148      0.000357446     0.000624697         0.889662       -0.452201      0.000834134    -0.000160738
                     0.000482333     0.000694336        -0.176432       0.0355644      0.000584768     0.000492572        -0.448888       -0.866451
                        0.889331        -0.45223       0.00051156     0.000337203        0.0108752       0.0295789      0.000829445    -0.000403229
                     0.000866058    -0.000115865        -0.448704       -0.866494       0.00078038    -0.000403095        -0.130377        0.123222
281748                 0.0169765       0.0259994      0.000357761     0.000624728         0.889487       -0.452547      0.000834076    -0.000161146
                     0.000482827     0.000694182        -0.176416       0.0356331      0.000584999     0.000492403        -0.449323       -0.866225
                        0.889155       -0.452575      0.000511653     0.000337052        0.0108778        0.029572      0.000829245    -0.000403618
                     0.000865944    -0.000116446        -0.449139       -0.866268      0.000780339    -0.000403405          -0.1303        0.123301
281750                 0.0169897        0.025984      0.000358078     0.000624763         0.889311       -0.452892      0.000834017    -0.000161554
                     0.000483322     0.000694028          -0.1764       0.0357018      0.000585221     0.000492238        -0.449758       -0.865999
                        0.888979        -0.45292      0.000511744     0.000336904        0.0108803       0.0295652      0.000829045    -0.000404008
                      0.00086583    -0.000117025        -0.449575       -0.866042      0.000780298     -0.00040372        -0.130223        0.123379
281752                 0.0170029       0.0259686      0.000358404     0.000624806         0.889136       -0.453237      0.000833957     -0.00016196
                     0.000483818     0.000693873        -0.176384       0.0357706      0.000585441     0.000492074        -0.450193       -0.865773
                        0.888804       -0.453264      0.000511828     0.000336766        0.0108829       0.0295584      0.000828846    -0.000404395
                     0.000865716    -0.000117605         -0.45001       -0.865816      0.000780258    -0.000404036        -0.130146        0.123457
281754                 0.0170161       0.0259532      0.000358821     0.000624958          0.88896       -0.453581      0.000833895    -0.000162363
                     0.000484315     0.000693717        -0.176368       0.0358393       0.00058566      0.00049191        -0.450627       -0.865547
                        0.888628       -0.453609      0.000511841     0.000336732        0.0108854       0.0295515      0.000828648    -0.000404778
                     0.000865604    -0.000118184        -0.450445       -0.865589      0.000780218    -0.000404354         -0.13007        0.123535
281756                 0.0170293       0.0259378      0.000358953     0.000624774         0.888784       -0.453926      0.000833781    -0.000162667
                      0.00048482     0.000693558        -0.176352        0.035908      0.000585878     0.000491745        -0.451062        -0.86532
                        0.888451       -0.453953      0.000512079     0.000336356        0.0108879       0.0295447      0.000828506    -0.000405057
                     0.000865503    -0.000118761        -0.450879       -0.865362      0.000780179    -0.000404671        -0.129993        0.123613
281758                 0.0170425       0.0259225      0.000359297     0.000624836         0.888608       -0.454271      0.000833795    -0.000163213
                     0.000485245     0.000693425        -0.176336       0.0359767      0.000586095      0.00049158        -0.451496       -0.865093
                        0.888275       -0.454298      0.000512149     0.000336242        0.0108905       0.0295379      0.000828226    -0.000405594
                     0.000865271    -0.000119353        -0.451314       -0.865135      0.000780139    -0.000404989        -0.129916        0.123691
281760                 0.0170556       0.0259071      0.000359619     0.000624874         0.888432       -0.454616       0.00083373    -0.000163611
                     0.000485779     0.000693257         -0.17632       0.0360454      0.000586312     0.000491415         -0.45193       -0.864866
                        0.888099       -0.454642      0.000512237     0.000336099         0.010893       0.0295311       0.00082803    -0.000405972
                     0.000865227    -0.000119922        -0.451749       -0.864908        0.0007801    -0.000405306        -0.129839        0.123769
281762                 0.0170688       0.0258916      0.000359938     0.000624907         0.888255        -0.45496      0.000833669    -0.000164017
                     0.000486279     0.000693099        -0.176303        0.036114      0.000586529     0.000491249        -0.452364       -0.864639
                        0.887922       -0.454986      0.000512327      0.00033595        0.0108955       0.0295243       0.00082783    -0.000406358
