! TOUCHSTONE file generated by CST MICROWAVE STUDIO
! Date and time: Tue Oct 14 07:27:43 2025
! Project name: Teste_Macro_Metasurface_Nanopilar.cst
! Parameters = {H=600; L_x=115; L_y=130; Lambda=1064; Max_L=200; Min_L=70; PathPara=1; Phi=0; Step_L=10; Theta=0; p=520; phaseX=180; phaseY=0}
! Header version: 2018
! Port assignment regex: !\s*Touchstone port\s*([0-9]+)\s*=\s*(CST MWS port|CST DS port)\s*([0-9]+|Zmin|Zmax)\s*\(\"(.*)\"\)(\s*mode\s*([0-9]+))?.*
! Touchstone port assignment:
! Touchstone port 1 = CST MWS port Zmax ("") mode 1
! Touchstone port 2 = CST MWS port Zmax ("") mode 2
! Touchstone port 3 = CST MWS port Zmin ("") mode 1
! Touchstone port 4 = CST MWS port Zmin ("") mode 2
! S-Parameters are not renormalized. Each port impedance will be approximated by the real part at minimum frequency. The values are described via the [Reference] keyword.
! Default impedance is overridden by [Reference]
[Version] 2.0
# GHz S RI R 376.73
[Number of Ports] 4
[Reference]
376.73 376.73 259.814 259.814 
[Number of Frequencies] 51
[Network Data]
281700               -0.00910102      -0.0360388      5.60851e-05     0.000177907        -0.675338        0.725895     -7.19811e-05    -7.11831e-05
                     2.27649e-06     0.000146617        -0.122344       0.0490198     -0.000333557    -0.000211231         -0.96345       -0.189209
                       -0.675176        0.725702     -0.000142115    -0.000242144       -0.0368322     -0.00386558      0.000164357    -6.56582e-05
                     4.31825e-05    -0.000274921        -0.963471       -0.189085       0.00011921     0.000112484        0.0923265       0.0921316
281702               -0.00911618      -0.0360646      5.61619e-05     0.000177817        -0.674975        0.726231     -7.25477e-05     -7.0916e-05
                     2.21144e-06      0.00014672        -0.122306       0.0490559     -0.000333285    -0.000211147        -0.963553       -0.188697
                       -0.674814        0.726038     -0.000142308    -0.000241991       -0.0368638      -0.0038424      0.000164112    -6.59363e-05
                      4.3088e-05    -0.000274955        -0.963574       -0.188573      0.000118933     0.000112627        0.0923747       0.0920517
281704               -0.00913136      -0.0360905      5.62384e-05     0.000177727        -0.674612        0.726566     -7.31137e-05    -7.06444e-05
                     2.14638e-06     0.000146822        -0.122268        0.049092     -0.000333011    -0.000211063        -0.963656       -0.188185
                       -0.674451        0.726373     -0.000142501    -0.000241838       -0.0368954     -0.00381918      0.000163865    -6.62132e-05
                     4.29936e-05     -0.00027499        -0.963677       -0.188061      0.000118655     0.000112768        0.0924229       0.0919717
281706               -0.00914657      -0.0361163      5.63147e-05     0.000177637        -0.674249        0.726902     -7.36788e-05    -7.03685e-05
                     2.08133e-06     0.000146924        -0.122229       0.0491281     -0.000332737    -0.000210977        -0.963759       -0.187673
                       -0.674089        0.726709     -0.000142694    -0.000241685       -0.0369269     -0.00379593      0.000163619    -6.64889e-05
                     4.28992e-05    -0.000275024         -0.96378       -0.187549      0.000118375     0.000112907         0.092471       0.0918917
281708               -0.00916179      -0.0361421      5.63908e-05     0.000177547        -0.673886        0.727237     -7.42431e-05    -7.00885e-05
                     2.01627e-06     0.000147027        -0.122191       0.0491641     -0.000332462    -0.000210891        -0.963862       -0.187161
                       -0.673727        0.727044     -0.000142887    -0.000241531       -0.0369585     -0.00377264      0.000163371    -6.67633e-05
                     4.28049e-05    -0.000275058        -0.963882       -0.187037      0.000118095     0.000113045         0.092519       0.0918117
281710               -0.00917703      -0.0361679      5.64667e-05     0.000177456        -0.673523        0.727572     -7.48066e-05    -6.98044e-05
                     1.95123e-06      0.00014713        -0.122152       0.0492001     -0.000332186    -0.000210803        -0.963964       -0.186649
                       -0.673364        0.727379      -0.00014308    -0.000241377         -0.03699     -0.00374931      0.000163123    -6.70365e-05
                     4.27107e-05    -0.000275092        -0.963984       -0.186525      0.000117813     0.000113181        0.0925669       0.0917316
281712                -0.0091923      -0.0361937      5.65424e-05     0.000177366        -0.673159        0.727907     -7.53692e-05    -6.95166e-05
                     1.88618e-06     0.000147232        -0.122114       0.0492361     -0.000331909    -0.000210715        -0.964066       -0.186137
                       -0.673001        0.727714     -0.000143272    -0.000241223       -0.0370215     -0.00372595      0.000162875    -6.73085e-05
                     4.26165e-05    -0.000275126        -0.964086       -0.186013      0.000117531     0.000113315        0.0926147       0.0916515
281714               -0.00920758      -0.0362195      5.66178e-05     0.000177276        -0.672795        0.728241     -7.59311e-05    -6.92252e-05
                     1.82114e-06     0.000147335        -0.122075       0.0492721     -0.000331631    -0.000210626        -0.964168       -0.185625
                       -0.672638        0.728048     -0.000143464    -0.000241069        -0.037053     -0.00370255      0.000162626    -6.75792e-05
                     4.25224e-05     -0.00027516        -0.964187       -0.185501      0.000117247     0.000113447        0.0926625       0.0915714
281716               -0.00922289      -0.0362452      5.66931e-05     0.000177186        -0.672432        0.728576     -7.64921e-05    -6.89304e-05
                     1.75611e-06     0.000147439        -0.122037        0.049308     -0.000331352    -0.000210536         -0.96427       -0.185112
                       -0.672275        0.728383     -0.000143656    -0.000240914       -0.0370845     -0.00367911      0.000162376    -6.78488e-05
                     4.24284e-05    -0.000275194        -0.964289       -0.184989      0.000116962     0.000113577        0.0927102       0.0914913
281718               -0.00923821       -0.036271      5.67681e-05     0.000177095        -0.672067         0.72891     -7.70523e-05    -6.86325e-05
                     1.69108e-06     0.000147542        -0.121999       0.0493439     -0.000331073    -0.000210445        -0.964371         -0.1846
                       -0.671912        0.728717     -0.000143848    -0.000240759       -0.0371159     -0.00365564      0.000162127    -6.81172e-05
                     4.23345e-05    -0.000275228         -0.96439       -0.184476      0.000116676     0.000113706        0.0927578       0.0914111
281720               -0.00925356      -0.0362968      5.68429e-05     0.000177005        -0.671703        0.729244     -7.76118e-05    -6.83317e-05
                     1.62606e-06     0.000147645         -0.12196       0.0493798     -0.000330792    -0.000210353        -0.964473       -0.184088
                       -0.671548        0.729051      -0.00014404    -0.000240604       -0.0371474     -0.00363213      0.000161876    -6.83845e-05
                     4.22406e-05    -0.000275261         -0.96449       -0.183964      0.000116389     0.000113832        0.0928054       0.0913309
281722               -0.00926893      -0.0363225      5.69174e-05     0.000176914        -0.671339        0.729578     -7.81706e-05    -6.80282e-05
                     1.56105e-06     0.000147749        -0.121922       0.0494157     -0.000330511     -0.00021026        -0.964574       -0.183576
                       -0.671184        0.729385     -0.000144232    -0.000240449       -0.0371788     -0.00360858      0.000161625    -6.86505e-05
                     4.21467e-05    -0.000275295        -0.964591       -0.183451      0.000116101     0.000113958        0.0928529       0.0912507
281724               -0.00928432      -0.0363482      5.69918e-05     0.000176824        -0.670974        0.729911     -7.87287e-05    -6.77224e-05
                     1.49605e-06     0.000147852        -0.121883       0.0494515     -0.000330229    -0.000210166        -0.964674       -0.183063
                       -0.670821        0.729719     -0.000144423    -0.000240293       -0.0372102       -0.003585      0.000161374    -6.89154e-05
                      4.2053e-05    -0.000275329        -0.964691       -0.182939      0.000115812     0.000114081        0.0929003       0.0911705
281726               -0.00929973       -0.036374      5.70659e-05     0.000176734         -0.67061        0.730245     -7.92862e-05    -6.74144e-05
                     1.43106e-06     0.000147956        -0.121845       0.0494873     -0.000329946    -0.000210071        -0.964774       -0.182551
                       -0.670457        0.730052     -0.000144614    -0.000240138       -0.0372416     -0.00356138      0.000161122    -6.91792e-05
                     4.19593e-05    -0.000275362        -0.964791       -0.182426      0.000115521     0.000114202        0.0929477       0.0910902
281728               -0.00931516      -0.0363997      5.71398e-05     0.000176643        -0.670245        0.730578     -7.98431e-05    -6.71046e-05
                     1.36608e-06      0.00014806        -0.121806       0.0495231     -0.000329663    -0.000209975        -0.964875       -0.182039
                       -0.670093        0.730385     -0.000144805    -0.000239982       -0.0372729     -0.00353772       0.00016087    -6.94419e-05
                     4.18657e-05    -0.000275396         -0.96489       -0.181914       0.00011523     0.000114322         0.092995       0.0910099
281730               -0.00933061      -0.0364254      5.72134e-05     0.000176553         -0.66988        0.730911     -8.03997e-05    -6.67934e-05
                     1.30111e-06     0.000148164        -0.121768       0.0495589     -0.000329378    -0.000209879        -0.964974       -0.181526
                       -0.669728        0.730719     -0.000144996    -0.000239826       -0.0373043     -0.00351403      0.000160618    -6.97035e-05
                     4.17721e-05    -0.000275429         -0.96499       -0.181401      0.000114937      0.00011444        0.0930422       0.0909295
281732               -0.00934608      -0.0364511      5.72868e-05     0.000176462        -0.669515        0.731244     -8.09559e-05    -6.64809e-05
                     1.23614e-06     0.000148268        -0.121729       0.0495946     -0.000329093    -0.000209781        -0.965074       -0.181013
                       -0.669364        0.731052     -0.000145187     -0.00023967       -0.0373356      -0.0034903      0.000160365     -6.9964e-05
                     4.16786e-05    -0.000275462        -0.965089       -0.180888      0.000114643     0.000114556        0.0930893       0.0908492
281734               -0.00936157      -0.0364768        5.736e-05     0.000176371        -0.669149        0.731577     -8.15118e-05    -6.61675e-05
                     1.17119e-06     0.000148372         -0.12169       0.0496303     -0.000328806    -0.000209683        -0.965173       -0.180501
                       -0.668999        0.731384     -0.000145377    -0.000239513       -0.0373669     -0.00346653      0.000160113    -7.02234e-05
                     4.15852e-05    -0.000275495        -0.965188       -0.180376      0.000114349      0.00011467        0.0931364       0.0907688
281736               -0.00937708      -0.0365025       5.7433e-05     0.000176281        -0.668784         0.73191     -8.20677e-05    -6.58536e-05
                     1.10625e-06     0.000148476        -0.121652        0.049666     -0.000328519    -0.000209583        -0.965272       -0.179988
                       -0.668634        0.731717     -0.000145568    -0.000239356       -0.0373982     -0.00344273      0.000159859    -7.04818e-05
                     4.14919e-05    -0.000275529        -0.965286       -0.179863      0.000114053     0.000114783        0.0931835       0.0906884
281738               -0.00939261      -0.0365281      5.75057e-05      0.00017619        -0.668418        0.732242     -8.26235e-05    -6.55395e-05
                     1.04132e-06      0.00014858        -0.121613       0.0497017     -0.000328231    -0.000209483        -0.965371       -0.179475
                        -0.66827        0.732049     -0.000145758      -0.0002392       -0.0374295     -0.00341889      0.000159606    -7.07391e-05
                     4.13986e-05    -0.000275562        -0.965384        -0.17935      0.000113756     0.000114894        0.0932304       0.0906079
281740               -0.00940817      -0.0365538      5.75783e-05       0.0001761        -0.668053        0.732574     -8.31795e-05    -6.52255e-05
                     9.76403e-07     0.000148685        -0.121575       0.0497373     -0.000327942    -0.000209382        -0.965469       -0.178962
                       -0.667904        0.732381     -0.000145948    -0.000239043       -0.0374608     -0.00339501      0.000159353    -7.09955e-05
                     4.13054e-05    -0.000275595        -0.965482       -0.178837      0.000113458     0.000115003        0.0932773       0.0905275
281742               -0.00942374      -0.0365795      5.76505e-05     0.000176009        -0.667687        0.732906     -8.37357e-05    -6.49118e-05
                     9.11492e-07     0.000148789        -0.121536       0.0497729     -0.000327653     -0.00020928        -0.965567        -0.17845
                       -0.667539        0.732713     -0.000146138    -0.000238885        -0.037492      -0.0033711      0.000159099    -7.12509e-05
                     4.12122e-05    -0.000275627         -0.96558       -0.178324      0.000113159      0.00011511        0.0933242        0.090447
281744               -0.00943934      -0.0366051      5.77226e-05     0.000175918        -0.667321        0.733238     -8.42922e-05    -6.45988e-05
                     8.46591e-07     0.000148894        -0.121497       0.0498084     -0.000327362    -0.000209177        -0.965665       -0.177936
                       -0.667174        0.733045     -0.000146327    -0.000238728       -0.0375233     -0.00334715      0.000158845    -7.15054e-05
                     4.11192e-05     -0.00027566        -0.965677       -0.177811      0.000112859     0.000115215        0.0933709       0.0903664
281746               -0.00945495      -0.0366307      5.77944e-05     0.000175828        -0.666954         0.73357     -8.48491e-05    -6.42867e-05
                     7.81698e-07     0.000148998        -0.121459        0.049844     -0.000327071    -0.000209073        -0.965763       -0.177423
                       -0.666808        0.733377     -0.000146517     -0.00023857       -0.0375545     -0.00332316      0.000158592    -7.17589e-05
                     4.10262e-05    -0.000275693        -0.965775       -0.177298      0.000112557     0.000115319        0.0934176       0.0902859
281748               -0.00947059      -0.0366564      5.78659e-05     0.000175737        -0.666588        0.733901     -8.54064e-05    -6.39755e-05
                     7.16812e-07     0.000149103         -0.12142       0.0498795     -0.000326779    -0.000208968         -0.96586        -0.17691
                       -0.666443        0.733708     -0.000146706    -0.000238413       -0.0375857     -0.00329914      0.000158338    -7.20116e-05
                     4.09333e-05    -0.000275725        -0.965871       -0.176785      0.000112255     0.000115421        0.0934643       0.0902053
281750               -0.00948625       -0.036682      5.79373e-05     0.000175647        -0.666221        0.734232     -8.59641e-05    -6.36654e-05
                     6.51931e-07     0.000149208        -0.121381        0.049915     -0.000326486    -0.000208862        -0.965957       -0.176397
                       -0.666077        0.734039     -0.000146895    -0.000238255       -0.0376168     -0.00327508      0.000158084    -7.22634e-05
                     4.08404e-05    -0.000275758        -0.965968       -0.176271      0.000111951     0.000115521        0.0935109       0.0901247
281752               -0.00950192      -0.0367076      5.80084e-05     0.000175556        -0.665855        0.734563      -8.6522e-05    -6.33561e-05
                     5.87054e-07     0.000149313        -0.121343       0.0499505     -0.000326192    -0.000208756        -0.966054       -0.175884
                       -0.665711         0.73437     -0.000147084    -0.000238097        -0.037648     -0.00325098      0.000157831    -7.25144e-05
                     4.07477e-05     -0.00027579        -0.966064       -0.175758      0.000111647     0.000115619        0.0935574       0.0900441
281754               -0.00951762      -0.0367332      5.80792e-05     0.000175465        -0.665488        0.734894     -8.70798e-05    -6.30474e-05
                     5.22178e-07     0.000149417        -0.121304       0.0499859     -0.000325897    -0.000208648         -0.96615        -0.17537
                       -0.665344        0.734701     -0.000147273    -0.000237938       -0.0376791     -0.00322685      0.000157578    -7.27646e-05
                      4.0655e-05    -0.000275823         -0.96616       -0.175245      0.000111341     0.000115715        0.0936038       0.0899634
281756               -0.00953334      -0.0367588      5.81499e-05     0.000175375        -0.665121        0.735225      -8.7637e-05    -6.27384e-05
                     4.57299e-07     0.000149522        -0.121265       0.0500213     -0.000325602     -0.00020854        -0.966246       -0.174857
                       -0.664978        0.735032     -0.000147461     -0.00023778       -0.0377103     -0.00320268      0.000157325     -7.3014e-05
                     4.05624e-05    -0.000275855        -0.966256       -0.174731      0.000111035      0.00011581        0.0936502       0.0898827
281758               -0.00954908      -0.0367844      5.82203e-05     0.000175284        -0.664753        0.735556     -8.81926e-05     -6.2428e-05
                     3.92414e-07     0.000149627        -0.121227       0.0500567     -0.000325305    -0.000208431        -0.966342       -0.174343
                       -0.664612        0.735362     -0.000147649    -0.000237621       -0.0377414     -0.00317847      0.000157073    -7.32626e-05
                     4.04698e-05    -0.000275887        -0.966352       -0.174218      0.000110727     0.000115903        0.0936965        0.089802
281760               -0.00956484        -0.03681      5.82905e-05     0.000175194        -0.664386        0.735886     -8.87453e-05    -6.21143e-05
                     3.27518e-07     0.000149732        -0.121188       0.0500921     -0.000325008     -0.00020832        -0.966438        -0.17383
                       -0.664245        0.735693     -0.000147837    -0.000237463       -0.0377724     -0.00315423      0.000156822    -7.35105e-05
                     4.03773e-05    -0.000275919        -0.966447       -0.173704      0.000110418     0.000115994        0.0937428       0.0897213
281762               -0.00958062      -0.0368355      5.83604e-05     0.000175103        -0.664019        0.736216      -8.9293e-05    -6.17941e-05
                     2.62602e-07     0.000149837        -0.121149       0.0501274      -0.00032471    -0.000208209        -0.966533       -0.173316
                       -0.663878        0.736023     -0.000148025    -0.000237304       -0.0378035     -0.00312995      0.000156571    -7.37576e-05
