! TOUCHSTONE file generated by CST MICROWAVE STUDIO
! Date and time: Tue Oct 14 07:26:39 2025
! Project name: Teste_Macro_Metasurface_Nanopilar.cst
! Parameters = {H=600; L_x=100; L_y=70; Lambda=1064; Max_L=200; Min_L=70; PathPara=1; Phi=0; Step_L=10; Theta=0; p=520; phaseX=180; phaseY=0}
! Header version: 2018
! Port assignment regex: !\s*Touchstone port\s*([0-9]+)\s*=\s*(CST MWS port|CST DS port)\s*([0-9]+|Zmin|Zmax)\s*\(\"(.*)\"\)(\s*mode\s*([0-9]+))?.*
! Touchstone port assignment:
! Touchstone port 1 = CST MWS port Zmax ("") mode 1
! Touchstone port 2 = CST MWS port Zmax ("") mode 2
! Touchstone port 3 = CST MWS port Zmin ("") mode 1
! Touchstone port 4 = CST MWS port Zmin ("") mode 2
! S-Parameters are not renormalized. Each port impedance will be approximated by the real part at minimum frequency. The values are described via the [Reference] keyword.
! Default impedance is overridden by [Reference]
[Version] 2.0
# GHz S RI R 376.73
[Number of Ports] 4
[Reference]
376.73 376.73 259.814 259.814 
[Number of Frequencies] 51
[Network Data]
281700                -0.0537394        0.126598       0.00023817     7.71772e-05         0.977537        0.158205      0.000238262     7.27405e-05
                     0.000144982    -3.46641e-06       -0.0153602       0.0811803     -0.000219476     0.000125971         0.984382       -0.150859
                        0.977575         0.15834     -0.000157068     0.000159508         0.011008        0.137109      -6.3701e-05     1.37864e-05
                     0.000177464     6.45118e-05         0.984021       -0.150922     -0.000104228     2.46729e-05        0.0387838       0.0729677
281702                -0.0536965        0.126613      0.000238368     7.70162e-05         0.977594        0.157853      0.000238206     7.26005e-05
                     0.000144969    -3.54285e-06       -0.0153299       0.0811799     -0.000219471     0.000125892         0.984327       -0.151224
                        0.977632        0.157988     -0.000157023     0.000159584        0.0110612        0.137102     -6.35789e-05     1.36154e-05
                     0.000177458     6.44596e-05         0.983965       -0.151288     -0.000103985     2.47112e-05        0.0388088       0.0729476
281704                -0.0536537        0.126628      0.000238565     7.68549e-05         0.977651        0.157502      0.000238148     7.24608e-05
                     0.000144955     -3.6194e-06       -0.0152995       0.0811795     -0.000219466     0.000125812         0.984271        -0.15159
                        0.977689        0.157636     -0.000156977      0.00015966        0.0111144        0.137095     -6.34571e-05     1.34441e-05
                     0.000177451     6.44075e-05         0.983909       -0.151653     -0.000103742     2.47495e-05        0.0388339       0.0729275
281706                -0.0536108        0.126644      0.000238763     7.66934e-05         0.977708         0.15715      0.000238091     7.23211e-05
                     0.000144942    -3.69607e-06       -0.0152692       0.0811791     -0.000219461     0.000125732         0.984215       -0.151956
                        0.977746        0.157285     -0.000156932     0.000159736        0.0111676        0.137088     -6.33355e-05     1.32724e-05
                     0.000177445     6.43554e-05         0.983853       -0.152018     -0.000103498     2.47878e-05        0.0388589       0.0729073
281708                 -0.053568        0.126659      0.000238961     7.65316e-05         0.977765        0.156798      0.000238032     7.21816e-05
                     0.000144928    -3.77286e-06       -0.0152388       0.0811787     -0.000219457     0.000125652         0.984159       -0.152321
                        0.977803        0.156933     -0.000156886     0.000159812        0.0112208         0.13708     -6.32143e-05     1.31005e-05
                     0.000177439     6.43033e-05         0.983797       -0.152384     -0.000103254     2.48261e-05        0.0388839       0.0728872
281710                -0.0535251        0.126674      0.000239158     7.63697e-05         0.977822        0.156447      0.000237974     7.20421e-05
                     0.000144915    -3.84976e-06       -0.0152084       0.0811782     -0.000219453     0.000125571         0.984103       -0.152687
                         0.97786        0.156582     -0.000156841     0.000159888         0.011274        0.137073     -6.30934e-05     1.29283e-05
                     0.000177432     6.42513e-05         0.983741       -0.152749      -0.00010301     2.48644e-05        0.0389089        0.072867
281712                -0.0534823        0.126689      0.000239356     7.62074e-05         0.977878        0.156095      0.000237915     7.19029e-05
                     0.000144901    -3.92678e-06       -0.0151781       0.0811778     -0.000219449      0.00012549         0.984047       -0.153053
                        0.977917         0.15623     -0.000156796     0.000159964        0.0113272        0.137066     -6.29728e-05     1.27559e-05
                     0.000177426     6.41994e-05         0.983684       -0.153115     -0.000102765     2.49027e-05        0.0389339       0.0728469
281714                -0.0534394        0.126704      0.000239553      7.6045e-05         0.977935        0.155743      0.000237855     7.17637e-05
                     0.000144887    -4.00392e-06       -0.0151477       0.0811773     -0.000219445     0.000125409          0.98399       -0.153418
                        0.977973        0.155878      -0.00015675     0.000160039        0.0113803        0.137059     -6.28526e-05     1.25831e-05
                     0.000177419     6.41475e-05         0.983628        -0.15348     -0.000102521      2.4941e-05        0.0389589       0.0728267
281716                -0.0533966        0.126719      0.000239751     7.58823e-05         0.977991        0.155391      0.000237795     7.16247e-05
                     0.000144873    -4.08118e-06       -0.0151174       0.0811769     -0.000219441     0.000125327         0.983934       -0.153784
                         0.97803        0.155527     -0.000156705     0.000160115        0.0114335        0.137052     -6.27326e-05       1.241e-05
                     0.000177413     6.40957e-05         0.983571       -0.153846     -0.000102276     2.49794e-05        0.0389839       0.0728065
281718                -0.0533537        0.126734      0.000239948     7.57194e-05         0.978047         0.15504      0.000237734     7.14858e-05
                      0.00014486    -4.15856e-06        -0.015087       0.0811764     -0.000219437     0.000125245         0.983877       -0.154149
                        0.978086        0.155175      -0.00015666      0.00016019        0.0114867        0.137044      -6.2613e-05     1.22367e-05
                     0.000177407     6.40439e-05         0.983514       -0.154211     -0.000102031     2.50177e-05        0.0390088       0.0727863
281720                -0.0533108        0.126749      0.000240145     7.55562e-05         0.978103        0.154688      0.000237673      7.1347e-05
                     0.000144846    -4.23606e-06       -0.0150567       0.0811759     -0.000219434     0.000125162          0.98382       -0.154515
                        0.978142        0.154823     -0.000156616     0.000160266        0.0115398        0.137037     -6.24936e-05     1.20631e-05
                       0.0001774     6.39922e-05         0.983458       -0.154576     -0.000101785     2.50561e-05        0.0390338       0.0727661
281722                -0.0532679        0.126764      0.000240343     7.53929e-05         0.978159        0.154336      0.000237612     7.12084e-05
                     0.000144832    -4.31367e-06       -0.0150263       0.0811754      -0.00021943     0.000125079         0.983763        -0.15488
                        0.978198        0.154471     -0.000156571     0.000160341         0.011593         0.13703     -6.23746e-05     1.18892e-05
                     0.000177394     6.39406e-05           0.9834       -0.154942     -0.000101539     2.50944e-05        0.0390587       0.0727459
281724                 -0.053225        0.126779       0.00024054     7.52293e-05         0.978215        0.153984      0.000237549     7.10698e-05
                     0.000144817    -4.39141e-06        -0.014996       0.0811749     -0.000219427     0.000124996         0.983706       -0.155246
                        0.978254         0.15412     -0.000156526     0.000160416        0.0116461        0.137022     -6.22559e-05     1.17151e-05
                     0.000177387      6.3889e-05         0.983343       -0.155307     -0.000101293     2.51328e-05        0.0390837       0.0727257
281726                -0.0531822        0.126794      0.000240737     7.50654e-05         0.978271        0.153632      0.000237487     7.09314e-05
                     0.000144803    -4.46927e-06       -0.0149656       0.0811744     -0.000219424     0.000124913         0.983649       -0.155611
                         0.97831        0.153768     -0.000156482     0.000160491        0.0116993        0.137015     -6.21375e-05     1.15406e-05
                     0.000177381     6.38375e-05         0.983286       -0.155672     -0.000101047     2.51712e-05        0.0391086       0.0727055
281728                -0.0531393        0.126809      0.000240934     7.49013e-05         0.978326         0.15328      0.000237424     7.07932e-05
                     0.000144789    -4.54725e-06       -0.0149353       0.0811739     -0.000219422     0.000124829         0.983592       -0.155977
                        0.978365        0.153416     -0.000156437     0.000160566        0.0117524        0.137008     -6.20194e-05     1.13659e-05
                     0.000177374      6.3786e-05         0.983228       -0.156037     -0.000100801     2.52096e-05        0.0391335       0.0726852
281730                -0.0530964        0.126824      0.000241132      7.4737e-05         0.978382        0.152929      0.000237361      7.0655e-05
                     0.000144775    -4.62535e-06        -0.014905       0.0811733     -0.000219419     0.000124744         0.983534       -0.156342
                        0.978421        0.153064     -0.000156393     0.000160641        0.0118056           0.137     -6.19016e-05      1.1191e-05
                     0.000177368     6.37346e-05         0.983171       -0.156403     -0.000100554      2.5248e-05        0.0391584        0.072665
281732                -0.0530535        0.126839      0.000241329     7.45725e-05         0.978437        0.152577      0.000237297      7.0517e-05
                      0.00014476    -4.70357e-06       -0.0148746       0.0811728     -0.000219417      0.00012466         0.983477       -0.156708
                        0.978476        0.152712     -0.000156348     0.000160716        0.0118587        0.136993     -6.17842e-05     1.10158e-05
                     0.000177361     6.36832e-05         0.983113       -0.156768     -0.000100307     2.52864e-05        0.0391833       0.0726448
281734                -0.0530106        0.126854      0.000241526     7.44077e-05         0.978493        0.152225      0.000237232     7.03791e-05
                     0.000144746    -4.78192e-06       -0.0148443       0.0811722     -0.000219414     0.000124575         0.983419       -0.157073
                        0.978532        0.152361     -0.000156304      0.00016079        0.0119118        0.136986     -6.16671e-05     1.08403e-05
                     0.000177355     6.36319e-05         0.983055       -0.157133      -0.00010006     2.53249e-05        0.0392082       0.0726245
281736                -0.0529677        0.126868      0.000241723     7.42427e-05         0.978548        0.151873      0.000237168     7.02413e-05
                     0.000144731    -4.86039e-06        -0.014814       0.0811716     -0.000219412     0.000124489         0.983361       -0.157438
                        0.978587        0.152009      -0.00015626     0.000160865         0.011965        0.136978     -6.15502e-05     1.06645e-05
                     0.000177348     6.35807e-05         0.982997       -0.157498     -9.98122e-05     2.53634e-05         0.039233       0.0726042
281738                -0.0529248        0.126883       0.00024192     7.40775e-05         0.978603        0.151521      0.000237102     7.01036e-05
                     0.000144717    -4.93899e-06       -0.0147836        0.081171      -0.00021941     0.000124404         0.983303       -0.157804
                        0.978642        0.151657     -0.000156216     0.000160939        0.0120181        0.136971     -6.14337e-05     1.04885e-05
                     0.000177342     6.35296e-05         0.982939       -0.157863     -9.95644e-05     2.54019e-05        0.0392579        0.072584
281740                -0.0528818        0.126898      0.000242117     7.39121e-05         0.978657        0.151169      0.000237037     6.99661e-05
                     0.000144702    -5.01772e-06       -0.0147533       0.0811704     -0.000219408     0.000124317         0.983245       -0.158169
                        0.978697        0.151305     -0.000156172     0.000161013        0.0120712        0.136963     -6.13175e-05     1.03123e-05
                     0.000177335     6.34785e-05         0.982881       -0.158229     -9.93164e-05     2.54404e-05        0.0392827       0.0725637
281742                -0.0528389        0.126913      0.000242313     7.37464e-05         0.978712        0.150817      0.000236971     6.98287e-05
                     0.000144687    -5.09658e-06        -0.014723       0.0811698     -0.000219407     0.000124231         0.983186       -0.158534
                        0.978751        0.150953     -0.000156129     0.000161088        0.0121243        0.136956     -6.12016e-05     1.01358e-05
                     0.000177328     6.34274e-05         0.982822       -0.158594     -9.90682e-05     2.54789e-05        0.0393076       0.0725434
281744                 -0.052796        0.126928       0.00024251     7.35805e-05         0.978767        0.150465      0.000236904     6.96914e-05
                     0.000144673    -5.17558e-06       -0.0146926       0.0811692     -0.000219405     0.000124144         0.983128         -0.1589
                        0.978806        0.150601     -0.000156085     0.000161162        0.0121774        0.136948     -6.10861e-05     9.95906e-06
                     0.000177322     6.33765e-05         0.982764       -0.158959     -9.88196e-05     2.55175e-05        0.0393324       0.0725231
281746                -0.0527531        0.126943      0.000242707     7.34144e-05         0.978821        0.150112      0.000236837     6.95542e-05
                     0.000144658    -5.25471e-06       -0.0146623       0.0811686     -0.000219404     0.000124057         0.983069       -0.159265
                        0.978861        0.150249     -0.000156041     0.000161236        0.0122305        0.136941     -6.09708e-05     9.78207e-06
                     0.000177315     6.33256e-05         0.982705       -0.159324     -9.85708e-05     2.55561e-05        0.0393572       0.0725028
281748                -0.0527101        0.126957      0.000242904     7.32481e-05         0.978875         0.14976       0.00023677     6.94172e-05
                     0.000144643    -5.33399e-06        -0.014632       0.0811679     -0.000219403     0.000123969         0.983011        -0.15963
                        0.978915        0.149897     -0.000155998      0.00016131        0.0122836        0.136933     -6.08559e-05     9.60484e-06
                     0.000177309     6.32748e-05         0.982646       -0.159689     -9.83218e-05     2.55947e-05         0.039382       0.0724825
281750                -0.0526672        0.126972        0.0002431     7.30816e-05          0.97893        0.149408      0.000236702     6.92803e-05
                     0.000144627    -5.41343e-06       -0.0146017       0.0811673     -0.000219402     0.000123881         0.982952       -0.159996
                        0.978969        0.149545     -0.000155954     0.000161383        0.0123367        0.136925     -6.07413e-05     9.42738e-06
                     0.000177302     6.32241e-05         0.982587       -0.160054     -9.80725e-05     2.56334e-05        0.0394068       0.0724622
281752                -0.0526243        0.126987      0.000243297     7.29149e-05         0.978984        0.149056      0.000236634     6.91435e-05
                     0.000144612    -5.49304e-06       -0.0145714       0.0811666     -0.000219401     0.000123792         0.982893       -0.160361
                        0.979023        0.149193     -0.000155911     0.000161457        0.0123898        0.136918      -6.0627e-05     9.24968e-06
                     0.000177296     6.31735e-05         0.982528       -0.160419     -9.78229e-05     2.56721e-05        0.0394316       0.0724419
281754                -0.0525813        0.127002      0.000243494     7.27481e-05         0.979038        0.148704      0.000236565     6.90068e-05
                     0.000144597    -5.57285e-06        -0.014541       0.0811659       -0.0002194     0.000123704         0.982834       -0.160726
                        0.979077        0.148841     -0.000155868     0.000161531        0.0124429         0.13691      -6.0513e-05     9.07175e-06
                     0.000177289     6.31231e-05         0.982469       -0.160784     -9.75731e-05     2.57108e-05        0.0394564       0.0724215
281756                -0.0525384        0.127017       0.00024369     7.25813e-05         0.979092        0.148352      0.000236496     6.88702e-05
                     0.000144581     -5.6529e-06       -0.0145107       0.0811653       -0.0002194     0.000123614         0.982774       -0.161091
                        0.979131        0.148489     -0.000155825     0.000161604         0.012496        0.136902     -6.03993e-05     8.89359e-06
                     0.000177283     6.30728e-05          0.98241       -0.161149     -9.73231e-05     2.57496e-05        0.0394812       0.0724012
281758                -0.0524954        0.127031      0.000243887     7.24146e-05         0.979145           0.148      0.000236426     6.87338e-05
                     0.000144565    -5.73331e-06       -0.0144804       0.0811646     -0.000219399     0.000123525         0.982715       -0.161456
                        0.979185        0.148137     -0.000155782     0.000161678        0.0125491        0.136895      -6.0286e-05     8.71522e-06
                     0.000177276     6.30228e-05          0.98235       -0.161514     -9.70727e-05     2.57884e-05        0.0395059       0.0723808
281760                -0.0524524        0.127046      0.000244085     7.22489e-05         0.979199        0.147647      0.000236356     6.85975e-05
                     0.000144549    -5.81431e-06       -0.0144501       0.0811639     -0.000219399     0.000123435         0.982655       -0.161821
                        0.979239        0.147784      -0.00015574     0.000161752        0.0126022        0.136887     -6.01729e-05     8.53664e-06
                      0.00017727     6.29733e-05          0.98229       -0.161879     -9.68222e-05     2.58272e-05        0.0395307       0.0723605
281762                -0.0524095        0.127061      0.000244289     7.20901e-05         0.979252        0.147295      0.000236286     6.84612e-05
                     0.000144531    -5.89669e-06       -0.0144198       0.0811631     -0.000219399     0.000123344         0.982596       -0.162187
                        0.979292        0.147432       -0.0001557     0.000161829        0.0126552        0.136879     -6.00602e-05     8.35788e-06
