! TOUCHSTONE file generated by CST MICROWAVE STUDIO
! Date and time: Tue Oct 14 07:26:15 2025
! Project name: Teste_Macro_Metasurface_Nanopilar.cst
! Parameters = {H=600; L_x=90; L_y=165; Lambda=1064; Max_L=200; Min_L=70; PathPara=1; Phi=0; Step_L=10; Theta=0; p=520; phaseX=180; phaseY=0}
! Header version: 2018
! Port assignment regex: !\s*Touchstone port\s*([0-9]+)\s*=\s*(CST MWS port|CST DS port)\s*([0-9]+|Zmin|Zmax)\s*\(\"(.*)\"\)(\s*mode\s*([0-9]+))?.*
! Touchstone port assignment:
! Touchstone port 1 = CST MWS port Zmax ("") mode 1
! Touchstone port 2 = CST MWS port Zmax ("") mode 2
! Touchstone port 3 = CST MWS port Zmin ("") mode 1
! Touchstone port 4 = CST MWS port Zmin ("") mode 2
! S-Parameters are not renormalized. Each port impedance will be approximated by the real part at minimum frequency. The values are described via the [Reference] keyword.
! Default impedance is overridden by [Reference]
[Version] 2.0
# GHz S RI R 376.73
[Number of Ports] 4
[Reference]
376.73 376.73 259.814 259.814 
[Number of Frequencies] 51
[Network Data]
281700                 -0.066001       -0.188302     -0.000318403      0.00022307         0.127696        0.965936      6.49308e-05     -0.00022155
                    -0.000220538     0.000106364        0.0234604      -0.0582554     -4.70007e-05    -0.000161119         0.593257       -0.798999
                         0.12772        0.966146      3.87766e-05     5.77198e-05       -0.0132967        0.198571      0.000290583     0.000520348
                    -6.75064e-06    -0.000182601         0.593422       -0.798823      0.000286203     0.000110751       -0.0484601       0.0402618
281702                -0.0660703       -0.188308     -0.000318283     0.000223371         0.128139        0.965871      6.49273e-05    -0.000221665
                    -0.000220664     0.000106476        0.0234447       -0.058281     -4.70368e-05    -0.000161226         0.592924       -0.799244
                        0.128162        0.966081       3.8957e-05      5.7654e-05       -0.0131793        0.198607      0.000290036     0.000520805
                    -6.73404e-06    -0.000183026         0.593089       -0.799069      0.000286318      0.00011088       -0.0484558       0.0402948
281704                -0.0661397       -0.188314     -0.000318162     0.000223671         0.128582        0.965807      6.49272e-05    -0.000221785
                     -0.00022079     0.000106589         0.023429      -0.0583066      -4.7073e-05    -0.000161332          0.59259        -0.79949
                        0.128605        0.966017      3.91373e-05     5.75875e-05       -0.0130619        0.198643       0.00028949     0.000521259
                    -6.71717e-06    -0.000183452         0.592755       -0.799315      0.000286433      0.00011101       -0.0484514       0.0403278
281706                 -0.066209        -0.18832     -0.000318039     0.000223972         0.129025        0.965742      6.49312e-05    -0.000221907
                    -0.000220915     0.000106701        0.0234132      -0.0583322     -4.71095e-05    -0.000161439         0.592257       -0.799735
                        0.129048        0.965952      3.93177e-05     5.75205e-05       -0.0129445        0.198679      0.000288945      0.00052171
                    -6.70005e-06    -0.000183877         0.592422        -0.79956      0.000286548      0.00011114       -0.0484471       0.0403608
281708                -0.0662783       -0.188326     -0.000317916     0.000224273         0.129467        0.965677      6.49385e-05     -0.00022203
                    -0.000221041     0.000106814        0.0233975      -0.0583578     -4.71462e-05    -0.000161546         0.591923       -0.799981
                         0.12949        0.965886      3.94979e-05     5.74528e-05        -0.012827        0.198715      0.000288403     0.000522158
                    -6.68267e-06    -0.000184302         0.592089       -0.799806      0.000286663      0.00011127       -0.0484427       0.0403939
281710                -0.0663476       -0.188332     -0.000317791     0.000224574          0.12991        0.965612       6.4948e-05    -0.000222151
                    -0.000221166     0.000106926        0.0233817      -0.0583834     -4.71832e-05    -0.000161653         0.591589       -0.800226
                        0.129933        0.965821      3.96782e-05     5.73846e-05       -0.0127095        0.198751      0.000287862     0.000522603
                    -6.66503e-06    -0.000184727         0.591755       -0.800051      0.000286779     0.000111401       -0.0484384       0.0404269
281712                 -0.066417       -0.188338     -0.000317666     0.000224875         0.130353        0.965546      6.49588e-05    -0.000222272
                    -0.000221292     0.000107039        0.0233659       -0.058409     -4.72203e-05     -0.00016176         0.591255       -0.800471
                        0.130376        0.965755      3.98583e-05     5.73158e-05       -0.0125919        0.198787      0.000287322     0.000523046
                    -6.64713e-06    -0.000185152         0.591422       -0.800296      0.000286895     0.000111531        -0.048434         0.04046
281714                -0.0664864       -0.188344     -0.000317539     0.000225176         0.130795        0.965481      6.49706e-05    -0.000222393
                    -0.000221417     0.000107151        0.0233502      -0.0584345     -4.72577e-05    -0.000161866         0.590921       -0.800716
                        0.130818         0.96569      4.00385e-05     5.72464e-05       -0.0124743        0.198823      0.000286784     0.000523487
                    -6.62895e-06    -0.000185577         0.591088       -0.800541       0.00028701     0.000111662       -0.0484295        0.040493
281716                -0.0665557        -0.18835     -0.000317412     0.000225478         0.131238        0.965415      6.49828e-05    -0.000222512
                    -0.000221542     0.000107263        0.0233343      -0.0584601     -4.72953e-05    -0.000161973         0.590586       -0.800961
                        0.131261        0.965624      4.02185e-05     5.71765e-05       -0.0123567        0.198859      0.000286247     0.000523926
                    -6.61051e-06    -0.000186002         0.590754       -0.800786      0.000287127     0.000111794       -0.0484251       0.0405261
281718                -0.0666251       -0.188356     -0.000317283     0.000225779          0.13168        0.965349      6.49954e-05    -0.000222632
                    -0.000221667     0.000107375        0.0233185      -0.0584857      -4.7333e-05     -0.00016208         0.590252       -0.801205
                        0.131703        0.965557      4.03985e-05     5.71059e-05        -0.012239        0.198895      0.000285711     0.000524362
                    -6.59179e-06    -0.000186427          0.59042        -0.80103      0.000287243     0.000111925       -0.0484206       0.0405591
281720                -0.0666945       -0.188362     -0.000317154     0.000226081         0.132123        0.965282      6.50081e-05     -0.00022275
                    -0.000221792     0.000107487        0.0233027      -0.0585113      -4.7371e-05    -0.000162186         0.589918        -0.80145
                        0.132145        0.965491      4.05785e-05     5.70347e-05       -0.0121213         0.19893      0.000285177     0.000524797
                     -6.5728e-06    -0.000186851         0.590086       -0.801275       0.00028736     0.000112056       -0.0484161       0.0405922
281722                -0.0667639       -0.188368     -0.000317023     0.000226382         0.132565        0.965216      6.50209e-05    -0.000222869
                    -0.000221917       0.0001076        0.0232868      -0.0585368     -4.74092e-05    -0.000162293         0.589583       -0.801694
                        0.132588        0.965424      4.07583e-05      5.6963e-05       -0.0120035        0.198966      0.000284643     0.000525229
                    -6.55354e-06    -0.000187276         0.589752       -0.801519      0.000287477     0.000112188       -0.0484116       0.0406253
281724                -0.0668333       -0.188374     -0.000316892     0.000226684         0.133008        0.965149      6.50337e-05    -0.000222987
                    -0.000222042     0.000107712        0.0232709      -0.0585624     -4.74477e-05      -0.0001624         0.589248       -0.801938
                         0.13303        0.965358      4.09381e-05     5.68906e-05       -0.0118858        0.199001      0.000284111      0.00052566
                    -6.53399e-06      -0.0001877         0.589418       -0.801763      0.000287594     0.000112319       -0.0484071       0.0406584
281726                -0.0669027        -0.18838      -0.00031676     0.000226986          0.13345        0.965082      6.50466e-05    -0.000223106
                    -0.000222166     0.000107823        0.0232551       -0.058588     -4.74863e-05    -0.000162506         0.588914       -0.802182
                        0.133472        0.965291      4.11178e-05     5.68176e-05       -0.0117679        0.199037      0.000283579      0.00052609
                    -6.51416e-06    -0.000188125         0.589083       -0.802007      0.000287711     0.000112451       -0.0484026       0.0406915
281728                -0.0669722       -0.188386     -0.000316627     0.000227288         0.133893        0.965015      6.50595e-05    -0.000223224
                    -0.000222291     0.000107935        0.0232392      -0.0586135     -4.75251e-05    -0.000162613         0.588579       -0.802426
                        0.133915        0.965223      4.12974e-05     5.67441e-05       -0.0116501        0.199072      0.000283048     0.000526518
                    -6.49404e-06    -0.000188549         0.588749       -0.802251      0.000287828     0.000112582        -0.048398       0.0407246
281730                -0.0670416       -0.188392     -0.000316493      0.00022759         0.134335        0.964948      6.50723e-05    -0.000223342
                    -0.000222415     0.000108047        0.0232232      -0.0586391     -4.75641e-05     -0.00016272         0.588244        -0.80267
                        0.134357        0.965156      4.14769e-05     5.66699e-05       -0.0115321        0.199108      0.000282518     0.000526944
                    -6.47364e-06    -0.000188973         0.588414       -0.802495      0.000287945     0.000112714       -0.0483934       0.0407577
281732                 -0.067111       -0.188398     -0.000316358     0.000227892         0.134777        0.964881      6.50851e-05     -0.00022346
                     -0.00022254     0.000108159        0.0232073      -0.0586647     -4.76033e-05    -0.000162826         0.587909       -0.802914
                        0.134799        0.965088      4.16563e-05     5.65951e-05       -0.0114142        0.199143      0.000281988     0.000527369
                    -6.45295e-06    -0.000189397          0.58808       -0.802739      0.000288063     0.000112846       -0.0483888       0.0407908
281734                -0.0671805       -0.188403     -0.000316222     0.000228194         0.135219        0.964813      6.50978e-05    -0.000223578
                    -0.000222664     0.000108271        0.0231914      -0.0586902     -4.76426e-05    -0.000162933         0.587574       -0.803157
                        0.135241        0.965021      4.18357e-05     5.65197e-05       -0.0112962        0.199178      0.000281459     0.000527792
                    -6.43197e-06    -0.000189821         0.587745       -0.802983       0.00028818     0.000112977       -0.0483842       0.0408239
281736                  -0.06725       -0.188409     -0.000316085     0.000228496         0.135662        0.964745      6.51106e-05    -0.000223696
                    -0.000222788     0.000108382        0.0231754      -0.0587158     -4.76822e-05    -0.000163039         0.587238       -0.803401
                        0.135684        0.964953      4.20149e-05     5.64437e-05       -0.0111782        0.199213       0.00028093     0.000528215
                    -6.41069e-06    -0.000190245          0.58741       -0.803226      0.000288297     0.000113109       -0.0483796        0.040857
281738                -0.0673195       -0.188415     -0.000315947     0.000228798         0.136104        0.964677      6.51233e-05    -0.000223814
                    -0.000222913     0.000108494        0.0231594      -0.0587413      -4.7722e-05    -0.000163145         0.586903       -0.803644
                        0.136126        0.964884       4.2194e-05     5.63671e-05       -0.0110601        0.199248      0.000280402     0.000528636
                    -6.38911e-06    -0.000190669         0.587075       -0.803469      0.000288415     0.000113241       -0.0483749       0.0408901
281740                -0.0673889       -0.188421     -0.000315809       0.0002291         0.136546        0.964609      6.51359e-05    -0.000223932
                    -0.000223037     0.000108605        0.0231434      -0.0587668     -4.77619e-05    -0.000163252         0.586567       -0.803887
                        0.136568        0.964816       4.2373e-05     5.62899e-05        -0.010942        0.199283      0.000279875     0.000529055
                    -6.36723e-06    -0.000191093          0.58674       -0.803712      0.000288532     0.000113373       -0.0483702       0.0409233
281742                -0.0674584       -0.188426     -0.000315669     0.000229402         0.136988         0.96454      6.51485e-05     -0.00022405
                    -0.000223161     0.000108717        0.0231274      -0.0587924      -4.7802e-05    -0.000163358         0.586232        -0.80413
                         0.13701        0.964747      4.25518e-05     5.62121e-05       -0.0108239        0.199318      0.000279347     0.000529474
                    -6.34505e-06    -0.000191516         0.586405       -0.803955       0.00028865     0.000113505       -0.0483655       0.0409564
281744                 -0.067528       -0.188432     -0.000315529     0.000229704          0.13743        0.964471      6.51611e-05    -0.000224169
                    -0.000223285     0.000108828        0.0231114      -0.0588179     -4.78423e-05    -0.000163464         0.585896       -0.804373
                        0.137452        0.964678      4.27306e-05     5.61337e-05       -0.0107057        0.199353       0.00027882     0.000529891
                    -6.32257e-06     -0.00019194          0.58607       -0.804198      0.000288767     0.000113638       -0.0483608       0.0409895
281746                -0.0675975       -0.188438     -0.000315388     0.000230006         0.137872        0.964402      6.51736e-05    -0.000224287
                    -0.000223408     0.000108939        0.0230954      -0.0588434     -4.78828e-05    -0.000163571          0.58556       -0.804616
                        0.137894        0.964609      4.29092e-05     5.60546e-05       -0.0105875        0.199388      0.000278293     0.000530308
                    -6.29978e-06    -0.000192364         0.585734       -0.804441      0.000288884      0.00011377        -0.048356       0.0410227
281748                 -0.067667       -0.188444     -0.000315246     0.000230309         0.138314        0.964333      6.51861e-05    -0.000224405
                    -0.000223532     0.000109051        0.0230793       -0.058869     -4.79235e-05    -0.000163677         0.585224       -0.804858
                        0.138336         0.96454      4.30877e-05      5.5975e-05       -0.0104692        0.199423      0.000277766     0.000530723
                    -6.27667e-06    -0.000192787         0.585399       -0.804684      0.000289002     0.000113902       -0.0483513       0.0410558
281750                -0.0677365       -0.188449     -0.000315104     0.000230611         0.138756        0.964264      6.51985e-05    -0.000224524
                    -0.000223656     0.000109162        0.0230633      -0.0588945     -4.79643e-05    -0.000163783         0.584888         -0.8051
                        0.138778        0.964471      4.32661e-05     5.58947e-05       -0.0103509        0.199457      0.000277239     0.000531137
                    -6.25326e-06     -0.00019321         0.585063       -0.804926      0.000289119     0.000114035       -0.0483465        0.041089
281752                -0.0678061       -0.188455      -0.00031496     0.000230913         0.139198        0.964194      6.52108e-05    -0.000224643
                    -0.000223779     0.000109273        0.0230472        -0.05892     -4.80053e-05    -0.000163889         0.584552       -0.805343
                         0.13922        0.964401      4.34443e-05     5.58138e-05       -0.0102325        0.199492      0.000276713     0.000531551
                    -6.22953e-06    -0.000193634         0.584727       -0.805169      0.000289237     0.000114168       -0.0483417       0.0411222
281754                -0.0678757        -0.18846     -0.000314816     0.000231214          0.13964        0.964125      6.52231e-05    -0.000224762
                    -0.000223903     0.000109384        0.0230311      -0.0589455     -4.80465e-05    -0.000163995         0.584216       -0.805585
                        0.139661        0.964331      4.36224e-05     5.57322e-05       -0.0101142        0.199526      0.000276186     0.000531963
                    -6.20547e-06    -0.000194057         0.584392       -0.805411      0.000289354     0.000114301       -0.0483368       0.0411553
281756                -0.0679452       -0.188466     -0.000314671     0.000231516         0.140082        0.964055      6.52353e-05    -0.000224881
                    -0.000224026     0.000109495         0.023015      -0.0589711     -4.80878e-05    -0.000164101          0.58388       -0.805827
                        0.140103        0.964261      4.38004e-05     5.56501e-05      -0.00999575        0.199561      0.000275659     0.000532375
                     -6.1811e-06     -0.00019448         0.584056       -0.805653      0.000289472     0.000114434        -0.048332       0.0411885
281758                -0.0680148       -0.188472     -0.000314525     0.000231818         0.140524        0.963985      6.52474e-05       -0.000225
                    -0.000224149     0.000109605        0.0229988      -0.0589966     -4.81294e-05    -0.000164207         0.583543       -0.806069
                        0.140545        0.964191      4.39782e-05     5.55674e-05       -0.0098773        0.199595      0.000275131     0.000532786
                    -6.15641e-06    -0.000194903          0.58372       -0.805895      0.000289589     0.000114568       -0.0483271       0.0412217
281760                -0.0680844       -0.188477     -0.000314378      0.00023212         0.140966        0.963914      6.52594e-05    -0.000225119
                    -0.000224272     0.000109716        0.0229827      -0.0590221     -4.81711e-05    -0.000164313         0.583207       -0.806311
                        0.140987         0.96412      4.41558e-05      5.5484e-05       -0.0097588        0.199629      0.000274604     0.000533196
                    -6.13138e-06    -0.000195326         0.583384       -0.806137      0.000289707     0.000114701       -0.0483222       0.0412549
281762                 -0.068154       -0.188483     -0.000314231     0.000232422         0.141407        0.963844      6.52713e-05    -0.000225238
                    -0.000224395     0.000109827        0.0229665      -0.0590476     -4.82131e-05    -0.000164419          0.58287       -0.806552
                        0.141428         0.96405      4.43333e-05        5.54e-05      -0.00964027        0.199664      0.000274075     0.000533605
