! TOUCHSTONE file generated by CST MICROWAVE STUDIO
! Date and time: Tue Oct 14 07:32:44 2025
! Project name: Teste_Macro_Metasurface_Nanopilar.cst
! Parameters = {H=600; L_x=195; L_y=115; Lambda=1064; Max_L=200; Min_L=70; PathPara=1; Phi=0; Step_L=10; Theta=0; p=520; phaseX=180; phaseY=0}
! Header version: 2018
! Port assignment regex: !\s*Touchstone port\s*([0-9]+)\s*=\s*(CST MWS port|CST DS port)\s*([0-9]+|Zmin|Zmax)\s*\(\"(.*)\"\)(\s*mode\s*([0-9]+))?.*
! Touchstone port assignment:
! Touchstone port 1 = CST MWS port Zmax ("") mode 1
! Touchstone port 2 = CST MWS port Zmax ("") mode 2
! Touchstone port 3 = CST MWS port Zmin ("") mode 1
! Touchstone port 4 = CST MWS port Zmin ("") mode 2
! S-Parameters are not renormalized. Each port impedance will be approximated by the real part at minimum frequency. The values are described via the [Reference] keyword.
! Default impedance is overridden by [Reference]
[Version] 2.0
# GHz S RI R 376.73
[Number of Ports] 4
[Reference]
376.73 376.73 259.814 259.814 
[Number of Frequencies] 51
[Network Data]
281700                 -0.075704      -0.0696383      0.000169413     0.000438097        -0.267809        0.951673     -0.000309869     8.93203e-05
                     0.000223299     0.000272089        -0.156167       0.0914928     -0.000160719     0.000122109         0.706995        0.675662
                       -0.268114        0.952037     -0.000296057     0.000138635       -0.0991725       0.0209806     -0.000178513    -0.000507451
                    -0.000219681     0.000196467         0.707046        0.674858     -0.000244563    -0.000717343       -0.0840287        0.153055
281702                -0.0757263       -0.069635      0.000169697     0.000438231        -0.267371        0.951795     -0.000309794     8.95663e-05
                     0.000223313     0.000272237        -0.156137        0.091487     -0.000161131     0.000122236         0.707302        0.675349
                       -0.267677        0.952159     -0.000296097     0.000138939       -0.0991711       0.0210579     -0.000178527    -0.000507194
                    -0.000219468     0.000196763         0.707353        0.674545     -0.000244465    -0.000716574       -0.0838842        0.153102
281704                -0.0757487      -0.0696316      0.000169981     0.000438366        -0.266933        0.951917      -0.00030972     8.98122e-05
                     0.000223326     0.000272384        -0.156106       0.0914812     -0.000161542     0.000122363          0.70761        0.675035
                       -0.267239        0.952282     -0.000296137     0.000139244       -0.0991696       0.0211351     -0.000178541    -0.000506937
                    -0.000219257     0.000197058          0.70766        0.674232     -0.000244368    -0.000715807       -0.0837398        0.153148
281706                -0.0757711      -0.0696281      0.000170264     0.000438501        -0.266495        0.952038     -0.000309645     9.00581e-05
                     0.000223338     0.000272532        -0.156076       0.0914754     -0.000161952      0.00012249         0.707917        0.674721
                       -0.266801        0.952404     -0.000296177     0.000139549        -0.099168       0.0212123     -0.000178554     -0.00050668
                    -0.000219048     0.000197352         0.707966        0.673918     -0.000244272    -0.000715042       -0.0835953        0.153194
281708                -0.0757934      -0.0696247      0.000170547     0.000438636        -0.266057        0.952159      -0.00030957     9.03038e-05
                     0.000223349      0.00027268        -0.156046       0.0914696     -0.000162361     0.000122617         0.708224        0.674407
                       -0.266363        0.952526     -0.000296218     0.000139853       -0.0991664       0.0212895     -0.000178567    -0.000506423
                     -0.00021884     0.000197646         0.708273        0.673604     -0.000244178    -0.000714278       -0.0834508         0.15324
281710                -0.0758158      -0.0696213      0.000170829     0.000438771        -0.265619         0.95228     -0.000309494     9.05495e-05
                     0.000223358     0.000272828        -0.156015       0.0914638     -0.000162768     0.000122745          0.70853        0.674092
                       -0.265925        0.952648     -0.000296258     0.000140158       -0.0991647       0.0213668      -0.00017858    -0.000506165
                    -0.000218633     0.000197939         0.708579        0.673291     -0.000244085    -0.000713515       -0.0833063        0.153285
281712                -0.0758382      -0.0696179       0.00017111     0.000438906        -0.265181        0.952401     -0.000309418      9.0795e-05
                     0.000223366     0.000272975        -0.155985        0.091458     -0.000163174     0.000122873         0.708837        0.673778
                       -0.265487        0.952769     -0.000296299     0.000140463        -0.099163        0.021444     -0.000178592    -0.000505908
                    -0.000218429     0.000198232         0.708885        0.672977     -0.000243994    -0.000712754       -0.0831618        0.153331
281714                -0.0758606      -0.0696144      0.000171391     0.000439042        -0.264743        0.952521     -0.000309342     9.10405e-05
                     0.000223373     0.000273123        -0.155955       0.0914522     -0.000163579     0.000123001         0.709144        0.673464
                       -0.265049         0.95289     -0.000296339     0.000140768       -0.0991612       0.0215213     -0.000178604     -0.00050565
                    -0.000218226     0.000198524         0.709191        0.672663     -0.000243904    -0.000711995       -0.0830173        0.153377
281716                 -0.075883       -0.069611      0.000171671     0.000439178        -0.264304        0.952641     -0.000309266     9.12858e-05
                     0.000223378     0.000273271        -0.155925       0.0914464     -0.000163983      0.00012313          0.70945        0.673149
                       -0.264611        0.953012      -0.00029638     0.000141073       -0.0991594       0.0215985     -0.000178615    -0.000505392
                    -0.000218024     0.000198816         0.709497        0.672348     -0.000243816    -0.000711237       -0.0828728        0.153422
281718                -0.0759054      -0.0696076      0.000171951     0.000439314        -0.263866        0.952762     -0.000309189     9.15311e-05
                     0.000223383     0.000273419        -0.155894       0.0914406     -0.000164386     0.000123259         0.709756        0.672834
                       -0.264172        0.953133     -0.000296421     0.000141379       -0.0991575       0.0216757     -0.000178625    -0.000505134
                    -0.000217824     0.000199107         0.709803        0.672034     -0.000243729     -0.00071048       -0.0827282        0.153468
281720                -0.0759279      -0.0696041       0.00017223      0.00043945        -0.263428        0.952881     -0.000309111     9.17763e-05
                     0.000223386     0.000273566        -0.155864       0.0914348     -0.000164787     0.000123388         0.710062        0.672519
                       -0.263734        0.953253     -0.000296462     0.000141684       -0.0991555        0.021753     -0.000178635    -0.000504875
                    -0.000217626     0.000199398         0.710109         0.67172     -0.000243644    -0.000709725       -0.0825837        0.153513
281722                -0.0759503      -0.0696006      0.000172508     0.000439586        -0.262989        0.953001     -0.000309034     9.20214e-05
                     0.000223388     0.000273714        -0.155834        0.091429     -0.000165187     0.000123517         0.710368        0.672204
                       -0.263296        0.953374     -0.000296504      0.00014199       -0.0991535       0.0218302     -0.000178645    -0.000504617
                    -0.000217429     0.000199688         0.710414        0.671405      -0.00024356    -0.000708972       -0.0824391        0.153558
281724                -0.0759727      -0.0695972      0.000172786     0.000439723        -0.262551        0.953121     -0.000308956     9.22663e-05
                     0.000223388     0.000273862        -0.155804       0.0914232     -0.000165586     0.000123646         0.710674        0.671889
                       -0.262858        0.953494     -0.000296545     0.000142295       -0.0991515       0.0219075     -0.000178654    -0.000504358
                    -0.000217234     0.000199978         0.710719         0.67109     -0.000243477     -0.00070822       -0.0822946        0.153603
281726                -0.0759952      -0.0695937      0.000173063      0.00043986        -0.262113         0.95324     -0.000308878     9.25112e-05
                     0.000223388      0.00027401        -0.155774       0.0914174     -0.000165984     0.000123775         0.710979        0.671574
                       -0.262419        0.953614     -0.000296587     0.000142601       -0.0991493       0.0219848     -0.000178663    -0.000504099
                    -0.000217041     0.000200268         0.711024        0.670775     -0.000243397     -0.00070747         -0.08215        0.153648
281728                -0.0760176      -0.0695902      0.000173339     0.000439997        -0.261674        0.953359     -0.000308799      9.2756e-05
                     0.000223386     0.000274157        -0.155744       0.0914116     -0.000166381     0.000123905         0.711285        0.671258
                       -0.261981        0.953734     -0.000296629     0.000142907       -0.0991472        0.022062     -0.000178671     -0.00050384
                    -0.000216849     0.000200557         0.711329         0.67046     -0.000243317    -0.000706722       -0.0820054        0.153693
281730                  -0.07604      -0.0695867      0.000173615     0.000440134        -0.261235        0.953478     -0.000308721     9.30007e-05
                     0.000223383     0.000274305        -0.155714       0.0914058     -0.000166776     0.000124034          0.71159        0.670943
                       -0.261542        0.953854     -0.000296671     0.000143213       -0.0991449       0.0221393     -0.000178678    -0.000503581
                    -0.000216659     0.000200846         0.711634        0.670145      -0.00024324    -0.000705975       -0.0818608        0.153737
281732                -0.0760625      -0.0695832       0.00017389     0.000440271        -0.260797        0.953596     -0.000308642     9.32453e-05
                     0.000223379     0.000274453        -0.155684          0.0914      -0.00016717     0.000124164         0.711895        0.670627
                       -0.261104        0.953973     -0.000296713     0.000143519       -0.0991426       0.0222166     -0.000178685    -0.000503321
                     -0.00021647     0.000201134         0.711939         0.66983     -0.000243164    -0.000705231       -0.0817162        0.153782
281734                 -0.076085      -0.0695797      0.000174165     0.000440409        -0.260358        0.953715     -0.000308562     9.34898e-05
                     0.000223374     0.000274601        -0.155654       0.0913943     -0.000167562     0.000124293           0.7122        0.670311
                       -0.260665        0.954092     -0.000296755     0.000143825       -0.0991403       0.0222938     -0.000178692    -0.000503061
                    -0.000216283     0.000201422         0.712244        0.669514      -0.00024309    -0.000704488       -0.0815716        0.153826
281736                -0.0761074      -0.0695762      0.000174438     0.000440546         -0.25992        0.953833     -0.000308482     9.37343e-05
                     0.000223367     0.000274748        -0.155624       0.0913885     -0.000167954     0.000124423         0.712505        0.669995
                       -0.260227        0.954211     -0.000296798     0.000144132       -0.0991379       0.0223711     -0.000178698    -0.000502801
                    -0.000216098     0.000201709         0.712548        0.669199     -0.000243018    -0.000703747        -0.081427        0.153871
281738                -0.0761299      -0.0695726      0.000174712     0.000440684        -0.259481        0.953951     -0.000308402     9.39786e-05
                      0.00022336     0.000274896        -0.155594       0.0913827     -0.000168344     0.000124553          0.71281        0.669679
                       -0.259788         0.95433      -0.00029684     0.000144438       -0.0991355       0.0224484     -0.000178703    -0.000502541
                    -0.000215914     0.000201996         0.712852        0.668883     -0.000242948    -0.000703007       -0.0812824        0.153915
281740                -0.0761524      -0.0695691      0.000174984     0.000440822        -0.259042        0.954069     -0.000308322     9.42228e-05
                     0.000223351     0.000275044        -0.155564       0.0913769     -0.000168733     0.000124682         0.713114        0.669362
                       -0.259349        0.954449     -0.000296883     0.000144745       -0.0991329       0.0225257     -0.000178708    -0.000502281
                    -0.000215732     0.000202283         0.713156        0.668567      -0.00024288     -0.00070227       -0.0811377        0.153959
281742                -0.0761749      -0.0695655      0.000175256      0.00044096        -0.258603        0.954186     -0.000308241     9.44669e-05
                     0.000223341     0.000275192        -0.155534       0.0913711      -0.00016912     0.000124812         0.713419        0.669046
                       -0.258911        0.954567     -0.000296926     0.000145051       -0.0991304       0.0226029     -0.000178713     -0.00050202
                    -0.000215552     0.000202569          0.71346        0.668251     -0.000242813    -0.000701534       -0.0809931        0.154003
281744                -0.0761974       -0.069562      0.000175527     0.000441099        -0.258164        0.954304      -0.00030816     9.47109e-05
                      0.00022333      0.00027534        -0.155504       0.0913653     -0.000169506     0.000124941         0.713723         0.66873
                       -0.258472        0.954685     -0.000296969     0.000145358       -0.0991278       0.0226802     -0.000178717     -0.00050176
                    -0.000215373     0.000202855         0.713764        0.667935     -0.000242749      -0.0007008       -0.0808484        0.154047
281746                -0.0762199      -0.0695584      0.000175797     0.000441237        -0.257725        0.954421     -0.000308078     9.49548e-05
                     0.000223318     0.000275487        -0.155474       0.0913596     -0.000169891     0.000125071         0.714027        0.668413
                       -0.258033        0.954803     -0.000297013     0.000145665       -0.0991251       0.0227575      -0.00017872    -0.000501499
                    -0.000215196     0.000203141         0.714068        0.667619     -0.000242687    -0.000700068       -0.0807038        0.154091
281748                -0.0762424      -0.0695549      0.000176067     0.000441375        -0.257286        0.954538     -0.000307996     9.51986e-05
                     0.000223305     0.000275635        -0.155444       0.0913538     -0.000170274       0.0001252         0.714331        0.668096
                       -0.257594        0.954921     -0.000297056     0.000145972       -0.0991223       0.0228348     -0.000178723    -0.000501237
                     -0.00021502     0.000203426         0.714371        0.667303     -0.000242626    -0.000699338       -0.0805591        0.154134
281750                -0.0762649      -0.0695513      0.000176336     0.000441514        -0.256847        0.954655     -0.000307914     9.54424e-05
                     0.000223291     0.000275783        -0.155414        0.091348     -0.000170656     0.000125329         0.714635        0.667779
                       -0.257155        0.955039       -0.0002971      0.00014628       -0.0991196       0.0229121     -0.000178726    -0.000500976
                    -0.000214846     0.000203711         0.714674        0.666986     -0.000242568    -0.000698609       -0.0804144        0.154178
281752                -0.0762874      -0.0695477      0.000176604     0.000441653        -0.256408        0.954771     -0.000307832      9.5686e-05
                     0.000223275     0.000275931        -0.155385       0.0913422     -0.000171037     0.000125458         0.714938        0.667462
                       -0.256716        0.955156     -0.000297144     0.000146587       -0.0991167       0.0229894     -0.000178727    -0.000500714
                    -0.000214674     0.000203996         0.714978         0.66667     -0.000242512    -0.000697883       -0.0802697        0.154221
281754                -0.0763099      -0.0695441      0.000176872     0.000441792        -0.255969        0.954888     -0.000307749     9.59295e-05
                     0.000223259     0.000276079        -0.155355       0.0913365     -0.000171416     0.000125587         0.715242        0.667145
                       -0.256277        0.955273     -0.000297188     0.000146894       -0.0991138       0.0230667     -0.000178729    -0.000500452
                    -0.000214503     0.000204281         0.715281        0.666353     -0.000242458    -0.000697158       -0.0801251        0.154265
281756                -0.0763324      -0.0695405      0.000177139     0.000441931         -0.25553        0.955004     -0.000307666     9.61729e-05
                     0.000223241     0.000276226        -0.155325       0.0913307     -0.000171794     0.000125716         0.715545        0.666827
                       -0.255838         0.95539     -0.000297233     0.000147202       -0.0991109        0.023144      -0.00017873     -0.00050019
                    -0.000214334     0.000204565         0.715584        0.666036     -0.000242406    -0.000696434       -0.0799804        0.154308
281758                 -0.076355      -0.0695369      0.000177405      0.00044207        -0.255091         0.95512     -0.000307583     9.64162e-05
                     0.000223223     0.000276374        -0.155295       0.0913249     -0.000172171     0.000125844         0.715848         0.66651
                       -0.255399        0.955507     -0.000297277     0.000147509       -0.0991078       0.0232213      -0.00017873    -0.000499928
                    -0.000214167     0.000204849         0.715886        0.665719     -0.000242357    -0.000695713       -0.0798357        0.154351
281760                -0.0763775      -0.0695333       0.00017767     0.000442209        -0.254652        0.955235     -0.000307499     9.66594e-05
                     0.000223203     0.000276522        -0.155266       0.0913191     -0.000172546     0.000125972         0.716151        0.666192
                        -0.25496        0.955623     -0.000297322     0.000147817       -0.0991048       0.0232986      -0.00017873    -0.000499665
                    -0.000214001     0.000205133         0.716189        0.665402      -0.00024231    -0.000694993       -0.0796909        0.154394
281762                -0.0764001      -0.0695297      0.000177935     0.000442348        -0.254212        0.955351     -0.000307415     9.69025e-05
                     0.000223182      0.00027667        -0.155236       0.0913134      -0.00017292       0.0001261         0.716454        0.665875
                       -0.254521         0.95574     -0.000297367     0.000148125       -0.0991016       0.0233759     -0.000178729    -0.000499402
