! TOUCHSTONE file generated by CST MICROWAVE STUDIO
! Date and time: Tue Oct 14 07:32:58 2025
! Project name: Teste_Macro_Metasurface_Nanopilar.cst
! Parameters = {H=600; L_x=200; L_y=80; Lambda=1064; Max_L=200; Min_L=70; PathPara=1; Phi=0; Step_L=10; Theta=0; p=520; phaseX=180; phaseY=0}
! Header version: 2018
! Port assignment regex: !\s*Touchstone port\s*([0-9]+)\s*=\s*(CST MWS port|CST DS port)\s*([0-9]+|Zmin|Zmax)\s*\(\"(.*)\"\)(\s*mode\s*([0-9]+))?.*
! Touchstone port assignment:
! Touchstone port 1 = CST MWS port Zmax ("") mode 1
! Touchstone port 2 = CST MWS port Zmax ("") mode 2
! Touchstone port 3 = CST MWS port Zmin ("") mode 1
! Touchstone port 4 = CST MWS port Zmin ("") mode 2
! S-Parameters are not renormalized. Each port impedance will be approximated by the real part at minimum frequency. The values are described via the [Reference] keyword.
! Default impedance is overridden by [Reference]
[Version] 2.0
# GHz S RI R 376.73
[Number of Ports] 4
[Reference]
376.73 376.73 259.814 259.814 
[Number of Frequencies] 51
[Network Data]
281700                 0.0392187      0.00841226      0.000791246     0.000234171         0.820589       -0.567287      0.000596839     0.000168435
                     0.000898706     9.74666e-05        -0.385363       -0.508325      7.05203e-05     0.000311974         0.655416        0.382619
                        0.820702       -0.567457     -5.12023e-06     0.000273057      -0.00593152       0.0403169      -0.00099988     0.000492953
                     0.000643979     0.000235925         0.655735        0.382897     -0.000971894     0.000465395         0.630014       0.0699253
281702                 0.0392282      0.00838781      0.000791417      0.00023384         0.820367       -0.567608      0.000596907     0.000168161
                     0.000898666     9.71119e-05        -0.385678       -0.508262      7.08151e-05     0.000311979         0.655541        0.382168
                         0.82048       -0.567777     -4.77932e-06     0.000273128      -0.00592648       0.0403219     -0.000999856     0.000493668
                     0.000644076     0.000235397          0.65586        0.382445     -0.000971718     0.000465945         0.630204       0.0694696
281704                 0.0392372       0.0083635      0.000791588     0.000233509         0.820145       -0.567928      0.000596977     0.000167887
                     0.000898301     9.74698e-05        -0.385992       -0.508198      7.11094e-05     0.000311985         0.655665        0.381717
                        0.820258         -0.5681     -4.43794e-06     0.000273198      -0.00592145       0.0403268      -0.00099983     0.000494382
                     0.000633589     0.000260983         0.655985        0.381994     -0.000971541     0.000466495         0.630393       0.0690137
281706                 0.0392454      0.00833936      0.000791759     0.000233178         0.819923       -0.568248      0.000597047     0.000167614
                     0.000898058     9.85957e-05        -0.386307       -0.508135      7.14032e-05      0.00031199         0.655789        0.381266
                        0.820035       -0.568428     -4.09608e-06     0.000273268      -0.00591641       0.0403318     -0.000999802     0.000495096
                     0.000635873     0.000131928         0.656109        0.381543     -0.000971364     0.000467045         0.630583       0.0685574
281708                 0.0392525       0.0083154      0.000791929     0.000232846         0.819701       -0.568568      0.000597118      0.00016734
                     0.000898479     9.99658e-05        -0.386622       -0.508071      7.16967e-05     0.000311995         0.655913        0.380815
                        0.819812       -0.568763     -3.75375e-06     0.000273337      -0.00591136       0.0403367     -0.000999772      0.00049581
                     0.000649714     0.000184102         0.656233        0.381091     -0.000971186     0.000467595         0.630772       0.0681009
281710                 0.0392574       0.0082914      0.000792099     0.000232515         0.819478       -0.568888       0.00059719     0.000167066
                     0.000899423     0.000100865        -0.386937       -0.508006        7.199e-05     0.000312001         0.656036        0.380363
                        0.819586       -0.569114     -3.41096e-06     0.000273407      -0.00590632       0.0403417      -0.00099974     0.000496525
                     0.000650103      0.00019203         0.656356         0.38064     -0.000971007     0.000468145         0.630961       0.0676441
281712                 0.0392584      0.00826628      0.000792269     0.000232183         0.819256       -0.569208      0.000597263     0.000166793
                     0.000900394     0.000101162        -0.387252       -0.507942       7.2283e-05     0.000312007         0.656159        0.379912
                        0.819347       -0.569499     -3.06771e-06     0.000273476      -0.00590127       0.0403466     -0.000999705     0.000497242
                     0.000650189     0.000194645          0.65648        0.380188     -0.000970828     0.000468696         0.631149       0.0671871
281714                 0.0392521      0.00823455      0.000792439     0.000231851         0.819033       -0.569527      0.000597335      0.00016652
                     0.000901161     0.000101077        -0.387567       -0.507877      7.25759e-05     0.000312013         0.656282         0.37946
                        0.819022       -0.569987       -2.724e-06     0.000273544      -0.00589622       0.0403516     -0.000999669      0.00049796
                     0.000650268     0.000195668         0.656602        0.379736     -0.000970647     0.000469246         0.631337       0.0667297
281716                 0.0392477      0.00817727      0.000792608     0.000231519         0.818811       -0.569847      0.000597409     0.000166246
                     0.000901716     0.000100803        -0.387883       -0.507813      7.28686e-05     0.000312019         0.656404        0.379009
                        0.818057       -0.570013     -2.37985e-06     0.000273612      -0.00589117       0.0403566     -0.000999632      0.00049868
                      0.00065036     0.000196035         0.656725        0.379284     -0.000970466     0.000469797         0.631525       0.0662721
281718                 0.0392916      0.00811985      0.000792777     0.000231187         0.818588       -0.570166      0.000597482     0.000165973
                     0.000902111     0.000100443        -0.388198       -0.507748      7.31613e-05     0.000312025         0.656526        0.378557
                        0.818452       -0.569929     -2.03525e-06      0.00027368      -0.00588611       0.0403616     -0.000999594     0.000499402
                     0.000650464     0.000196079         0.656847        0.378832     -0.000970285     0.000470348         0.631712       0.0658142
281720                 0.0393303      0.00810701      0.000792946     0.000230855         0.818365       -0.570486      0.000597556       0.0001657
                     0.000902396     0.000100045        -0.388513       -0.507683       7.3454e-05     0.000312031         0.656648        0.378105
                        0.818369       -0.570353     -1.69021e-06     0.000273748      -0.00588105       0.0403665     -0.000999557     0.000500125
                     0.000650577     0.000195947         0.656969         0.37838     -0.000970102     0.000470899           0.6319        0.065356
281722                 0.0393475      0.00809554      0.000793115     0.000230523         0.818142       -0.570805       0.00059763     0.000165427
                     0.000902606     9.96302e-05        -0.388829       -0.507618      7.37466e-05     0.000312037         0.656769        0.377654
                        0.818185       -0.570723     -1.34473e-06     0.000273815      -0.00587599       0.0403715     -0.000999519     0.000500849
                     0.000650697     0.000195711          0.65709        0.377928     -0.000969919     0.000471451         0.632087       0.0648975
281724                 0.0393587      0.00807868      0.000793283      0.00023019         0.817918       -0.571125      0.000597704     0.000165153
                     0.000902766     9.92073e-05        -0.389144       -0.507552      7.40393e-05     0.000312043          0.65689        0.377202
                        0.817978       -0.571069     -9.98824e-07     0.000273882      -0.00587092       0.0403765     -0.000999481     0.000501573
                     0.000650822     0.000195411         0.657211        0.377476     -0.000969735     0.000472002         0.632273       0.0644388
281726                 0.0393684      0.00805864      0.000793451     0.000229857         0.817695       -0.571444      0.000597778      0.00016488
                     0.000902891     9.87808e-05         -0.38946       -0.507486       7.4332e-05     0.000312049         0.657011         0.37675
                        0.817763       -0.571403     -6.52489e-07     0.000273949      -0.00586585       0.0403815     -0.000999443     0.000502297
                     0.000650949     0.000195069         0.657332        0.377024     -0.000969551     0.000472554          0.63246       0.0639797
281728                 0.0393777      0.00803687      0.000793619     0.000229525         0.817471       -0.571763      0.000597852     0.000164607
                     0.000902992     9.83528e-05        -0.389775       -0.507421      7.46248e-05     0.000312055         0.657131        0.376298
                        0.817544       -0.571732     -3.05732e-07     0.000274016      -0.00586078       0.0403865     -0.000999405     0.000503022
                      0.00065108     0.000194698         0.657452        0.376571     -0.000969366     0.000473105         0.632646       0.0635204
281730                 0.0393868       0.0080141      0.000793787     0.000229192         0.817248       -0.572082      0.000597927     0.000164334
                     0.000903075     9.79241e-05        -0.390091       -0.507355      7.49177e-05     0.000312061         0.657251        0.375845
                        0.817324       -0.572058      4.14439e-08     0.000274082      -0.00585571       0.0403915     -0.000999366     0.000503747
                     0.000651213     0.000194308         0.657572        0.376119      -0.00096918     0.000473657         0.632831       0.0630609
281732                  0.039396      0.00799072      0.000793954     0.000228859         0.817024       -0.572401      0.000598001     0.000164061
                     0.000903147     9.74953e-05        -0.390407       -0.507288      7.52107e-05     0.000312067          0.65737        0.375393
                        0.817102       -0.572381      3.89035e-07     0.000274147      -0.00585063       0.0403965     -0.000999326     0.000504472
                     0.000651347     0.000193904         0.657692        0.375666     -0.000968994     0.000474209         0.633017        0.062601
281734                 0.0394052      0.00796695      0.000794121     0.000228525           0.8168        -0.57272      0.000598076     0.000163788
                     0.000903209     9.70664e-05        -0.390723       -0.507222      7.55038e-05     0.000312072          0.65749        0.374941
                         0.81688       -0.572703      7.37037e-07     0.000274213      -0.00584555       0.0404015     -0.000999286     0.000505197
                     0.000651482      0.00019349         0.657811        0.375213     -0.000968807     0.000474762         0.633202       0.0621409
281736                 0.0394144      0.00794292      0.000794288     0.000228192         0.816576       -0.573039      0.000598151     0.000163515
                     0.000903264     9.66376e-05        -0.391039       -0.507155       7.5797e-05     0.000312078         0.657609        0.374488
                        0.816657       -0.573023      1.08545e-06     0.000274278      -0.00584047       0.0404065     -0.000999245     0.000505922
                     0.000651618     0.000193068          0.65793        0.374761     -0.000968619     0.000475314         0.633387       0.0616804
281738                 0.0394236       0.0079187      0.000794455     0.000227858         0.816352       -0.573357      0.000598226     0.000163242
                     0.000903314     9.62089e-05        -0.391355       -0.507089      7.60904e-05     0.000312083         0.657727        0.374036
                        0.816433       -0.573343      1.43427e-06     0.000274343      -0.00583538       0.0404115     -0.000999203     0.000506648
                     0.000651754     0.000192641         0.658049        0.374308     -0.000968431     0.000475867         0.633571       0.0612197
281740                 0.0394329      0.00789436      0.000794622     0.000227525         0.816128       -0.573676      0.000598301     0.000162969
                      0.00090336     9.57804e-05        -0.391671       -0.507022      7.63839e-05     0.000312088         0.657845        0.373583
                        0.816209       -0.573663       1.7835e-06     0.000274407      -0.00583029       0.0404165      -0.00099916     0.000507373
                     0.000651891     0.000192211         0.658167        0.373855     -0.000968242      0.00047642         0.633755       0.0607588
281742                 0.0394421      0.00786993      0.000794788     0.000227191         0.815903       -0.573994      0.000598376     0.000162696
                     0.000903403     9.53519e-05        -0.391987       -0.506955      7.66775e-05     0.000312093         0.657963        0.373131
                        0.815985       -0.573982      2.13314e-06     0.000274471       -0.0058252       0.0404215     -0.000999116     0.000508099
                     0.000652028     0.000191777         0.658285        0.373402     -0.000968053     0.000476973         0.633939       0.0602975
281744                 0.0394513      0.00784543      0.000794954     0.000226857         0.815679       -0.574313      0.000598451     0.000162423
                     0.000903444     9.49234e-05        -0.392303       -0.506887      7.69712e-05     0.000312097         0.658081        0.372678
                        0.815761       -0.574301      2.48322e-06     0.000274535       -0.0058201       0.0404265     -0.000999071     0.000508826
                     0.000652166      0.00019134         0.658403        0.372949     -0.000967863     0.000477526         0.634123        0.059836
281746                 0.0394605      0.00782088       0.00079512     0.000226523         0.815454       -0.574631      0.000598526      0.00016215
                     0.000903483     9.44951e-05        -0.392619        -0.50682      7.72651e-05     0.000312101         0.658198        0.372225
                        0.815537        -0.57462      2.83376e-06     0.000274599        -0.005815       0.0404316     -0.000999026     0.000509552
                     0.000652303     0.000190902          0.65852        0.372496     -0.000967673     0.000478079         0.634306       0.0593742
281748                 0.0394697       0.0077963      0.000795286     0.000226189         0.815229       -0.574949      0.000598601     0.000161877
                      0.00090352     9.40668e-05        -0.392935       -0.506752      7.75591e-05     0.000312106         0.658315        0.371772
                        0.815312       -0.574938      3.18487e-06     0.000274662       -0.0058099       0.0404366     -0.000998979     0.000510279
                     0.000652441     0.000190463         0.658637        0.372043     -0.000967482     0.000478632         0.634489       0.0589121
281750                 0.0394789      0.00777169      0.000795452     0.000225855         0.815005       -0.575268      0.000598676     0.000161604
                     0.000903556     9.36385e-05        -0.393252       -0.506684      7.78532e-05     0.000312109         0.658431        0.371319
                        0.815087       -0.575256       3.5367e-06     0.000274726      -0.00580479       0.0404416     -0.000998932     0.000511005
                     0.000652578     0.000190022         0.658754        0.371589     -0.000967291     0.000479186         0.634672       0.0584498
281752                 0.0394881      0.00774705      0.000795618     0.000225521          0.81478       -0.575586      0.000598752     0.000161331
                     0.000903592     9.32102e-05        -0.393568       -0.506616      7.81473e-05     0.000312113         0.658547        0.370866
                        0.814862       -0.575574      3.88529e-06     0.000274792      -0.00579968       0.0404467     -0.000998884     0.000511732
                     0.000652715     0.000189581          0.65887        0.371136     -0.000967099      0.00047974         0.634854       0.0579871
281754                 0.0394973      0.00772241      0.000795784     0.000225185         0.814554       -0.575904      0.000598827     0.000161058
                     0.000903626      9.2782e-05        -0.393885       -0.506548      7.84413e-05     0.000312116         0.658663        0.370413
                        0.814637       -0.575892      4.23475e-06      0.00027485      -0.00579457       0.0404517     -0.000998835     0.000512459
                     0.000652852     0.000189138         0.658986        0.370683     -0.000966907     0.000480293         0.635036       0.0575242
281756                 0.0395065      0.00769775      0.000795949     0.000224849         0.814329       -0.576222      0.000598903     0.000160785
                      0.00090366     9.23538e-05        -0.394202       -0.506479      7.87351e-05      0.00031212         0.658778         0.36996
                        0.814412        -0.57621      4.58791e-06      0.00027491      -0.00578946       0.0404568     -0.000998785     0.000513187
                     0.000652989     0.000188696         0.659102        0.370229     -0.000966714     0.000480847         0.635218        0.057061
281758                 0.0395156      0.00767309      0.000796113     0.000224513         0.814104       -0.576539      0.000598978     0.000160512
                     0.000903693     9.19256e-05        -0.394518       -0.506411      7.90284e-05     0.000312122         0.658893        0.369506
                        0.814187       -0.576528      4.94086e-06     0.000274971      -0.00578434       0.0404618     -0.000998734     0.000513914
                     0.000653125     0.000188252         0.659217        0.369775     -0.000966521     0.000481401           0.6354       0.0565976
281760                 0.0395248      0.00764842      0.000796278     0.000224178         0.813878       -0.576857      0.000599054     0.000160239
                     0.000903726     9.14975e-05        -0.394835       -0.506342      7.93212e-05     0.000312123         0.659008        0.369053
                        0.813962       -0.576846      5.29393e-06     0.000275032      -0.00577922       0.0404669     -0.000998683     0.000514642
                     0.000653262     0.000187809         0.659332        0.369322     -0.000966328     0.000481955         0.635581       0.0561338
281762                 0.0395339      0.00762374      0.000796442     0.000223842         0.813653       -0.577175       0.00059913     0.000159967
                     0.000903758     9.10693e-05        -0.395152       -0.506273      7.96147e-05     0.000312122         0.659123        0.368599
                        0.813736       -0.577163      5.64722e-06     0.000275093      -0.00577409       0.0404719      -0.00099863      0.00051537
