! TOUCHSTONE file generated by CST MICROWAVE STUDIO
! Date and time: Tue Oct 14 07:27:15 2025
! Project name: Teste_Macro_Metasurface_Nanopilar.cst
! Parameters = {H=600; L_x=105; L_y=195; Lambda=1064; Max_L=200; Min_L=70; PathPara=1; Phi=0; Step_L=10; Theta=0; p=520; phaseX=180; phaseY=0}
! Header version: 2018
! Port assignment regex: !\s*Touchstone port\s*([0-9]+)\s*=\s*(CST MWS port|CST DS port)\s*([0-9]+|Zmin|Zmax)\s*\(\"(.*)\"\)(\s*mode\s*([0-9]+))?.*
! Touchstone port assignment:
! Touchstone port 1 = CST MWS port Zmax ("") mode 1
! Touchstone port 2 = CST MWS port Zmax ("") mode 2
! Touchstone port 3 = CST MWS port Zmin ("") mode 1
! Touchstone port 4 = CST MWS port Zmin ("") mode 2
! S-Parameters are not renormalized. Each port impedance will be approximated by the real part at minimum frequency. The values are described via the [Reference] keyword.
! Default impedance is overridden by [Reference]
[Version] 2.0
# GHz S RI R 376.73
[Number of Ports] 4
[Reference]
376.73 376.73 259.814 259.814 
[Number of Frequencies] 51
[Network Data]
281700                 -0.225629        0.258697     -4.01839e-05     0.000894107         0.417088        0.832418     -0.000256398    -7.87123e-05
                    -0.000222948     0.000750245        -0.142119       0.0155858     -0.000376221    -0.000554919        -0.956931        0.217292
                        0.417145        0.832086     -0.000367822    -0.000213834        -0.336509       0.0136019      0.000606141    -0.000834679
                    -0.000271076     4.11755e-05        -0.957193        0.217536      0.000609759    -0.000803848          0.13352      -0.0448473
281702                 -0.225491        0.258681     -3.98221e-05     0.000894472         0.417531         0.83224     -0.000256732    -7.87121e-05
                    -0.000222532     0.000750364        -0.142093       0.0156257     -0.000376565    -0.000554483        -0.956823        0.217783
                        0.417588        0.831909     -0.000368237    -0.000213583        -0.336395       0.0138522      0.000605914    -0.000835426
                    -0.000270918     4.13929e-05        -0.957084        0.218027      0.000609367    -0.000804127         0.133467      -0.0449374
281704                 -0.225352        0.258664     -3.94607e-05     0.000894839         0.417974        0.832062     -0.000257066    -7.87124e-05
                    -0.000222116     0.000750484        -0.142068       0.0156656     -0.000376903    -0.000554046        -0.956715        0.218274
                        0.418031        0.831732     -0.000368655    -0.000213333        -0.336281       0.0141022      0.000605688    -0.000836173
                     -0.00027076     4.16112e-05        -0.956975        0.218518      0.000608975    -0.000804405         0.133414      -0.0450275
281706                 -0.225214        0.258647     -3.90999e-05     0.000895207         0.418417        0.831883     -0.000257401    -7.87131e-05
                    -0.000221698     0.000750604        -0.142042       0.0157055     -0.000377235    -0.000553611        -0.956606        0.218765
                        0.418474        0.831554     -0.000369076    -0.000213083        -0.336167       0.0143522      0.000605464     -0.00083692
                      -0.0002706     4.18309e-05        -0.956866        0.219009      0.000608583    -0.000804681         0.133361      -0.0451175
281708                 -0.225076         0.25863     -3.87397e-05     0.000895576          0.41886        0.831705     -0.000257735    -7.87142e-05
                    -0.000221278     0.000750725        -0.142016       0.0157454      -0.00037756    -0.000553176        -0.956497        0.219255
                        0.418916        0.831375     -0.000369497    -0.000212835        -0.336053       0.0146019       0.00060524    -0.000837667
                    -0.000270439     4.20523e-05        -0.956757        0.219499      0.000608192    -0.000804954         0.133308      -0.0452075
281710                 -0.224938        0.258613     -3.83803e-05     0.000895947         0.419303        0.831526      -0.00025807    -7.87157e-05
                    -0.000220857     0.000750846         -0.14199       0.0157852     -0.000377875    -0.000552744        -0.956388        0.219746
                        0.419358        0.831197     -0.000369921    -0.000212588        -0.335939       0.0148515      0.000605018    -0.000838415
                    -0.000270277     4.22761e-05        -0.956647         0.21999      0.000607801    -0.000805225         0.133255      -0.0452975
281712                   -0.2248        0.258596     -3.80216e-05     0.000896319         0.419746        0.831346     -0.000258404    -7.87177e-05
                    -0.000220433     0.000750969        -0.141965       0.0158251      -0.00037818    -0.000552316        -0.956279        0.220237
                        0.419801        0.831018     -0.000370347    -0.000212342        -0.335824       0.0151009      0.000604796    -0.000839162
                    -0.000270114     4.25028e-05        -0.956538        0.220481      0.000607411    -0.000805493         0.133202      -0.0453873
281714                 -0.224662        0.258579     -3.76637e-05     0.000896693         0.420189        0.831167     -0.000258739    -7.87199e-05
                    -0.000220006     0.000751093        -0.141939       0.0158649     -0.000378471    -0.000551896        -0.956169        0.220727
                        0.420243        0.830839     -0.000370774    -0.000212097         -0.33571       0.0153502      0.000604576     -0.00083991
                    -0.000269949     4.27337e-05        -0.956427        0.220971      0.000607022    -0.000805756         0.133149      -0.0454772
281716                 -0.224524        0.258562     -3.73067e-05     0.000897067         0.420632        0.830987     -0.000259074    -7.87226e-05
                    -0.000219576     0.000751219        -0.141913       0.0159047     -0.000378747     -0.00055149        -0.956059        0.221218
                        0.420684        0.830659     -0.000371203    -0.000211854        -0.335595       0.0155993      0.000604357    -0.000840658
                    -0.000269783     4.29702e-05        -0.956317        0.221462      0.000606634    -0.000806015         0.133095       -0.045567
281718                 -0.224387        0.258545     -3.69506e-05     0.000897443         0.421074        0.830808     -0.000259409    -7.87256e-05
                    -0.000219141     0.000751348        -0.141887       0.0159445     -0.000379005    -0.000551106        -0.955949        0.221708
                        0.421126        0.830479     -0.000371633    -0.000211611         -0.33548       0.0158482      0.000604138    -0.000841405
                    -0.000269616     4.32142e-05        -0.956207        0.221952      0.000606248    -0.000806268         0.133042      -0.0456567
281720                 -0.224249        0.258527     -3.65954e-05      0.00089782         0.421517        0.830628     -0.000259744     -7.8729e-05
                    -0.000218699     0.000751481        -0.141862       0.0159842     -0.000379247    -0.000550759        -0.955839        0.222199
                        0.421567        0.830299     -0.000372064     -0.00021137        -0.335366        0.016097      0.000603921    -0.000842153
                     -0.00026945     4.34688e-05        -0.956096        0.222443      0.000605865    -0.000806514         0.132988      -0.0457464
281722                 -0.224112         0.25851     -3.62411e-05     0.000898197         0.421959        0.830447     -0.000260079    -7.87327e-05
                    -0.000218248     0.000751619        -0.141836       0.0160239     -0.000379486    -0.000550469        -0.955728        0.222689
                        0.422009        0.830119     -0.000372497     -0.00021113        -0.335251       0.0163455      0.000603704      -0.0008429
                    -0.000269286     4.37381e-05        -0.955985        0.222933      0.000605485    -0.000806751         0.132935       -0.045836
281724                 -0.223975        0.258493     -3.58878e-05     0.000898576         0.422401        0.830267     -0.000260413    -7.87368e-05
                    -0.000217785     0.000751764         -0.14181       0.0160636     -0.000379752    -0.000550256        -0.955617        0.223179
                         0.42245        0.829938     -0.000372931    -0.000210892        -0.335135        0.016594      0.000603489    -0.000843648
                     -0.00026913     4.40279e-05        -0.955873        0.223423       0.00060511    -0.000806976         0.132881      -0.0459256
281726                 -0.223838        0.258475     -3.55355e-05     0.000898955         0.422843        0.830086     -0.000260748    -7.87412e-05
                    -0.000217302     0.000751921        -0.141784       0.0161033     -0.000380105    -0.000550116        -0.955506         0.22367
                        0.422891        0.829757     -0.000373365    -0.000210655         -0.33502       0.0168422      0.000603274    -0.000844395
                    -0.000268991      4.4345e-05        -0.955762        0.223913      0.000604743    -0.000807184         0.132828      -0.0460152
281728                 -0.223701        0.258458     -3.51841e-05     0.000899334         0.423285        0.829905     -0.000261083    -7.87459e-05
                    -0.000216789     0.000752097        -0.141758        0.016143     -0.000380603    -0.000549987        -0.955394         0.22416
                        0.423332        0.829576     -0.000373801    -0.000210419        -0.334905       0.0170903       0.00060306    -0.000845143
                    -0.000268893     4.46943e-05         -0.95565        0.224403      0.000604388    -0.000807369         0.132774      -0.0461047
281730                 -0.223565        0.258441     -3.48337e-05     0.000899714         0.423727        0.829724     -0.000261418    -7.87509e-05
                     -0.00021622     0.000752306        -0.141733       0.0161827     -0.000381232    -0.000549763        -0.955283         0.22465
                        0.423772        0.829395     -0.000374238    -0.000210184        -0.334789       0.0173382      0.000602848     -0.00084589
                    -0.000268874     4.50654e-05        -0.955538        0.224893      0.000604053     -0.00080752          0.13272      -0.0461941
281732                 -0.223428        0.258424     -3.44843e-05     0.000900095         0.424169        0.829542     -0.000261753    -7.87562e-05
                    -0.000215537     0.000752581        -0.141707       0.0162223     -0.000381897    -0.000549388        -0.955171         0.22514
                        0.424213        0.829213     -0.000374675    -0.000209951        -0.334674        0.017586      0.000602636    -0.000846637
                    -0.000268978     4.54002e-05        -0.955425        0.225383      0.000603754    -0.000807618         0.132666      -0.0462835
281734                 -0.223291        0.258407     -3.41358e-05     0.000900476         0.424611         0.82936     -0.000262087    -7.87618e-05
                     -0.00021456     0.000753017        -0.141681       0.0162619     -0.000382509    -0.000548897        -0.955059         0.22563
                        0.424653        0.829031     -0.000375113    -0.000209718        -0.334558       0.0178336      0.000602425    -0.000847384
                    -0.000269181     4.55781e-05        -0.955313        0.225873      0.000603527     -0.00080763         0.132612      -0.0463729
281736                 -0.223154         0.25839     -3.37882e-05     0.000900857         0.425052        0.829178     -0.000262422    -7.87677e-05
                    -0.000212283      0.00075405        -0.141655       0.0163015     -0.000383042    -0.000548352        -0.954946         0.22612
                        0.425094        0.828849     -0.000375551    -0.000209487        -0.334442        0.018081      0.000602214     -0.00084813
                     -0.00026932     4.55433e-05          -0.9552        0.226363      0.000603472     -0.00080749         0.132559      -0.0464622
281738                 -0.223017        0.258373     -3.34415e-05     0.000901238         0.425494        0.828996     -0.000262757     -7.8774e-05
                    -0.000221152     0.000721773        -0.141629       0.0163411     -0.000383508    -0.000547799        -0.954834         0.22661
                        0.425534        0.828666      -0.00037599    -0.000209257        -0.334326       0.0183282      0.000602005    -0.000848877
                    -0.000269267     4.54289e-05        -0.955087        0.226853      0.000603932    -0.000807097         0.132505      -0.0465514
281740                  -0.22288        0.258355     -3.30957e-05     0.000901619         0.425935        0.828814     -0.000263091    -7.87806e-05
                    -0.000217626     0.000750218        -0.141603       0.0163806     -0.000383928    -0.000547255        -0.954721          0.2271
                        0.425974        0.828484     -0.000376429    -0.000209029         -0.33421       0.0185753      0.000601796    -0.000849623
                    -0.000269069     4.53764e-05        -0.954974        0.227343      0.000606357     -0.00080702          0.13245      -0.0466406
281742                 -0.222744        0.258338     -3.27506e-05     0.000902001         0.426376        0.828631     -0.000263426    -7.87877e-05
                    -0.000215991     0.000751387        -0.141577       0.0164201     -0.000384319    -0.000546727        -0.954607        0.227589
                        0.426414        0.828301     -0.000376869    -0.000208801        -0.334093       0.0188222      0.000601588    -0.000850369
                     -0.00026882     4.54129e-05         -0.95486        0.227832      0.000607612    -0.000813519         0.132396      -0.0467298
281744                 -0.222607         0.25832     -3.24063e-05     0.000902382         0.426817        0.828448      -0.00026376    -7.87951e-05
                    -0.000215134     0.000751845        -0.141551       0.0164596     -0.000384692    -0.000546214        -0.954494        0.228079
                        0.426854        0.828118     -0.000377308    -0.000208574        -0.333977        0.019069      0.000601381    -0.000851115
                    -0.000268568     4.55137e-05        -0.954746        0.228322      0.000602497     -0.00081426         0.132342      -0.0468189
281746                  -0.22247        0.258303     -3.20627e-05     0.000902763         0.427258        0.828265     -0.000264095    -7.88028e-05
                    -0.000214494     0.000752125        -0.141525       0.0164991     -0.000385053    -0.000545715         -0.95438        0.228569
                        0.427294        0.827935     -0.000377748    -0.000208349         -0.33386       0.0193155      0.000601174     -0.00085186
                    -0.000268328     4.56532e-05        -0.954632        0.228811      0.000600951    -0.000813313         0.132288       -0.046908
281748                 -0.222334        0.258285     -3.17198e-05     0.000903144         0.427699        0.828082      -0.00026443    -7.88106e-05
                    -0.000213945     0.000752335          -0.1415       0.0165386     -0.000385408    -0.000545227        -0.954266        0.229058
                        0.427734        0.827751     -0.000378187    -0.000208124        -0.333744       0.0195619      0.000600968    -0.000852605
                    -0.000268103     4.58148e-05        -0.954518        0.229301      0.000600244    -0.000812915         0.132233       -0.046997
281750                 -0.222197        0.258267     -3.13775e-05     0.000903525          0.42814        0.827898     -0.000264766    -7.88183e-05
                    -0.000213443     0.000752509        -0.141474        0.016578     -0.000385758    -0.000544748        -0.954152        0.229548
                        0.428174        0.827568     -0.000378627      -0.0002079        -0.333627       0.0198081      0.000600763     -0.00085335
                     -0.00026789     4.59889e-05        -0.954403         0.22979      0.000599735    -0.000812802         0.132179      -0.0470859
281752                 -0.222061        0.258249     -3.10356e-05     0.000903905          0.42858        0.827714     -0.000265101    -7.88255e-05
                    -0.000212968     0.000752663        -0.141448       0.0166175     -0.000386105    -0.000544276        -0.954038        0.230037
                        0.428613        0.827384     -0.000379066    -0.000207677         -0.33351       0.0200541      0.000600559    -0.000854095
                    -0.000267688     4.61698e-05        -0.954288         0.23028      0.000599288    -0.000812833         0.132125      -0.0471748
281754                 -0.221924        0.258231     -3.06942e-05     0.000904285         0.429021         0.82753     -0.000265436    -7.88325e-05
                    -0.000212511     0.000752804        -0.141422       0.0166569     -0.000386449    -0.000543811        -0.953923        0.230527
                        0.429053          0.8272     -0.000379505    -0.000207454        -0.333392          0.0203      0.000600355    -0.000854839
                    -0.000267494     4.63545e-05        -0.954173        0.230769      0.000598865    -0.000812944          0.13207      -0.0472637
281756                 -0.221788        0.258213     -3.03531e-05     0.000904665         0.429461        0.827345     -0.000265771    -7.88393e-05
                    -0.000212065     0.000752937        -0.141396       0.0166963     -0.000386793    -0.000543351        -0.953808        0.231016
                        0.429493        0.827016     -0.000379944    -0.000207232        -0.333275       0.0205457      0.000600151    -0.000855583
                    -0.000267306      4.6541e-05        -0.954058        0.231258      0.000598453    -0.000813104         0.132015      -0.0473525
281758                 -0.221652        0.258195     -3.00121e-05     0.000905044         0.429901        0.827161     -0.000266105    -7.88462e-05
                    -0.000211628     0.000753063         -0.14137       0.0167356     -0.000387135    -0.000542895        -0.953693        0.231505
                        0.429932        0.826831     -0.000380382    -0.000207011        -0.333157       0.0207912      0.000599948    -0.000856326
                    -0.000267124     4.67281e-05        -0.953942        0.231747      0.000598045    -0.000813295         0.131961      -0.0474413
281760                 -0.221516        0.258177     -2.96712e-05     0.000905422         0.430341        0.826976     -0.000266439    -7.88531e-05
                    -0.000211198     0.000753185        -0.141344        0.016775     -0.000387477    -0.000542443        -0.953577        0.231994
                        0.430371        0.826647      -0.00038082    -0.000206789         -0.33304       0.0210364      0.000599746    -0.000857069
                    -0.000266945     4.69151e-05        -0.953826        0.232236       0.00059764    -0.000813509         0.131906        -0.04753
281762                  -0.22138        0.258159     -2.93301e-05       0.0009058          0.43078        0.826791     -0.000266773    -7.88602e-05
                    -0.000210772     0.000753304        -0.141318       0.0168143     -0.000387818    -0.000541996        -0.953462        0.232483
                        0.430811        0.826462     -0.000381257    -0.000206568        -0.332922       0.0212815      0.000599544    -0.000857811
