! TOUCHSTONE file generated by CST MICROWAVE STUDIO
! Date and time: Tue Oct 14 07:26:30 2025
! Project name: Teste_Macro_Metasurface_Nanopilar.cst
! Parameters = {H=600; L_x=95; L_y=145; Lambda=1064; Max_L=200; Min_L=70; PathPara=1; Phi=0; Step_L=10; Theta=0; p=520; phaseX=180; phaseY=0}
! Header version: 2018
! Port assignment regex: !\s*Touchstone port\s*([0-9]+)\s*=\s*(CST MWS port|CST DS port)\s*([0-9]+|Zmin|Zmax)\s*\(\"(.*)\"\)(\s*mode\s*([0-9]+))?.*
! Touchstone port assignment:
! Touchstone port 1 = CST MWS port Zmax ("") mode 1
! Touchstone port 2 = CST MWS port Zmax ("") mode 2
! Touchstone port 3 = CST MWS port Zmin ("") mode 1
! Touchstone port 4 = CST MWS port Zmin ("") mode 2
! S-Parameters are not renormalized. Each port impedance will be approximated by the real part at minimum frequency. The values are described via the [Reference] keyword.
! Default impedance is overridden by [Reference]
[Version] 2.0
# GHz S RI R 376.73
[Number of Ports] 4
[Reference]
376.73 376.73 259.814 259.814 
[Number of Frequencies] 51
[Network Data]
281700                0.00725655      -0.0801022      0.000328449     -2.8978e-05         -0.51798         0.84293       0.00036805    -0.000401823
                     0.000283101    -8.58677e-05      0.000714865      -0.0771549      0.000213888    -0.000548757         0.504837       -0.855605
                       -0.517896        0.843276       0.00021297    -0.000545104       -0.0680274       0.0448669     -7.35038e-05    -0.000298298
                     0.000363937    -0.000365529         0.504839       -0.855659     -3.74976e-05     -0.00032784       -0.0665851       0.0389629
281702                0.00722013      -0.0801316      0.000328439    -2.92135e-05        -0.517569         0.84318      0.000367917    -0.000402025
                     0.000283045    -8.60519e-05       0.00068872      -0.0771734      0.000213649    -0.000548874         0.504471       -0.855819
                       -0.517485        0.843527      0.000212735    -0.000545216       -0.0680271       0.0449138     -7.35771e-05    -0.000298315
                     0.000363765    -0.000365681         0.504473       -0.855873     -3.76202e-05     -0.00032782       -0.0665809       0.0390061
281704                 0.0071837       -0.080161      0.000328429    -2.94491e-05        -0.517157        0.843431      0.000367783    -0.000402227
                     0.000282988    -8.62364e-05      0.000662562      -0.0771919       0.00021341     -0.00054899         0.504105       -0.856033
                       -0.517073        0.843778        0.0002125    -0.000545329       -0.0680268       0.0449606     -7.36501e-05    -0.000298333
                     0.000363592    -0.000365832         0.504107       -0.856087     -3.77427e-05      -0.0003278       -0.0665767       0.0390493
281706                0.00714724      -0.0801904      0.000328419    -2.96849e-05        -0.516745        0.843681      0.000367649    -0.000402428
                     0.000282931     -8.6421e-05      0.000636391      -0.0772103      0.000213172    -0.000549107         0.503738       -0.856246
                       -0.516661        0.844028      0.000212266    -0.000545441       -0.0680265       0.0450075     -7.37228e-05    -0.000298351
                      0.00036342    -0.000365983          0.50374         -0.8563     -3.78651e-05     -0.00032778       -0.0665725       0.0390925
281708                0.00711076      -0.0802198      0.000328408    -2.99208e-05        -0.516334        0.843931      0.000367514    -0.000402629
                     0.000282874    -8.66059e-05      0.000610207      -0.0772288      0.000212933    -0.000549224         0.503372        -0.85646
                       -0.516249        0.844278      0.000212031    -0.000545553       -0.0680261       0.0450544     -7.37952e-05    -0.000298369
                     0.000363247    -0.000366133         0.503374       -0.856514     -3.79874e-05     -0.00032776       -0.0665683       0.0391358
281710                0.00707427      -0.0802491      0.000328398    -3.01568e-05        -0.515922        0.844181       0.00036738     -0.00040283
                     0.000282817    -8.67909e-05      0.000584009      -0.0772473      0.000212694     -0.00054934         0.503005       -0.856673
                       -0.515837        0.844528      0.000211796    -0.000545665       -0.0680256       0.0451012     -7.38674e-05    -0.000298387
                     0.000363075    -0.000366284         0.503007       -0.856727     -3.81096e-05    -0.000327739        -0.066564        0.039179
281712                0.00703776      -0.0802785      0.000328387     -3.0393e-05         -0.51551        0.844431      0.000367245    -0.000403031
                      0.00028276    -8.69761e-05      0.000557799      -0.0772657      0.000212455    -0.000549457         0.502639       -0.856887
                       -0.515425        0.844778      0.000211561    -0.000545777       -0.0680252       0.0451482     -7.39393e-05    -0.000298405
                     0.000362902    -0.000366434         0.502641        -0.85694     -3.82317e-05    -0.000327719       -0.0665597       0.0392222
281714                0.00700122      -0.0803078      0.000328377    -3.06293e-05        -0.515097         0.84468      0.000367111    -0.000403232
                     0.000282702    -8.71615e-05      0.000531576      -0.0772841      0.000212216    -0.000549573         0.502272         -0.8571
                       -0.515013        0.845028      0.000211326    -0.000545889       -0.0680247       0.0451951      -7.4011e-05    -0.000298423
                      0.00036273    -0.000366585         0.502274       -0.857154     -3.83537e-05    -0.000327698       -0.0665554       0.0392654
281716                0.00696467       -0.080337      0.000328366    -3.08658e-05        -0.514685         0.84493      0.000366976    -0.000403433
                     0.000282645    -8.73471e-05      0.000505339      -0.0773026      0.000211977     -0.00054969         0.501905       -0.857313
                         -0.5146        0.845277       0.00021109    -0.000546001       -0.0680241        0.045242     -7.40826e-05    -0.000298441
                     0.000362557    -0.000366735         0.501907       -0.857367     -3.84756e-05    -0.000327677        -0.066551       0.0393087
281718                0.00692811      -0.0803663      0.000328355    -3.11024e-05        -0.514273        0.845179      0.000366841    -0.000403633
                     0.000282587    -8.75328e-05      0.000479089       -0.077321      0.000211737    -0.000549806         0.501538       -0.857525
                       -0.514188        0.845526      0.000210855    -0.000546113       -0.0680236        0.045289     -7.41539e-05    -0.000298459
                     0.000362384    -0.000366885          0.50154       -0.857579     -3.85974e-05    -0.000327656       -0.0665466       0.0393519
281720                0.00689152      -0.0803956      0.000328344    -3.13391e-05         -0.51386        0.845427      0.000366705    -0.000403834
                     0.000282529    -8.77186e-05      0.000452827      -0.0773394      0.000211498    -0.000549922         0.501171       -0.857738
                       -0.513775        0.845775       0.00021062    -0.000546225       -0.0680229        0.045336      -7.4225e-05    -0.000298477
                     0.000362212    -0.000367035         0.501173       -0.857792     -3.87191e-05    -0.000327634       -0.0665422       0.0393952
281722                0.00685491      -0.0804248      0.000328333     -3.1576e-05        -0.513447        0.845676       0.00036657    -0.000404034
                     0.000282472    -8.79046e-05      0.000426551      -0.0773578      0.000211259    -0.000550039         0.500803        -0.85795
                       -0.513362        0.846024      0.000210385    -0.000546337       -0.0680223       0.0453829     -7.42959e-05    -0.000298495
                     0.000362039    -0.000367185         0.500806       -0.858004     -3.88407e-05    -0.000327613       -0.0665378       0.0394385
281724                0.00681829       -0.080454      0.000328321     -3.1813e-05        -0.513035        0.845925      0.000366434    -0.000404234
                     0.000282414    -8.80907e-05      0.000400262      -0.0773762      0.000211019    -0.000550155         0.500436       -0.858163
                        -0.51295        0.846273       0.00021015    -0.000546448       -0.0680216       0.0454299     -7.43667e-05    -0.000298513
                     0.000361866    -0.000367335         0.500438       -0.858217     -3.89621e-05    -0.000327591       -0.0665333       0.0394817
281726                0.00678165      -0.0804832       0.00032831    -3.20502e-05        -0.512622        0.846173      0.000366299    -0.000404434
                     0.000282357    -8.82769e-05       0.00037396      -0.0773946       0.00021078    -0.000550271         0.500069       -0.858375
                       -0.512537        0.846521      0.000209914     -0.00054656       -0.0680209        0.045477     -7.44372e-05    -0.000298531
                     0.000361693    -0.000367485         0.500071       -0.858429     -3.90835e-05     -0.00032757       -0.0665288        0.039525
281728                0.00674499      -0.0805124      0.000328298    -3.22875e-05        -0.512209        0.846421      0.000366163    -0.000404634
                     0.000282299    -8.84632e-05      0.000347645       -0.077413       0.00021054    -0.000550387         0.499701       -0.858587
                       -0.512124        0.846769      0.000209679    -0.000546671       -0.0680202        0.045524     -7.45077e-05     -0.00029855
                      0.00036152    -0.000367634         0.499703       -0.858641     -3.92047e-05    -0.000327548       -0.0665243       0.0395683
281730                0.00670831      -0.0805415      0.000328286    -3.25249e-05        -0.511796        0.846669      0.000366027    -0.000404834
                     0.000282241    -8.86496e-05      0.000321317      -0.0774314        0.0002103    -0.000550504         0.499334       -0.858799
                        -0.51171        0.847017      0.000209443    -0.000546783       -0.0680194       0.0455711      -7.4578e-05    -0.000298568
                     0.000361347    -0.000367784         0.499336       -0.858853     -3.93258e-05    -0.000327526       -0.0665198       0.0396116
281732                0.00667161      -0.0805707      0.000328274    -3.27625e-05        -0.511383        0.846916      0.000365891    -0.000405034
                     0.000282184    -8.88361e-05      0.000294976      -0.0774497       0.00021006     -0.00055062         0.498966        -0.85901
                       -0.511297        0.847265      0.000209208    -0.000546894       -0.0680186       0.0456181     -7.46481e-05    -0.000298586
                     0.000361174    -0.000367934         0.498968       -0.859065     -3.94468e-05    -0.000327504       -0.0665152       0.0396548
281734                 0.0066349      -0.0805998      0.000328262    -3.30002e-05        -0.510969        0.847164      0.000365754    -0.000405233
                     0.000282126    -8.90227e-05      0.000268621      -0.0774681      0.000209821    -0.000550736         0.498598       -0.859222
                       -0.510884        0.847512      0.000208973    -0.000547005       -0.0680178       0.0456652     -7.47182e-05    -0.000298605
                     0.000361001    -0.000368083           0.4986       -0.859276     -3.95677e-05    -0.000327481       -0.0665106       0.0396981
281736                0.00659816      -0.0806289       0.00032825    -3.32381e-05        -0.510556        0.847411      0.000365618    -0.000405432
                     0.000282069    -8.92094e-05      0.000242254      -0.0774864      0.000209581    -0.000550852          0.49823       -0.859433
                        -0.51047         0.84776      0.000208737    -0.000547116       -0.0680169       0.0457123     -7.47881e-05    -0.000298623
                     0.000360827    -0.000368232         0.498233       -0.859488     -3.96884e-05    -0.000327459        -0.066506       0.0397414
281738                0.00656141       -0.080658      0.000328238    -3.34761e-05        -0.510142        0.847658      0.000365481    -0.000405632
                     0.000282011    -8.93961e-05      0.000215873      -0.0775048      0.000209341    -0.000550968         0.497862       -0.859644
                       -0.510056        0.848007      0.000208501    -0.000547227        -0.068016       0.0457594     -7.48579e-05    -0.000298642
                     0.000360654    -0.000368382         0.497865       -0.859699      -3.9809e-05    -0.000327437       -0.0665014       0.0397848
281740                0.00652464      -0.0806871      0.000328226    -3.37142e-05        -0.509729        0.847905      0.000365345    -0.000405831
                     0.000281954     -8.9583e-05       0.00018948      -0.0775231        0.0002091    -0.000551084         0.497494       -0.859855
                       -0.509643        0.848254      0.000208266    -0.000547338        -0.068015       0.0458065     -7.49276e-05     -0.00029866
                      0.00036048    -0.000368531         0.497497        -0.85991     -3.99295e-05    -0.000327414       -0.0664967       0.0398281
281742                0.00648785      -0.0807161      0.000328213    -3.39525e-05        -0.509315        0.848151      0.000365208     -0.00040603
                     0.000281896    -8.97698e-05      0.000163073      -0.0775414       0.00020886      -0.0005512         0.497126       -0.860066
                       -0.509229          0.8485       0.00020803    -0.000547449        -0.068014       0.0458537     -7.49972e-05    -0.000298679
                     0.000360306     -0.00036868         0.497128       -0.860121     -4.00497e-05    -0.000327392        -0.066492       0.0398714
281744                0.00645105      -0.0807451        0.0003282    -3.41909e-05        -0.508901        0.848398      0.000365071    -0.000406228
                     0.000281839    -8.99568e-05      0.000136654      -0.0775597       0.00020862    -0.000551315         0.496758       -0.860277
                       -0.508815        0.848747      0.000207795     -0.00054756        -0.068013       0.0459008     -7.50667e-05    -0.000298698
                     0.000360132    -0.000368829          0.49676       -0.860332     -4.01699e-05     -0.00032737       -0.0664873       0.0399147
281746                0.00641422      -0.0807741      0.000328188    -3.44295e-05        -0.508487        0.848644      0.000364934    -0.000406427
                     0.000281782    -9.01438e-05      0.000110221       -0.077578       0.00020838    -0.000551431          0.49639       -0.860488
                       -0.508401        0.848993      0.000207559    -0.000547671        -0.068012        0.045948     -7.51362e-05    -0.000298717
                     0.000359958    -0.000368978         0.496392       -0.860542     -4.02897e-05    -0.000327348       -0.0664825       0.0399581
281748                0.00637738      -0.0808031      0.000328175    -3.46682e-05        -0.508073         0.84889      0.000364797    -0.000406626
                     0.000281725    -9.03309e-05      8.37752e-05      -0.0775963      0.000208139    -0.000551547         0.496021       -0.860698
                       -0.507986        0.849239      0.000207323    -0.000547781       -0.0680109       0.0459952     -7.52056e-05    -0.000298735
                     0.000359784    -0.000369127         0.496023       -0.860753     -4.04093e-05    -0.000327326       -0.0664777       0.0400014
281750                0.00634051      -0.0808321      0.000328162     -3.4907e-05        -0.507659        0.849136       0.00036466    -0.000406824
                     0.000281667    -9.05181e-05      5.73164e-05      -0.0776146      0.000207899    -0.000551663         0.495653       -0.860908
                       -0.507572        0.849485      0.000207088    -0.000547892       -0.0680098       0.0460424      -7.5275e-05    -0.000298754
                      0.00035961    -0.000369275         0.495655       -0.860963     -4.05284e-05    -0.000327305       -0.0664729       0.0400447
281752                0.00630363      -0.0808611      0.000328148    -3.51459e-05        -0.507244        0.849381      0.000364522    -0.000407022
                      0.00028161    -9.07053e-05      3.08444e-05      -0.0776329      0.000207658    -0.000551779         0.495284       -0.861118
                       -0.507158        0.849731      0.000206852    -0.000548002       -0.0680086       0.0460896     -7.53444e-05    -0.000298773
                     0.000359435    -0.000369424         0.495286       -0.861173     -4.06467e-05    -0.000327287       -0.0664681       0.0400881
281754                0.00626673        -0.08089      0.000328135     -3.5385e-05         -0.50683        0.849626      0.000364385     -0.00040722
                     0.000281553    -9.08926e-05      4.35933e-06      -0.0776512      0.000207418    -0.000551897         0.494915       -0.861328
                       -0.506743        0.849976      0.000206617    -0.000548113       -0.0680074       0.0461368      -7.5414e-05    -0.000298792
                      0.00035926    -0.000369573         0.494918       -0.861383     -4.07624e-05    -0.000327275       -0.0664632       0.0401315
281756                0.00622982      -0.0809189      0.000328122    -3.56238e-05        -0.506415        0.849872      0.000364248    -0.000407418
                     0.000281496      -9.108e-05     -2.21397e-05      -0.0776694      0.000207179     -0.00055202         0.494547       -0.861538
                       -0.506328        0.850221      0.000206385    -0.000548224       -0.0680062       0.0461841     -7.54837e-05    -0.000298811
                     0.000359086    -0.000369721         0.494549       -0.861593     -4.08588e-05    -0.000327309       -0.0664583       0.0401748
281758                0.00619288      -0.0809478      0.000328109    -3.58633e-05        -0.506001        0.850117      0.000364111    -0.000407616
                     0.000281439    -9.12674e-05     -4.86478e-05      -0.0776877      0.000206932    -0.000552109         0.494178       -0.861748
                       -0.505914        0.850467      0.000206141    -0.000548332       -0.0680049       0.0462313     -7.55541e-05     -0.00029883
                     0.000358911    -0.000369869          0.49418       -0.861803     -4.10331e-05    -0.000327107       -0.0664534       0.0402182
281760                0.00615593      -0.0809767      0.000328095    -3.61033e-05        -0.505586        0.850361      0.000363975    -0.000407814
                     0.000281382    -9.14549e-05     -7.51726e-05      -0.0777059      0.000206694    -0.000552234         0.493809       -0.861957
                       -0.505499        0.850711      0.000205906    -0.000548443       -0.0680036       0.0462786     -7.56265e-05    -0.000298849
                     0.000358735    -0.000370017         0.493811       -0.862012     -4.11395e-05    -0.000327143       -0.0664485       0.0402616
281762                0.00611896      -0.0810055      0.000328081    -3.63431e-05        -0.505171        0.850606      0.000363848     -0.00040802
                     0.000281325    -9.16425e-05      -0.00010171      -0.0777242      0.000206453    -0.000552351          0.49344       -0.862167
                       -0.505084        0.850956      0.000205671    -0.000548553       -0.0680023       0.0463259     -7.57122e-05    -0.000298866
