! TOUCHSTONE file generated by CST MICROWAVE STUDIO
! Date and time: Tue Oct 14 07:28:21 2025
! Project name: Teste_Macro_Metasurface_Nanopilar.cst
! Parameters = {H=600; L_x=125; L_y=130; Lambda=1064; Max_L=200; Min_L=70; PathPara=1; Phi=0; Step_L=10; Theta=0; p=520; phaseX=180; phaseY=0}
! Header version: 2018
! Port assignment regex: !\s*Touchstone port\s*([0-9]+)\s*=\s*(CST MWS port|CST DS port)\s*([0-9]+|Zmin|Zmax)\s*\(\"(.*)\"\)(\s*mode\s*([0-9]+))?.*
! Touchstone port assignment:
! Touchstone port 1 = CST MWS port Zmax ("") mode 1
! Touchstone port 2 = CST MWS port Zmax ("") mode 2
! Touchstone port 3 = CST MWS port Zmin ("") mode 1
! Touchstone port 4 = CST MWS port Zmin ("") mode 2
! S-Parameters are not renormalized. Each port impedance will be approximated by the real part at minimum frequency. The values are described via the [Reference] keyword.
! Default impedance is overridden by [Reference]
[Version] 2.0
# GHz S RI R 376.73
[Number of Ports] 4
[Reference]
376.73 376.73 259.814 259.814 
[Number of Frequencies] 51
[Network Data]
281700                -0.0363675      -0.0807679      0.000169631    -0.000334049        -0.416642        0.897227     -5.90203e-05    -6.33203e-05
                     0.000108619    -0.000255731       -0.0295992      -0.0474543     -1.44691e-05      6.5054e-06        -0.618594        0.774064
                       -0.417324        0.896551     -3.04271e-05    -2.09167e-06       -0.0843034       0.0261407     -0.000171461     0.000300832
                    -9.69211e-05    -0.000134663        -0.618593        0.773836     -0.000184801     0.000165948       -0.0525353      -0.0158875
281702                -0.0364004      -0.0807788      0.000169425    -0.000334201        -0.416215        0.897424     -5.90636e-05    -6.28945e-05
                     0.000108397    -0.000255822       -0.0296173      -0.0474707     -1.45085e-05     6.44038e-06        -0.618213        0.774367
                       -0.416897        0.896747     -3.04436e-05    -2.00895e-06       -0.0843088       0.0262029     -0.000171421      0.00030099
                    -9.69289e-05    -0.000134573        -0.618212        0.774139     -0.000184836     0.000166099       -0.0525717      -0.0158502
281704                -0.0364333      -0.0807897      0.000169219    -0.000334353        -0.415787         0.89762     -5.91067e-05    -6.24691e-05
                     0.000108175    -0.000255913       -0.0296355      -0.0474871      -1.4549e-05     6.37639e-06        -0.617832         0.77467
                        -0.41647        0.896944     -3.04594e-05    -1.92657e-06       -0.0843141       0.0262651      -0.00017138     0.000301148
                    -9.69366e-05    -0.000134484        -0.617831        0.774442     -0.000184871      0.00016625        -0.052608      -0.0158128
281706                -0.0364661      -0.0808006      0.000169014    -0.000334505        -0.415359        0.897816     -5.91496e-05    -6.20439e-05
                     0.000107953    -0.000256003       -0.0296537      -0.0475035     -1.45903e-05     6.31339e-06        -0.617451        0.774972
                       -0.416042         0.89714     -3.04747e-05    -1.84454e-06       -0.0843194       0.0263273      -0.00017134     0.000301305
                    -9.69444e-05    -0.000134395         -0.61745        0.774745     -0.000184904       0.0001664       -0.0526444      -0.0157754
281708                 -0.036499      -0.0808114      0.000168808    -0.000334656        -0.414931        0.898012     -5.91924e-05     -6.1619e-05
                      0.00010773    -0.000256094       -0.0296719      -0.0475199     -1.46323e-05     6.25131e-06         -0.61707        0.775274
                       -0.415615        0.897336     -3.04895e-05    -1.76288e-06       -0.0843246       0.0263895     -0.000171299     0.000301462
                    -9.69523e-05    -0.000134306        -0.617069        0.775048     -0.000184936     0.000166551       -0.0526807      -0.0157379
281710                -0.0365319      -0.0808223      0.000168603    -0.000334807        -0.414503        0.898208      -5.9235e-05    -6.11944e-05
                     0.000107508    -0.000256184       -0.0296901      -0.0475362     -1.46749e-05     6.19013e-06        -0.616689        0.775576
                       -0.415187        0.897532     -3.05037e-05    -1.68158e-06       -0.0843298       0.0264517     -0.000171259     0.000301619
                    -9.69602e-05    -0.000134218        -0.616688         0.77535     -0.000184967     0.000166701        -0.052717      -0.0157004
281712                -0.0365648      -0.0808331      0.000168397    -0.000334958        -0.414076        0.898404     -5.92775e-05    -6.07701e-05
                     0.000107285    -0.000256274       -0.0297083      -0.0475526     -1.47181e-05     6.12978e-06        -0.616307        0.775878
                        -0.41476        0.897727     -3.05173e-05    -1.60066e-06       -0.0843349       0.0265139     -0.000171219     0.000301775
                    -9.69681e-05    -0.000134129        -0.616307        0.775652     -0.000184997     0.000166851       -0.0527533      -0.0156629
281714                -0.0365978      -0.0808439      0.000168192    -0.000335109        -0.413647        0.898599     -5.93198e-05    -6.03461e-05
                     0.000107063    -0.000256363       -0.0297266      -0.0475689     -1.47617e-05     6.07021e-06        -0.615926         0.77618
                       -0.414332        0.897922     -3.05304e-05    -1.52014e-06         -0.08434       0.0265762     -0.000171179     0.000301931
                     -9.6976e-05    -0.000134041        -0.615925        0.775954     -0.000185027        0.000167       -0.0527895      -0.0156253
281716                -0.0366307      -0.0808547      0.000167987    -0.000335259        -0.413219        0.898794     -5.93619e-05    -5.99224e-05
                      0.00010684    -0.000256452       -0.0297448      -0.0475852     -1.48056e-05     6.01138e-06        -0.615544        0.776481
                       -0.413904        0.898118     -3.05429e-05    -1.44001e-06        -0.084345       0.0266385      -0.00017114     0.000302086
                     -9.6984e-05    -0.000133953        -0.615543        0.776256     -0.000185055     0.000167149       -0.0528257      -0.0155877
281718                -0.0366636      -0.0808655      0.000167782    -0.000335409        -0.412791        0.898989     -5.94039e-05     -5.9499e-05
                     0.000106618    -0.000256542       -0.0297631      -0.0476016     -1.48499e-05     5.95323e-06        -0.615162        0.776782
                       -0.413476        0.898313     -3.05549e-05     -1.3603e-06         -0.08435       0.0267007       -0.0001711     0.000302241
                     -9.6992e-05    -0.000133865        -0.615162        0.776557     -0.000185083     0.000167297       -0.0528619      -0.0155501
281720                -0.0366966      -0.0808763      0.000167577     -0.00033556        -0.412363        0.899184     -5.94457e-05    -5.90759e-05
                     0.000106395     -0.00025663       -0.0297814      -0.0476179     -1.48943e-05     5.89572e-06         -0.61478        0.777084
                       -0.413048        0.898507     -3.05663e-05      -1.281e-06       -0.0843549        0.026763      -0.00017106     0.000302395
                    -9.70001e-05    -0.000133777         -0.61478        0.776859      -0.00018511     0.000167444        -0.052898      -0.0155124
281722                -0.0367296       -0.080887      0.000167372     -0.00033571        -0.411934        0.899378     -5.94874e-05    -5.86532e-05
                     0.000106172    -0.000256719       -0.0297997      -0.0476342      -1.4939e-05     5.83879e-06        -0.614398        0.777384
                        -0.41262        0.898702     -3.05773e-05    -1.20214e-06       -0.0843598       0.0268253     -0.000171021     0.000302549
                    -9.70082e-05    -0.000133689        -0.614398         0.77716     -0.000185137     0.000167591       -0.0529341      -0.0154747
281724                -0.0367625      -0.0808978      0.000167168    -0.000335859        -0.411506        0.899573     -5.95289e-05    -5.82307e-05
                     0.000105949    -0.000256807        -0.029818      -0.0476505     -1.49837e-05      5.7824e-06        -0.614016        0.777685
                       -0.412192        0.898896     -3.05877e-05    -1.12371e-06       -0.0843647       0.0268876     -0.000170982     0.000302702
                    -9.70163e-05    -0.000133601        -0.614015        0.777461     -0.000185164     0.000167737       -0.0529702      -0.0154369
281726                -0.0367955      -0.0809085      0.000166963    -0.000336009        -0.411077        0.899767     -5.95703e-05    -5.78085e-05
                     0.000105726    -0.000256895       -0.0298364      -0.0476668     -1.50286e-05     5.72651e-06        -0.613633        0.777986
                       -0.411764         0.89909     -3.05976e-05    -1.04573e-06       -0.0843695         0.02695     -0.000170943     0.000302855
                    -9.70245e-05    -0.000133514        -0.613633        0.777762     -0.000185191     0.000167883       -0.0530063      -0.0153992
281728                -0.0368285      -0.0809192      0.000166759    -0.000336158        -0.410649        0.899961     -5.96115e-05    -5.73867e-05
                     0.000105503    -0.000256983       -0.0298547      -0.0476831     -1.50735e-05     5.67107e-06        -0.613251        0.778286
                       -0.411336        0.899284     -3.06069e-05    -9.68214e-07       -0.0843742       0.0270123     -0.000170904     0.000303007
                    -9.70327e-05    -0.000133426         -0.61325        0.778062     -0.000185217     0.000168028       -0.0530423      -0.0153613
281730                -0.0368615      -0.0809299      0.000166555    -0.000336308         -0.41022        0.900154     -5.96525e-05    -5.69651e-05
                      0.00010528    -0.000257071       -0.0298731      -0.0476993     -1.51184e-05     5.61605e-06        -0.612868        0.778586
                       -0.410907        0.899478     -3.06158e-05    -8.91162e-07       -0.0843789       0.0270747     -0.000170865     0.000303159
                    -9.70409e-05    -0.000133339        -0.612868        0.778363     -0.000185243     0.000168172       -0.0530783      -0.0153235
281732                -0.0368946      -0.0809406      0.000166351    -0.000336457        -0.409791        0.900348     -5.96934e-05    -5.65439e-05
                     0.000105057    -0.000257158       -0.0298915      -0.0477156     -1.51632e-05      5.5614e-06        -0.612485        0.778886
                       -0.410479        0.899671     -3.06242e-05    -8.14587e-07       -0.0843836       0.0271371     -0.000170826      0.00030331
                    -9.70491e-05    -0.000133252        -0.612485        0.778663     -0.000185269     0.000168316       -0.0531143      -0.0152856
281734                -0.0369276      -0.0809512      0.000166147    -0.000336605        -0.409362        0.900541     -5.97342e-05     -5.6123e-05
                     0.000104834    -0.000257245       -0.0299099      -0.0477318      -1.5208e-05     5.50709e-06        -0.612102        0.779186
                        -0.41005        0.899865     -3.06321e-05    -7.38499e-07       -0.0843882       0.0271994     -0.000170788     0.000303461
                    -9.70574e-05    -0.000133165        -0.612102        0.778963     -0.000185296     0.000168459       -0.0531502      -0.0152476
281736                -0.0369606      -0.0809619      0.000165943    -0.000336754        -0.408933        0.900734     -5.97748e-05    -5.57024e-05
                     0.000104611    -0.000257332       -0.0299283      -0.0477481     -1.52528e-05      5.4531e-06        -0.611719        0.779485
                       -0.409622        0.900058     -3.06394e-05    -6.62908e-07       -0.0843928       0.0272618     -0.000170749     0.000303612
                    -9.70657e-05    -0.000133079        -0.611719        0.779263     -0.000185322     0.000168602       -0.0531861      -0.0152096
281738                -0.0369937      -0.0809725      0.000165739    -0.000336903        -0.408504        0.900927     -5.98152e-05    -5.52822e-05
                     0.000104387    -0.000257419       -0.0299467      -0.0477643     -1.52974e-05     5.39938e-06        -0.611336        0.779784
                       -0.409193        0.900251     -3.06463e-05    -5.87824e-07       -0.0843973       0.0273243     -0.000170711     0.000303761
                    -9.70741e-05    -0.000132992        -0.611336        0.779562     -0.000185349     0.000168744        -0.053222      -0.0151716
281740                -0.0370268      -0.0809832      0.000165536    -0.000337051        -0.408075         0.90112     -5.98555e-05    -5.48623e-05
                     0.000104164    -0.000257506       -0.0299652      -0.0477805      -1.5342e-05     5.34591e-06        -0.610953        0.780083
                       -0.408764        0.900443     -3.06528e-05    -5.13256e-07       -0.0844018       0.0273867     -0.000170673     0.000303911
                    -9.70825e-05    -0.000132906        -0.610953        0.779862     -0.000185376     0.000168886       -0.0532579      -0.0151336
281742                -0.0370598      -0.0809938      0.000165332    -0.000337199        -0.407646        0.901312     -5.98957e-05    -5.44427e-05
                     0.000103941    -0.000257592       -0.0299836      -0.0477967     -1.53864e-05     5.29268e-06        -0.610569        0.780382
                       -0.408335        0.900636     -3.06587e-05    -4.39215e-07       -0.0844062       0.0274491     -0.000170635     0.000304059
                    -9.70908e-05    -0.000132819        -0.610569        0.780161     -0.000185403     0.000169028       -0.0532937      -0.0150955
281744                -0.0370929      -0.0810044      0.000165129    -0.000337347        -0.407216        0.901505     -5.99357e-05    -5.40234e-05
                     0.000103717    -0.000257678       -0.0300021      -0.0478129     -1.54307e-05     5.23967e-06        -0.610185        0.780681
                       -0.407906        0.900828     -3.06642e-05     -3.6571e-07       -0.0844106       0.0275116     -0.000170597     0.000304207
                    -9.70993e-05    -0.000132733        -0.610185         0.78046      -0.00018543     0.000169169       -0.0533295      -0.0150574
281746                 -0.037126      -0.0810149      0.000164925    -0.000337495        -0.406787        0.901697     -5.99756e-05    -5.36045e-05
                     0.000103494    -0.000257764       -0.0300206      -0.0478291     -1.54749e-05     5.18685e-06        -0.609802         0.78098
                       -0.407477         0.90102     -3.06693e-05    -2.92753e-07        -0.084415        0.027574     -0.000170559     0.000304355
                    -9.71077e-05    -0.000132647        -0.609802        0.780759     -0.000185458     0.000169311       -0.0533653      -0.0150192
281748                -0.0371591      -0.0810255      0.000164722    -0.000337643        -0.406358        0.901888     -6.00153e-05    -5.31859e-05
                      0.00010327    -0.000257849       -0.0300391      -0.0478453     -1.55189e-05     5.13424e-06        -0.609418        0.781278
                       -0.407048        0.901212     -3.06739e-05    -2.20355e-07       -0.0844193       0.0276365     -0.000170522     0.000304502
                    -9.71162e-05    -0.000132561        -0.609418        0.781057     -0.000185485     0.000169452        -0.053401       -0.014981
281750                -0.0371922       -0.081036      0.000164519     -0.00033779        -0.405928         0.90208     -6.00549e-05    -5.27676e-05
                     0.000103047    -0.000257935       -0.0300577      -0.0478615     -1.55627e-05     5.08185e-06        -0.609034        0.781576
                       -0.406619        0.901403      -3.0678e-05    -1.48526e-07       -0.0844235        0.027699     -0.000170484     0.000304648
                    -9.71247e-05    -0.000132475        -0.609034        0.781356     -0.000185513     0.000169592       -0.0534367      -0.0149428
281752                -0.0372254      -0.0810466      0.000164316    -0.000337937        -0.405498        0.902271     -6.00943e-05    -5.23496e-05
                     0.000102823     -0.00025802       -0.0300762      -0.0478777     -1.56065e-05      5.0297e-06        -0.608649        0.781874
                        -0.40619        0.901595     -3.06818e-05    -7.72798e-08       -0.0844277       0.0277615     -0.000170447     0.000304794
                    -9.71332e-05     -0.00013239         -0.60865        0.781654     -0.000185542     0.000169733       -0.0534724      -0.0149045
281754                -0.0372585      -0.0810571      0.000164113    -0.000338084        -0.405069        0.902463     -6.01336e-05     -5.1932e-05
                       0.0001026    -0.000258105       -0.0300948      -0.0478938     -1.56502e-05     4.97789e-06        -0.608265        0.782172
                        -0.40576        0.901786     -3.06851e-05    -6.62858e-09       -0.0844319        0.027824      -0.00017041      0.00030494
                    -9.71418e-05    -0.000132304        -0.608265        0.781952      -0.00018557     0.000169872        -0.053508      -0.0148662
281756                -0.0372917      -0.0810676       0.00016391    -0.000338231        -0.404639        0.902654     -6.01728e-05    -5.15147e-05
                     0.000102376    -0.000258189       -0.0301133        -0.04791     -1.56938e-05     4.92657e-06         -0.60788        0.782469
                       -0.405331        0.901977      -3.0688e-05     6.34128e-08        -0.084436       0.0278866     -0.000170373     0.000305084
                    -9.71504e-05    -0.000132219        -0.607881         0.78225       -0.0001856     0.000170012       -0.0535437      -0.0148279
281758                -0.0373248      -0.0810781      0.000163708    -0.000338378        -0.404209        0.902844     -6.02119e-05    -5.10977e-05
                     0.000102152    -0.000258273       -0.0301319      -0.0479261     -1.57376e-05     4.87614e-06        -0.607496        0.782767
                       -0.404901        0.902168     -3.06905e-05     1.32828e-07         -0.08444       0.0279491     -0.000170337     0.000305228
                     -9.7159e-05    -0.000132134        -0.607496        0.782548     -0.000185629     0.000170151       -0.0535792      -0.0147895
281760                 -0.037358      -0.0810885      0.000163505    -0.000338525        -0.403779        0.903035     -6.02508e-05     -5.0681e-05
                     0.000101929    -0.000258358       -0.0301505      -0.0479422     -1.57819e-05     4.82762e-06        -0.607111        0.783064
                       -0.404472        0.902358     -3.06927e-05     2.01597e-07       -0.0844441       0.0280117       -0.0001703     0.000305371
                    -9.71676e-05    -0.000132049        -0.607111        0.782845     -0.000185661     0.000170287       -0.0536148      -0.0147511
281762                -0.0373912       -0.081099      0.000163303    -0.000338671        -0.403349        0.903225     -6.02896e-05    -5.02646e-05
                     0.000101705    -0.000258441       -0.0301691      -0.0479583     -1.58281e-05     4.78473e-06        -0.606726        0.783361
                       -0.404042        0.902549     -3.06945e-05     2.69696e-07        -0.084448       0.0280742     -0.000170264     0.000305514
