! TOUCHSTONE file generated by CST MICROWAVE STUDIO
! Date and time: Tue Oct 14 07:24:49 2025
! Project name: Teste_Macro_Metasurface_Nanopilar.cst
! Parameters = {H=600; L_x=70; L_y=90; Lambda=1064; Max_L=200; Min_L=70; PathPara=1; Phi=0; Step_L=10; Theta=0; p=520; phaseX=180; phaseY=0}
! Header version: 2018
! Port assignment regex: !\s*Touchstone port\s*([0-9]+)\s*=\s*(CST MWS port|CST DS port)\s*([0-9]+|Zmin|Zmax)\s*\(\"(.*)\"\)(\s*mode\s*([0-9]+))?.*
! Touchstone port assignment:
! Touchstone port 1 = CST MWS port Zmax ("") mode 1
! Touchstone port 2 = CST MWS port Zmax ("") mode 2
! Touchstone port 3 = CST MWS port Zmin ("") mode 1
! Touchstone port 4 = CST MWS port Zmin ("") mode 2
! S-Parameters are not renormalized. Each port impedance will be approximated by the real part at minimum frequency. The values are described via the [Reference] keyword.
! Default impedance is overridden by [Reference]
[Version] 2.0
# GHz S RI R 376.73
[Number of Ports] 4
[Reference]
376.73 376.73 259.814 259.814 
[Number of Frequencies] 51
[Network Data]
281700                -0.0311398        0.110386      8.78114e-05    -0.000276521         0.993454       0.0313118      0.000118357    -0.000104286
                     9.83664e-05    -0.000287318       -0.0569108        0.129593     -2.42204e-05    -0.000110883         0.969713        0.196445
                        0.992487       0.0310519      3.30493e-05    -8.38142e-05        0.0240505        0.112195      5.29105e-05    -0.000310314
                     0.000111962    -4.30881e-05         0.970216        0.195822      7.99933e-06    -0.000317802       0.00215531        0.141547
281702                -0.0311011        0.110393      8.77826e-05    -0.000276565         0.993465       0.0309509      0.000118306    -0.000104286
                     9.83098e-05    -0.000287329       -0.0568672        0.129609     -2.41615e-05    -0.000110928         0.969783        0.196096
                        0.992498       0.0306906      3.30248e-05    -8.38478e-05        0.0240931        0.112182      5.26298e-05    -0.000310402
                     0.000111905    -4.30472e-05         0.970286        0.195474      7.88893e-06    -0.000317816       0.00221027        0.141544
281704                -0.0310624          0.1104      8.77402e-05    -0.000276622         0.993476         0.03059      0.000118255    -0.000104287
                     9.82532e-05     -0.00028734       -0.0568235        0.129625     -2.41027e-05    -0.000110972         0.969854        0.195748
                         0.99251       0.0303293      3.30014e-05    -8.38809e-05        0.0241357        0.112169      5.23491e-05    -0.000310488
                     0.000111849    -4.30062e-05         0.970357        0.195126      7.77844e-06    -0.000317828       0.00226522         0.14154
281706                -0.0310237        0.110407       8.7727e-05     -0.00027664         0.993487       0.0302291      0.000118205    -0.000104286
                     9.81968e-05     -0.00028735       -0.0567799        0.129642      -2.4044e-05    -0.000111017         0.969924          0.1954
                        0.992521        0.029968      3.29812e-05    -8.39138e-05        0.0241783        0.112155      5.20686e-05    -0.000310575
                     0.000111792     -4.2965e-05         0.970427        0.194778      7.66785e-06    -0.000317841       0.00232017        0.141537
281708                 -0.030985        0.110413      8.76985e-05    -0.000276685         0.993498       0.0298682      0.000118154    -0.000104285
                     9.81405e-05    -0.000287361       -0.0567363        0.129658     -2.39855e-05    -0.000111062         0.969994        0.195052
                        0.992532       0.0296067      3.29696e-05    -8.39541e-05        0.0242209        0.112142      5.17881e-05     -0.00031066
                     0.000111736    -4.29236e-05         0.970498         0.19443      7.55716e-06    -0.000317854       0.00237511        0.141533
281710                -0.0309463         0.11042      8.76698e-05    -0.000276728         0.993508       0.0295073      0.000118104    -0.000104284
                     9.80842e-05    -0.000287371       -0.0566926        0.129674     -2.39272e-05    -0.000111106         0.970064        0.194703
                        0.992543       0.0292454      3.29378e-05    -8.40166e-05        0.0242635        0.112129      5.15078e-05    -0.000310745
                     0.000111679    -4.28821e-05         0.970568        0.194082      7.44638e-06    -0.000317867       0.00243006         0.14153
281712                -0.0309075        0.110427      8.76409e-05    -0.000276771         0.993519       0.0291464      0.000118053    -0.000104283
                     9.80281e-05    -0.000287382        -0.056649        0.129691      -2.3869e-05     -0.00011115         0.970134        0.194355
                        0.992554        0.028884      3.28927e-05    -8.40504e-05         0.024306        0.112115      5.12276e-05    -0.000310829
                     0.000111622    -4.28405e-05         0.970638        0.193734      7.33548e-06    -0.000317879         0.002485        0.141526
281714                -0.0308688        0.110433       8.7612e-05    -0.000276813         0.993529       0.0287855      0.000118003    -0.000104281
                     9.79721e-05    -0.000287392       -0.0566053        0.129707     -2.38109e-05    -0.000111194         0.970203        0.194007
                        0.992565       0.0285227      3.28604e-05    -8.40804e-05        0.0243486        0.112102      5.09475e-05    -0.000310913
                     0.000111565    -4.27987e-05         0.970708        0.193386      7.22448e-06    -0.000317892       0.00253994        0.141523
281716                -0.0308301         0.11044      8.75829e-05    -0.000276854          0.99354       0.0284246      0.000117952    -0.000104278
                     9.79163e-05    -0.000287402       -0.0565617        0.129723      -2.3753e-05    -0.000111237         0.970273        0.193658
                        0.992576       0.0281614      3.28312e-05    -8.41128e-05        0.0243911        0.112089      5.06676e-05    -0.000310996
                     0.000111508    -4.27567e-05         0.970777        0.193038      7.11337e-06    -0.000317904       0.00259488        0.141519
281718                -0.0307914        0.110447      8.75538e-05    -0.000276896          0.99355       0.0280636      0.000117902    -0.000104275
                     9.78605e-05    -0.000287412        -0.056518        0.129739     -2.36953e-05    -0.000111281         0.970343         0.19331
                        0.992586          0.0278      3.28025e-05    -8.41467e-05        0.0244337        0.112075      5.03877e-05    -0.000311078
                     0.000111451    -4.27146e-05         0.970847         0.19269      7.00215e-06    -0.000317917       0.00264982        0.141515
281720                -0.0307527        0.110453      8.75245e-05    -0.000276937          0.99356       0.0277027      0.000117852    -0.000104272
                     9.78048e-05    -0.000287422       -0.0564744        0.129755     -2.36378e-05    -0.000111324         0.970412        0.192961
                        0.992597       0.0274387      3.27739e-05    -8.41813e-05        0.0244762        0.112062       5.0108e-05     -0.00031116
                     0.000111394    -4.26723e-05         0.970916        0.192342      6.89081e-06    -0.000317929       0.00270475        0.141512
281722                -0.0307139         0.11046      8.74952e-05    -0.000276979          0.99357       0.0273417      0.000117801    -0.000104269
                     9.77493e-05    -0.000287432       -0.0564307        0.129771     -2.35804e-05    -0.000111367         0.970481        0.192613
                        0.992607       0.0270773       3.2745e-05    -8.42165e-05        0.0245187        0.112048      4.98284e-05    -0.000311241
                     0.000111336    -4.26298e-05         0.970986        0.191994      6.77936e-06    -0.000317941       0.00275968        0.141508
281724                -0.0306752        0.110466      8.74657e-05     -0.00027702          0.99358       0.0269808      0.000117751    -0.000104265
                     9.76938e-05    -0.000287442        -0.056387        0.129788     -2.35232e-05     -0.00011141          0.97055        0.192264
                        0.992617        0.026716      3.27158e-05    -8.42519e-05        0.0245613        0.112035       4.9549e-05    -0.000311322
                     0.000111279    -4.25871e-05         0.971055        0.191645      6.66779e-06    -0.000317954       0.00281461        0.141505
281726                -0.0306365        0.110473      8.74361e-05    -0.000277061         0.993589       0.0266198      0.000117701    -0.000104261
                     9.76385e-05    -0.000287452       -0.0563434        0.129804     -2.34662e-05    -0.000111453         0.970619        0.191916
                        0.992627       0.0263546      3.26864e-05    -8.42877e-05        0.0246038        0.112022      4.92697e-05    -0.000311402
                     0.000111221    -4.25443e-05         0.971124        0.191297      6.55609e-06    -0.000317966       0.00286953        0.141501
281728                -0.0305977         0.11048      8.74064e-05    -0.000277102         0.993599       0.0262588      0.000117651    -0.000104256
                     9.75833e-05    -0.000287461       -0.0562997         0.12982     -2.34094e-05    -0.000111496         0.970688        0.191567
                        0.992637       0.0259932      3.26567e-05    -8.43237e-05        0.0246463        0.112008      4.89905e-05    -0.000311481
                     0.000111163    -4.25013e-05         0.971193        0.190949      6.44428e-06    -0.000317978       0.00292446        0.141497
281730                 -0.030559        0.110486      8.73767e-05    -0.000277143         0.993608       0.0258978      0.000117601    -0.000104251
                     9.75282e-05    -0.000287471        -0.056256        0.129836     -2.33528e-05    -0.000111538         0.970757        0.191219
                        0.992647       0.0256319      3.26266e-05    -8.43598e-05        0.0246888        0.111995      4.87115e-05    -0.000311559
                     0.000111105    -4.24581e-05         0.971262        0.190601      6.33234e-06     -0.00031799       0.00297938        0.141493
281732                -0.0305203        0.110493      8.73468e-05    -0.000277183         0.993618       0.0255368      0.000117551    -0.000104246
                     9.74733e-05     -0.00028748       -0.0562123        0.129852     -2.32963e-05     -0.00011158         0.970825         0.19087
                        0.992657       0.0252705      3.25962e-05    -8.43962e-05        0.0247313        0.111981      4.84326e-05    -0.000311637
                     0.000111047    -4.24148e-05         0.971331        0.190253      6.22028e-06    -0.000318002        0.0030343         0.14149
281734                -0.0304816        0.110499      8.73168e-05    -0.000277224         0.993627       0.0251758      0.000117502     -0.00010424
                     9.74184e-05    -0.000287489       -0.0561686        0.129868     -2.32401e-05    -0.000111622         0.970894        0.190521
                        0.992666       0.0249091      3.25656e-05    -8.44327e-05        0.0247738        0.111968      4.81539e-05    -0.000311715
                     0.000110989    -4.23712e-05         0.971399        0.189904       6.1081e-06    -0.000318014       0.00308922        0.141486
281736                -0.0304428        0.110506      8.72867e-05    -0.000277264         0.993636       0.0248148      0.000117452    -0.000104234
                     9.73637e-05    -0.000287498       -0.0561249        0.129884     -2.31841e-05    -0.000111664         0.970962        0.190173
                        0.992676       0.0245478      3.25346e-05    -8.44693e-05        0.0248163        0.111954      4.78753e-05    -0.000311791
                     0.000110931    -4.23274e-05         0.971468        0.189556      5.99579e-06    -0.000318026       0.00314413        0.141482
281738                -0.0304041        0.110512      8.72564e-05    -0.000277304         0.993645       0.0244538      0.000117402    -0.000104227
                      9.7309e-05    -0.000287507       -0.0560812          0.1299     -2.31283e-05    -0.000111706          0.97103        0.189824
                        0.992685       0.0241864      3.25032e-05    -8.45061e-05        0.0248588        0.111941      4.75969e-05    -0.000311867
                     0.000110872    -4.22834e-05         0.971536        0.189208      5.88335e-06    -0.000318038       0.00319904        0.141478
281740                -0.0303654        0.110519      8.72261e-05    -0.000277344         0.993653       0.0240928      0.000117353    -0.000104221
                     9.72545e-05    -0.000287516       -0.0560375        0.129916     -2.30727e-05    -0.000111747         0.971099        0.189475
                        0.992694        0.023825      3.24716e-05     -8.4543e-05        0.0249012        0.111927      4.73186e-05    -0.000311943
                     0.000110814    -4.22392e-05         0.971604        0.188859      5.77079e-06     -0.00031805       0.00325395        0.141474
281742                -0.0303266        0.110525      8.71957e-05    -0.000277384         0.993662       0.0237317      0.000117303    -0.000104213
                     9.72002e-05    -0.000287525       -0.0559938        0.129932     -2.30174e-05    -0.000111789         0.971167        0.189127
                        0.992703       0.0234636      3.24397e-05      -8.458e-05        0.0249437        0.111913      4.70405e-05    -0.000312018
                     0.000110755    -4.21947e-05         0.971672        0.188511       5.6581e-06    -0.000318062       0.00330886        0.141471
281744                -0.0302879        0.110532      8.71652e-05    -0.000277424          0.99367       0.0233707      0.000117254    -0.000104206
                     9.71459e-05    -0.000287533       -0.0559501        0.129948     -2.29622e-05     -0.00011183         0.971234        0.188778
                        0.992712       0.0231022      3.24074e-05    -8.46172e-05        0.0249862          0.1119      4.67625e-05    -0.000312092
                     0.000110696      -4.215e-05          0.97174        0.188163      5.54529e-06    -0.000318074       0.00336376        0.141467
281746                -0.0302491        0.110538      8.71345e-05    -0.000277464         0.993679       0.0230096      0.000117205    -0.000104198
                     9.70918e-05    -0.000287542       -0.0559064        0.129964     -2.29073e-05    -0.000111871         0.971302        0.188429
                         0.99272       0.0227408      3.23748e-05    -8.46545e-05        0.0250286        0.111886      4.64847e-05    -0.000312165
                     0.000110637    -4.21049e-05         0.971808        0.187814      5.43235e-06    -0.000318086       0.00341867        0.141463
281748                -0.0302104        0.110544      8.71038e-05    -0.000277503         0.993687       0.0226486      0.000117155     -0.00010419
                     9.70378e-05     -0.00028755       -0.0558626         0.12998     -2.28527e-05    -0.000111912          0.97137         0.18808
                        0.992729       0.0223794      3.23418e-05    -8.46919e-05        0.0250711        0.111873      4.62071e-05    -0.000312238
                     0.000110577    -4.20594e-05         0.971876        0.187466      5.31929e-06    -0.000318098       0.00347357        0.141459
281750                -0.0301717        0.110551      8.70729e-05    -0.000277543         0.993695       0.0222875      0.000117106    -0.000104182
                     9.69839e-05    -0.000287558       -0.0558189        0.129996     -2.27983e-05    -0.000111952         0.971437        0.187731
                        0.992737        0.022018      3.23086e-05    -8.47294e-05        0.0251135        0.111859      4.59297e-05    -0.000312311
                     0.000110517    -4.20135e-05         0.971944        0.187117       5.2061e-06     -0.00031811       0.00352846        0.141455
281752                -0.0301329        0.110557       8.7042e-05    -0.000277582         0.993703       0.0219264      0.000117057    -0.000104173
                     9.69302e-05    -0.000287566       -0.0557752        0.130012     -2.27441e-05    -0.000111993         0.971505        0.187382
                        0.992746       0.0216566       3.2275e-05    -8.47671e-05        0.0251559        0.111845      4.56524e-05    -0.000312382
                     0.000110457    -4.19668e-05         0.972011        0.186769      5.09279e-06    -0.000318122       0.00358336        0.141451
281754                -0.0300942        0.110564      8.70109e-05    -0.000277621         0.993711       0.0215654      0.000117008    -0.000104164
                     9.68767e-05    -0.000287573       -0.0557314        0.130028     -2.26901e-05    -0.000112033         0.971572        0.187033
                        0.992754       0.0212952      3.22411e-05    -8.48049e-05        0.0251983        0.111832      4.53753e-05    -0.000312454
                     0.000110396    -4.19191e-05         0.972079         0.18642      4.97936e-06    -0.000318134       0.00363825        0.141447
281756                -0.0300554         0.11057      8.69797e-05     -0.00027766         0.993719       0.0212043      0.000116959    -0.000104155
                     9.68234e-05    -0.000287579       -0.0556877        0.130044     -2.26364e-05    -0.000112073         0.971639        0.186685
                        0.992762       0.0209338      3.22069e-05    -8.48428e-05        0.0252408        0.111818      4.50983e-05    -0.000312524
                     0.000110333    -4.18692e-05         0.972146        0.186072      4.86581e-06    -0.000318146       0.00369314        0.141443
281758                -0.0300167        0.110576      8.69485e-05    -0.000277699         0.993726       0.0208432       0.00011691    -0.000104145
                     9.67705e-05    -0.000287582        -0.055644         0.13006      -2.2583e-05    -0.000112113         0.971706        0.186336
                         0.99277       0.0205723      3.21724e-05    -8.48808e-05        0.0252832        0.111804      4.48216e-05    -0.000312594
                     0.000110267    -4.18138e-05         0.972213        0.185723      4.75213e-06    -0.000318158       0.00374803        0.141439
281760                -0.0299779        0.110583      8.69171e-05    -0.000277737         0.993734       0.0204821      0.000116862    -0.000104135
                     9.67194e-05    -0.000287573       -0.0556002        0.130076     -2.25298e-05    -0.000112153         0.971773        0.185987
                        0.992778       0.0202109      3.21375e-05     -8.4919e-05        0.0253256        0.111791       4.4545e-05    -0.000312663
                     0.000110183    -4.17307e-05          0.97228        0.185374      4.63833e-06     -0.00031817       0.00380292        0.141435
281762                -0.0299393        0.110589      8.68856e-05    -0.000277776         0.993741        0.020121      0.000116813    -0.000104125
                     9.66491e-05    -0.000287687       -0.0555565        0.130092     -2.24769e-05    -0.000112193          0.97184        0.185638
                        0.992786       0.0198496      3.21023e-05    -8.49572e-05         0.025368        0.111777      4.42686e-05    -0.000312732
