! TOUCHSTONE file generated by CST MICROWAVE STUDIO
! Date and time: Tue Oct 14 07:25:04 2025
! Project name: Teste_Macro_Metasurface_Nanopilar.cst
! Parameters = {H=600; L_x=75; L_y=70; Lambda=1064; Max_L=200; Min_L=70; PathPara=1; Phi=0; Step_L=10; Theta=0; p=520; phaseX=180; phaseY=0}
! Header version: 2018
! Port assignment regex: !\s*Touchstone port\s*([0-9]+)\s*=\s*(CST MWS port|CST DS port)\s*([0-9]+|Zmin|Zmax)\s*\(\"(.*)\"\)(\s*mode\s*([0-9]+))?.*
! Touchstone port assignment:
! Touchstone port 1 = CST MWS port Zmax ("") mode 1
! Touchstone port 2 = CST MWS port Zmax ("") mode 2
! Touchstone port 3 = CST MWS port Zmin ("") mode 1
! Touchstone port 4 = CST MWS port Zmin ("") mode 2
! S-Parameters are not renormalized. Each port impedance will be approximated by the real part at minimum frequency. The values are described via the [Reference] keyword.
! Default impedance is overridden by [Reference]
[Version] 2.0
# GHz S RI R 376.73
[Number of Ports] 4
[Reference]
376.73 376.73 259.814 259.814 
[Number of Frequencies] 51
[Network Data]
281700                -0.0697372        0.133987      0.000184162     0.000303436          0.95724        0.245271     -5.88616e-05     1.27736e-05
                     0.000222332     0.000196261       -0.0636717        0.131093     -0.000106694    -3.73465e-05         0.965259        0.216188
                        0.957747         0.24535     -5.25639e-05     9.44262e-06      -0.00338244        0.151049     -0.000298528     0.000171442
                    -7.03451e-05    -5.90994e-05         0.965071        0.216192     -0.000354565     6.31326e-05         0.001616        0.145749
281702                -0.0696926        0.134007      0.000184273     0.000303303         0.957328        0.244929     -5.88286e-05     1.27983e-05
                     0.000222196     0.000196332       -0.0636276        0.131112     -0.000106508    -3.71858e-05         0.965337        0.215843
                        0.957835        0.245008     -5.24603e-05     9.35738e-06      -0.00332348        0.151048     -0.000298433     0.000171689
                    -7.04358e-05    -5.90384e-05         0.965149        0.215846     -0.000354304     6.36061e-05       0.00167265        0.145746
281704                -0.0696479        0.134028      0.000184383      0.00030317         0.957416        0.244587     -5.87957e-05     1.28228e-05
                     0.000222061     0.000196403       -0.0635835         0.13113     -0.000106322    -3.70247e-05         0.965415        0.215497
                        0.957923        0.244666     -5.23569e-05     9.27185e-06      -0.00326452        0.151047     -0.000298338     0.000171936
                    -7.05267e-05    -5.89773e-05         0.965226          0.2155     -0.000354044       6.408e-05        0.0017293        0.145743
281706                -0.0696033        0.134048      0.000184492     0.000303037         0.957504        0.244245     -5.87631e-05      1.2847e-05
                     0.000221926     0.000196475       -0.0635393        0.131148     -0.000106135    -3.68631e-05         0.965492        0.215151
                        0.958011        0.244323     -5.22535e-05     9.18601e-06      -0.00320556        0.151045     -0.000298243     0.000172183
                    -7.06176e-05    -5.89162e-05         0.965304        0.215155     -0.000353784     6.45542e-05       0.00178595        0.145739
281708                -0.0695586        0.134069      0.000184601     0.000302903         0.957591        0.243902     -5.87306e-05     1.28709e-05
                      0.00022179     0.000196547       -0.0634952        0.131167     -0.000105949     -3.6701e-05         0.965569        0.214806
                        0.958099        0.243981     -5.21502e-05     9.09984e-06       -0.0031466        0.151044     -0.000298148     0.000172429
                    -7.07087e-05     -5.8855e-05         0.965382        0.214809     -0.000353524     6.50288e-05       0.00184259        0.145736
281710                 -0.069514        0.134089      0.000184709     0.000302768         0.957678         0.24356     -5.86983e-05     1.28946e-05
                     0.000221655     0.000196619        -0.063451        0.131185     -0.000105761    -3.65384e-05         0.965647         0.21446
                        0.958186        0.243638      -5.2047e-05     9.01332e-06      -0.00308764        0.151043     -0.000298053     0.000172675
                    -7.07999e-05    -5.87938e-05         0.965459        0.214464     -0.000353264     6.55038e-05       0.00189924        0.145732
281712                -0.0694693         0.13411      0.000184816     0.000302633         0.957765        0.243218     -5.86662e-05      1.2918e-05
                     0.000221519     0.000196691       -0.0634069        0.131203     -0.000105574    -3.63754e-05         0.965724        0.214114
                        0.958274        0.243296     -5.19439e-05     8.92643e-06      -0.00302869        0.151042     -0.000297959      0.00017292
                    -7.08912e-05    -5.87325e-05         0.965536        0.214118     -0.000353004     6.59791e-05       0.00195588        0.145729
281714                -0.0694247         0.13413      0.000184923     0.000302497         0.957853        0.242876     -5.86343e-05     1.29411e-05
                     0.000221383     0.000196763       -0.0633627        0.131221     -0.000105387    -3.62119e-05         0.965801        0.213769
                        0.958361        0.242953     -5.18409e-05     8.83914e-06      -0.00296973        0.151041     -0.000297864     0.000173166
                    -7.09826e-05    -5.86711e-05         0.965613        0.213772     -0.000352745     6.64548e-05       0.00201252        0.145725
281716                  -0.06938        0.134151      0.000185029     0.000302361          0.95794        0.242533     -5.86026e-05      1.2964e-05
                     0.000221247     0.000196836       -0.0633186         0.13124     -0.000105199    -3.60479e-05         0.965878        0.213423
                        0.958449        0.242611      -5.1738e-05     8.75143e-06      -0.00291078        0.151039     -0.000297769     0.000173411
                     -7.1074e-05    -5.86097e-05          0.96569        0.213427     -0.000352485     6.69309e-05       0.00206915        0.145722
281718                -0.0693353        0.134171      0.000185135     0.000302224         0.958026        0.242191     -5.85711e-05     1.29867e-05
                     0.000221112     0.000196909       -0.0632744        0.131258     -0.000105011    -3.58833e-05         0.965955        0.213077
                        0.958536        0.242268     -5.16353e-05     8.66329e-06      -0.00285183        0.151038     -0.000297675     0.000173656
                    -7.11656e-05    -5.85482e-05         0.965767        0.213081     -0.000352226     6.74074e-05       0.00212578        0.145718
281720                -0.0692906        0.134192       0.00018524     0.000302087         0.958113        0.241849     -5.85398e-05     1.30091e-05
                     0.000220976     0.000196981       -0.0632303        0.131276     -0.000104822    -3.57183e-05         0.966031        0.212731
                        0.958623        0.241925     -5.15327e-05     8.57467e-06      -0.00279287        0.151037      -0.00029758     0.000173901
                    -7.12573e-05    -5.84867e-05         0.965844        0.212735     -0.000351967     6.78842e-05       0.00218242        0.145714
281722                 -0.069246        0.134212      0.000185344     0.000301948           0.9582        0.241506     -5.85087e-05     1.30313e-05
                      0.00022084     0.000197054       -0.0631861        0.131294     -0.000104634    -3.55528e-05         0.966108        0.212385
                         0.95871        0.241583     -5.14303e-05     8.48557e-06      -0.00273393        0.151036     -0.000297486     0.000174145
                    -7.13491e-05    -5.84251e-05         0.965921        0.212389     -0.000351708     6.83613e-05       0.00223904        0.145711
281724                -0.0692013        0.134232      0.000185447      0.00030181         0.958286        0.241164     -5.84779e-05     1.30533e-05
                     0.000220704     0.000197128       -0.0631419        0.131312     -0.000104445    -3.53868e-05         0.966184        0.212039
                        0.958797         0.24124     -5.13281e-05     8.39596e-06      -0.00267498        0.151034     -0.000297392     0.000174389
                     -7.1441e-05    -5.83635e-05         0.965997        0.212043     -0.000351449     6.88389e-05       0.00229567        0.145707
281726                -0.0691566        0.134253       0.00018555      0.00030167         0.958372        0.240821     -5.84472e-05      1.3075e-05
                     0.000220568     0.000197201       -0.0630977        0.131331     -0.000104256    -3.52203e-05         0.966261        0.211693
                        0.958883        0.240897     -5.12261e-05     8.30581e-06      -0.00261603        0.151033     -0.000297298     0.000174633
                    -7.15329e-05    -5.83018e-05         0.966074        0.211697     -0.000351191     6.93167e-05       0.00235229        0.145703
281728                -0.0691119        0.134273      0.000185651      0.00030153         0.958459        0.240479     -5.84167e-05     1.30966e-05
                     0.000220432     0.000197274       -0.0630535        0.131349     -0.000104067    -3.50533e-05         0.966337        0.211347
                         0.95897        0.240555     -5.11243e-05      8.2151e-06      -0.00255709        0.151032     -0.000297204     0.000174877
                     -7.1625e-05      -5.824e-05          0.96615        0.211352     -0.000350932      6.9795e-05       0.00240891          0.1457
281730                -0.0690672        0.134294      0.000185752     0.000301389         0.958545        0.240136     -5.83865e-05      1.3118e-05
                     0.000220296     0.000197348       -0.0630093        0.131367     -0.000103878    -3.48858e-05         0.966413        0.211001
                        0.959056        0.240212     -5.10227e-05     8.12381e-06      -0.00249814         0.15103      -0.00029711      0.00017512
                    -7.17171e-05    -5.81782e-05         0.966226        0.211006     -0.000350674     7.02736e-05       0.00246553        0.145696
281732                -0.0690224        0.134314      0.000185852     0.000301248         0.958631        0.239794     -5.83565e-05     1.31391e-05
                      0.00022016     0.000197422       -0.0629651        0.131385     -0.000103688    -3.47177e-05         0.966489        0.210655
                        0.959143        0.239869     -5.09213e-05      8.0319e-06       -0.0024392        0.151029     -0.000297016     0.000175363
                    -7.18092e-05    -5.81163e-05         0.966302         0.21066     -0.000350416     7.07525e-05       0.00252215        0.145692
281734                -0.0689777        0.134334      0.000185951     0.000301106         0.958717        0.239451     -5.83267e-05     1.31601e-05
                     0.000220024     0.000197496       -0.0629209        0.131403     -0.000103498    -3.45492e-05         0.966565        0.210309
                        0.959229        0.239526     -5.08202e-05     7.93935e-06      -0.00238026        0.151027     -0.000296922     0.000175606
                    -7.19014e-05    -5.80543e-05         0.966378        0.210314     -0.000350158     7.12318e-05       0.00257876        0.145688
281736                 -0.068933        0.134355      0.000186049     0.000300963         0.958802        0.239109     -5.82971e-05     1.31809e-05
                     0.000219888     0.000197571       -0.0628767        0.131421     -0.000103308    -3.43801e-05          0.96664        0.209963
                        0.959315        0.239183     -5.07194e-05     7.84614e-06      -0.00232132        0.151026     -0.000296829     0.000175849
                    -7.19935e-05    -5.79921e-05         0.966454        0.209968       -0.0003499     7.17115e-05       0.00263537        0.145685
281738                -0.0688883        0.134375      0.000186146     0.000300819         0.958888        0.238766     -5.82677e-05     1.32015e-05
                     0.000219752     0.000197646       -0.0628325        0.131439     -0.000103118    -3.42105e-05         0.966716        0.209617
                        0.959401         0.23884     -5.06189e-05     7.75225e-06      -0.00226238        0.151024     -0.000296735     0.000176091
                    -7.20852e-05    -5.79296e-05         0.966529        0.209622     -0.000349643     7.21915e-05       0.00269198        0.145681
281740                -0.0688435        0.134395      0.000186242     0.000300674         0.958973        0.238423     -5.82386e-05     1.32219e-05
                     0.000219617     0.000197722       -0.0627883        0.131457     -0.000102927    -3.40403e-05         0.966791        0.209271
                        0.959487        0.238497     -5.05187e-05     7.65764e-06      -0.00220345        0.151023     -0.000296642     0.000176334
                    -7.21755e-05    -5.78664e-05         0.966605        0.209276     -0.000349385     7.26718e-05       0.00274858        0.145677
281742                -0.0687988        0.134415      0.000186336     0.000300529         0.959059        0.238081     -5.82097e-05     1.32422e-05
                      0.00021948     0.000197804       -0.0627441        0.131475     -0.000102736    -3.38697e-05         0.966867        0.208925
                        0.959572        0.238154     -5.04189e-05     7.56228e-06      -0.00214451        0.151021     -0.000296549     0.000176576
                    -7.22475e-05    -5.78041e-05          0.96668         0.20893     -0.000349128     7.31525e-05       0.00280518        0.145673
281744                 -0.068754        0.134436       0.00018643     0.000300383         0.959144        0.237738      -5.8181e-05     1.32623e-05
                     0.000219328     0.000197869       -0.0626999        0.131493     -0.000102545    -3.36984e-05         0.966942        0.208579
                        0.959658        0.237811     -5.03194e-05     7.46616e-06      -0.00208558         0.15102     -0.000296455     0.000176817
                    -7.23738e-05    -5.77541e-05         0.966756        0.208583     -0.000348871     7.36335e-05       0.00286178        0.145669
281746                -0.0687092        0.134456      0.000186523     0.000300236         0.959229        0.237395     -5.81525e-05     1.32822e-05
                     0.000219199     0.000197941       -0.0626556        0.131511     -0.000102354    -3.35266e-05         0.967017        0.208232
                        0.959743        0.237468     -5.02203e-05     7.36925e-06      -0.00202665        0.151018     -0.000296362     0.000177059
                    -7.24634e-05    -5.76869e-05         0.966831        0.208237     -0.000348614     7.41148e-05       0.00291838        0.145665
281748                -0.0686645        0.134476      0.000186614     0.000300088         0.959314        0.237052     -5.81243e-05     1.33021e-05
                     0.000219064     0.000198016       -0.0626114        0.131529     -0.000102162    -3.33542e-05         0.967092        0.207886
                        0.959829        0.237125     -5.01216e-05     7.27151e-06      -0.00196772        0.151017      -0.00029627       0.0001773
                    -7.25554e-05    -5.76236e-05         0.966906        0.207891     -0.000348358     7.45965e-05       0.00297498        0.145661
281750                -0.0686197        0.134496      0.000186704      0.00029994         0.959399         0.23671     -5.80963e-05     1.33217e-05
                     0.000218928     0.000198091       -0.0625671        0.131547     -0.000101971    -3.31812e-05         0.967167         0.20754
                        0.959914        0.236782     -5.00233e-05     7.17294e-06      -0.00190879        0.151015     -0.000296177     0.000177541
                    -7.26481e-05    -5.75609e-05         0.966981        0.207545     -0.000348101     7.50785e-05       0.00303157        0.145658
281752                -0.0685749        0.134516      0.000186793      0.00029979         0.959484        0.236367     -5.80685e-05     1.33413e-05
                     0.000218792     0.000198167       -0.0625229        0.131565     -0.000101779    -3.30075e-05         0.967242        0.207194
                        0.959999        0.236439     -4.99255e-05     7.07349e-06      -0.00184987        0.151013     -0.000296084     0.000177782
                    -7.27412e-05    -5.74984e-05         0.967055        0.207199     -0.000347845     7.55607e-05       0.00308816        0.145654
281754                -0.0685302        0.134537       0.00018688      0.00029964         0.959568        0.236024     -5.80409e-05     1.33607e-05
                     0.000218655     0.000198242       -0.0624786        0.131583     -0.000101586    -3.28326e-05         0.967316        0.206847
                        0.960084        0.236096     -4.98281e-05     6.97314e-06      -0.00179094        0.151012     -0.000295992     0.000178023
                    -7.28345e-05     -5.7436e-05          0.96713        0.206852     -0.000347589     7.60432e-05       0.00314474         0.14565
281756                -0.0684854        0.134557      0.000186966     0.000299488         0.959653        0.235681     -5.80135e-05       1.338e-05
                     0.000218519     0.000198318       -0.0624344        0.131601     -0.000101393    -3.26549e-05         0.967391        0.206501
                        0.960169        0.235752     -4.97313e-05     6.87188e-06      -0.00173202         0.15101       -0.0002959     0.000178263
                     -7.2928e-05    -5.73736e-05         0.967205        0.206506     -0.000347333     7.65255e-05       0.00320133        0.145646
281758                -0.0684406        0.134577      0.000187051     0.000299336         0.959737        0.235338     -5.79864e-05     1.33992e-05
                     0.000218382     0.000198394       -0.0623901        0.131619     -0.000101215    -3.25207e-05         0.967465        0.206154
                        0.960253        0.235409     -4.96349e-05     6.76968e-06      -0.00167308        0.151008     -0.000295808     0.000178503
                    -7.30216e-05    -5.73113e-05         0.967279         0.20616     -0.000347073     7.69957e-05       0.00325791        0.145642
281760                -0.0683958        0.134597      0.000187134     0.000299183         0.959821        0.234995     -5.79595e-05     1.34183e-05
                     0.000218245      0.00019847       -0.0623458        0.131637     -0.000101011    -3.23154e-05         0.967539        0.205808
                        0.960338        0.235066     -4.95391e-05     6.66652e-06      -0.00161417        0.151006     -0.000295716     0.000178743
                    -7.31153e-05    -5.72489e-05         0.967353        0.205813      -0.00034682     7.74958e-05       0.00331449        0.145638
281762                 -0.068351        0.134617      0.000187215     0.000299029         0.959906        0.234652     -5.79327e-05     1.34373e-05
                     0.000218108     0.000198546       -0.0623016        0.131655     -0.000100817    -3.21373e-05         0.967613        0.205462
                        0.960423        0.234722     -4.94438e-05     6.56239e-06      -0.00155525        0.151005     -0.000295624     0.000178983
