! TOUCHSTONE file generated by CST MICROWAVE STUDIO
! Date and time: Tue Oct 14 07:28:25 2025
! Project name: Teste_Macro_Metasurface_Nanopilar.cst
! Parameters = {H=600; L_x=125; L_y=155; Lambda=1064; Max_L=200; Min_L=70; PathPara=1; Phi=0; Step_L=10; Theta=0; p=520; phaseX=180; phaseY=0}
! Header version: 2018
! Port assignment regex: !\s*Touchstone port\s*([0-9]+)\s*=\s*(CST MWS port|CST DS port)\s*([0-9]+|Zmin|Zmax)\s*\(\"(.*)\"\)(\s*mode\s*([0-9]+))?.*
! Touchstone port assignment:
! Touchstone port 1 = CST MWS port Zmax ("") mode 1
! Touchstone port 2 = CST MWS port Zmax ("") mode 2
! Touchstone port 3 = CST MWS port Zmin ("") mode 1
! Touchstone port 4 = CST MWS port Zmin ("") mode 2
! S-Parameters are not renormalized. Each port impedance will be approximated by the real part at minimum frequency. The values are described via the [Reference] keyword.
! Default impedance is overridden by [Reference]
[Version] 2.0
# GHz S RI R 376.73
[Number of Ports] 4
[Reference]
376.73 376.73 259.814 259.814 
[Number of Frequencies] 51
[Network Data]
281700                 -0.233044       -0.370289      -3.1974e-06     0.000326063          0.66759        0.587621     -0.000156815    -0.000280663
                     1.61908e-05     0.000298794       -0.0791908      -0.0996348      0.000189076     0.000433423        -0.139835        0.976385
                        0.667619        0.587688      0.000190943     0.000504945          0.39733        0.168194     -0.000385189    -0.000338797
                    -0.000170464    -0.000301457        -0.139528        0.976456     -0.000399555    -0.000312015        -0.102618        0.074111
281702                  -0.23327       -0.370348     -2.79171e-06     0.000326273         0.667875        0.587161     -0.000157202      -0.0002806
                     1.65705e-05     0.000298846       -0.0792281      -0.0996271      0.000189301     0.000433637        -0.139392        0.976446
                        0.667907        0.587232      0.000191313     0.000505274         0.397627        0.167916     -0.000385618    -0.000338889
                    -0.000170771    -0.000301338        -0.139085        0.976517     -0.000399831    -0.000312045        -0.102584       0.0741864
281704                 -0.233496       -0.370408     -2.38547e-06     0.000326483         0.668159        0.586701      -0.00015759    -0.000280536
                     1.69325e-05     0.000298907       -0.0792655      -0.0996194      0.000189526     0.000433852        -0.138949        0.976507
                        0.668195        0.586775      0.000191684     0.000505604         0.397925        0.167637     -0.000386048     -0.00033898
                    -0.000171066    -0.000301225        -0.138641        0.976578     -0.000400108    -0.000312075        -0.102551       0.0742618
281706                 -0.233723       -0.370467     -1.97869e-06     0.000326693         0.668443        0.586241     -0.000157978    -0.000280472
                     1.72748e-05     0.000298978       -0.0793029      -0.0996116      0.000189752     0.000434066        -0.138506        0.976568
                        0.668482        0.586317      0.000192056     0.000505934         0.398222        0.167358     -0.000386478    -0.000339071
                    -0.000171346    -0.000301116        -0.138198        0.976639     -0.000400384    -0.000312105        -0.102518       0.0743371
281708                  -0.23395       -0.370526      -1.5714e-06     0.000326902         0.668726         0.58578     -0.000158367    -0.000280407
                     1.75947e-05     0.000299062       -0.0793403      -0.0996038      0.000189978     0.000434281        -0.138063        0.976629
                        0.668767        0.585859      0.000192428     0.000506264          0.39852        0.167079     -0.000386909    -0.000339162
                     -0.00017161    -0.000301014        -0.137755          0.9767     -0.000400662    -0.000312134        -0.102485       0.0744124
281710                 -0.234177       -0.370585     -1.16363e-06     0.000327111          0.66901        0.585318     -0.000158755    -0.000280341
                     1.78894e-05     0.000299158       -0.0793776      -0.0995961      0.000190205     0.000434495        -0.137621         0.97669
                        0.669052          0.5854      0.000192801     0.000506594         0.398817        0.166799     -0.000387341    -0.000339253
                    -0.000171856    -0.000300918        -0.137312        0.976761     -0.000400939    -0.000312165        -0.102451       0.0744877
281712                 -0.234404       -0.370644     -7.55484e-07      0.00032732         0.669293        0.584857     -0.000159145    -0.000280275
                     1.81551e-05     0.000299269        -0.079415      -0.0995883      0.000190433      0.00043471        -0.137178         0.97675
                        0.669336        0.584941      0.000193175     0.000506924         0.399115        0.166519     -0.000387773    -0.000339343
                     -0.00017208    -0.000300829        -0.136869        0.976821     -0.000401217    -0.000312195        -0.102418        0.074563
281714                 -0.234631       -0.370702     -3.47102e-07     0.000327529         0.669575        0.584395     -0.000159535    -0.000280208
                     1.83878e-05     0.000299397       -0.0794524      -0.0995804      0.000190661     0.000434925        -0.136735         0.97681
                        0.669618        0.584481      0.000193549     0.000507254         0.399412        0.166238     -0.000388206    -0.000339433
                     -0.00017228    -0.000300747        -0.136426        0.976881     -0.000401495    -0.000312225        -0.102384       0.0746383
281716                 -0.234858       -0.370761      6.12578e-08     0.000327738         0.669858        0.583933     -0.000159925    -0.000280141
                     1.85825e-05     0.000299544       -0.0794898      -0.0995726      0.000190889      0.00043514        -0.136292         0.97687
                          0.6699         0.58402      0.000193924     0.000507584          0.39971        0.165957     -0.000388639    -0.000339523
                    -0.000172452    -0.000300673        -0.135983        0.976941     -0.000401774    -0.000312255        -0.102351       0.0747135
281718                 -0.235086       -0.370819      4.69797e-07     0.000327949          0.67014         0.58347     -0.000160316    -0.000280073
                     1.87333e-05     0.000299712       -0.0795271      -0.0995648      0.000191119     0.000435355        -0.135849         0.97693
                        0.670181        0.583558        0.0001943     0.000507914         0.400007        0.165676     -0.000389074    -0.000339612
                    -0.000172591    -0.000300606        -0.135539        0.977001     -0.000402053    -0.000312286        -0.102317       0.0747888
281720                 -0.235313       -0.370877      8.81983e-07     0.000328162         0.670421        0.583007     -0.000160707    -0.000280004
                      1.8833e-05     0.000299904       -0.0795645      -0.0995569      0.000191348      0.00043557        -0.135406         0.97699
                        0.670462        0.583096      0.000194676     0.000508245         0.400305        0.165394     -0.000389509    -0.000339701
                    -0.000172693    -0.000300547        -0.135096         0.97706     -0.000402332    -0.000312316        -0.102284        0.074864
281722                 -0.235541       -0.370936      1.29776e-06     0.000328371         0.670703        0.582544     -0.000161099    -0.000279935
                     1.88732e-05     0.000300122       -0.0796019       -0.099549      0.000191579     0.000435786        -0.134963        0.977049
                        0.670741        0.582632      0.000195053     0.000508575         0.400602        0.165112     -0.000389944     -0.00033979
                     -0.00017275    -0.000300495        -0.134653         0.97712     -0.000402612    -0.000312347         -0.10225       0.0749392
281724                 -0.235769       -0.370994       1.7119e-06     0.000328577         0.670984         0.58208     -0.000161491    -0.000279865
                     1.88438e-05     0.000300368       -0.0796393      -0.0995412      0.000191809     0.000436001         -0.13452        0.977108
                         0.67102        0.582168       0.00019543     0.000508906           0.4009        0.164829     -0.000390381    -0.000339879
                    -0.000172757    -0.000300448         -0.13421        0.977179     -0.000402892    -0.000312378        -0.102216       0.0750144
281726                 -0.235997       -0.371052      2.12524e-06     0.000328784         0.671265        0.581616     -0.000161883    -0.000279794
                      1.8733e-05     0.000300646       -0.0796767      -0.0995333      0.000192041     0.000436217        -0.134077        0.977167
                        0.671299        0.581703      0.000195809     0.000509236         0.401197        0.164546     -0.000390818    -0.000339967
                    -0.000172704    -0.000300405        -0.133766        0.977238     -0.000403172    -0.000312409        -0.102182       0.0750896
281728                 -0.236225       -0.371109      2.53875e-06      0.00032899         0.671545        0.581152     -0.000162276    -0.000279723
                     1.85267e-05     0.000300958        -0.079714      -0.0995253      0.000192273     0.000436433        -0.133634        0.977226
                        0.671577        0.581237      0.000196188     0.000509567         0.401494        0.164262     -0.000391255    -0.000340055
                    -0.000172582    -0.000300362        -0.133323        0.977297     -0.000403452     -0.00031244        -0.102149       0.0751648
281730                 -0.236454       -0.371167       2.9527e-06     0.000329197         0.671826        0.580688      -0.00016267    -0.000279651
                     1.82094e-05     0.000301304       -0.0797514      -0.0995174      0.000192505     0.000436649        -0.133191        0.977285
                        0.671854        0.580771      0.000196568     0.000509896         0.401792        0.163978     -0.000391694    -0.000340143
                    -0.000172381    -0.000300312         -0.13288        0.977355     -0.000403733    -0.000312471        -0.102115       0.0752399
281732                 -0.236682       -0.371225       3.3672e-06     0.000329404         0.672106        0.580223     -0.000163063    -0.000279579
                     1.77645e-05     0.000301683       -0.0797888      -0.0995095      0.000192738     0.000436865        -0.132748        0.977343
                        0.672131        0.580304      0.000196928      0.00051027         0.402089        0.163694     -0.000392133    -0.000340231
                    -0.000172091    -0.000300248        -0.132436        0.977414     -0.000404015    -0.000312502        -0.102081       0.0753151
281734                 -0.236911       -0.371283      3.78227e-06      0.00032961         0.672385        0.579757     -0.000163458    -0.000279506
                     1.71771e-05     0.000302091       -0.0798262      -0.0995015      0.000192972     0.000437081        -0.132305        0.977401
                        0.672408        0.579836      0.000197326     0.000510564         0.402386        0.163409     -0.000392572    -0.000340318
                    -0.000171707    -0.000300156        -0.131993        0.977472     -0.000404296    -0.000312534        -0.102047       0.0753902
281736                  -0.23714        -0.37134      4.19792e-06     0.000329817         0.672664        0.579292     -0.000163852    -0.000279432
                     1.64391e-05     0.000302519       -0.0798636      -0.0994935      0.000193206     0.000437297        -0.131862        0.977459
                        0.672685        0.579368      0.000197708     0.000510894         0.402684        0.163123     -0.000393012    -0.000340405
                    -0.000171228    -0.000300023         -0.13155         0.97753     -0.000404578    -0.000312565        -0.102013       0.0754653
281738                 -0.237369       -0.371398      4.61415e-06     0.000330023         0.672943        0.578826     -0.000164248    -0.000279358
                     1.55611e-05     0.000302948        -0.079901      -0.0994855       0.00019344     0.000437514        -0.131419        0.977517
                        0.672962        0.578899       0.00019809     0.000511225         0.402981        0.162838     -0.000393453    -0.000340492
                     -0.00017067    -0.000299834        -0.131106        0.977588      -0.00040486    -0.000312597        -0.101978       0.0755404
281740                 -0.237599       -0.371456      5.03097e-06     0.000330229         0.673222         0.57836     -0.000164644    -0.000279284
                     1.45956e-05     0.000303352       -0.0799384      -0.0994775      0.000193676      0.00043773        -0.130975        0.977575
                        0.673238        0.578431      0.000198472     0.000511557         0.403278        0.162551     -0.000393895    -0.000340578
                    -0.000170076    -0.000299581        -0.130663        0.977645     -0.000405143    -0.000312628        -0.101944       0.0756154
281742                 -0.237829       -0.371513      5.44838e-06     0.000330435           0.6735        0.577893      -0.00016504    -0.000279209
                     1.36784e-05     0.000303695       -0.0799758      -0.0994695      0.000193911     0.000437947        -0.130532        0.977632
                        0.673515        0.577963      0.000198856     0.000511888         0.403575        0.162265     -0.000394337    -0.000340665
                    -0.000169539    -0.000299282        -0.130219        0.977702     -0.000405426     -0.00031266         -0.10191       0.0756905
281744                 -0.238059       -0.371571      5.86636e-06      0.00033064         0.673779        0.577426     -0.000165439    -0.000279135
                     1.30965e-05     0.000303933       -0.0800132      -0.0994615      0.000194148     0.000438164        -0.130089        0.977689
                        0.673793        0.577496       0.00019924      0.00051222         0.403872        0.161978      -0.00039478    -0.000340751
                    -0.000169225    -0.000299004        -0.129776         0.97776     -0.000405709    -0.000312692        -0.101876       0.0757655
281746                  -0.23829        -0.37163      6.28493e-06     0.000330845         0.674056        0.576959     -0.000165856    -0.000279055
                     1.33668e-05     0.000304009       -0.0800506      -0.0994534      0.000194384     0.000438381        -0.129646        0.977746
                        0.674071        0.577031      0.000199624     0.000512552          0.40417         0.16169     -0.000395222    -0.000340837
                    -0.000169427    -0.000298882        -0.129332        0.977817     -0.000405992    -0.000312724        -0.101842       0.0758406
281748                 -0.238521       -0.371689      6.70408e-06     0.000331051         0.674334        0.576492     -0.000166228    -0.000278968
                     1.52438e-05     0.000303771        -0.080088      -0.0994454      0.000194622     0.000438599        -0.129203        0.977803
                        0.674352        0.576571      0.000200009     0.000512884         0.404467        0.161402     -0.000395662    -0.000340942
                    -0.000170618    -0.000299059        -0.128889        0.977873     -0.000406276    -0.000312756        -0.101807       0.0759156
281750                 -0.238754       -0.371749      7.12381e-06     0.000331255         0.674611        0.576024     -0.000166626    -0.000278894
                     1.94187e-05     0.000302786       -0.0801254      -0.0994373       0.00019486     0.000438816        -0.128759         0.97786
                        0.674639        0.576119      0.000200395     0.000513216         0.404764        0.161114     -0.000396118    -0.000341007
                    -0.000173446     -0.00029936        -0.128445         0.97793      -0.00040656    -0.000312789        -0.101773       0.0759906
281752                  -0.23899       -0.371814      7.54413e-06      0.00033146         0.674888        0.575556     -0.000167024    -0.000278816
                     2.56904e-05     0.000300295       -0.0801628      -0.0994292      0.000195098     0.000439033        -0.128316        0.977916
                        0.674948        0.575685      0.000200781     0.000513549         0.405061        0.160825     -0.000396562    -0.000341091
                    -0.000178128    -0.000298764        -0.128002        0.977986     -0.000406844    -0.000312821        -0.101738       0.0760655
281754                 -0.239224       -0.371892      7.96502e-06     0.000331664         0.675164        0.575087     -0.000167423    -0.000278737
                     3.23954e-05     0.000296043       -0.0802002      -0.0994211      0.000195337     0.000439251        -0.127873        0.977972
                        0.675363         0.57525      0.000201168     0.000513881         0.405358        0.160536     -0.000397008    -0.000341176
                    -0.000183188    -0.000296147        -0.127558        0.978042     -0.000407129    -0.000312853        -0.101704       0.0761405
281756                 -0.239413       -0.371979      8.38649e-06     0.000331869          0.67544        0.574618     -0.000167822    -0.000278658
                     3.76628e-05     0.000291114       -0.0802376       -0.099413      0.000195577     0.000439469         -0.12743        0.978028
                        0.675721        0.574493      0.000201556     0.000514214         0.405655        0.160247     -0.000397454     -0.00034126
                    -0.000186567    -0.000292408        -0.127114        0.978098     -0.000407414    -0.000312886        -0.101669       0.0762155
281758                 -0.239616       -0.371995      8.80854e-06     0.000332072         0.675716        0.574149     -0.000168222    -0.000278577
                     4.10109e-05     0.000286941        -0.080275      -0.0994049      0.000195817     0.000439687        -0.126986        0.978084
                        0.675817        0.573991      0.000201944     0.000514547         0.405952        0.159957     -0.000397902    -0.000341344
                    -0.000188174    -0.000289263        -0.126671        0.978154     -0.000407699    -0.000312919        -0.101634       0.0762904
281760                 -0.239858       -0.372035      9.23117e-06     0.000332276         0.675992         0.57368     -0.000168622    -0.000278496
                     4.29715e-05     0.000284086       -0.0803124      -0.0993967      0.000196057     0.000439905        -0.126543        0.978139
                        0.676042        0.573553      0.000202333      0.00051488         0.406249        0.159666      -0.00039835    -0.000341428
                    -0.000188911    -0.000287211        -0.126227         0.97821     -0.000407985    -0.000312951          -0.1016       0.0763653
281762                 -0.240096       -0.372087      9.65437e-06     0.000332479         0.676267         0.57321     -0.000169022    -0.000278414
                     4.41468e-05     0.000282389       -0.0803499      -0.0993885      0.000196299     0.000440123        -0.126099        0.978195
                        0.676301        0.573101      0.000202723     0.000515213         0.406546        0.159375     -0.000398799    -0.000341511
