! TOUCHSTONE file generated by CST MICROWAVE STUDIO
! Date and time: Tue Oct 14 07:29:33 2025
! Project name: Teste_Macro_Metasurface_Nanopilar.cst
! Parameters = {H=600; L_x=145; L_y=105; Lambda=1064; Max_L=200; Min_L=70; PathPara=1; Phi=0; Step_L=10; Theta=0; p=520; phaseX=180; phaseY=0}
! Header version: 2018
! Port assignment regex: !\s*Touchstone port\s*([0-9]+)\s*=\s*(CST MWS port|CST DS port)\s*([0-9]+|Zmin|Zmax)\s*\(\"(.*)\"\)(\s*mode\s*([0-9]+))?.*
! Touchstone port assignment:
! Touchstone port 1 = CST MWS port Zmax ("") mode 1
! Touchstone port 2 = CST MWS port Zmax ("") mode 2
! Touchstone port 3 = CST MWS port Zmin ("") mode 1
! Touchstone port 4 = CST MWS port Zmin ("") mode 2
! S-Parameters are not renormalized. Each port impedance will be approximated by the real part at minimum frequency. The values are described via the [Reference] keyword.
! Default impedance is overridden by [Reference]
[Version] 2.0
# GHz S RI R 376.73
[Number of Ports] 4
[Reference]
376.73 376.73 259.814 259.814 
[Number of Frequencies] 51
[Network Data]
281700                 -0.167313      -0.0735861     -0.000389378    -0.000476005        -0.494495        -0.84067      -0.00104703    -0.000410399
                    -0.000383428    -0.000480071       -0.0454154       -0.127832      0.000931127    -0.000515429        -0.161702        0.971385
                       -0.494187       -0.840302      0.000843253    -0.000466486       -0.0164912        0.181179       0.00050385    -0.000581214
                     -0.00104214    -0.000340004        -0.161859        0.971736      0.000286015    -0.000560996       -0.0832588        0.107115
281702                 -0.167345      -0.0735247     -0.000389588    -0.000475523        -0.494917        -0.84042      -0.00104728    -0.000409947
                    -0.000383769    -0.000479618       -0.0454657       -0.127836      0.000930972    -0.000515934        -0.161253        0.971457
                       -0.494609       -0.840052       0.00084314     -0.00046695       -0.0163785        0.181194      0.000503681    -0.000581241
                     -0.00104236    -0.000339473         -0.16141        0.971808      0.000285933    -0.000560861       -0.0832091         0.10718
281704                 -0.167378      -0.0734632     -0.000389798     -0.00047504        -0.495338        -0.84017      -0.00104754    -0.000409496
                     -0.00038411    -0.000479165        -0.045516       -0.127841      0.000930817     -0.00051644        -0.160804        0.971529
                        -0.49503       -0.839802      0.000843027    -0.000467414       -0.0162658        0.181208      0.000503512    -0.000581268
                     -0.00104257    -0.000338942         -0.16096        0.971879      0.000285852    -0.000560725       -0.0831594        0.107244
281706                  -0.16741      -0.0734017     -0.000390008    -0.000474558         -0.49576        -0.83992      -0.00104779    -0.000409044
                    -0.000384451    -0.000478711       -0.0455664       -0.127845      0.000930663    -0.000516945        -0.160355          0.9716
                       -0.495452       -0.839552      0.000842913    -0.000467879       -0.0161531        0.181223      0.000503343    -0.000581295
                     -0.00104279    -0.000338411        -0.160511        0.971951       0.00028577     -0.00056059       -0.0831096        0.107309
281708                 -0.167442      -0.0733402     -0.000390217    -0.000474076        -0.496181       -0.839669      -0.00104804    -0.000408593
                    -0.000384791    -0.000478258       -0.0456167       -0.127849      0.000930508     -0.00051745        -0.159906        0.971672
                       -0.495873       -0.839301      0.000842799    -0.000468343       -0.0160404        0.181238      0.000503173    -0.000581321
                     -0.00104301     -0.00033788        -0.160061        0.972022      0.000285689    -0.000560454       -0.0830598        0.107374
281710                 -0.167474      -0.0732787     -0.000390426    -0.000473594        -0.496602       -0.839418      -0.00104828    -0.000408142
                     -0.00038513    -0.000477804        -0.045667       -0.127853      0.000930352    -0.000517955        -0.159457        0.971743
                       -0.496294       -0.839051      0.000842684    -0.000468807       -0.0159277        0.181252      0.000503003    -0.000581347
                     -0.00104323    -0.000337348        -0.159612        0.972093      0.000285607    -0.000560318       -0.0830099        0.107439
281712                 -0.167506      -0.0732172     -0.000390634    -0.000473112        -0.497023       -0.839168      -0.00104853    -0.000407691
                    -0.000385469    -0.000477349       -0.0457174       -0.127858      0.000930197    -0.000518459        -0.159008        0.971814
                       -0.496715         -0.8388      0.000842569    -0.000469272        -0.015815        0.181267      0.000502832    -0.000581372
                     -0.00104345    -0.000336817        -0.159162        0.972164      0.000285526    -0.000560181         -0.08296        0.107503
281714                 -0.167538      -0.0731557     -0.000390842     -0.00047263        -0.497444       -0.838916      -0.00104878     -0.00040724
                    -0.000385807    -0.000476895       -0.0457677       -0.127862      0.000930042    -0.000518964        -0.158558        0.971884
                       -0.497136       -0.838549      0.000842454    -0.000469736       -0.0157022        0.181281       0.00050266    -0.000581397
                     -0.00104366    -0.000336286        -0.158713        0.972235      0.000285444    -0.000560045         -0.08291        0.107568
281716                 -0.167569      -0.0730941     -0.000391049    -0.000472148        -0.497865       -0.838665      -0.00104903    -0.000406789
                    -0.000386145     -0.00047644       -0.0458181       -0.127866      0.000929886    -0.000519468        -0.158109        0.971955
                       -0.497557       -0.838297      0.000842338    -0.000470201       -0.0155895        0.181295      0.000502488    -0.000581422
                     -0.00104388    -0.000335755        -0.158263        0.972306      0.000285363    -0.000559908         -0.08286        0.107633
281718                 -0.167601      -0.0730325     -0.000391257    -0.000471666        -0.498285       -0.838413      -0.00104927    -0.000406339
                    -0.000386482    -0.000475985       -0.0458685        -0.12787       0.00092973    -0.000519972         -0.15766        0.972025
                       -0.497978       -0.838046      0.000842221    -0.000470666       -0.0154767        0.181309      0.000502316    -0.000581446
                      -0.0010441    -0.000335224        -0.157813        0.972376      0.000285281    -0.000559771       -0.0828099        0.107697
281720                 -0.167633      -0.0729709     -0.000391463    -0.000471184        -0.498706       -0.838162      -0.00104952    -0.000405888
                    -0.000386819     -0.00047553       -0.0459188       -0.127874      0.000929574    -0.000520476        -0.157211        0.972095
                       -0.498398       -0.837794      0.000842104     -0.00047113       -0.0153639        0.181324      0.000502143     -0.00058147
                     -0.00104432    -0.000334693        -0.157364        0.972446        0.0002852    -0.000559634       -0.0827598        0.107762
281722                 -0.167665      -0.0729093      -0.00039167    -0.000470702        -0.499126       -0.837909      -0.00104976    -0.000405438
                    -0.000387155    -0.000475074       -0.0459692       -0.127878      0.000929418     -0.00052098        -0.156761        0.972165
                       -0.498819       -0.837542      0.000841987    -0.000471595       -0.0152511        0.181338      0.000501969    -0.000581493
                     -0.00104453    -0.000334162        -0.156914        0.972516      0.000285119    -0.000559496       -0.0827096        0.107826
281724                 -0.167697      -0.0728477     -0.000391875     -0.00047022        -0.499547       -0.837657         -0.00105    -0.000404988
                    -0.000387491    -0.000474618       -0.0460196       -0.127882      0.000929262    -0.000521484        -0.156312        0.972235
                       -0.499239        -0.83729      0.000841869     -0.00047206       -0.0151383        0.181352      0.000501795    -0.000581516
                     -0.00104475    -0.000333631        -0.156464        0.972586      0.000285038    -0.000559359       -0.0826594        0.107891
281726                 -0.167729      -0.0727861     -0.000392081    -0.000469739        -0.499967       -0.837405      -0.00105024    -0.000404538
                    -0.000387826    -0.000474162         -0.04607       -0.127886      0.000929105    -0.000521988        -0.155862        0.972304
                       -0.499659       -0.837037      0.000841751    -0.000472525       -0.0150255        0.181366      0.000501621    -0.000581539
                     -0.00104497      -0.0003331        -0.156015        0.972655      0.000284957    -0.000559221       -0.0826091        0.107955
281728                  -0.16776      -0.0727244     -0.000392286    -0.000469257        -0.500387       -0.837152      -0.00105049    -0.000404088
                    -0.000388161    -0.000473706       -0.0461204       -0.127891      0.000928948    -0.000522491        -0.155413        0.972373
                       -0.500079       -0.836785      0.000841632     -0.00047299       -0.0149126        0.181379      0.000501446    -0.000581562
                     -0.00104518    -0.000332568        -0.155565        0.972724      0.000284876    -0.000559083       -0.0825588         0.10802
281730                 -0.167792      -0.0726628     -0.000392491    -0.000468775        -0.500807       -0.836899      -0.00105073    -0.000403638
                    -0.000388495    -0.000473249       -0.0461708       -0.127895      0.000928791    -0.000522995        -0.154964        0.972442
                       -0.500499       -0.836532      0.000841513    -0.000473454       -0.0147998        0.181393       0.00050127    -0.000581584
                      -0.0010454    -0.000332037        -0.155115        0.972793      0.000284795    -0.000558944       -0.0825084        0.108084
281732                 -0.167824      -0.0726011     -0.000392695    -0.000468293        -0.501227       -0.836646      -0.00105096    -0.000403188
                    -0.000388829    -0.000472792       -0.0462212       -0.127899      0.000928634    -0.000523498        -0.154514        0.972511
                       -0.500919       -0.836279      0.000841394    -0.000473919       -0.0146869        0.181407      0.000501094    -0.000581605
                     -0.00104562    -0.000331506        -0.154666        0.972862      0.000284714    -0.000558806        -0.082458        0.108149
281734                 -0.167855      -0.0725394     -0.000392899    -0.000467812        -0.501647       -0.836393       -0.0010512    -0.000402739
                    -0.000389162    -0.000472335       -0.0462716       -0.127903      0.000928476    -0.000524002        -0.154065         0.97258
                       -0.501339       -0.836026      0.000841274    -0.000474384        -0.014574         0.18142      0.000500918    -0.000581626
                     -0.00104583    -0.000330975        -0.154216        0.972931      0.000284633    -0.000558667       -0.0824076        0.108213
281736                 -0.167887      -0.0724776     -0.000393103     -0.00046733        -0.502066       -0.836139      -0.00105144     -0.00040229
                    -0.000389495    -0.000471877        -0.046322       -0.127906      0.000928318    -0.000524505        -0.153615        0.972648
                       -0.501758       -0.835772      0.000841154     -0.00047485       -0.0144611        0.181434       0.00050074    -0.000581647
                     -0.00104605    -0.000330444        -0.153766        0.972999      0.000284552    -0.000558528       -0.0823571        0.108278
281738                 -0.167919      -0.0724159     -0.000393306    -0.000466848        -0.502486       -0.835885      -0.00105168    -0.000401841
                    -0.000389827    -0.000471419       -0.0463724        -0.12791       0.00092816    -0.000525008        -0.153166        0.972716
                       -0.502178       -0.835519      0.000841033    -0.000475315       -0.0143482        0.181447      0.000500563    -0.000581668
                     -0.00104626    -0.000329913        -0.153316        0.973068      0.000284471    -0.000558388       -0.0823065        0.108342
281740                  -0.16795      -0.0723542     -0.000393508    -0.000466367        -0.502905       -0.835632      -0.00105191    -0.000401392
                    -0.000390158    -0.000470961       -0.0464228       -0.127914      0.000928002    -0.000525511        -0.152716        0.972784
                       -0.502597       -0.835265      0.000840912     -0.00047578       -0.0142353        0.181461      0.000500385    -0.000581688
                     -0.00104648    -0.000329382        -0.152866        0.973136      0.000284391    -0.000558249       -0.0822559        0.108406
281742                 -0.167982      -0.0722924     -0.000393711    -0.000465885        -0.503324       -0.835377      -0.00105215    -0.000400943
                     -0.00039049    -0.000470503       -0.0464732       -0.127918      0.000927843    -0.000526014        -0.152267        0.972852
                       -0.503017       -0.835011       0.00084079    -0.000476245       -0.0141223        0.181474      0.000500206    -0.000581708
                      -0.0010467     -0.00032885        -0.152416        0.973203       0.00028431    -0.000558109       -0.0822053        0.108471
281744                 -0.168013      -0.0722306     -0.000393913    -0.000465404        -0.503743       -0.835123      -0.00105238    -0.000400494
                     -0.00039082    -0.000470044       -0.0465237       -0.127922      0.000927685    -0.000526517        -0.151817         0.97292
                       -0.503436       -0.834756      0.000840668     -0.00047671       -0.0140094        0.181487      0.000500026    -0.000581727
                     -0.00104691    -0.000328319        -0.151966        0.973271       0.00028423    -0.000557968       -0.0821546        0.108535
281746                 -0.168045      -0.0721688     -0.000394114    -0.000464922        -0.504162       -0.834868      -0.00105262    -0.000400046
                     -0.00039115    -0.000469586       -0.0465741       -0.127926      0.000927526     -0.00052702        -0.151367        0.972987
                       -0.503855       -0.834502      0.000840545    -0.000477176       -0.0138964        0.181501      0.000499847    -0.000581746
                     -0.00104713    -0.000327788        -0.151516        0.973338      0.000284149    -0.000557828       -0.0821038        0.108599
281748                 -0.168076       -0.072107     -0.000394316    -0.000464441        -0.504581       -0.834614      -0.00105285    -0.000399598
                     -0.00039148    -0.000469127       -0.0466245        -0.12793      0.000927366    -0.000527523        -0.150918        0.973054
                       -0.504274       -0.834247      0.000840422    -0.000477641       -0.0137834        0.181514      0.000499666    -0.000581765
                     -0.00104734    -0.000327257        -0.151066        0.973406      0.000284069    -0.000557687        -0.082053        0.108664
281750                 -0.168108      -0.0720452     -0.000394516    -0.000463959           -0.505       -0.834358      -0.00105308    -0.000399149
                    -0.000391809    -0.000468667        -0.046675       -0.127934      0.000927207    -0.000528025        -0.150468        0.973121
                       -0.504692       -0.833992      0.000840299    -0.000478106       -0.0136704        0.181527      0.000499485    -0.000581783
                     -0.00104756    -0.000326726        -0.150617        0.973472      0.000283989    -0.000557545       -0.0820022        0.108728
281752                 -0.168139      -0.0719833     -0.000394717    -0.000463478        -0.505419       -0.834103      -0.00105331    -0.000398702
                    -0.000392138    -0.000468208       -0.0467254       -0.127937      0.000927047    -0.000528528        -0.150018        0.973188
                       -0.505111       -0.833737      0.000840175    -0.000478572       -0.0135574         0.18154      0.000499304    -0.000581801
                     -0.00104777    -0.000326194        -0.150167        0.973539      0.000283909    -0.000557404       -0.0819513        0.108792
281754                 -0.168171      -0.0719214     -0.000394917    -0.000462997        -0.505837       -0.833848      -0.00105354    -0.000398254
                    -0.000392466    -0.000467748       -0.0467759       -0.127941      0.000926886    -0.000529031        -0.149569        0.973254
                        -0.50553       -0.833481      0.000840051    -0.000479037       -0.0134444        0.181552      0.000499122    -0.000581819
                     -0.00104798    -0.000325663        -0.149716        0.973606       0.00028383    -0.000557262       -0.0819003        0.108856
281756                 -0.168202      -0.0718596     -0.000395117    -0.000462516        -0.506255       -0.833592      -0.00105377    -0.000397806
                    -0.000392794    -0.000467287       -0.0468264       -0.127945      0.000926726    -0.000529533        -0.149119        0.973321
                       -0.505948       -0.833226      0.000839926    -0.000479502       -0.0133314        0.181565      0.000498939    -0.000581836
                      -0.0010482    -0.000325132        -0.149266        0.973672       0.00028375     -0.00055712       -0.0818493        0.108921
281758                 -0.168233      -0.0717977     -0.000395317    -0.000462034        -0.506674       -0.833336        -0.001054    -0.000397359
                    -0.000393121    -0.000466827       -0.0468768       -0.127949      0.000926565    -0.000530036        -0.148669        0.973387
                       -0.506366        -0.83297      0.000839801    -0.000479968       -0.0132183        0.181578      0.000498756    -0.000581853
                     -0.00104841      -0.0003246        -0.148816        0.973738      0.000283671    -0.000556977       -0.0817983        0.108985
281760                 -0.168265      -0.0717357     -0.000395516    -0.000461552        -0.507092        -0.83308      -0.00105422    -0.000396911
                    -0.000393448    -0.000466366       -0.0469273       -0.127953      0.000926404    -0.000530539        -0.148219        0.973453
                       -0.506784       -0.832714      0.000839676    -0.000480433       -0.0131052        0.181591      0.000498573    -0.000581869
                     -0.00104863    -0.000324069        -0.148366        0.973804      0.000283592    -0.000556834       -0.0817472        0.109049
281762                 -0.168296      -0.0716738     -0.000395714    -0.000461071         -0.50751       -0.832824      -0.00105445    -0.000396464
                    -0.000393774    -0.000465905       -0.0469778       -0.127956      0.000926243    -0.000531041        -0.147769        0.973518
                       -0.507202       -0.832458       0.00083955    -0.000480899       -0.0129922        0.181603      0.000498388    -0.000581886
