! TOUCHSTONE file generated by CST MICROWAVE STUDIO
! Date and time: Tue Oct 14 07:27:43 2025
! Project name: Teste_Macro_Metasurface_Nanopilar.cst
! Parameters = {H=600; L_x=115; L_y=125; Lambda=1064; Max_L=200; Min_L=70; PathPara=1; Phi=0; Step_L=10; Theta=0; p=520; phaseX=180; phaseY=0}
! Header version: 2018
! Port assignment regex: !\s*Touchstone port\s*([0-9]+)\s*=\s*(CST MWS port|CST DS port)\s*([0-9]+|Zmin|Zmax)\s*\(\"(.*)\"\)(\s*mode\s*([0-9]+))?.*
! Touchstone port assignment:
! Touchstone port 1 = CST MWS port Zmax ("") mode 1
! Touchstone port 2 = CST MWS port Zmax ("") mode 2
! Touchstone port 3 = CST MWS port Zmin ("") mode 1
! Touchstone port 4 = CST MWS port Zmin ("") mode 2
! S-Parameters are not renormalized. Each port impedance will be approximated by the real part at minimum frequency. The values are described via the [Reference] keyword.
! Default impedance is overridden by [Reference]
[Version] 2.0
# GHz S RI R 376.73
[Number of Ports] 4
[Reference]
376.73 376.73 259.814 259.814 
[Number of Frequencies] 51
[Network Data]
281700                -0.0240289       0.0391082      0.000236385     0.000159348        -0.929256        0.340727     -0.000139593    -0.000110104
                     0.000291232     0.000144124         -0.14357       0.0428424     -6.28194e-05    -5.37408e-05        -0.900843       -0.384194
                       -0.929579        0.340959      0.000107056    -8.07124e-05        0.0416914       0.0166456     -0.000321896    -4.16877e-05
                     1.57276e-05    -5.06059e-05        -0.901254       -0.383283     -0.000359705    -1.81012e-05        0.0667865        0.132928
281702                -0.0240015       0.0390876      0.000236364     0.000159322        -0.929079        0.341214     -0.000139798    -0.000109791
                     0.000291527     0.000143713        -0.143537       0.0428941     -6.28279e-05    -5.37327e-05        -0.901048       -0.383717
                       -0.929403        0.341446      0.000107222    -8.08362e-05        0.0416734       0.0166033     -0.000322041    -4.19312e-05
                     1.54961e-05    -5.05123e-05         -0.90146       -0.382806     -0.000359376    -1.82799e-05        0.0668671        0.132869
281704                 -0.023974       0.0390669      0.000236342     0.000159296        -0.928902          0.3417     -0.000140004    -0.000109478
                     0.000291823     0.000143301        -0.143504       0.0429457     -6.28369e-05     -5.3725e-05        -0.901253       -0.383239
                       -0.929226        0.341933      0.000107389    -8.09601e-05        0.0416553       0.0165611     -0.000322187    -4.21764e-05
                     1.52644e-05    -5.04194e-05        -0.901665       -0.382329     -0.000359044    -1.84584e-05        0.0669476         0.13281
281706                -0.0239466       0.0390463      0.000236319     0.000159271        -0.928725        0.342186      -0.00014021    -0.000109164
                     0.000292119     0.000142889        -0.143471       0.0429974     -6.28463e-05    -5.37177e-05        -0.901459       -0.382761
                       -0.929049        0.342419      0.000107556    -8.10844e-05        0.0416372        0.016519     -0.000322332    -4.24232e-05
                     1.50325e-05    -5.03272e-05         -0.90187       -0.381852      -0.00035871    -1.86366e-05        0.0670281        0.132751
281708                -0.0239192       0.0390256      0.000236296     0.000159246        -0.928547        0.342673     -0.000140416     -0.00010885
                     0.000292416     0.000142477        -0.143439        0.043049     -6.28559e-05    -5.37107e-05        -0.901663       -0.382283
                       -0.928872        0.342906      0.000107723    -8.12088e-05        0.0416191       0.0164768     -0.000322477    -4.26717e-05
                     1.48003e-05    -5.02357e-05        -0.902075       -0.381374     -0.000358373    -1.88147e-05        0.0671085        0.132691
281710                -0.0238918       0.0390049      0.000236272     0.000159222         -0.92837        0.343159     -0.000140622    -0.000108536
                     0.000292712     0.000142065        -0.143406       0.0431006     -6.28658e-05     -5.3704e-05        -0.901868       -0.381804
                       -0.928694        0.343392       0.00010789    -8.13335e-05        0.0416009       0.0164347     -0.000322621     -4.2922e-05
                     1.45679e-05    -5.01448e-05        -0.902279       -0.380897     -0.000358034    -1.89927e-05        0.0671889        0.132632
281712                -0.0238644       0.0389842      0.000236246     0.000159199        -0.928192        0.343645     -0.000140829    -0.000108222
                      0.00029301     0.000141653        -0.143373       0.0431522      -6.2876e-05    -5.36976e-05        -0.902072       -0.381326
                       -0.928517        0.343878      0.000108057    -8.14583e-05        0.0415826       0.0163927     -0.000322766    -4.31739e-05
                     1.43353e-05    -5.00546e-05        -0.902483       -0.380419     -0.000357693    -1.91706e-05        0.0672692        0.132573
281714                -0.0238371       0.0389634       0.00023622     0.000159176        -0.928014        0.344131     -0.000141036    -0.000107907
                     0.000293307     0.000141241         -0.14334       0.0432037     -6.28864e-05    -5.36914e-05        -0.902276       -0.380848
                       -0.928339        0.344365      0.000108224    -8.15835e-05        0.0415644       0.0163506     -0.000322911    -4.34275e-05
                     1.41024e-05    -4.99651e-05        -0.902687       -0.379941      -0.00035735    -1.93484e-05        0.0673495        0.132513
281716                -0.0238097       0.0389427      0.000236194     0.000159153        -0.927835        0.344617     -0.000141244    -0.000107592
                     0.000293605     0.000140829        -0.143307       0.0432552      -6.2897e-05    -5.36855e-05         -0.90248       -0.380369
                        -0.92816        0.344851      0.000108391    -8.17088e-05        0.0415461       0.0163086     -0.000323055    -4.36829e-05
                     1.38693e-05    -4.98763e-05        -0.902891       -0.379463     -0.000357005    -1.95263e-05        0.0674297        0.132454
281718                -0.0237824       0.0389219      0.000236166     0.000159131        -0.927656        0.345102     -0.000141451    -0.000107277
                     0.000293903     0.000140417        -0.143274       0.0433067     -6.29078e-05    -5.36798e-05        -0.902684        -0.37989
                       -0.927982        0.345337      0.000108558    -8.18343e-05        0.0415277       0.0162666       -0.0003232      -4.394e-05
                     1.36359e-05    -4.97883e-05        -0.903094       -0.378985     -0.000356657    -1.97042e-05        0.0675099        0.132394
281720                -0.0237551       0.0389011      0.000236138      0.00015911        -0.927477        0.345588     -0.000141659    -0.000106962
                     0.000294202     0.000140004        -0.143241       0.0433582     -6.29187e-05    -5.36742e-05        -0.902887       -0.379412
                       -0.927803        0.345823      0.000108725    -8.19601e-05        0.0415093       0.0162246     -0.000323344    -4.41988e-05
                     1.34022e-05    -4.97009e-05        -0.903298       -0.378507     -0.000356307    -1.98822e-05          0.06759        0.132334
281722                -0.0237279       0.0388803      0.000236109     0.000159089        -0.927298        0.346073     -0.000141868    -0.000106646
                     0.000294501     0.000139592        -0.143208       0.0434097     -6.29298e-05    -5.36689e-05         -0.90309       -0.378933
                       -0.927624        0.346308      0.000108893    -8.20861e-05        0.0414909       0.0161827     -0.000323488    -4.44593e-05
                     1.31682e-05    -4.96143e-05        -0.903501       -0.378029     -0.000355955    -2.00603e-05        0.0676701        0.132275
281724                -0.0237006       0.0388595      0.000236079     0.000159068        -0.927119        0.346559     -0.000142076    -0.000106331
                     0.000294801      0.00013918        -0.143175       0.0434611      -6.2941e-05    -5.36637e-05        -0.903293       -0.378454
                       -0.927445        0.346794       0.00010906    -8.22123e-05        0.0414725       0.0161408     -0.000323632    -4.47216e-05
                      1.2934e-05    -4.95284e-05        -0.903703       -0.377551       -0.0003556    -2.02385e-05        0.0677501        0.132215
281726                -0.0236734       0.0388387      0.000236048     0.000159048        -0.926939        0.347044     -0.000142285    -0.000106015
                       0.0002951     0.000138768        -0.143142       0.0435125     -6.29524e-05    -5.36587e-05        -0.903495       -0.377975
                       -0.927265         0.34728      0.000109228    -8.23387e-05         0.041454       0.0160989     -0.000323777    -4.49856e-05
                     1.26995e-05    -4.94432e-05        -0.903906       -0.377072     -0.000355243     -2.0417e-05        0.0678301        0.132155
281728                -0.0236462       0.0388178      0.000236017     0.000159029        -0.926759        0.347529     -0.000142494    -0.000105699
                     0.000295401     0.000138356        -0.143109       0.0435639     -6.29638e-05    -5.36538e-05        -0.903698       -0.377495
                       -0.927085        0.347765      0.000109395    -8.24654e-05        0.0414355       0.0160571     -0.000323921    -4.52513e-05
                     1.24647e-05    -4.93588e-05        -0.904108       -0.376593     -0.000354885    -2.05957e-05          0.06791        0.132095
281730                 -0.023619        0.038797      0.000235985      0.00015901        -0.926579        0.348015     -0.000142704    -0.000105382
                     0.000295702     0.000137944        -0.143076       0.0436153     -6.29754e-05     -5.3649e-05          -0.9039       -0.377016
                       -0.926905        0.348251      0.000109563    -8.25922e-05        0.0414169       0.0160153     -0.000324065    -4.55188e-05
                     1.22296e-05    -4.92752e-05         -0.90431       -0.376115     -0.000354524    -2.07747e-05        0.0679899        0.132035
281732                -0.0235919       0.0387761      0.000235952     0.000158991        -0.926398          0.3485     -0.000142914    -0.000105066
                     0.000296003     0.000137532        -0.143043       0.0436667      -6.2987e-05    -5.36444e-05        -0.904102       -0.376537
                       -0.926725        0.348736      0.000109731    -8.27193e-05        0.0413983       0.0159735     -0.000324209     -4.5788e-05
                     1.19942e-05    -4.91923e-05        -0.904512       -0.375636      -0.00035416    -2.09541e-05        0.0680697        0.131975
281734                -0.0235647       0.0387552      0.000235919     0.000158973        -0.926218        0.348985     -0.000143124    -0.000104749
                     0.000296305      0.00013712         -0.14301        0.043718     -6.29988e-05    -5.36398e-05        -0.904303       -0.376057
                       -0.926544        0.349221      0.000109898    -8.28466e-05        0.0413797       0.0159318     -0.000324353     -4.6059e-05
                     1.17584e-05    -4.91103e-05        -0.904713       -0.375157     -0.000353795    -2.11337e-05        0.0681495        0.131915
281736                -0.0235376       0.0387343      0.000235885     0.000158955        -0.926037        0.349469     -0.000143334    -0.000104432
                     0.000296607     0.000136709        -0.142977       0.0437693     -6.30106e-05    -5.36354e-05        -0.904504       -0.375577
                       -0.926363        0.349706      0.000110066    -8.29741e-05         0.041361         0.01589     -0.000324497    -4.63317e-05
                     1.15224e-05     -4.9029e-05        -0.904915       -0.374678     -0.000353427    -2.13138e-05        0.0682292        0.131855
281738                -0.0235105       0.0387133       0.00023585     0.000158938        -0.925855        0.349954     -0.000143545    -0.000104115
                      0.00029691     0.000136297        -0.142944       0.0438206     -6.30225e-05    -5.36311e-05        -0.904706       -0.375097
                       -0.926182        0.350191      0.000110234    -8.31018e-05        0.0413423       0.0158483     -0.000324641    -4.66062e-05
                      1.1286e-05    -4.89485e-05        -0.905116       -0.374199     -0.000353057    -2.14943e-05        0.0683089        0.131795
281740                -0.0234834       0.0386924      0.000235815     0.000158921        -0.925674        0.350439     -0.000143756    -0.000103798
                     0.000297213     0.000135886        -0.142911       0.0438718     -6.30345e-05    -5.36269e-05        -0.904906       -0.374618
                       -0.926001        0.350676      0.000110402    -8.32297e-05        0.0413235       0.0158067     -0.000324785    -4.68825e-05
                     1.10493e-05    -4.88688e-05        -0.905316        -0.37372     -0.000352685    -2.16752e-05        0.0683885        0.131735
281742                -0.0234564       0.0386714      0.000235779     0.000158905        -0.925492        0.350923     -0.000143968    -0.000103481
                     0.000297517     0.000135475        -0.142877       0.0439231     -6.30465e-05    -5.36227e-05        -0.905107       -0.374137
                       -0.925819        0.351161       0.00011057    -8.33578e-05        0.0413047        0.015765     -0.000324929    -4.71605e-05
                     1.08123e-05      -4.879e-05        -0.905517        -0.37324     -0.000352311    -2.18566e-05         0.068468        0.131674
281744                -0.0234294       0.0386504      0.000235742     0.000158889         -0.92531        0.351408     -0.000144179    -0.000103163
                     0.000297821     0.000135064        -0.142844       0.0439743     -6.30586e-05    -5.36187e-05        -0.905307       -0.373657
                       -0.925637        0.351646      0.000110738    -8.34862e-05        0.0412859       0.0157234     -0.000325073    -4.74403e-05
                     1.05749e-05     -4.8712e-05        -0.905717       -0.372761     -0.000351935    -2.20386e-05        0.0685476        0.131614
281746                -0.0234023       0.0386294      0.000235704     0.000158874        -0.925128        0.351892     -0.000144391    -0.000102845
                     0.000298126     0.000134653        -0.142811       0.0440255     -6.30708e-05    -5.36147e-05        -0.905507       -0.373177
                       -0.925455         0.35213      0.000110906    -8.36147e-05        0.0412671       0.0156819     -0.000325218    -4.77219e-05
                     1.03371e-05    -4.86348e-05        -0.905917       -0.372281     -0.000351557    -2.22211e-05         0.068627        0.131554
281748                -0.0233754       0.0386084      0.000235666     0.000158859        -0.924945        0.352376     -0.000144604    -0.000102527
                     0.000298432     0.000134243        -0.142778       0.0440767      -6.3083e-05    -5.36108e-05        -0.905707       -0.372697
                       -0.925273        0.352615      0.000111074    -8.37435e-05        0.0412482       0.0156403     -0.000325362    -4.80052e-05
                      1.0099e-05    -4.85585e-05        -0.906117       -0.371802     -0.000351176    -2.24041e-05        0.0687064        0.131493
281750                -0.0233484       0.0385874      0.000235628     0.000158844        -0.924763         0.35286     -0.000144817     -0.00010221
                     0.000298738     0.000133832        -0.142744       0.0441278     -6.30953e-05    -5.36069e-05        -0.905906       -0.372216
                        -0.92509        0.353099      0.000111242    -8.38724e-05        0.0412292       0.0155988     -0.000325506    -4.82903e-05
                     9.86054e-06    -4.84831e-05        -0.906316       -0.371322     -0.000350794    -2.25878e-05        0.0687858        0.131433
281752                -0.0233214       0.0385663      0.000235588      0.00015883         -0.92458        0.353345      -0.00014503    -0.000101891
                     0.000299044     0.000133422        -0.142711        0.044179     -6.31076e-05    -5.36031e-05        -0.906106       -0.371736
                       -0.924907        0.353583       0.00011141    -8.40016e-05        0.0412103       0.0155573      -0.00032565    -4.85772e-05
                     9.62171e-06    -4.84085e-05        -0.906515       -0.370842     -0.000350409    -2.27721e-05        0.0688651        0.131372
281754                -0.0232945       0.0385453      0.000235549     0.000158816        -0.924396        0.353828     -0.000145243    -0.000101573
                     0.000299352     0.000133013        -0.142678       0.0442301       -6.312e-05    -5.35994e-05        -0.906305       -0.371255
                       -0.924724        0.354068      0.000111578    -8.41309e-05        0.0411912       0.0155159     -0.000325795    -4.88658e-05
                     9.38249e-06    -4.83349e-05        -0.906714       -0.370362     -0.000350023     -2.2957e-05        0.0689444        0.131312
281756                -0.0232676       0.0385242      0.000235508     0.000158803        -0.924213        0.354312     -0.000145457    -0.000101255
                     0.000299659     0.000132603        -0.142644       0.0442812     -6.31324e-05    -5.35958e-05        -0.906503       -0.370774
                       -0.924541        0.354552      0.000111746    -8.42605e-05        0.0411722       0.0154744     -0.000325939    -4.91562e-05
                      9.1429e-06    -4.82621e-05        -0.906913       -0.369882     -0.000349634    -2.31426e-05        0.0690236        0.131251
281758                -0.0232407       0.0385031      0.000235467      0.00015879        -0.924029        0.354796     -0.000145671    -0.000100936
                     0.000299968     0.000132194        -0.142611       0.0443322     -6.31449e-05    -5.35922e-05        -0.906702       -0.370293
                       -0.924357        0.355036      0.000111914    -8.43902e-05        0.0411531        0.015433     -0.000326084    -4.94484e-05
                     8.90292e-06    -4.81903e-05        -0.907112       -0.369402     -0.000349243    -2.33289e-05        0.0691027         0.13119
281760                -0.0232139        0.038482      0.000235425     0.000158777        -0.923845         0.35528     -0.000145885    -0.000100618
                     0.000300277     0.000131786        -0.142578       0.0443833     -6.31575e-05    -5.35887e-05          -0.9069       -0.369812
                       -0.924173         0.35552      0.000112082    -8.45202e-05         0.041134       0.0153917     -0.000326229    -4.97424e-05
                     8.66254e-06    -4.81193e-05         -0.90731       -0.368921      -0.00034885    -2.35158e-05        0.0691818         0.13113
281762                 -0.023187       0.0384608      0.000235383     0.000158765        -0.923661        0.355763       -0.0001461    -0.000100299
                     0.000300587     0.000131377        -0.142544       0.0444343     -6.31701e-05    -5.35852e-05        -0.907098       -0.369331
                       -0.923989        0.356003       0.00011225    -8.46503e-05        0.0411149       0.0153503     -0.000326374    -5.00381e-05
