! TOUCHSTONE file generated by CST MICROWAVE STUDIO
! Date and time: Tue Oct 14 07:29:14 2025
! Project name: Teste_Macro_Metasurface_Nanopilar.cst
! Parameters = {H=600; L_x=140; L_y=100; Lambda=1064; Max_L=200; Min_L=70; PathPara=1; Phi=0; Step_L=10; Theta=0; p=520; phaseX=180; phaseY=0}
! Header version: 2018
! Port assignment regex: !\s*Touchstone port\s*([0-9]+)\s*=\s*(CST MWS port|CST DS port)\s*([0-9]+|Zmin|Zmax)\s*\(\"(.*)\"\)(\s*mode\s*([0-9]+))?.*
! Touchstone port assignment:
! Touchstone port 1 = CST MWS port Zmax ("") mode 1
! Touchstone port 2 = CST MWS port Zmax ("") mode 2
! Touchstone port 3 = CST MWS port Zmin ("") mode 1
! Touchstone port 4 = CST MWS port Zmin ("") mode 2
! S-Parameters are not renormalized. Each port impedance will be approximated by the real part at minimum frequency. The values are described via the [Reference] keyword.
! Default impedance is overridden by [Reference]
[Version] 2.0
# GHz S RI R 376.73
[Number of Ports] 4
[Reference]
376.73 376.73 259.814 259.814 
[Number of Frequencies] 51
[Network Data]
281700                -0.0569242       -0.111819      0.000280537     0.000807721         0.175709       -0.970821       9.3356e-05    -0.000511003
                     0.000379475     0.000760964        0.0090285      -0.0607443      0.000413659    -0.000445636        -0.586997        0.797693
                        0.175235       -0.971258      0.000376329    -0.000454803       -0.0912267       0.0857326     -0.000814922     0.000394444
                     -5.9281e-05    -0.000457247        -0.586387        0.797634     -0.000771911     0.000381304       -0.0553261       0.0290705
281702                -0.0569717       -0.111815      0.000280857      0.00080763         0.175267       -0.970898      9.31002e-05    -0.000510909
                     0.000379831     0.000760805       0.00900075       -0.060776      0.000413409    -0.000445833        -0.586604        0.797981
                        0.174793       -0.971335      0.000376036    -0.000454997       -0.0911922       0.0857962     -0.000814733     0.000394879
                    -5.95243e-05    -0.000457158        -0.585994        0.797921     -0.000771738     0.000381685       -0.0553368       0.0291075
281704                -0.0570191       -0.111812      0.000281178     0.000807539         0.174824       -0.970975      9.28444e-05    -0.000510814
                     0.000380187     0.000760645       0.00897299      -0.0608077      0.000413159    -0.000446029        -0.586211        0.798269
                         0.17435       -0.971412      0.000375743    -0.000455192       -0.0911575       0.0858599     -0.000814544     0.000395313
                    -5.97677e-05    -0.000457069          -0.5856        0.798208     -0.000771563     0.000382067       -0.0553475       0.0291445
281706                -0.0570665       -0.111808      0.000281499     0.000807447         0.174381       -0.971051      9.25885e-05    -0.000510718
                     0.000380543     0.000760485        0.0089452      -0.0608393      0.000412908    -0.000446226        -0.585817        0.798556
                        0.173907       -0.971488       0.00037545    -0.000455385       -0.0911229       0.0859235     -0.000814354     0.000395748
                     -6.0011e-05    -0.000456981        -0.585206        0.798496     -0.000771389     0.000382448       -0.0553582       0.0291815
281708                 -0.057114       -0.111805       0.00028182     0.000807356         0.173938       -0.971128      9.23325e-05    -0.000510621
                     0.000380899     0.000760325        0.0089174       -0.060871      0.000412658    -0.000446422        -0.585424        0.798843
                        0.173464       -0.971565      0.000375157    -0.000455579       -0.0910881       0.0859871     -0.000814163     0.000396182
                    -6.02544e-05    -0.000456892        -0.584812        0.798782     -0.000771214      0.00038283       -0.0553689       0.0292186
281710                -0.0571614       -0.111801      0.000282141     0.000807264         0.173495       -0.971204      9.20764e-05    -0.000510524
                     0.000381254     0.000760165       0.00888957      -0.0609026      0.000412407    -0.000446619         -0.58503         0.79913
                        0.173022       -0.971641      0.000374864    -0.000455772       -0.0910534       0.0860507     -0.000813972     0.000396616
                    -6.04977e-05    -0.000456804        -0.584417        0.799069      -0.00077104     0.000383212       -0.0553795       0.0292557
281712                -0.0572089       -0.111797      0.000282462     0.000807173         0.173053        -0.97128      9.18202e-05    -0.000510426
                      0.00038161     0.000760005       0.00886172      -0.0609343      0.000412156    -0.000446815        -0.584636        0.799417
                        0.172579       -0.971717      0.000374571    -0.000455965       -0.0910186       0.0861143     -0.000813781      0.00039705
                    -6.07411e-05    -0.000456715        -0.584023        0.799356     -0.000770865     0.000383593       -0.0553901       0.0292928
281714                -0.0572564       -0.111794      0.000282783     0.000807082          0.17261       -0.971355       9.1564e-05    -0.000510327
                     0.000381965     0.000759844       0.00883385      -0.0609659      0.000411906    -0.000447011        -0.584242        0.799704
                        0.172136       -0.971793      0.000374277    -0.000456157       -0.0909837       0.0861778     -0.000813589     0.000397485
                    -6.09845e-05    -0.000456627        -0.583629        0.799642      -0.00077069     0.000383975       -0.0554006         0.02933
281716                -0.0573038        -0.11179      0.000283104      0.00080699         0.172167       -0.971431      9.13077e-05    -0.000510228
                     0.000382321     0.000759684       0.00880596      -0.0609975      0.000411655    -0.000447207        -0.583848         0.79999
                        0.171693       -0.971868      0.000373984    -0.000456349       -0.0909488       0.0862414     -0.000813396     0.000397919
                    -6.12279e-05    -0.000456538        -0.583234        0.799928     -0.000770514     0.000384356       -0.0554112       0.0293671
281718                -0.0573513       -0.111787      0.000283425     0.000806899         0.171724       -0.971506      9.10513e-05    -0.000510128
                     0.000382676     0.000759523       0.00877805      -0.0610291      0.000411404    -0.000447403        -0.583454        0.800276
                         0.17125       -0.971943       0.00037369    -0.000456541       -0.0909139       0.0863049     -0.000813202     0.000398355
                    -6.14714e-05     -0.00045645        -0.582839        0.800214     -0.000770339     0.000384738       -0.0554217       0.0294043
281720                -0.0573988       -0.111783      0.000283746     0.000806807         0.171281       -0.971581       9.0795e-05    -0.000510028
                     0.000383031     0.000759362       0.00875012      -0.0610606      0.000411153    -0.000447599        -0.583059        0.800562
                        0.170807       -0.972019      0.000373397    -0.000456732       -0.0908789       0.0863684     -0.000813008     0.000398791
                    -6.17148e-05    -0.000456362        -0.582444        0.800499     -0.000770163      0.00038512       -0.0554321       0.0294415
281722                -0.0574463       -0.111779      0.000284067     0.000806716         0.170838       -0.971656      9.05385e-05    -0.000509927
                     0.000383386     0.000759201       0.00872217      -0.0610922      0.000410902    -0.000447795        -0.582665        0.800848
                        0.170364       -0.972093      0.000373103    -0.000456923       -0.0908439        0.086432     -0.000812812     0.000399228
                    -6.19583e-05    -0.000456273        -0.582049        0.800785     -0.000769987     0.000385501       -0.0554426       0.0294788
281724                -0.0574938       -0.111776      0.000284388     0.000806625         0.170394       -0.971731      9.02822e-05    -0.000509826
                     0.000383741      0.00075904       0.00869419      -0.0611237      0.000410651     -0.00044799         -0.58227        0.801133
                        0.169921       -0.972168       0.00037281    -0.000457114       -0.0908088       0.0864955     -0.000812614     0.000399667
                    -6.22017e-05    -0.000456185        -0.581654         0.80107     -0.000769811     0.000385883        -0.055453        0.029516
281726                -0.0575413       -0.111772      0.000284709     0.000806534         0.169951       -0.971805      9.00259e-05    -0.000509724
                     0.000384096     0.000758879        0.0086662      -0.0611553        0.0004104    -0.000448186        -0.581875        0.801419
                        0.169478       -0.972243      0.000372516    -0.000457305       -0.0907737        0.086559     -0.000812412     0.000400108
                    -6.24452e-05    -0.000456097        -0.581259        0.801355     -0.000769635     0.000386264       -0.0554634       0.0295533
281728                -0.0575888       -0.111768      0.000285029     0.000806443         0.169508       -0.971879      8.97699e-05    -0.000509622
                      0.00038445     0.000758718       0.00863818      -0.0611868      0.000410149    -0.000448381         -0.58148        0.801704
                        0.169034       -0.972317      0.000372222    -0.000457495       -0.0907386       0.0866224     -0.000812203     0.000400553
                    -6.26887e-05    -0.000456008        -0.580863         0.80164     -0.000769459     0.000386646       -0.0554738       0.0295906
281730                -0.0576363       -0.111764      0.000285348     0.000806352         0.169065       -0.971954      8.95142e-05    -0.000509519
                     0.000384805     0.000758557       0.00861015      -0.0612183      0.000409898    -0.000448577        -0.581085        0.801989
                        0.168591       -0.972391      0.000371928    -0.000457687       -0.0907034       0.0866859     -0.000811981     0.000400999
                    -6.29322e-05     -0.00045592        -0.580467        0.801925     -0.000769282     0.000387027       -0.0554841       0.0296279
281732                -0.0576838       -0.111761      0.000285665     0.000806263         0.168622       -0.972027      8.92594e-05    -0.000509416
                     0.000385159     0.000758395        0.0085821      -0.0612498      0.000409646    -0.000448772         -0.58069        0.802274
                        0.168148       -0.972465      0.000371634    -0.000457879       -0.0906681       0.0867494     -0.000811735     0.000401436
                    -6.31758e-05    -0.000455832        -0.580072        0.802209     -0.000769105     0.000387408       -0.0554945       0.0296653
281734                -0.0577313       -0.111757      0.000285971     0.000806178         0.168178       -0.972101       8.9006e-05    -0.000509313
                     0.000385513     0.000758234       0.00855405      -0.0612812      0.000409395    -0.000448967        -0.580295        0.802558
                        0.167705       -0.972539      0.000371338    -0.000458075       -0.0906329       0.0868128     -0.000811473     0.000401831
                    -6.34193e-05    -0.000455744        -0.579676        0.802493     -0.000768928      0.00038779       -0.0555047       0.0297026
281736                -0.0577789       -0.111753      0.000286255      0.00080594         0.167735       -0.972175       8.8756e-05    -0.000509208
                     0.000385868     0.000758072       0.00852655      -0.0613124      0.000409144    -0.000449162        -0.579899        0.802843
                        0.167261       -0.972612      0.000371037    -0.000458282       -0.0905975       0.0868762     -0.000811251     0.000402177
                    -6.36629e-05    -0.000455655         -0.57928        0.802777     -0.000768751     0.000388171        -0.055515         0.02974
281738                -0.0578264       -0.111749      0.000286666     0.000805953         0.167292       -0.972248      8.85126e-05    -0.000509097
                     0.000386222      0.00075791       0.00849768      -0.0613442      0.000408892    -0.000449357        -0.579503        0.803127
                        0.166818       -0.972686      0.000370621    -0.000458499       -0.0905622       0.0869396     -0.000811086     0.000402541
                    -6.39064e-05    -0.000455567        -0.578884        0.803062     -0.000768574     0.000388553       -0.0555252       0.0297772
281740                -0.0578739       -0.111745       0.00028698     0.000805874         0.166848       -0.972321      8.82648e-05    -0.000508958
                     0.000386575     0.000757748       0.00846957      -0.0613756      0.000408641    -0.000449552        -0.579107         0.80341
                        0.166374       -0.972759      0.000370432    -0.000458555       -0.0905268        0.087003      -0.00081093     0.000402944
                      -6.415e-05    -0.000455479        -0.578488        0.803345     -0.000768396     0.000388934       -0.0555355       0.0298151
281742                -0.0579215       -0.111741      0.000287299     0.000805786         0.166405       -0.972394      8.79657e-05    -0.000508833
                     0.000386929     0.000757586       0.00844142       -0.061407      0.000408389    -0.000449747        -0.578712        0.803694
                        0.165931       -0.972832      0.000370157    -0.000458767       -0.0904913       0.0870664     -0.000810763     0.000403365
                    -6.43936e-05    -0.000455391        -0.578091        0.803629     -0.000768218     0.000389315       -0.0555457       0.0298525
281744                 -0.057969       -0.111737       0.00028762     0.000805696         0.165961       -0.972467      8.76902e-05    -0.000508746
                     0.000387283     0.000757424       0.00841324      -0.0614384      0.000408137    -0.000449941        -0.578316        0.803978
                        0.165487       -0.972904      0.000369867    -0.000458963       -0.0904558       0.0871298     -0.000810585     0.000403792
                    -6.46373e-05    -0.000455302        -0.577695        0.803912      -0.00076804     0.000389697       -0.0555558       0.0298899
281746                -0.0580166       -0.111734      0.000287941     0.000805605         0.165518       -0.972539      8.74304e-05    -0.000508651
                     0.000387637     0.000757262       0.00838503      -0.0614698      0.000407886    -0.000450136         -0.57792        0.804261
                        0.165044       -0.972977      0.000369575    -0.000459153       -0.0904203       0.0871932       -0.0008104      0.00040422
                    -6.48809e-05    -0.000455214        -0.577298        0.804195     -0.000767862     0.000390078        -0.055566       0.0299274
281748                -0.0580642        -0.11173      0.000288263     0.000805513         0.165074       -0.972611       8.7173e-05     -0.00050855
                      0.00038799     0.000757099       0.00835681      -0.0615011      0.000407634    -0.000450331        -0.577523        0.804545
                          0.1646       -0.973049      0.000369281     -0.00045934       -0.0903847       0.0872565     -0.000810211     0.000404647
                    -6.51246e-05    -0.000455126        -0.576901        0.804478     -0.000767684     0.000390459       -0.0555761       0.0299649
281750                -0.0581117       -0.111726      0.000288586     0.000805421          0.16463       -0.972683      8.69157e-05    -0.000508446
                     0.000388343     0.000756936       0.00832856      -0.0615325      0.000407382    -0.000450525        -0.577127        0.804828
                        0.164157       -0.973121      0.000368988    -0.000459526       -0.0903491       0.0873198      -0.00081002     0.000405072
                     -6.5368e-05    -0.000455037        -0.576504         0.80476     -0.000767505      0.00039084       -0.0555861       0.0300025
281752                -0.0581593       -0.111722      0.000288909     0.000805329         0.164187       -0.972755      8.66582e-05    -0.000508341
                     0.000388697     0.000756774       0.00830029      -0.0615638       0.00040713    -0.000450719         -0.57673         0.80511
                        0.163713       -0.973193      0.000368694    -0.000459711       -0.0903134       0.0873832     -0.000809826     0.000405497
                    -6.56119e-05     -0.00045495        -0.576107        0.805043     -0.000767327     0.000391222       -0.0555962       0.0300401
281754                -0.0582069       -0.111718      0.000289232     0.000805237         0.163743       -0.972827      8.64006e-05    -0.000508234
                      0.00038905     0.000756611       0.00827199      -0.0615951      0.000406878    -0.000450913        -0.576334        0.805393
                        0.163269       -0.973265        0.0003684    -0.000459895       -0.0902777       0.0874465     -0.000809632     0.000405921
                    -6.58556e-05    -0.000454862         -0.57571        0.805325     -0.000767148     0.000391603       -0.0556062       0.0300777
281756                -0.0582545       -0.111714      0.000289555     0.000805145         0.163299       -0.972898      8.61427e-05    -0.000508128
                     0.000389403     0.000756448       0.00824368      -0.0616264      0.000406626    -0.000451107        -0.575937        0.805675
                        0.162826       -0.973336      0.000368106    -0.000460079       -0.0902419       0.0875098     -0.000809436     0.000406343
                    -6.60993e-05    -0.000454774        -0.575313        0.805607     -0.000766968     0.000391984       -0.0556162       0.0301153
281758                -0.0583021       -0.111709      0.000289878     0.000805053         0.162855        -0.97297      8.58847e-05     -0.00050802
                     0.000389755     0.000756285       0.00821534      -0.0616577      0.000406374    -0.000451302         -0.57554        0.805958
                        0.162382       -0.973408      0.000367812    -0.000460262       -0.0902061       0.0875731      -0.00080924     0.000406765
                     -6.6343e-05    -0.000454686        -0.574915        0.805889     -0.000766788     0.000392363       -0.0556262        0.030153
281760                -0.0583497       -0.111705      0.000290202      0.00080496         0.162411       -0.973041      8.56266e-05    -0.000507912
                     0.000390108     0.000756122       0.00818699       -0.061689      0.000406121    -0.000451495        -0.575143        0.806239
                        0.161938       -0.973479      0.000367518    -0.000460444       -0.0901703       0.0876363     -0.000809044     0.000407186
                    -6.65868e-05    -0.000454598        -0.574518        0.806171     -0.000766609     0.000392746       -0.0556361       0.0301906
281762                -0.0583973       -0.111701      0.000290525     0.000804868         0.161968       -0.973112      8.53684e-05    -0.000507804
                     0.000390461     0.000755959       0.00815861      -0.0617203      0.000405869    -0.000451689        -0.574746        0.806521
                        0.161494        -0.97355      0.000367224    -0.000460626       -0.0901344       0.0876996     -0.000808848     0.000407606
