! TOUCHSTONE file generated by CST MICROWAVE STUDIO
! Date and time: Tue Oct 14 07:32:36 2025
! Project name: Teste_Macro_Metasurface_Nanopilar.cst
! Parameters = {H=600; L_x=190; L_y=195; Lambda=1064; Max_L=200; Min_L=70; PathPara=1; Phi=0; Step_L=10; Theta=0; p=520; phaseX=180; phaseY=0}
! Header version: 2018
! Port assignment regex: !\s*Touchstone port\s*([0-9]+)\s*=\s*(CST MWS port|CST DS port)\s*([0-9]+|Zmin|Zmax)\s*\(\"(.*)\"\)(\s*mode\s*([0-9]+))?.*
! Touchstone port assignment:
! Touchstone port 1 = CST MWS port Zmax ("") mode 1
! Touchstone port 2 = CST MWS port Zmax ("") mode 2
! Touchstone port 3 = CST MWS port Zmin ("") mode 1
! Touchstone port 4 = CST MWS port Zmin ("") mode 2
! S-Parameters are not renormalized. Each port impedance will be approximated by the real part at minimum frequency. The values are described via the [Reference] keyword.
! Default impedance is overridden by [Reference]
[Version] 2.0
# GHz S RI R 376.73
[Number of Ports] 4
[Reference]
376.73 376.73 259.814 259.814 
[Number of Frequencies] 51
[Network Data]
281700                 -0.399089       -0.160102     -0.000121644     9.31318e-05         0.899279      0.00278275     -0.000305975    -0.000279264
                    -9.92514e-05     2.16063e-05        -0.365682       -0.154618      -0.00027363    -0.000115917         0.913776        0.037154
                        0.899421      0.00316661     -1.68307e-05    -0.000205464         0.398134       -0.158159     -0.000244349    -0.000206041
                    -3.57207e-05    -0.000253219         0.913757       0.0376544     -9.62116e-05    -0.000154671         0.375097       -0.125182
281702                 -0.399149       -0.159984     -0.000122131     9.31775e-05         0.899267      0.00240628     -0.000308662    -0.000273264
                    -5.02528e-05     3.74451e-05        -0.365741       -0.154513     -0.000272627    -0.000116618          0.91379       0.0367791
                        0.899417      0.00280072     -1.69188e-05    -0.000205544         0.398064       -0.158366     -0.000240568    -0.000206311
                    -3.70093e-05    -0.000252401         0.913772       0.0372831     -9.54964e-05     -0.00015453         0.375045       -0.125377
281704                 -0.399209       -0.159867     -0.000122596     9.32226e-05         0.899255      0.00203366     -0.000311483    -0.000267281
                     -7.0416e-06     6.06797e-05          -0.3658       -0.154408     -0.000271624    -0.000117326         0.913803       0.0364039
                        0.899412      0.00243465     -1.70067e-05    -0.000205615         0.397994       -0.158573     -0.000236829    -0.000206493
                    -3.82345e-05      -0.0002516         0.913786       0.0369117     -9.47766e-05    -0.000154374         0.374993       -0.125572
281706                  -0.39927       -0.159749     -0.000123032     9.32675e-05         0.899244      0.00166415     -0.000314446    -0.000261333
                     3.05159e-05     8.82662e-05        -0.365858       -0.154302     -0.000270621    -0.000118043         0.913816       0.0360285
                        0.899408      0.00206837     -1.70947e-05    -0.000205676         0.397924       -0.158781      -0.00023313    -0.000206589
                      -3.939e-05    -0.000250823           0.9138       0.0365402     -9.40506e-05    -0.000154201          0.37494       -0.125767
281708                  -0.39933       -0.159631     -0.000123433     9.33125e-05         0.899234      0.00129676     -0.000317557    -0.000255447
                     6.40315e-05     0.000117675        -0.365917       -0.154197     -0.000269619    -0.000118771         0.913828       0.0356528
                        0.899403      0.00170185     -1.71828e-05    -0.000205724         0.397854       -0.158988     -0.000229467    -0.000206601
                     -4.0468e-05    -0.000250075         0.913813       0.0361686     -9.33164e-05    -0.000154005         0.374888       -0.125963
281710                  -0.39939       -0.159514     -0.000123793     9.33582e-05         0.899226     0.000930629      -0.00032082    -0.000249654
                     9.63512e-05      0.00014697        -0.365975       -0.154091      -0.00026862    -0.000119512          0.91384       0.0352769
                        0.899398      0.00133506     -1.72712e-05    -0.000205757         0.397783       -0.159195     -0.000225836    -0.000206533
                    -4.14586e-05    -0.000249367         0.913826       0.0357968     -9.25719e-05    -0.000153781         0.374835       -0.126158
281712                  -0.39945       -0.159396       -0.0001241      9.3405e-05         0.899219     0.000565121     -0.000324232    -0.000243996
                     0.000131698     0.000174353        -0.366034       -0.153986     -0.000267625    -0.000120271         0.913851       0.0349008
                        0.899392     0.000967941     -1.73603e-05    -0.000205771         0.397713       -0.159402     -0.000222229    -0.000206385
                    -4.23491e-05    -0.000248708         0.913838       0.0354247     -9.18143e-05    -0.000153517         0.374783       -0.126353
281714                 -0.399509       -0.159279     -0.000124341     9.34535e-05         0.899213     0.000199824     -0.000327782    -0.000238526
                     0.000176484     0.000196751        -0.366092        -0.15388     -0.000266636    -0.000121051         0.913861       0.0345245
                        0.899387     0.000600442     -1.74507e-05    -0.000205762         0.397642       -0.159609      -0.00021863    -0.000206162
                    -4.31231e-05    -0.000248111          0.91385       0.0350525     -9.10413e-05      -0.0001532          0.37473       -0.126548
281716                 -0.399569       -0.159162       -0.0001245     9.35042e-05         0.899207    -0.000165504      -0.00033145    -0.000233307
                     0.000240733     0.000205457        -0.366151       -0.153774     -0.000265658    -0.000121856          0.91387       0.0341481
                        0.899381     0.000232491     -1.75432e-05    -0.000205723         0.397571       -0.159816     -0.000215018    -0.000205867
                    -4.37589e-05    -0.000247592          0.91386         0.03468     -9.02516e-05    -0.000152804         0.374678       -0.126743
281718                 -0.399627       -0.159045     -0.000124553     9.35577e-05         0.899203    -0.000530995     -0.000335202    -0.000228417
                     0.000335253     0.000171906        -0.366209       -0.153668     -0.000264694    -0.000122692         0.913879       0.0337717
                        0.899375    -0.000135998     -1.76396e-05    -0.000205646           0.3975       -0.160022      -0.00021135    -0.000205506
                    -4.42268e-05    -0.000247172          0.91387       0.0343074     -8.94497e-05    -0.000152289         0.374625       -0.126938
281720                 -0.399685        -0.15893     -0.000124468      9.3614e-05         0.899198    -0.000896713     -0.000338986     -0.00022395
                     0.000424322     2.27727e-05        -0.366267       -0.153562     -0.000263752    -0.000123564         0.913886       0.0333955
                        0.899368    -0.000505138     -1.77424e-05    -0.000205518         0.397429       -0.160229      -0.00020755    -0.000205088
                    -4.44859e-05    -0.000246878         0.913878       0.0339347     -8.86573e-05    -0.000151586         0.374572       -0.127133
281722                  -0.39974       -0.158815     -0.000124201     9.36723e-05         0.899194     -0.00126268     -0.000342728    -0.000220016
                     0.000312777    -0.000210341        -0.366326       -0.153456      -0.00026284    -0.000124477         0.913893       0.0330197
                        0.899361    -0.000875066     -1.78563e-05     -0.00020532         0.397357       -0.160436     -0.000203457    -0.000204627
                    -4.44778e-05    -0.000246748         0.913883       0.0335623     -8.79509e-05    -0.000150578         0.374519       -0.127328
281724                 -0.399788         -0.1587     -0.000123685     9.37299e-05          0.89919     -0.00162889     -0.000346329     -0.00021674
                     7.06832e-05    -0.000225618        -0.366384        -0.15335     -0.000261973    -0.000125437         0.913899       0.0326444
                        0.899354     -0.00124596       -1.799e-05    -0.000205027         0.397285       -0.160642     -0.000198677    -0.000204139
                    -4.41164e-05     -0.00024683         0.913886       0.0331914     -8.75776e-05    -0.000149098         0.374466       -0.127522
281726                 -0.399824        -0.15857     -0.000122821     9.37796e-05         0.899186     -0.00199535     -0.000349661    -0.000214264
                    -4.71606e-05    -0.000124199        -0.366442       -0.153243     -0.000261167    -0.000126449         0.913904         0.03227
                        0.899346     -0.00161805     -1.81602e-05    -0.000204595         0.397214       -0.160849     -0.000191979    -0.000203593
                    -4.32693e-05    -0.000247194         0.913886       0.0328241     -8.82232e-05    -0.000147161         0.374413       -0.127717
281728                  -0.39989       -0.158416     -0.000121453     9.38038e-05         0.899182     -0.00236202     -0.000352569    -0.000212739
                     -8.5609e-05    -4.01943e-05          -0.3665       -0.153136     -0.000260446    -0.000127512          0.91391       0.0318967
                        0.899337     -0.00199164     -1.84018e-05    -0.000203954         0.397142       -0.161055     -0.000176838    -0.000201641
                    -4.17228e-05    -0.000247938         0.913884       0.0324637     -9.07878e-05     -0.00014606          0.37436       -0.127912
281730                 -0.399973       -0.158294     -0.000119317     9.37597e-05         0.899177     -0.00272888     -0.000354872     -0.00021232
                     -9.7236e-05     1.67287e-05        -0.366558       -0.153029     -0.000259843    -0.000128621         0.913915       0.0315248
                        0.899327     -0.00236709     -1.87943e-05    -0.000202981         0.397069       -0.161262       -0.0002241    -0.000108252
                    -3.91112e-05    -0.000249201         0.913888       0.0321119     -9.34191e-05    -0.000148014         0.374307       -0.128107
281732                 -0.400042       -0.158181     -0.000115936     9.35358e-05         0.899173     -0.00309593     -0.000356375    -0.000213159
                    -0.000100358     5.56642e-05        -0.366617       -0.152921     -0.000259393    -0.000129756          0.91392       0.0311545
                        0.899314     -0.00274486     -1.95431e-05    -0.000201453         0.396997       -0.161468     -0.000213317    -0.000191377
                    -3.47568e-05    -0.000251179         0.913904       0.0317617     -9.33127e-05    -0.000150947         0.374254       -0.128302
281734                 -0.400105       -0.158067     -0.000110369     9.28112e-05         0.899168     -0.00346314     -0.000356885    -0.000215389
                    -0.000100828     8.33578e-05        -0.366674       -0.152812     -0.000259137    -0.000130878         0.913927        0.030786
                        0.899299      -0.0031255     -2.12697e-05    -0.000198969         0.396924       -0.161674     -0.000203203    -0.000194611
                    -2.72736e-05    -0.000254093         0.913928       0.0314036     -9.18458e-05    -0.000152632         0.374201       -0.128497
281736                 -0.400166       -0.157952     -0.000100505     9.04894e-05         0.899163      -0.0038305     -0.000356235    -0.000219104
                    -0.000100593     0.000103797        -0.366732       -0.152703     -0.000259105     -0.00013192         0.913935       0.0304196
                        0.899278     -0.00350946     -2.61952e-05    -0.000195284         0.396852        -0.16188     -0.000198167    -0.000194622
                    -1.34353e-05    -0.000257874         0.913952       0.0310366     -9.03207e-05    -0.000153355         0.374147       -0.128692
281738                 -0.400226       -0.157835      -8.1027e-05     8.16319e-05         0.899158     -0.00419799     -0.000354317    -0.000224349
                    -0.000100311     0.000119335        -0.366788       -0.152591     -0.000259302    -0.000132787         0.913944       0.0300554
                        0.899248     -0.00389663     -3.99683e-05    -0.000196627         0.396779       -0.162086     -0.000194792    -0.000193875
                     1.54427e-05    -0.000259539         0.913973       0.0306646     -8.90076e-05     -0.00015362         0.374094       -0.128886
281740                 -0.400286       -0.157718     -4.52129e-05     3.36955e-05         0.899153      -0.0045656     -0.000351107    -0.000231092
                    -0.000100187     0.000131417         -0.36684       -0.152477     -0.000259678    -0.000133366         0.913955       0.0296936
                        0.899202      -0.0042849     -4.26583e-05     -0.00021668         0.396706       -0.162292      -0.00019229    -0.000192818
                     7.95573e-05    -0.000229731         0.913989       0.0302909     -8.78902e-05    -0.000153679          0.37404       -0.129081
281742                 -0.400345         -0.1576     -0.000156945     -6.4995e-05         0.899148     -0.00493332     -0.000346684    -0.000239207
                    -0.000100264     0.000140972        -0.366885       -0.152365     -0.000260115    -0.000133568         0.913968       0.0293343
                        0.899133     -0.00466628     -3.10078e-05    -0.000221691         0.396633       -0.162497     -0.000190411    -0.000191609
                     6.45718e-05    -7.28427e-05         0.914003       0.0299167     -8.69183e-05    -0.000153641         0.373987       -0.129276
281744                 -0.400404       -0.157483     -0.000205742     3.12429e-05         0.899142     -0.00530113     -0.000341236    -0.000248471
                    -0.000100527     0.000148619        -0.366923       -0.152264     -0.000260445    -0.000133375         0.913981       0.0289776
                        0.899032     -0.00501932     -2.56575e-05    -0.000220177          0.39656       -0.162703     -0.000189075    -0.000190346
                    -7.01709e-05    -9.04401e-05         0.914016       0.0295428     -8.60523e-05    -0.000153557         0.373933       -0.129471
281746                 -0.400463       -0.157365      -0.00019089     6.23972e-05         0.899136     -0.00566905     -0.000335033     -0.00025856
                    -0.000100941     0.000154791        -0.366973       -0.152175     -0.000260504    -0.000132865         0.913993       0.0286231
                        0.898916     -0.00530796     -2.33823e-05    -0.000218692         0.396487       -0.162909     -0.000188271    -0.000189121
                    -9.35227e-05    -0.000139322         0.914026       0.0291692     -8.52658e-05     -0.00015345         0.373879       -0.129666
281748                 -0.400521       -0.157247     -0.000181287     7.30257e-05         0.899129     -0.00603705     -0.000328389    -0.000269077
                    -0.000101473     0.000159798        -0.367034       -0.152082     -0.000260196    -0.000132191         0.914003       0.0282699
                        0.898843     -0.00552075     -2.22747e-05    -0.000217708         0.396413       -0.163114     -0.000188014     -0.00018805
                    -9.49579e-05    -0.000162746         0.914036       0.0287959     -8.45421e-05    -0.000153332         0.373825       -0.129861
281750                  -0.40058       -0.157129     -0.000175799     7.77994e-05         0.899122     -0.00640515     -0.000321615    -0.000279589
                    -0.000102089     0.000163867        -0.367097       -0.151982     -0.000259517    -0.000131519         0.914011       0.0279167
                        0.898852     -0.00571448     -2.16818e-05    -0.000217105          0.39634        -0.16332     -0.000188317    -0.000187289
                    -9.35541e-05    -0.000174831         0.914045       0.0284228     -8.38718e-05    -0.000153211         0.373771       -0.130056
281752                 -0.400638       -0.157011     -0.000172619     8.02938e-05         0.899115     -0.00677335     -0.000314974    -0.000289674
                    -0.000102764     0.000167173        -0.367159       -0.151877     -0.000258531    -0.000130976         0.914016        0.027562
                        0.898902     -0.00594337     -2.13525e-05    -0.000216771         0.396267       -0.163525     -0.000189153    -0.000187039
                     -9.2068e-05    -0.000181689         0.914054         0.02805     -8.32507e-05    -0.000153089         0.373717       -0.130251
281754                 -0.400696       -0.156893     -0.000170831     8.16827e-05         0.899108     -0.00714166     -0.000308658    -0.000298971
                    -0.000103476     0.000169847        -0.367219       -0.151772     -0.000257326    -0.000130639          0.91402        0.027205
                        0.898929     -0.00620861     -2.11789e-05    -0.000216642         0.396193       -0.163731     -0.000190416    -0.000187543
                     -9.0902e-05     -0.00018581         0.914061       0.0276773     -8.26804e-05     -0.00015297         0.373663       -0.130447
281756                 -0.400754       -0.156776     -0.000169972     8.24352e-05           0.8991     -0.00751011      -0.00030278     -0.00030721
                    -0.000104206     0.000171994        -0.367278       -0.151665     -0.000255986    -0.000130544         0.914022       0.0268451
                        0.898898     -0.00651071     -2.11137e-05    -0.000216684          0.39612       -0.163936     -0.000191873    -0.000189042
                    -9.00539e-05    -0.000188339         0.914069       0.0273047     -8.21687e-05    -0.000152853         0.373609       -0.130643
281758                  -0.40081       -0.156659     -0.000169814     8.27559e-05         0.899091     -0.00787875     -0.000297392    -0.000314224
                    -0.000104942     0.000173699        -0.367336       -0.151558     -0.000254575     -0.00013071         0.914023       0.0264826
                        0.898821     -0.00687926      -2.1143e-05    -0.000216889         0.396046       -0.164142     -0.000193138    -0.000191694
                    -8.94544e-05    -0.000189863         0.914075        0.026932      -8.1733e-05    -0.000152734         0.373556       -0.130839
281760                 -0.400866       -0.156544     -0.000170265     8.27226e-05         0.899082     -0.00824763     -0.000292492    -0.000319948
                    -0.000105672     0.000175027        -0.367394       -0.151451     -0.000253146    -0.000131168         0.914025       0.0261177
                         0.89876     -0.00731483     -2.12828e-05    -0.000217274         0.395973       -0.164347     -0.000193715    -0.000195464
                    -8.90326e-05     -0.00019071         0.914082       0.0265593     -8.14065e-05    -0.000152594         0.373505       -0.131035
281762                  -0.40092       -0.156432     -0.000171349     8.23256e-05         0.899071     -0.00861665     -0.000288055    -0.000324397
                    -0.000106389     0.000176036         -0.36745       -0.151343     -0.000251754    -0.000131984         0.914027       0.0257511
                        0.898745     -0.00776513     -2.15939e-05    -0.000217875         0.395899       -0.164553     -0.000193132    -0.000200044
