! TOUCHSTONE file generated by CST MICROWAVE STUDIO
! Date and time: Tue Oct 14 07:29:32 2025
! Project name: Teste_Macro_Metasurface_Nanopilar.cst
! Parameters = {H=600; L_x=145; L_y=95; Lambda=1064; Max_L=200; Min_L=70; PathPara=1; Phi=0; Step_L=10; Theta=0; p=520; phaseX=180; phaseY=0}
! Header version: 2018
! Port assignment regex: !\s*Touchstone port\s*([0-9]+)\s*=\s*(CST MWS port|CST DS port)\s*([0-9]+|Zmin|Zmax)\s*\(\"(.*)\"\)(\s*mode\s*([0-9]+))?.*
! Touchstone port assignment:
! Touchstone port 1 = CST MWS port Zmax ("") mode 1
! Touchstone port 2 = CST MWS port Zmax ("") mode 2
! Touchstone port 3 = CST MWS port Zmin ("") mode 1
! Touchstone port 4 = CST MWS port Zmin ("") mode 2
! S-Parameters are not renormalized. Each port impedance will be approximated by the real part at minimum frequency. The values are described via the [Reference] keyword.
! Default impedance is overridden by [Reference]
[Version] 2.0
# GHz S RI R 376.73
[Number of Ports] 4
[Reference]
376.73 376.73 259.814 259.814 
[Number of Frequencies] 51
[Network Data]
281700               0.000407453      -0.0750791     -0.000396878     -0.00038564         0.504544       -0.856137      0.000351256     0.000136297
                    -0.000406136    -0.000382877       0.00740658      -0.0792158     -0.000354003    -0.000241576         -0.51683        0.843876
                        0.504605       -0.855938     -0.000298126    -0.000237059       -0.0648593       0.0378045       0.00050773     0.000126408
                     0.000364223     0.000147103        -0.517124        0.843516      0.000492596     0.000158987       -0.0669846        0.044817
281702               0.000381661      -0.0750982     -0.000396918    -0.000385419         0.504178       -0.856351      0.000351403     0.000135987
                    -0.000406114    -0.000382766       0.00737037      -0.0792462     -0.000354098    -0.000241429        -0.516417        0.844127
                        0.504238       -0.856152     -0.000298161    -0.000236862       -0.0648564       0.0378468      0.000507737     0.000125909
                     0.000364054     0.000147119        -0.516712        0.843766      0.000492582     0.000158612       -0.0669851       0.0448636
281704               0.000355854      -0.0751172     -0.000396958    -0.000385199         0.503811       -0.856565      0.000351551     0.000135676
                    -0.000406092    -0.000382657       0.00733415      -0.0792766     -0.000354193    -0.000241283        -0.516005        0.844377
                        0.503872       -0.856365     -0.000298197    -0.000236664       -0.0648535       0.0378891      0.000507743     0.000125408
                     0.000363885     0.000147138          -0.5163        0.844016      0.000492567     0.000158237       -0.0669856       0.0449102
281706               0.000330033      -0.0751363     -0.000396997    -0.000384978         0.503445       -0.856778      0.000351699     0.000135364
                     -0.00040607     -0.00038255       0.00729791      -0.0793069     -0.000354288    -0.000241137        -0.515592        0.844626
                        0.503505       -0.856579     -0.000298233    -0.000236466       -0.0648506       0.0379314      0.000507748     0.000124908
                     0.000363714      0.00014716        -0.515888        0.844266      0.000492552     0.000157862        -0.066986       0.0449569
281708               0.000304197      -0.0751553     -0.000397037    -0.000384758         0.503078       -0.856992      0.000351846     0.000135052
                    -0.000406047    -0.000382445       0.00726165      -0.0793373     -0.000354383    -0.000240991         -0.51518        0.844876
                        0.503139       -0.856792     -0.000298268    -0.000236267       -0.0648476       0.0379737      0.000507753     0.000124407
                     0.000363542     0.000147185        -0.515475        0.844516      0.000492537     0.000157487       -0.0669864       0.0450035
281710               0.000278346      -0.0751743     -0.000397077    -0.000384537         0.502711       -0.857205      0.000351993      0.00013474
                    -0.000406023    -0.000382341       0.00722537      -0.0793676     -0.000354478    -0.000240845        -0.514767        0.845125
                        0.502772       -0.857005     -0.000298304    -0.000236067       -0.0648447        0.038016      0.000507758     0.000123906
                     0.000363368     0.000147212        -0.515063        0.844766      0.000492521     0.000157112       -0.0669867       0.0450501
281712               0.000252481      -0.0751933     -0.000397117    -0.000384316         0.502345       -0.857418      0.000352139     0.000134427
                    -0.000405999    -0.000382239       0.00718907      -0.0793979     -0.000354572    -0.000240698        -0.514354        0.845375
                        0.502405       -0.857218      -0.00029834    -0.000235867       -0.0648417       0.0380584      0.000507761     0.000123404
                     0.000363194     0.000147242         -0.51465        0.845015      0.000492505     0.000156736       -0.0669871       0.0450968
281714               0.000226602      -0.0752123     -0.000397157    -0.000384096         0.501978       -0.857631      0.000352286     0.000134113
                    -0.000405974    -0.000382138       0.00715275      -0.0794282     -0.000354667    -0.000240552        -0.513941        0.845624
                        0.502038       -0.857431     -0.000298376    -0.000235666       -0.0648387       0.0381007      0.000507764     0.000122902
                     0.000363019     0.000147275        -0.514237        0.845264      0.000492489     0.000156361       -0.0669873       0.0451435
281716               0.000200708      -0.0752313     -0.000397197    -0.000383875         0.501611       -0.857844      0.000352432       0.0001338
                    -0.000405949    -0.000382039       0.00711641      -0.0794584     -0.000354761    -0.000240406        -0.513528        0.845873
                        0.501671       -0.857644     -0.000298411    -0.000235464       -0.0648356       0.0381431      0.000507767     0.000122399
                     0.000362843      0.00014731        -0.513825        0.845513      0.000492472     0.000155986       -0.0669876       0.0451902
281718               0.000174799      -0.0752503     -0.000397236    -0.000383654         0.501243       -0.858057      0.000352578     0.000133485
                    -0.000405924    -0.000381941       0.00708005      -0.0794887     -0.000354855    -0.000240259        -0.513115        0.846121
                        0.501304       -0.857856     -0.000298447    -0.000235261       -0.0648325       0.0381854      0.000507769     0.000121896
                     0.000362666     0.000147348        -0.513412        0.845762      0.000492455     0.000155611       -0.0669878       0.0452369
281720               0.000148877      -0.0752693     -0.000397276    -0.000383433         0.500876       -0.858269      0.000352724      0.00013317
                    -0.000405898    -0.000381845       0.00704368      -0.0795189     -0.000354948    -0.000240113        -0.512702         0.84637
                        0.500937       -0.858069     -0.000298483    -0.000235058       -0.0648294       0.0382278       0.00050777     0.000121393
                     0.000362488     0.000147388        -0.512999        0.846011      0.000492438     0.000155237        -0.066988       0.0452837
281722               0.000122939      -0.0752883     -0.000397316    -0.000383212         0.500509       -0.858481       0.00035287     0.000132855
                    -0.000405872     -0.00038175       0.00700728      -0.0795491     -0.000355042    -0.000239967        -0.512288        0.846618
                         0.50057       -0.858281     -0.000298519    -0.000234854       -0.0648263       0.0382701      0.000507771     0.000120889
                      0.00036231      0.00014743        -0.512586        0.846259       0.00049242     0.000154862       -0.0669881       0.0453304
281724               9.69873e-05      -0.0753072     -0.000397355    -0.000382991         0.500141       -0.858694      0.000353015     0.000132539
                    -0.000405846    -0.000381657       0.00697087      -0.0795793     -0.000355135     -0.00023982        -0.511875        0.846866
                        0.500202       -0.858493     -0.000298554     -0.00023465       -0.0648232       0.0383125      0.000507771     0.000120385
                     0.000362131     0.000147475        -0.512172        0.846507      0.000492403     0.000154487       -0.0669882       0.0453772
281726                7.1021e-05      -0.0753262     -0.000397395    -0.000382771         0.499774       -0.858906      0.000353161     0.000132223
                    -0.000405819    -0.000381565       0.00693444      -0.0796095     -0.000355228    -0.000239674        -0.511461        0.847113
                        0.499835       -0.858705      -0.00029859    -0.000234445         -0.06482       0.0383549      0.000507771     0.000119881
                     0.000361951     0.000147521        -0.511759        0.846755      0.000492384     0.000154112       -0.0669883        0.045424
281728               4.50402e-05      -0.0753451     -0.000397435    -0.000382549         0.499406       -0.859117      0.000353306     0.000131907
                    -0.000405791    -0.000381474       0.00689798      -0.0796397     -0.000355321    -0.000239528        -0.511047        0.847361
                        0.499467       -0.858917     -0.000298626    -0.000234239       -0.0648168       0.0383973       0.00050777     0.000119376
                     0.000361771      0.00014757        -0.511345        0.847003      0.000492366     0.000153737       -0.0669884       0.0454708
281730               1.90449e-05      -0.0753641     -0.000397474    -0.000382328         0.499038       -0.859329      0.000353451      0.00013159
                    -0.000405764    -0.000381385       0.00686151      -0.0796698     -0.000355414    -0.000239381        -0.510633        0.847608
                          0.4991       -0.859128     -0.000298662    -0.000234032       -0.0648136       0.0384397      0.000507769     0.000118871
                      0.00036159     0.000147621        -0.510932         0.84725      0.000492347     0.000153362       -0.0669884       0.0455176
281732              -6.96483e-06       -0.075383     -0.000397514    -0.000382107         0.498671       -0.859541      0.000353596     0.000131273
                    -0.000405736    -0.000381297       0.00682502      -0.0796999     -0.000355506    -0.000239235        -0.510219        0.847855
                        0.498732        -0.85934     -0.000298698    -0.000233825       -0.0648103       0.0384821      0.000507767     0.000118365
                     0.000361409     0.000147674        -0.510518        0.847498      0.000492328     0.000152988       -0.0669884       0.0455644
281734               -3.2989e-05      -0.0754019     -0.000397553    -0.000381886         0.498303       -0.859752      0.000353741     0.000130955
                    -0.000405708     -0.00038121       0.00678852        -0.07973     -0.000355599    -0.000239088        -0.509805        0.848102
                        0.498364       -0.859551     -0.000298734    -0.000233617        -0.064807       0.0385245      0.000507764      0.00011786
                     0.000361228     0.000147729        -0.510104        0.847745      0.000492308     0.000152613       -0.0669883       0.0456113
281736              -5.90277e-05      -0.0754208     -0.000397593    -0.000381665         0.497935       -0.859963      0.000353886     0.000130637
                    -0.000405679    -0.000381124       0.00675199      -0.0797601     -0.000355691    -0.000238942        -0.509391        0.848349
                        0.497996       -0.859762      -0.00029877    -0.000233409       -0.0648037        0.038567      0.000507761     0.000117353
                     0.000361045     0.000147786         -0.50969        0.847992      0.000492289     0.000152238       -0.0669882       0.0456581
281738              -8.50808e-05      -0.0754397     -0.000397633    -0.000381444         0.497566       -0.860174       0.00035403     0.000130319
                    -0.000405651    -0.000381039       0.00671544      -0.0797902     -0.000355783    -0.000238795        -0.508977        0.848596
                        0.497628       -0.859974     -0.000298806    -0.000233199       -0.0648004       0.0386094      0.000507758     0.000116847
                     0.000360863     0.000147845        -0.509276        0.848239      0.000492269     0.000151864       -0.0669881        0.045705
281740              -0.000111148      -0.0754586     -0.000397672    -0.000381223         0.497198       -0.860385      0.000354175     0.000130001
                    -0.000405621    -0.000380956       0.00667888      -0.0798202     -0.000355875    -0.000238649        -0.508562        0.848842
                         0.49726       -0.860184     -0.000298842    -0.000232989        -0.064797       0.0386518      0.000507754      0.00011634
                      0.00036068     0.000147906        -0.508862        0.848485      0.000492248     0.000151489       -0.0669879       0.0457519
281742               -0.00013723      -0.0754775     -0.000397712    -0.000381001          0.49683       -0.860596      0.000354319     0.000129683
                    -0.000405592    -0.000380874       0.00664229      -0.0798503     -0.000355966    -0.000238502        -0.508148        0.849088
                        0.496892       -0.860395     -0.000298878    -0.000232779       -0.0647936       0.0386943       0.00050775     0.000115833
                     0.000360497     0.000147968        -0.508448        0.848731      0.000492227     0.000151115       -0.0669877       0.0457988
281744              -0.000163327      -0.0754964     -0.000397751     -0.00038078         0.496462       -0.860807      0.000354464     0.000129365
                    -0.000405562    -0.000380793       0.00660569      -0.0798803     -0.000356058    -0.000238356        -0.507733        0.849334
                        0.496523       -0.860606     -0.000298914    -0.000232568       -0.0647902       0.0387367      0.000507745     0.000115325
                     0.000360313     0.000148032        -0.508033        0.848977      0.000492206      0.00015074       -0.0669875       0.0458458
281746              -0.000189438      -0.0755152     -0.000397791    -0.000380559         0.496093       -0.861017      0.000354608     0.000129048
                    -0.000405533    -0.000380713       0.00656907      -0.0799103     -0.000356149    -0.000238209        -0.507318         0.84958
                        0.496155       -0.860816      -0.00029895    -0.000232356       -0.0647868       0.0387792      0.000507741     0.000114817
                     0.000360129     0.000148098        -0.507619        0.849223      0.000492185     0.000150366       -0.0669872       0.0458927
281748              -0.000215563      -0.0755341      -0.00039783    -0.000380337         0.495725       -0.861228      0.000354753     0.000128733
                    -0.000405502    -0.000380634       0.00653243      -0.0799402      -0.00035624    -0.000238062        -0.506904        0.849825
                        0.495786       -0.861026     -0.000298986    -0.000232143       -0.0647833       0.0388216      0.000507737      0.00011431
                     0.000359945     0.000148165        -0.507204        0.849469      0.000492163     0.000149991       -0.0669869       0.0459397
281750              -0.000241703      -0.0755529     -0.000397869    -0.000380116         0.495356       -0.861438      0.000354901     0.000128422
                    -0.000405472    -0.000380556       0.00649577      -0.0799702     -0.000356331    -0.000237916        -0.506489         0.85007
                        0.495418       -0.861236     -0.000299022     -0.00023193       -0.0647798       0.0388641      0.000507736     0.000113803
                     0.000359761     0.000148234         -0.50679        0.849714      0.000492141     0.000149617       -0.0669866       0.0459866
281752              -0.000267857      -0.0755718     -0.000397909    -0.000379894         0.494987       -0.861648      0.000355071     0.000128119
                    -0.000405441    -0.000380479       0.00645909      -0.0800001     -0.000356422    -0.000237769        -0.506073        0.850316
                        0.495049       -0.861446     -0.000299059    -0.000231716       -0.0647763       0.0389066      0.000507744     0.000113318
                     0.000359576     0.000148305        -0.506375         0.84996      0.000492119     0.000149242       -0.0669862       0.0460336
281754              -0.000294026      -0.0755906     -0.000397948    -0.000379673         0.494618       -0.861858      0.000355247     0.000127743
                    -0.000405411    -0.000380404       0.00642239        -0.08003     -0.000356512    -0.000237623        -0.505659        0.850561
                         0.49468       -0.861656     -0.000299095    -0.000231502       -0.0647728       0.0389491      0.000507685     0.000112796
                     0.000359391     0.000148377         -0.50596        0.850205      0.000492096     0.000148868        -0.066986       0.0460806
281756               -0.00032021      -0.0756094     -0.000397988    -0.000379451         0.494249       -0.862067      0.000355356     0.000127409
                    -0.000405379    -0.000380329       0.00638567      -0.0800599     -0.000356602    -0.000237476        -0.505243        0.850805
                        0.494311       -0.861866     -0.000299131    -0.000231286       -0.0647692       0.0389916      0.000507688     0.000112276
                     0.000359205      0.00014845        -0.505545         0.85045      0.000492074     0.000148494       -0.0669854       0.0461276
281758              -0.000346408      -0.0756282     -0.000398027     -0.00037923          0.49388       -0.862277      0.000355489     0.000127092
                    -0.000405348    -0.000380255       0.00634894      -0.0800898     -0.000356693    -0.000237329        -0.504828        0.851049
                        0.493942       -0.862075     -0.000299168     -0.00023107       -0.0647656       0.0390341      0.000507683     0.000111764
                      0.00035902     0.000148525        -0.505129        0.850694       0.00049205      0.00014812       -0.0669849       0.0461747
281760               -0.00037262       -0.075647     -0.000398066    -0.000379008         0.493511       -0.862486      0.000355628     0.000126773
                    -0.000405316    -0.000380182       0.00631218      -0.0801197     -0.000356783    -0.000237183        -0.504412        0.851294
                        0.493573       -0.862285     -0.000299205    -0.000230853        -0.064762       0.0390766      0.000507676     0.000111253
                     0.000358834     0.000148602        -0.504714        0.850939      0.000492027     0.000147746       -0.0669844       0.0462217
281762              -0.000398847      -0.0756658     -0.000398106    -0.000378786         0.493142       -0.862695       0.00035577     0.000126454
                    -0.000405285     -0.00038011       0.00627541      -0.0801495     -0.000356872    -0.000237036        -0.503996        0.851538
                        0.493204       -0.862494     -0.000299241    -0.000230636       -0.0647583       0.0391191      0.000507667     0.000110743
