! TOUCHSTONE file generated by CST MICROWAVE STUDIO
! Date and time: Tue Oct 14 07:32:35 2025
! Project name: Teste_Macro_Metasurface_Nanopilar.cst
! Parameters = {H=600; L_x=190; L_y=185; Lambda=1064; Max_L=200; Min_L=70; PathPara=1; Phi=0; Step_L=10; Theta=0; p=520; phaseX=180; phaseY=0}
! Header version: 2018
! Port assignment regex: !\s*Touchstone port\s*([0-9]+)\s*=\s*(CST MWS port|CST DS port)\s*([0-9]+|Zmin|Zmax)\s*\(\"(.*)\"\)(\s*mode\s*([0-9]+))?.*
! Touchstone port assignment:
! Touchstone port 1 = CST MWS port Zmax ("") mode 1
! Touchstone port 2 = CST MWS port Zmax ("") mode 2
! Touchstone port 3 = CST MWS port Zmin ("") mode 1
! Touchstone port 4 = CST MWS port Zmin ("") mode 2
! S-Parameters are not renormalized. Each port impedance will be approximated by the real part at minimum frequency. The values are described via the [Reference] keyword.
! Default impedance is overridden by [Reference]
[Version] 2.0
# GHz S RI R 376.73
[Number of Ports] 4
[Reference]
376.73 376.73 259.814 259.814 
[Number of Frequencies] 51
[Network Data]
281700                 -0.341539       -0.165242      0.000137998    -8.43483e-05         0.907642        0.160553      6.85398e-05      0.00122393
                     0.000189525    -6.83363e-05        -0.392033       -0.197779     -0.000163823      0.00106116         0.881086        0.150967
                        0.907719        0.160649     -0.000364761      0.00109454         0.375867      -0.0384709      6.01682e-05     0.000951342
                     5.69479e-05      0.00117829         0.880321        0.150527      9.95835e-05     0.000913725         0.433964      -0.0541217
281702                 -0.341595       -0.165139      0.000137922    -8.54074e-05         0.907706        0.160179      6.85975e-05      0.00122395
                     0.000189564    -6.84168e-05        -0.392088       -0.197642     -0.000163167      0.00106112         0.881158        0.150586
                        0.907783        0.160275     -0.000364069      0.00109416         0.375853      -0.0386651      6.02931e-05     0.000951454
                     5.74245e-05      0.00117824         0.880395        0.150148      0.000100299     0.000913436         0.433922       -0.054354
281704                 -0.341651       -0.165036       0.00013785    -8.64564e-05         0.907769        0.159806      6.86551e-05      0.00122397
                     0.000189604    -6.84972e-05        -0.392142       -0.197506      -0.00016251      0.00106109          0.88123        0.150205
                        0.907847        0.159902     -0.000363374      0.00109378         0.375839      -0.0388593      6.04178e-05     0.000951567
                     5.79013e-05      0.00117819         0.880469        0.149768      0.000101017     0.000913148          0.43388      -0.0545862
281706                 -0.341707       -0.164933      0.000137782    -8.74954e-05         0.907833        0.159432      6.87124e-05      0.00122399
                     0.000189644    -6.85774e-05        -0.392197       -0.197369     -0.000161852      0.00106105         0.881302        0.149824
                        0.907911        0.159528     -0.000362677      0.00109341         0.375824      -0.0390534      6.05424e-05     0.000951683
                     5.83782e-05      0.00117814         0.880543        0.149388      0.000101737     0.000912862         0.433838      -0.0548184
281708                 -0.341762       -0.164831      0.000137717    -8.85247e-05         0.907896        0.159059      6.87695e-05      0.00122401
                     0.000189684    -6.86573e-05        -0.392252       -0.197232     -0.000161193      0.00106102         0.881374        0.149443
                        0.907975        0.159154     -0.000361978      0.00109303         0.375809      -0.0392476      6.06669e-05       0.0009518
                     5.88553e-05      0.00117809         0.880617        0.149009      0.000102459     0.000912576         0.433796      -0.0550505
281710                 -0.341818       -0.164728      0.000137656    -8.95444e-05          0.90796        0.158685      6.88263e-05      0.00122403
                     0.000189724    -6.87371e-05        -0.392307       -0.197095     -0.000160533      0.00106099         0.881446        0.149062
                        0.908038         0.15878     -0.000361276      0.00109267         0.375795      -0.0394417      6.07913e-05     0.000951919
                     5.93326e-05      0.00117805          0.88069        0.148629      0.000103183     0.000912292         0.433754      -0.0552826
281712                 -0.341874       -0.164625      0.000137598    -9.05545e-05         0.908023        0.158312      6.88828e-05      0.00122406
                     0.000189764    -6.88167e-05        -0.392362       -0.196958     -0.000159872      0.00106097         0.881517        0.148681
                        0.908102        0.158407     -0.000360571       0.0010923          0.37578      -0.0396359      6.09158e-05     0.000952039
                       5.981e-05        0.001178         0.880763        0.148249      0.000103908     0.000912008         0.433711      -0.0555147
281714                  -0.34193       -0.164522      0.000137544    -9.15552e-05         0.908086        0.157938      6.89389e-05      0.00122408
                     0.000189803     -6.8896e-05        -0.392417       -0.196822     -0.000159211      0.00106094         0.881588          0.1483
                        0.908165        0.158033     -0.000359864      0.00109194         0.375765        -0.03983      6.10404e-05     0.000952161
                     6.02875e-05      0.00117795         0.880837         0.14787      0.000104636     0.000911726         0.433669      -0.0557467
281716                 -0.341985       -0.164419      0.000137493    -9.25465e-05         0.908148        0.157565      6.89945e-05       0.0012241
                     0.000189843    -6.89751e-05        -0.392472       -0.196685     -0.000158548      0.00106092         0.881659        0.147918
                        0.908228        0.157659     -0.000359153      0.00109159          0.37575      -0.0400241       6.1165e-05     0.000952285
                     6.07651e-05       0.0011779          0.88091         0.14749      0.000105366     0.000911444         0.433627      -0.0559787
281718                 -0.342041       -0.164316      0.000137444    -9.35286e-05         0.908211        0.157191      6.90497e-05      0.00122413
                     0.000189883    -6.90541e-05        -0.392526       -0.196548     -0.000157884      0.00106089          0.88173        0.147537
                        0.908291        0.157285     -0.000358439      0.00109124         0.375735      -0.0402183      6.12899e-05      0.00095241
                     6.12428e-05      0.00117786         0.880982        0.147111      0.000106099     0.000911164         0.433584      -0.0562106
281720                 -0.342096       -0.164214      0.000137399    -9.45015e-05         0.908273        0.156818      6.91042e-05      0.00122415
                     0.000189922    -6.91327e-05        -0.392581       -0.196412      -0.00015722      0.00106087         0.881801        0.147156
                        0.908354        0.156911     -0.000357723      0.00109089          0.37572      -0.0404124      6.14149e-05     0.000952537
                     6.17206e-05      0.00117781         0.881055        0.146731      0.000106833     0.000910885         0.433541      -0.0564425
281722                 -0.342152       -0.164111      0.000137356    -9.54653e-05         0.908336        0.156444      6.91582e-05      0.00122418
                     0.000189962    -6.92112e-05        -0.392636       -0.196275     -0.000156554      0.00106086         0.881872        0.146775
                        0.908416        0.156537     -0.000357003      0.00109054         0.375704      -0.0406065      6.15401e-05     0.000952666
                     6.21984e-05      0.00117776         0.881128        0.146352      0.000107569     0.000910607         0.433498      -0.0566744
281724                 -0.342208       -0.164008      0.000137316      -9.642e-05         0.908398         0.15607      6.92115e-05      0.00122421
                     0.000190001    -6.92894e-05         -0.39269       -0.196138     -0.000155888      0.00106084         0.881942        0.146394
                        0.908479        0.156163      -0.00035628       0.0010902         0.375689      -0.0408006      6.16656e-05     0.000952796
                     6.26763e-05      0.00117771           0.8812        0.145972      0.000108307     0.000910331         0.433455      -0.0569063
281726                 -0.342263       -0.163905      0.000137279    -9.73656e-05          0.90846        0.155697      6.92641e-05      0.00122423
                      0.00019004    -6.93673e-05        -0.392745       -0.196001      -0.00015522      0.00106082         0.882012        0.146013
                        0.908541        0.155789     -0.000355554      0.00108987         0.375673      -0.0409947      6.17913e-05     0.000952928
                     6.31543e-05      0.00117767         0.881272        0.145593      0.000109047     0.000910056         0.433412       -0.057138
281728                 -0.342319       -0.163802      0.000137244    -9.83021e-05         0.908522        0.155323       6.9316e-05      0.00122426
                      0.00019008    -6.94451e-05          -0.3928       -0.195865     -0.000154552      0.00106081         0.882082        0.145632
                        0.908603        0.155415     -0.000354824      0.00108954         0.375658      -0.0411887      6.19171e-05     0.000953061
                     6.36323e-05      0.00117762         0.881344        0.145213       0.00010979     0.000909782         0.433369      -0.0573698
281730                 -0.342374       -0.163699      0.000137211    -9.92297e-05         0.908583        0.154949      6.93669e-05      0.00122429
                     0.000190119    -6.95225e-05        -0.392854       -0.195728     -0.000153882       0.0010608         0.882152        0.145251
                        0.908665        0.155041     -0.000354091      0.00108921         0.375642      -0.0413828      6.20431e-05     0.000953196
                     6.41103e-05      0.00117758         0.881416        0.144834      0.000110534     0.000909509         0.433326      -0.0576015
281732                  -0.34243       -0.163596       0.00013718    -0.000100148         0.908645        0.154575      6.94171e-05      0.00122432
                     0.000190157    -6.95997e-05        -0.392909       -0.195591     -0.000153211      0.00106079         0.882222        0.144869
                        0.908727        0.154667     -0.000353355      0.00108888         0.375626      -0.0415769       6.2169e-05     0.000953333
                     6.45883e-05      0.00117753         0.881488        0.144455       0.00011128     0.000909238         0.433283      -0.0578332
281734                 -0.342485       -0.163493      0.000137152    -0.000101058         0.908706        0.154202      6.94662e-05      0.00122435
                     0.000190196    -6.96767e-05        -0.392963       -0.195455     -0.000152539      0.00106079         0.882291        0.144488
                        0.908788        0.154293     -0.000352615      0.00108856          0.37561       -0.041771      6.22946e-05     0.000953472
                     6.50663e-05      0.00117748         0.881559        0.144075      0.000112029     0.000908968         0.433239      -0.0580649
281736                  -0.34254        -0.16339      0.000137126    -0.000101958         0.908768        0.153828      6.95144e-05      0.00122438
                     0.000190235    -6.97534e-05        -0.393017       -0.195318     -0.000151866      0.00106078         0.882361        0.144107
                         0.90885        0.153919     -0.000351872      0.00108825         0.375594       -0.041965      6.24196e-05     0.000953613
                     6.55444e-05      0.00117744         0.881631        0.143696      0.000112779       0.0009087         0.433196      -0.0582965
281738                 -0.342596       -0.163287      0.000137101    -0.000102849         0.908829        0.153454      6.95615e-05      0.00122441
                     0.000190273    -6.98299e-05        -0.393072       -0.195181     -0.000151192      0.00106078          0.88243        0.143726
                        0.908911        0.153545     -0.000351125      0.00108793         0.375578      -0.0421591      6.25434e-05     0.000953757
                     6.60224e-05      0.00117739         0.881702        0.143317      0.000113532     0.000908433         0.433152       -0.058528
281740                 -0.342651       -0.163184      0.000137079    -0.000103731          0.90889         0.15308      6.96075e-05      0.00122444
                     0.000190311    -6.99061e-05        -0.393126       -0.195045     -0.000150517      0.00106078         0.882499        0.143345
                        0.908973        0.153171     -0.000350376      0.00108762         0.375562      -0.0423531      6.26655e-05     0.000953907
                     6.65003e-05      0.00117734         0.881773        0.142937      0.000114286     0.000908167         0.433108      -0.0587596
281742                 -0.342706       -0.163081      0.000137058    -0.000104604          0.90895        0.152706      6.96521e-05      0.00122447
                     0.000190349     -6.9982e-05         -0.39318       -0.194908     -0.000149841      0.00106078         0.882568        0.142963
                        0.909034        0.152797     -0.000349623      0.00108732         0.375546      -0.0425471       6.2787e-05     0.000954067
                     6.69783e-05       0.0011773         0.881844        0.142558      0.000115043     0.000907903         0.433064      -0.0589911
281744                 -0.342762       -0.162978      0.000137039    -0.000105467         0.909011        0.152333      6.96952e-05      0.00122451
                     0.000190386    -7.00578e-05        -0.393235       -0.194771     -0.000149163      0.00106078         0.882636        0.142582
                        0.909094        0.152422     -0.000348866      0.00108702         0.375529      -0.0427412      6.29166e-05     0.000954243
                     6.74562e-05      0.00117725         0.881914        0.142179      0.000115802     0.000907641          0.43302      -0.0592225
281746                 -0.342817       -0.162875      0.000137021    -0.000106321         0.909071        0.151959      6.97364e-05      0.00122454
                     0.000190423    -7.01333e-05        -0.393289       -0.194635     -0.000148485      0.00106079         0.882705        0.142201
                        0.909155        0.152048     -0.000348107      0.00108672         0.375513      -0.0429352      6.30782e-05     0.000954427
                      6.7934e-05      0.00117721         0.881985          0.1418      0.000116562      0.00090738         0.432976       -0.059454
281748                 -0.342872       -0.162771      0.000137005    -0.000107165         0.909132        0.151585       6.9775e-05      0.00122458
                      0.00019046    -7.02085e-05        -0.393343       -0.194498     -0.000147805       0.0010608         0.882773         0.14182
                        0.909216        0.151674     -0.000347344      0.00108643         0.375496      -0.0431292       6.3263e-05     0.000954578
                     6.84118e-05      0.00117716         0.882055         0.14142      0.000117325      0.00090712         0.432932      -0.0596852
281750                 -0.342927       -0.162668      0.000136991       -0.000108         0.909192        0.151211      6.98098e-05      0.00122461
                     0.000190497    -7.02836e-05        -0.393397       -0.194361     -0.000147123      0.00106081         0.882841        0.141438
                        0.909276          0.1513     -0.000346579      0.00108614         0.375479      -0.0433232      6.34268e-05     0.000954702
                     6.88895e-05      0.00117712         0.882125        0.141041       0.00011809     0.000906863         0.432888      -0.0599166
281752                 -0.342982       -0.162565      0.000136977    -0.000108825         0.909252        0.150837      6.98386e-05      0.00122465
                     0.000190533    -7.03585e-05        -0.393452       -0.194225     -0.000146441      0.00106082         0.882909        0.141057
                        0.909336        0.150926      -0.00034581      0.00108586         0.375463      -0.0435172      6.35718e-05      0.00095483
                     6.93671e-05      0.00117707         0.882195        0.140662      0.000118856     0.000906607         0.432844      -0.0601479
281754                 -0.343038       -0.162462      0.000136966     -0.00010964         0.909312        0.150463      6.98581e-05      0.00122469
                     0.000190569    -7.04332e-05        -0.393506       -0.194088     -0.000145757      0.00106084         0.882977        0.140676
                        0.909396        0.150551     -0.000345039      0.00108558         0.375446      -0.0437112      6.37107e-05     0.000954966
                     6.98446e-05      0.00117702         0.882265        0.140283      0.000119625     0.000906353         0.432799      -0.0603792
281756                 -0.343093       -0.162359      0.000136955    -0.000110445         0.909371        0.150089       6.9867e-05      0.00122471
                     0.000190604    -7.05077e-05         -0.39356       -0.193952     -0.000145072      0.00106085         0.883044        0.140294
                        0.909456        0.150177     -0.000344265       0.0010853         0.375429      -0.0439052      6.38489e-05     0.000955108
                      7.0322e-05      0.00117698         0.882335        0.139904      0.000120396       0.0009061         0.432754      -0.0606104
281758                 -0.343148       -0.162256      0.000136946    -0.000111239         0.909431        0.149715      6.98757e-05      0.00122471
                     0.000190639    -7.05821e-05        -0.393614       -0.193815     -0.000144386      0.00106087         0.883112        0.139913
                        0.909516        0.149803     -0.000343489      0.00108503         0.375412      -0.0440992      6.39881e-05     0.000955254
                     7.07993e-05      0.00117693         0.882404        0.139525      0.000121168     0.000905849          0.43271      -0.0608416
281760                 -0.343203       -0.162152      0.000136938    -0.000112023          0.90949        0.149341      6.99049e-05       0.0012247
                     0.000190674    -7.06564e-05        -0.393668       -0.193678     -0.000143697      0.00106089         0.883179        0.139532
                        0.909576        0.149428      -0.00034271      0.00108476         0.375395      -0.0442932      6.41287e-05     0.000955403
                     7.12764e-05      0.00117689         0.882474        0.139146      0.000121943       0.0009056         0.432665      -0.0610727
281762                 -0.343258       -0.162049      0.000136931    -0.000112797         0.909549        0.148967      6.99548e-05      0.00122469
                     0.000190708    -7.07306e-05        -0.393722       -0.193542     -0.000143007      0.00106092         0.883246         0.13915
                        0.909635        0.149054     -0.000341929       0.0010845         0.375377      -0.0444871      6.42709e-05     0.000955554
