! TOUCHSTONE file generated by CST MICROWAVE STUDIO
! Date and time: Tue Oct 14 07:25:48 2025
! Project name: Teste_Macro_Metasurface_Nanopilar.cst
! Parameters = {H=600; L_x=85; L_y=115; Lambda=1064; Max_L=200; Min_L=70; PathPara=1; Phi=0; Step_L=10; Theta=0; p=520; phaseX=180; phaseY=0}
! Header version: 2018
! Port assignment regex: !\s*Touchstone port\s*([0-9]+)\s*=\s*(CST MWS port|CST DS port)\s*([0-9]+|Zmin|Zmax)\s*\(\"(.*)\"\)(\s*mode\s*([0-9]+))?.*
! Touchstone port assignment:
! Touchstone port 1 = CST MWS port Zmax ("") mode 1
! Touchstone port 2 = CST MWS port Zmax ("") mode 2
! Touchstone port 3 = CST MWS port Zmin ("") mode 1
! Touchstone port 4 = CST MWS port Zmin ("") mode 2
! S-Parameters are not renormalized. Each port impedance will be approximated by the real part at minimum frequency. The values are described via the [Reference] keyword.
! Default impedance is overridden by [Reference]
[Version] 2.0
# GHz S RI R 376.73
[Number of Ports] 4
[Reference]
376.73 376.73 259.814 259.814 
[Number of Frequencies] 51
[Network Data]
281700                -0.0567395      -0.0533969     -0.000278717    -0.000874912          0.53412       -0.837681      -0.00026696     -0.00032483
                    -0.000339051    -0.000943776     -0.000534934       0.0789417     -0.000363367    -0.000399857          0.97602       -0.199162
                        0.534268       -0.837627     -0.000130478    -0.000363349       -0.0723045      -0.0277735     -0.000713355    -0.000673098
                    -0.000323385    -0.000331775         0.975801       -0.198661     -0.000952324    -0.000637031         0.031213       0.0726544
281702                -0.0567624      -0.0533926     -0.000279134    -0.000874886         0.533762       -0.837908      -0.00026702    -0.000324698
                    -0.000339558    -0.000943704       -0.0005038       0.0789353     -0.000363332    -0.000399594         0.975946       -0.199527
                         0.53391       -0.837854     -0.000130649    -0.000363341       -0.0723344      -0.0277343     -0.000713566    -0.000672934
                    -0.000323557    -0.000331657         0.975727       -0.199026     -0.000952405     -0.00063663        0.0312361       0.0726374
281704                -0.0567854      -0.0533883     -0.000279551    -0.000874858         0.533403       -0.838134     -0.000267081    -0.000324565
                    -0.000340066    -0.000943631     -0.000472671       0.0789289     -0.000363298    -0.000399331         0.975872       -0.199891
                        0.533551        -0.83808     -0.000130821    -0.000363334       -0.0723643      -0.0276951     -0.000713777    -0.000672769
                    -0.000323728    -0.000331538         0.975653        -0.19939     -0.000952485    -0.000636229        0.0312591       0.0726203
281706                -0.0568083       -0.053384     -0.000279968    -0.000874831         0.533044        -0.83836     -0.000267141    -0.000324432
                    -0.000340574    -0.000943558     -0.000441545       0.0789225     -0.000363262    -0.000399069         0.975798       -0.200256
                        0.533193       -0.838307     -0.000130992    -0.000363326       -0.0723941      -0.0276559     -0.000713988    -0.000672604
                      -0.0003239     -0.00033142         0.975579       -0.199754     -0.000952564    -0.000635827        0.0312821       0.0726032
281708                -0.0568313      -0.0533798     -0.000280385    -0.000874803         0.532686       -0.838587     -0.000267201    -0.000324299
                    -0.000341082    -0.000943484     -0.000410424        0.078916     -0.000363227    -0.000398807         0.975723        -0.20062
                        0.532834       -0.838533     -0.000131163     -0.00036332       -0.0724239      -0.0276166       -0.0007142     -0.00067244
                    -0.000324071    -0.000331301         0.975505       -0.200119     -0.000952644    -0.000635426        0.0313052       0.0725861
281710                -0.0568543      -0.0533754     -0.000280802    -0.000874774         0.532327       -0.838813     -0.000267261    -0.000324165
                     -0.00034159     -0.00094341     -0.000379307       0.0789096     -0.000363192    -0.000398545         0.975649       -0.200985
                        0.532476        -0.83876     -0.000131335    -0.000363313       -0.0724537      -0.0275773     -0.000714411    -0.000672275
                    -0.000324243    -0.000331183          0.97543       -0.200483     -0.000952722    -0.000635024        0.0313282        0.072569
281712                -0.0568773      -0.0533711     -0.000281219    -0.000874745         0.531968       -0.839038     -0.000267321    -0.000324031
                    -0.000342098    -0.000943336     -0.000348194       0.0789031     -0.000363156    -0.000398283         0.975574       -0.201349
                        0.532117       -0.838986     -0.000131506    -0.000363306       -0.0724835       -0.027538     -0.000714623     -0.00067211
                    -0.000324415    -0.000331064         0.975356       -0.200848       -0.0009528    -0.000634623        0.0313512       0.0725519
281714                -0.0569002      -0.0533668     -0.000281636    -0.000874715         0.531609       -0.839264     -0.000267382    -0.000323897
                    -0.000342606    -0.000943262     -0.000317085       0.0788966      -0.00036312    -0.000398022         0.975499       -0.201713
                        0.531758       -0.839212     -0.000131677      -0.0003633       -0.0725132      -0.0274986     -0.000714835    -0.000671945
                    -0.000324586    -0.000330945         0.975281       -0.201212     -0.000952878    -0.000634221        0.0313742       0.0725348
281716                -0.0569232      -0.0533625     -0.000282054    -0.000874685          0.53125        -0.83949     -0.000267442    -0.000323763
                    -0.000343114    -0.000943187     -0.000285981       0.0788902     -0.000363084    -0.000397761         0.975424       -0.202078
                        0.531399       -0.839437     -0.000131848    -0.000363294        -0.072543      -0.0274593     -0.000715048    -0.000671781
                    -0.000324758    -0.000330826         0.975206       -0.201576     -0.000952955     -0.00063382        0.0313972       0.0725177
281718                -0.0569462      -0.0533581     -0.000282471    -0.000874655          0.53089       -0.839715     -0.000267503    -0.000323628
                    -0.000343622    -0.000943112      -0.00025488       0.0788836     -0.000363048      -0.0003975         0.975349       -0.202442
                         0.53104       -0.839663     -0.000132019    -0.000363289       -0.0725727      -0.0274199      -0.00071526    -0.000671616
                    -0.000324929    -0.000330707         0.975131        -0.20194     -0.000953032    -0.000633418        0.0314202       0.0725006
281720                -0.0569692      -0.0533538     -0.000282889    -0.000874624         0.530531        -0.83994     -0.000267563    -0.000323494
                     -0.00034413    -0.000943037     -0.000223784       0.0788771     -0.000363012     -0.00039724         0.975274       -0.202807
                         0.53068       -0.839889      -0.00013219    -0.000363283       -0.0726024      -0.0273804     -0.000715472    -0.000671451
                    -0.000325101    -0.000330587         0.975056       -0.202305     -0.000953108    -0.000633017        0.0314432       0.0724834
281722                -0.0569922      -0.0533494     -0.000283306    -0.000874592         0.530172       -0.840165     -0.000267624    -0.000323359
                    -0.000344638    -0.000942961     -0.000192692       0.0788706     -0.000362975    -0.000396981         0.975199       -0.203171
                        0.530321       -0.840114      -0.00013236    -0.000363278        -0.072632       -0.027341     -0.000715685    -0.000671286
                    -0.000325272    -0.000330468         0.974981       -0.202669     -0.000953183    -0.000632615        0.0314661       0.0724663
281724                -0.0570152       -0.053345     -0.000283724     -0.00087456         0.529812        -0.84039     -0.000267685    -0.000323224
                    -0.000345145    -0.000942885     -0.000161604       0.0788641     -0.000362938    -0.000396721         0.975123       -0.203535
                        0.529962       -0.840339     -0.000132531    -0.000363273       -0.0726617      -0.0273015     -0.000715898    -0.000671121
                    -0.000325444    -0.000330349         0.974905       -0.203033     -0.000953257    -0.000632213        0.0314891       0.0724491
281726                -0.0570382      -0.0533406     -0.000284142    -0.000874527         0.529453       -0.840615     -0.000267746    -0.000323089
                    -0.000345653    -0.000942809      -0.00013052       0.0788575     -0.000362901    -0.000396462         0.975047       -0.203899
                        0.529602       -0.840564     -0.000132702    -0.000363268       -0.0726913      -0.0272621     -0.000716111    -0.000670956
                    -0.000325615    -0.000330229          0.97483       -0.203397     -0.000953331    -0.000631811        0.0315121        0.072432
281728                -0.0570612      -0.0533362      -0.00028456    -0.000874494         0.529093        -0.84084     -0.000267807    -0.000322953
                    -0.000346161    -0.000942732     -9.94403e-05        0.078851     -0.000362864    -0.000396204         0.974972       -0.204264
                        0.529242       -0.840789     -0.000132872    -0.000363264       -0.0727209      -0.0272225     -0.000716324    -0.000670791
                    -0.000325786     -0.00033011         0.974754       -0.203761     -0.000953403    -0.000631408         0.031535       0.0724148
281730                -0.0570842      -0.0533318     -0.000284978     -0.00087446         0.528733       -0.841064     -0.000267867    -0.000322818
                    -0.000346669    -0.000942655     -6.83649e-05       0.0788444     -0.000362826    -0.000395946         0.974896       -0.204628
                        0.528883       -0.841014     -0.000133043     -0.00036326       -0.0727505       -0.027183     -0.000716537    -0.000670626
                    -0.000325958     -0.00032999         0.974678       -0.204125     -0.000953475    -0.000631006        0.0315579       0.0723977
281732                -0.0571072      -0.0533274     -0.000285396    -0.000874426         0.528373       -0.841289     -0.000267928    -0.000322682
                    -0.000347177    -0.000942578     -3.72937e-05       0.0788378     -0.000362788    -0.000395689          0.97482       -0.204992
                        0.528523       -0.841238     -0.000133213    -0.000363256       -0.0727801      -0.0271435     -0.000716751    -0.000670461
                    -0.000326129     -0.00032987         0.974602       -0.204489     -0.000953545    -0.000630603        0.0315809       0.0723805
281734                -0.0571303       -0.053323     -0.000285815    -0.000874392         0.528013       -0.841513      -0.00026799    -0.000322546
                    -0.000347685    -0.000942501     -6.22663e-06       0.0788312      -0.00036275    -0.000395432         0.974744       -0.205356
                        0.528163       -0.841463     -0.000133383    -0.000363252       -0.0728096      -0.0271039     -0.000716965    -0.000670296
                      -0.0003263     -0.00032975         0.974526       -0.204853     -0.000953614    -0.000630199        0.0316038       0.0723633
281736                -0.0571533      -0.0533186     -0.000286233    -0.000874357         0.527653       -0.841737     -0.000268051    -0.000322409
                    -0.000348192    -0.000942423      2.48362e-05       0.0788246     -0.000362711    -0.000395176         0.974667        -0.20572
                        0.527803       -0.841687     -0.000133554    -0.000363248       -0.0728391      -0.0270643     -0.000717178    -0.000670131
                    -0.000326472     -0.00032963          0.97445       -0.205217     -0.000953681    -0.000629795        0.0316267       0.0723461
281738                -0.0571763      -0.0533141     -0.000286652    -0.000874321         0.527293       -0.841961     -0.000268112    -0.000322273
                      -0.0003487    -0.000942345      5.58948e-05        0.078818     -0.000362671     -0.00039492         0.974591       -0.206084
                        0.527443       -0.841911     -0.000133724    -0.000363245       -0.0728686      -0.0270246     -0.000717392    -0.000669966
                    -0.000326643     -0.00032951         0.974374       -0.205581     -0.000953746    -0.000629391        0.0316496       0.0723289
281740                -0.0571994      -0.0533097      -0.00028707    -0.000874285         0.526932       -0.842184     -0.000268173    -0.000322136
                    -0.000349208    -0.000942266      8.69492e-05       0.0788113     -0.000362631    -0.000394665         0.974514       -0.206448
                        0.527082       -0.842135     -0.000133894    -0.000363242       -0.0728981       -0.026985     -0.000717607      -0.0006698
                    -0.000326814     -0.00032939         0.974297       -0.205945      -0.00095381    -0.000628986        0.0316725       0.0723117
281742                -0.0572224      -0.0533052     -0.000287489    -0.000874248         0.526572       -0.842408     -0.000268235    -0.000321999
                    -0.000349716    -0.000942188      0.000117999       0.0788047     -0.000362589     -0.00039441         0.974437       -0.206812
                        0.526722       -0.842359     -0.000134064    -0.000363239       -0.0729276      -0.0269453     -0.000717821    -0.000669635
                    -0.000326985     -0.00032927         0.974221       -0.206309     -0.000953871     -0.00062858        0.0316953       0.0722945
281744                -0.0572454      -0.0533007     -0.000287908    -0.000874211         0.526211       -0.842631     -0.000268297    -0.000321861
                    -0.000350224    -0.000942109      0.000149045        0.078798     -0.000362545    -0.000394155         0.974361       -0.207176
                        0.526362       -0.842583     -0.000134234    -0.000363236        -0.072957      -0.0269056     -0.000718036    -0.000669469
                    -0.000327156     -0.00032915         0.974144       -0.206673     -0.000953931    -0.000628174        0.0317182       0.0722773
281746                -0.0572685      -0.0532962     -0.000288327    -0.000874174         0.525851       -0.842855     -0.000268359     -0.00032172
                    -0.000350731     -0.00094203      0.000180087       0.0787913     -0.000362498    -0.000393897         0.974284        -0.20754
                        0.526001       -0.842806     -0.000134404    -0.000363234       -0.0729864      -0.0268659     -0.000718252    -0.000669303
                    -0.000327328    -0.000329029         0.974067       -0.207037     -0.000953992    -0.000627769        0.0317411       0.0722601
281748                -0.0572915      -0.0532917     -0.000288746    -0.000874136          0.52549       -0.843078     -0.000268423    -0.000321571
                    -0.000351239     -0.00094195      0.000211125       0.0787847     -0.000362446    -0.000393634         0.974206       -0.207904
                         0.52564        -0.84303     -0.000134574    -0.000363232       -0.0730158      -0.0268262     -0.000718473    -0.000669133
                    -0.000327499    -0.000328909          0.97399       -0.207401     -0.000954056    -0.000627367        0.0317639       0.0722428
281750                -0.0573146      -0.0532872     -0.000289166    -0.000874098         0.525129       -0.843301      -0.00026846    -0.000321514
                    -0.000351747    -0.000941871      0.000242158        0.078778      -0.00036239    -0.000393353         0.974129       -0.208268
                         0.52528       -0.843253     -0.000134743     -0.00036323       -0.0730451      -0.0267865     -0.000718642    -0.000668997
                     -0.00032767    -0.000328788         0.973913       -0.207765     -0.000954132    -0.000626971        0.0317867       0.0722256
281752                -0.0573377      -0.0532827     -0.000289585    -0.000874059         0.524768       -0.843524     -0.000268538    -0.000321331
                    -0.000352255    -0.000941791      0.000273187       0.0787713     -0.000362361    -0.000393037         0.974052       -0.208632
                        0.524919       -0.843476     -0.000134913    -0.000363228       -0.0730746      -0.0267466     -0.000718884    -0.000668816
                    -0.000327841    -0.000328668         0.973836       -0.208128     -0.000954227    -0.000626582        0.0318096       0.0722084
281754                -0.0573607      -0.0532782     -0.000290005    -0.000874019         0.524407       -0.843746     -0.000268601    -0.000321189
                    -0.000352762     -0.00094171      0.000304212       0.0787645     -0.000362404    -0.000392747         0.973974       -0.208996
                        0.524558       -0.843699     -0.000135083    -0.000363227       -0.0731039      -0.0267068     -0.000719102    -0.000668649
                    -0.000328012    -0.000328547         0.973758       -0.208492     -0.000954345    -0.000626201        0.0318324       0.0721911
281756                -0.0573838      -0.0532736     -0.000290425     -0.00087398         0.524046       -0.843969     -0.000268663    -0.000321049
                     -0.00035327     -0.00094163      0.000335233       0.0787578     -0.000362428    -0.000392526         0.973897        -0.20936
                        0.524197       -0.843922     -0.000135253    -0.000363225       -0.0731332       -0.026667     -0.000719318    -0.000668483
                    -0.000328183    -0.000328427         0.973681       -0.208856     -0.000954478     -0.00062582        0.0318552       0.0721739
281758                -0.0574069      -0.0532691     -0.000290845     -0.00087394         0.523685       -0.844191     -0.000268726    -0.000320911
                    -0.000353778    -0.000941549      0.000366251       0.0787511     -0.000362413    -0.000392306         0.973819       -0.209724
                        0.523836       -0.844144     -0.000135423    -0.000363224       -0.0731625      -0.0266271     -0.000719534    -0.000668318
                    -0.000328353    -0.000328306         0.973603        -0.20922     -0.000954607    -0.000625436         0.031878       0.0721566
281760                  -0.05743      -0.0532645     -0.000291267      -0.0008739         0.523323       -0.844414     -0.000268788    -0.000320773
                    -0.000354285    -0.000941468      0.000397266       0.0787443     -0.000362386     -0.00039207         0.973741       -0.210088
                        0.523474       -0.844367     -0.000135595    -0.000363223       -0.0731917      -0.0265872      -0.00071975    -0.000668153
                    -0.000328524    -0.000328185         0.973525       -0.209583     -0.000954722    -0.000625046        0.0319008       0.0721393
281762                 -0.057453        -0.05326     -0.000291705    -0.000873862         0.522962       -0.844636      -0.00026885    -0.000320634
                    -0.000354793    -0.000941387      0.000428301       0.0787375     -0.000362356    -0.000391824         0.973663       -0.210451
                        0.523113       -0.844589     -0.000135783    -0.000363225        -0.073221      -0.0265473     -0.000719965    -0.000667988
