! TOUCHSTONE file generated by CST MICROWAVE STUDIO
! Date and time: Tue Oct 14 07:30:50 2025
! Project name: Teste_Macro_Metasurface_Nanopilar.cst
! Parameters = {H=600; L_x=165; L_y=105; Lambda=1064; Max_L=200; Min_L=70; PathPara=1; Phi=0; Step_L=10; Theta=0; p=520; phaseX=180; phaseY=0}
! Header version: 2018
! Port assignment regex: !\s*Touchstone port\s*([0-9]+)\s*=\s*(CST MWS port|CST DS port)\s*([0-9]+|Zmin|Zmax)\s*\(\"(.*)\"\)(\s*mode\s*([0-9]+))?.*
! Touchstone port assignment:
! Touchstone port 1 = CST MWS port Zmax ("") mode 1
! Touchstone port 2 = CST MWS port Zmax ("") mode 2
! Touchstone port 3 = CST MWS port Zmin ("") mode 1
! Touchstone port 4 = CST MWS port Zmin ("") mode 2
! S-Parameters are not renormalized. Each port impedance will be approximated by the real part at minimum frequency. The values are described via the [Reference] keyword.
! Default impedance is overridden by [Reference]
[Version] 2.0
# GHz S RI R 376.73
[Number of Ports] 4
[Reference]
376.73 376.73 259.814 259.814 
[Number of Frequencies] 51
[Network Data]
281700                 -0.185967       -0.019797      0.000116768     0.000680489         -0.87306        -0.43056     -6.07904e-05      -1.602e-05
                     0.000197062     0.000694838        -0.173959       -0.309009     -0.000177039     -0.00020604         0.577845        0.727225
                       -0.872878       -0.430452      -0.00029301    -0.000265632          0.12726        0.135162      0.000675083    -5.26606e-05
                    -6.51029e-06    -2.41094e-05         0.577672        0.727234      0.000675769     8.77515e-05         0.263068        0.233246
281702                 -0.185965       -0.019725      0.000116833     0.000680577        -0.873284       -0.430107     -6.04909e-05    -1.60449e-05
                      0.00019742     0.000694526        -0.174095       -0.309025     -0.000177181    -0.000205947         0.578191        0.726911
                       -0.873103       -0.430001     -0.000293141     -0.00026532         0.127342        0.135071      0.000675408    -5.30074e-05
                    -6.22713e-06     -2.4417e-05         0.578016        0.726919       0.00067595     8.75484e-05         0.263289        0.233116
281704                 -0.185962       -0.019653      0.000116922     0.000680684        -0.873509       -0.429654     -6.01955e-05    -1.60723e-05
                      0.00019778     0.000694216        -0.174232        -0.30904     -0.000177322    -0.000205855         0.578536        0.726597
                       -0.873327       -0.429549     -0.000293273    -0.000265019         0.127424         0.13498      0.000675732    -5.33544e-05
                    -5.92904e-06    -2.47039e-05         0.578361        0.726605      0.000676132      8.7345e-05         0.263511        0.232986
281706                 -0.185959      -0.0195811      0.000117037     0.000680809        -0.873733         -0.4292     -5.99041e-05    -1.61026e-05
                     0.000198143     0.000693908        -0.174368       -0.309056     -0.000177464    -0.000205762         0.578881        0.726282
                       -0.873551       -0.429098     -0.000293407    -0.000264728         0.127507         0.13489      0.000676056    -5.37017e-05
                     -5.6192e-06    -2.49677e-05         0.578705         0.72629      0.000676314      8.7141e-05         0.263733        0.232856
281708                 -0.185957      -0.0195092      0.000117185     0.000680952        -0.873957       -0.428746     -5.96171e-05    -1.61365e-05
                     0.000198509     0.000693603        -0.174504       -0.309072     -0.000177607    -0.000205669         0.579226        0.725968
                       -0.873774       -0.428646     -0.000293542    -0.000264447         0.127589        0.134799      0.000676379     -5.4049e-05
                    -5.30138e-06    -2.52064e-05         0.579049        0.725976      0.000676496     8.69366e-05         0.263954        0.232725
281710                 -0.185954      -0.0194373      0.000117367     0.000681112        -0.874181       -0.428292     -5.93346e-05    -1.61746e-05
                     0.000198877     0.000693302         -0.17464       -0.309088     -0.000177749    -0.000205576          0.57957        0.725652
                       -0.873998       -0.428194     -0.000293678    -0.000264178         0.127671        0.134707      0.000676701    -5.43964e-05
                    -4.97986e-06    -2.54187e-05         0.579393        0.725661      0.000676678     8.67317e-05         0.264176        0.232594
281712                 -0.185952      -0.0193654      0.000117591     0.000681285        -0.874405       -0.427838     -5.90569e-05    -1.62175e-05
                     0.000199249     0.000693004        -0.174777       -0.309104     -0.000177892    -0.000205483         0.579914        0.725337
                       -0.874221       -0.427741     -0.000293818    -0.000263919         0.127753        0.134616      0.000677022    -5.47438e-05
                    -4.65924e-06    -2.56043e-05         0.579736        0.725346       0.00067686     8.65262e-05         0.264397        0.232463
281714                 -0.185949      -0.0192936       0.00011786     0.000681469        -0.874628       -0.427384     -5.87844e-05    -1.62661e-05
                     0.000199624      0.00069271        -0.174913        -0.30912     -0.000178036    -0.000205389         0.580257        0.725021
                       -0.874444       -0.427289      -0.00029396    -0.000263672         0.127835        0.134525      0.000677342    -5.50909e-05
                    -4.34425e-06    -2.57636e-05         0.580079         0.72503      0.000677043     8.63202e-05         0.264619        0.232332
281716                 -0.185947      -0.0192218      0.000118181      0.00068166        -0.874851        -0.42693     -5.85177e-05    -1.63217e-05
                     0.000200003     0.000692421         -0.17505       -0.309136      -0.00017818    -0.000205295           0.5806        0.724706
                       -0.874666       -0.426836     -0.000294106    -0.000263436         0.127918        0.134434       0.00067766    -5.54378e-05
                    -4.03952e-06     -2.5898e-05         0.580422        0.724715      0.000677226     8.61135e-05          0.26484          0.2322
281718                 -0.185944        -0.01915      0.000118558     0.000681852        -0.875074       -0.426475     -5.82575e-05    -1.63855e-05
                     0.000200385     0.000692138        -0.175186       -0.309152     -0.000178325    -0.000205201         0.580943        0.724389
                       -0.874889       -0.426383     -0.000294256    -0.000263211         0.127999        0.134343      0.000677978    -5.57842e-05
                    -3.74938e-06    -2.60101e-05         0.580764          0.7244       0.00067741     8.59062e-05         0.265062        0.232069
281720                 -0.185941      -0.0190782      0.000118995     0.000682037        -0.875297       -0.426021     -5.80047e-05    -1.64593e-05
                     0.000200772     0.000691862        -0.175323       -0.309167      -0.00017847    -0.000205107         0.581285        0.724073
                       -0.875111       -0.425929     -0.000294411    -0.000262997         0.128081        0.134251      0.000678293    -5.61298e-05
                     -3.4776e-06    -2.61028e-05         0.581107        0.724084      0.000677594     8.56982e-05         0.265283        0.231937
281722                 -0.185939      -0.0190065      0.000119498     0.000682207         -0.87552       -0.425566     -5.77607e-05    -1.65452e-05
                     0.000201163     0.000691593        -0.175459       -0.309183     -0.000178617    -0.000205013         0.581627        0.723757
                       -0.875334       -0.425476     -0.000294571    -0.000262795         0.128163         0.13416      0.000678606    -5.64745e-05
                    -3.22729e-06    -2.61801e-05         0.581449        0.723769      0.000677779     8.54894e-05         0.265505        0.231805
281724                 -0.185936      -0.0189348      0.000120067     0.000682351        -0.875742       -0.425112     -5.75273e-05    -1.66459e-05
                     0.000201558     0.000691333        -0.175596       -0.309199     -0.000178764    -0.000204918         0.581968         0.72344
                       -0.875555       -0.425022     -0.000294737    -0.000262604         0.128245        0.134069      0.000678917    -5.68178e-05
                    -3.00075e-06    -2.62463e-05         0.581791        0.723453      0.000677966     8.52798e-05         0.265726        0.231673
281726                 -0.185934      -0.0188632      0.000120705     0.000682457        -0.875965       -0.424657     -5.73072e-05    -1.67652e-05
                     0.000201957     0.000691083        -0.175733       -0.309215     -0.000178913    -0.000204823         0.582309        0.723123
                       -0.875777       -0.424568     -0.000294909    -0.000262425         0.128327        0.133977      0.000679224    -5.71592e-05
                    -2.79939e-06     -2.6306e-05         0.582132        0.723137      0.000678153     8.50693e-05         0.265947         0.23154
281728                 -0.185931      -0.0187915      0.000121408     0.000682512        -0.876187       -0.424202     -5.71044e-05    -1.69076e-05
                     0.000202361     0.000690846        -0.175869       -0.309231     -0.000179064    -0.000204727         0.582649        0.722806
                       -0.875999       -0.424114     -0.000295089    -0.000262257         0.128408        0.133886      0.000679527    -5.74982e-05
                    -2.62378e-06    -2.63637e-05         0.582474        0.722821      0.000678342     8.48578e-05         0.266169        0.231407
281730                 -0.185929        -0.01872      0.000122173     0.000682503        -0.876408       -0.423747     -5.69249e-05    -1.70795e-05
                     0.000202768     0.000690623        -0.176006       -0.309246     -0.000179217    -0.000204631          0.58299        0.722488
                        -0.87622        -0.42366     -0.000295276      -0.0002621          0.12849        0.133794      0.000679824    -5.78336e-05
                    -2.47367e-06     -2.6424e-05         0.582815        0.722505      0.000678532     8.46454e-05          0.26639        0.231275
281732                 -0.185926      -0.0186484       0.00012299     0.000682417         -0.87663       -0.423292     -5.67779e-05    -1.72896e-05
                     0.000203179     0.000690417        -0.176143       -0.309262     -0.000179372    -0.000204534         0.583329        0.722171
                       -0.876441       -0.423206     -0.000295472    -0.000261954         0.128572        0.133703      0.000680115    -5.81644e-05
                    -2.34807e-06    -2.64912e-05         0.583156        0.722188      0.000678726     8.44321e-05         0.266611        0.231142
281734                 -0.185924      -0.0185769      0.000123848      0.00068224        -0.876851       -0.422837     -5.66788e-05    -1.75493e-05
                     0.000203592      0.00069023         -0.17628       -0.309278     -0.000179531    -0.000204435         0.583669        0.721853
                       -0.876662       -0.422751     -0.000295677    -0.000261819         0.128653        0.133611      0.000680396    -5.84885e-05
                    -2.24543e-06    -2.65692e-05         0.583497        0.721872      0.000678922     8.42179e-05         0.266832        0.231008
281736                 -0.185922      -0.0185054      0.000124732     0.000681965        -0.877072       -0.422381     -5.66535e-05    -1.78743e-05
                     0.000204006     0.000690067        -0.176417       -0.309294     -0.000179694    -0.000204334         0.584008        0.721535
                       -0.876883       -0.422296     -0.000295892    -0.000261695         0.128734        0.133519      0.000680663    -5.88029e-05
                    -2.16369e-06    -2.66612e-05         0.583838        0.721555      0.000679123     8.40034e-05         0.267053        0.230875
281738                 -0.185919      -0.0184339      0.000125624     0.000681584        -0.877293       -0.421926     -5.67488e-05     -1.8284e-05
                     0.000204417     0.000689931        -0.176554       -0.309309     -0.000179862     -0.00020423         0.584346        0.721217
                       -0.877103       -0.421841     -0.000296118    -0.000261582         0.128816        0.133427      0.000680912    -5.91028e-05
                    -2.10044e-06    -2.67703e-05         0.584178        0.721239      0.000679329     8.37891e-05         0.267275        0.230741
281740                 -0.185917      -0.0183625      0.000126506     0.000681096        -0.877514        -0.42147     -5.70536e-05    -1.87967e-05
                     0.000204821     0.000689827        -0.176691       -0.309325     -0.000180037    -0.000204121         0.584684          0.7209
                       -0.877323       -0.421386     -0.000296355    -0.000261478         0.128897        0.133335      0.000681129    -5.93796e-05
                    -2.05307e-06    -2.68989e-05         0.584519        0.720922      0.000679543     8.35765e-05         0.267496        0.230608
281742                 -0.185914      -0.0182911      0.000127356     0.000680504        -0.877734       -0.421014     -5.77446e-05    -1.94014e-05
                     0.000205213     0.000689758        -0.176828       -0.309341     -0.000180222    -0.000204003         0.585022        0.720582
                       -0.877543       -0.420931     -0.000296603    -0.000261384         0.128978        0.133244      0.000681295    -5.96167e-05
                    -2.01879e-06     -2.7049e-05         0.584859        0.720605      0.000679766     8.33683e-05         0.267717        0.230474
281744                 -0.185912      -0.0182197      0.000128157     0.000679815        -0.877955       -0.420558     -5.91652e-05    -1.99305e-05
                     0.000205584     0.000689728        -0.176965       -0.309356     -0.000180417    -0.000203871          0.58536        0.720264
                       -0.877763       -0.420476     -0.000296865      -0.0002613         0.129059        0.133152      0.000681363    -5.97774e-05
                    -1.99479e-06     -2.7222e-05         0.585199        0.720288      0.000679999     8.31692e-05         0.267938         0.23034
281746                 -0.185909      -0.0181484      0.000128894     0.000679042        -0.878174       -0.420102     -6.17594e-05    -1.95914e-05
                     0.000205922     0.000689741        -0.177103       -0.309372     -0.000180625    -0.000203713         0.585697        0.719946
                       -0.877982        -0.42002     -0.000297139    -0.000261225          0.12914         0.13306      0.000681208     -5.9761e-05
                    -1.97826e-06    -2.74192e-05         0.585539         0.71997      0.000680242     8.29866e-05         0.268159        0.230205
281748                 -0.185907      -0.0180771      0.000129553     0.000678198        -0.878394       -0.419646     -6.45951e-05    -1.64205e-05
                     0.000206213     0.000689795         -0.17724       -0.309388     -0.000180837     -0.00020351         0.586034        0.719629
                       -0.878202       -0.419564     -0.000297428    -0.000261159         0.129221        0.132967       0.00068033    -5.91537e-05
                    -1.96642e-06    -2.76413e-05         0.585879        0.719653      0.000680489     8.28302e-05          0.26838        0.230071
281750                 -0.185904      -0.0180059      0.000130126     0.000677302        -0.878614        -0.41919      -6.3643e-05    -1.13024e-05
                      0.00020644     0.000689887        -0.177377       -0.309403     -0.000181026    -0.000203234         0.586371        0.719311
                       -0.878421       -0.419108     -0.000297731    -0.000261101         0.129302        0.132875      0.000672281    -5.18691e-05
                    -1.95659e-06    -2.78889e-05         0.586219        0.719335      0.000680724     8.27069e-05         0.268601        0.229936
281752                 -0.185902      -0.0179347       0.00013061      0.00067637        -0.878833       -0.418734     -5.99503e-05    -9.14391e-06
                     0.000206581     0.000690004        -0.177515       -0.309419     -0.000181115    -0.000202883         0.586707        0.718994
                       -0.878639       -0.418652      -0.00029805     -0.00026105         0.129383        0.132783      0.000689407    -6.61008e-05
                    -1.94614e-06    -2.81623e-05         0.586559        0.719017      0.000680924     8.26102e-05         0.268822        0.229801
281754                   -0.1859      -0.0178635      0.000131004     0.000675419        -0.879052       -0.418277      -5.7159e-05    -9.29646e-06
                     0.000206619     0.000690122        -0.177653       -0.309434      -0.00018102    -0.000202565         0.587044        0.718677
                       -0.878858       -0.418196     -0.000298384    -0.000261007         0.129464        0.132691      0.000686371    -6.41411e-05
                    -1.93254e-06    -2.84615e-05         0.586899        0.718699      0.000681076     8.25153e-05         0.269043        0.229666
281756                 -0.185897      -0.0177924      0.000131312     0.000674465         -0.87927       -0.417821     -5.55026e-05    -9.96682e-06
                     0.000206543     0.000690208         -0.17779        -0.30945     -0.000180837    -0.000202444         0.587381         0.71836
                       -0.879076        -0.41774     -0.000298735     -0.00026097         0.129544        0.132598      0.000685854    -6.38928e-05
                    -1.91331e-06    -2.87863e-05         0.587239        0.718381       0.00068119     8.23938e-05         0.269264        0.229531
281758                 -0.185895      -0.0177213       0.00013154      0.00067352        -0.879489       -0.417364     -5.44807e-05    -1.06032e-05
                     0.000206357      0.00069022        -0.177928       -0.309465     -0.000180753    -0.000202483         0.587718        0.718043
                       -0.879294       -0.417284     -0.000299103    -0.000260938         0.129625        0.132506      0.000685795    -6.39752e-05
                    -1.88603e-06    -2.91367e-05         0.587579        0.718063      0.000681288     8.22344e-05         0.269485        0.229396
281760                 -0.185892      -0.0176502      0.000131696     0.000672596        -0.879707       -0.416907     -5.37874e-05    -1.11154e-05
                     0.000206084     0.000690117        -0.178066       -0.309481     -0.000180794    -0.000202546         0.588055        0.717727
                       -0.879512       -0.416827     -0.000299489    -0.000260912         0.129706        0.132414      0.000685899     -6.4178e-05
                    -1.84828e-06     -2.9512e-05         0.587919        0.717744      0.000681392     8.20434e-05         0.269706         0.22926
281762                  -0.18589      -0.0175792      0.000131788     0.000671701        -0.879925        -0.41645     -5.32718e-05     -1.1514e-05
                     0.000205765     0.000689866        -0.178204       -0.309496     -0.000180906    -0.000202577         0.588393        0.717411
                        -0.87973       -0.416371     -0.000299892     -0.00026089         0.129786        0.132321       0.00068608     -6.4438e-05
