! TOUCHSTONE file generated by CST MICROWAVE STUDIO
! Date and time: Tue Oct 14 07:32:51 2025
! Project name: Teste_Macro_Metasurface_Nanopilar.cst
! Parameters = {H=600; L_x=195; L_y=165; Lambda=1064; Max_L=200; Min_L=70; PathPara=1; Phi=0; Step_L=10; Theta=0; p=520; phaseX=180; phaseY=0}
! Header version: 2018
! Port assignment regex: !\s*Touchstone port\s*([0-9]+)\s*=\s*(CST MWS port|CST DS port)\s*([0-9]+|Zmin|Zmax)\s*\(\"(.*)\"\)(\s*mode\s*([0-9]+))?.*
! Touchstone port assignment:
! Touchstone port 1 = CST MWS port Zmax ("") mode 1
! Touchstone port 2 = CST MWS port Zmax ("") mode 2
! Touchstone port 3 = CST MWS port Zmin ("") mode 1
! Touchstone port 4 = CST MWS port Zmin ("") mode 2
! S-Parameters are not renormalized. Each port impedance will be approximated by the real part at minimum frequency. The values are described via the [Reference] keyword.
! Default impedance is overridden by [Reference]
[Version] 2.0
# GHz S RI R 376.73
[Number of Ports] 4
[Reference]
376.73 376.73 259.814 259.814 
[Number of Frequencies] 51
[Network Data]
281700                 -0.254394       -0.144484      0.000116362     0.000495508         0.844542        0.440446       2.0638e-05     0.000867425
                     0.000107448     0.000437984        -0.262693       -0.102738     -0.000203618     0.000746529         0.952971       0.0729089
                        0.843868        0.440715     -0.000257117     0.000700323         0.262723        0.125737     -0.000438798     0.000952935
                     5.26484e-05      0.00082468         0.952994       0.0731518     -0.000338702      0.00100318         0.273058      -0.0625373
281702                 -0.254436       -0.144403      0.000116407      0.00049553         0.844727        0.440095      2.07506e-05     0.000867476
                     0.000107591     0.000437644        -0.262733       -0.102669      -0.00020333     0.000746535         0.952998        0.072513
                        0.844052        0.440364     -0.000256999     0.000700379         0.262786        0.125598     -0.000438628     0.000953187
                     5.33577e-05     0.000825213         0.953021       0.0727564     -0.000338141      0.00100351         0.273036      -0.0626894
281704                 -0.254479       -0.144322      0.000116452     0.000495553         0.844912        0.439744      2.08618e-05     0.000867528
                     0.000107734     0.000437305        -0.262773       -0.102599     -0.000203042     0.000746541         0.953024        0.072117
                        0.844237        0.440013     -0.000256878     0.000700435         0.262849        0.125458     -0.000438461     0.000953439
                     5.40688e-05     0.000825745         0.953049        0.072361     -0.000337579      0.00100385         0.273013      -0.0628416
281706                 -0.254521       -0.144242      0.000116495     0.000495575         0.845096        0.439392      2.09717e-05     0.000867579
                     0.000107875     0.000436965        -0.262813        -0.10253     -0.000202753     0.000746546         0.953051       0.0717211
                        0.844421        0.439662     -0.000256752     0.000700488         0.262912        0.125318     -0.000438294     0.000953691
                     5.47817e-05     0.000826277         0.953076       0.0719656     -0.000337017      0.00100418          0.27299      -0.0629937
281708                 -0.254563       -0.144161      0.000116537     0.000495597          0.84528        0.439041      2.10803e-05     0.000867631
                     0.000108016     0.000436625        -0.262853        -0.10246     -0.000202465      0.00074655         0.953077       0.0713252
                        0.844606        0.439311     -0.000256621     0.000700539         0.262975        0.125179      -0.00043813     0.000953943
                     5.54964e-05     0.000826809         0.953103       0.0715701     -0.000336454      0.00100451         0.272967      -0.0631458
281710                 -0.254606        -0.14408      0.000116578     0.000495619         0.845464        0.438689      2.11876e-05     0.000867683
                     0.000108156     0.000436285        -0.262893        -0.10239     -0.000202176     0.000746553         0.953103       0.0709292
                         0.84479         0.43896     -0.000256484     0.000700587         0.263039        0.125039     -0.000437967     0.000954195
                     5.62131e-05     0.000827341          0.95313       0.0711747      -0.00033589      0.00100484         0.272944      -0.0632979
281712                 -0.254648       -0.143999      0.000116616     0.000495641         0.845648        0.438337      2.12935e-05     0.000867735
                     0.000108295     0.000435944        -0.262934       -0.102321     -0.000201887     0.000746556         0.953129       0.0705332
                        0.844974        0.438609     -0.000256338     0.000700631         0.263101        0.124899     -0.000437807     0.000954446
                     5.69316e-05     0.000827872         0.953157       0.0707792     -0.000335327      0.00100518         0.272921        -0.06345
281714                 -0.254691       -0.143919      0.000116652     0.000495663         0.845832        0.437986      2.13981e-05     0.000867788
                     0.000108434     0.000435603        -0.262974       -0.102251     -0.000201598     0.000746557         0.953155       0.0701373
                        0.845158        0.438258     -0.000256181     0.000700669         0.263164        0.124759     -0.000437648     0.000954698
                      5.7652e-05     0.000828403         0.953183       0.0703837     -0.000334763      0.00100551         0.272898      -0.0636021
281716                 -0.254733       -0.143838      0.000116684     0.000495684         0.846016        0.437634      2.15013e-05      0.00086784
                     0.000108571     0.000435262        -0.263013       -0.102181     -0.000201309     0.000746557          0.95318       0.0697413
                        0.845341        0.437906      -0.00025601     0.000700698         0.263227         0.12462     -0.000437491     0.000954949
                     5.83743e-05     0.000828934          0.95321       0.0699882     -0.000334198      0.00100584         0.272874      -0.0637541
281718                 -0.254775       -0.143757      0.000116712     0.000495705         0.846199        0.437282      2.16031e-05     0.000867893
                     0.000108707      0.00043492        -0.263053       -0.102112      -0.00020102     0.000746556         0.953206       0.0693453
                        0.845525        0.437555     -0.000255817     0.000700716          0.26329         0.12448     -0.000437336     0.000955201
                     5.90985e-05     0.000829464         0.953236       0.0695927     -0.000333633      0.00100617         0.272851      -0.0639062
281720                 -0.254817       -0.143676      0.000116734     0.000495725         0.846382         0.43693      2.17036e-05     0.000867947
                     0.000108843     0.000434578        -0.263093       -0.102042     -0.000200731     0.000746555         0.953231       0.0689493
                        0.845708        0.437203     -0.000255595     0.000700715         0.263353         0.12434     -0.000437182     0.000955452
                     5.98248e-05     0.000829994         0.953262       0.0691972     -0.000333067       0.0010065         0.272828      -0.0640583
281722                  -0.25486       -0.143595      0.000116748     0.000495743         0.846565        0.436578      2.18028e-05        0.000868
                     0.000108977     0.000434235        -0.263133       -0.101972     -0.000200442     0.000746552         0.953256       0.0685533
                        0.845892        0.436851     -0.000255327     0.000700684         0.263415          0.1242     -0.000437031     0.000955703
                      6.0553e-05     0.000830524         0.953288       0.0688017     -0.000332501      0.00100683         0.272804      -0.0642103
281724                 -0.254902       -0.143514      0.000116752     0.000495759         0.846748        0.436226      2.19005e-05     0.000868054
                     0.000109111     0.000433892        -0.263173       -0.101903     -0.000200153     0.000746549         0.953281       0.0681573
                        0.846075        0.436499     -0.000254986     0.000700595         0.263478         0.12406     -0.000436881     0.000955954
                     6.12835e-05     0.000831053         0.953313       0.0684061     -0.000331935      0.00100715          0.27278      -0.0643624
281726                 -0.254944       -0.143433       0.00011674     0.000495769         0.846931        0.435874      2.19969e-05     0.000868108
                     0.000109243     0.000433549        -0.263213       -0.101833     -0.000199864     0.000746545         0.953306       0.0677612
                        0.846258        0.436147     -0.000254517     0.000700387         0.263541         0.12392     -0.000436733     0.000956205
                     6.20161e-05     0.000831582         0.953339       0.0680106     -0.000331368      0.00100748         0.272757      -0.0645144
281728                 -0.254986       -0.143353      0.000116705      0.00049577         0.847114        0.435522      2.20919e-05     0.000868163
                     0.000109375     0.000433205        -0.263253       -0.101763     -0.000199574     0.000746539          0.95333       0.0673652
                        0.846441        0.435795     -0.000253802     0.000699871         0.263603         0.12378     -0.000436587     0.000956456
                     6.27511e-05      0.00083211         0.953364       0.0676151     -0.000330801      0.00100781         0.272733      -0.0646664
281730                 -0.255028       -0.143272      0.000116632     0.000495747         0.847296         0.43517      2.21854e-05     0.000868218
                     0.000109505      0.00043286        -0.263293       -0.101693     -0.000199285     0.000746533         0.953355       0.0669691
                        0.846624        0.435443     -0.000252665     0.000698245         0.263665         0.12364     -0.000436443     0.000956707
                     6.34887e-05     0.000832638         0.953389       0.0672195     -0.000330233      0.00100814         0.272709      -0.0648184
281732                  -0.25507       -0.143191      0.000116502     0.000495668         0.847479        0.434817      2.22776e-05     0.000868273
                     0.000109634     0.000432515        -0.263332       -0.101623     -0.000198996     0.000746526         0.953379       0.0665731
                        0.846806        0.435091     -0.000254691     0.000691828         0.263728          0.1235     -0.000436301     0.000956957
                     6.42292e-05     0.000833165         0.953414       0.0668239     -0.000329665      0.00100846         0.272685      -0.0649705
281734                 -0.255112        -0.14311      0.000116301     0.000495432         0.847661        0.434465      2.23684e-05     0.000868328
                     0.000109762     0.000432169        -0.263372       -0.101554     -0.000198708     0.000746518         0.953403        0.066177
                        0.846989        0.434739     -0.000262471      0.00069861          0.26379         0.12336      -0.00043616     0.000957208
                     6.49731e-05     0.000833692         0.953439       0.0664283     -0.000329096      0.00100879         0.272661      -0.0651225
281736                 -0.255154       -0.143029      0.000116197     0.000494794         0.847843        0.434112      2.24577e-05     0.000868383
                      0.00010989     0.000431823        -0.263412       -0.101484     -0.000198419     0.000746509         0.953427       0.0657809
                        0.847171        0.434387      -0.00025959     0.000701462         0.263852         0.12322     -0.000436022     0.000957458
                      6.5721e-05     0.000834219         0.953464       0.0660328     -0.000328527      0.00100912         0.272637      -0.0652745
281738                 -0.255196       -0.142948      0.000116986     0.000494023         0.848025         0.43376      2.25456e-05     0.000868439
                     0.000110016     0.000431476        -0.263452       -0.101414      -0.00019813     0.000746499         0.953451       0.0653849
                        0.847353        0.434034     -0.000258212     0.000701911         0.263914         0.12308     -0.000435885     0.000957709
                     6.64741e-05     0.000834745         0.953488       0.0656372     -0.000327958      0.00100944         0.272612      -0.0654264
281740                 -0.255238       -0.142867      0.000117955     0.000494395         0.848207        0.433407      2.26321e-05     0.000868495
                     0.000110142     0.000431128        -0.263491       -0.101344     -0.000197842     0.000746488         0.953474       0.0649888
                        0.847535        0.433682     -0.000257477     0.000702047         0.263976         0.12294     -0.000435751     0.000957959
                     6.72341e-05     0.000835273         0.953513       0.0652416     -0.000327388      0.00100977         0.272588      -0.0655784
281742                  -0.25528       -0.142786      0.000118174     0.000494935         0.848388        0.433055      2.27171e-05     0.000868552
                     0.000110268     0.000430779        -0.263531       -0.101274     -0.000197553     0.000746476         0.953498       0.0645927
                        0.847717        0.433329     -0.000257011     0.000702121         0.264038          0.1228     -0.000435618     0.000958209
                     6.80032e-05     0.000835804         0.953537        0.064846     -0.000326818      0.00101009         0.272564      -0.0657304
281744                 -0.255322       -0.142704      0.000118167     0.000495229          0.84857        0.432702      2.28007e-05     0.000868608
                     0.000110395      0.00043043        -0.263571       -0.101204     -0.000197265     0.000746464         0.953521       0.0641966
                        0.847899        0.432976     -0.000256679     0.000702182           0.2641         0.12266     -0.000435487     0.000958458
                     6.87834e-05     0.000836346         0.953561       0.0644503     -0.000326248      0.00101041         0.272539      -0.0658823
281746                 -0.255363       -0.142623      0.000118132     0.000495377         0.848751        0.432349      2.28828e-05     0.000868665
                     0.000110525     0.000430082         -0.26361       -0.101134     -0.000196977      0.00074645         0.953544       0.0638004
                        0.848081        0.432624     -0.000256425     0.000702243         0.264162         0.12252     -0.000435357     0.000958708
                     6.95716e-05     0.000836911         0.953585       0.0640547     -0.000325677      0.00101074         0.272515      -0.0660343
281748                 -0.255406       -0.142541      0.000118104     0.000495445         0.848932        0.431996      2.29636e-05     0.000868723
                      0.00011066     0.000429737         -0.26365       -0.101064      -0.00019669     0.000746436         0.953567       0.0634043
                        0.848263        0.432271     -0.000256223     0.000702309         0.264224         0.12238      -0.00043523     0.000958957
                     7.03457e-05     0.000837511         0.953608       0.0636591     -0.000325106      0.00101106          0.27249      -0.0661862
281750                 -0.255448        -0.14246      0.000118084     0.000495454         0.849113        0.431643      2.30429e-05      0.00086878
                     0.000110803     0.000429405        -0.263689       -0.100994     -0.000196403     0.000746421          0.95359       0.0630082
                        0.848445        0.431918     -0.000256063     0.000702384         0.264286        0.122239     -0.000435104     0.000959206
                     7.10685e-05     0.000838127         0.953632       0.0632635     -0.000324536      0.00101138         0.272465      -0.0663382
281752                 -0.255491       -0.142379      0.000118069     0.000495398         0.849294         0.43129       2.3121e-05     0.000868838
                     0.000110938     0.000429105        -0.263729       -0.100924     -0.000196116     0.000746405         0.953613        0.062612
                        0.848626        0.431567     -0.000255952     0.000702478         0.264347        0.122099     -0.000434978     0.000959455
                     7.17497e-05     0.000838703         0.953655       0.0628679     -0.000323965       0.0010117          0.27244      -0.0664901
281754                 -0.255533       -0.142299      0.000118066     0.000495231         0.849474        0.430937      2.31984e-05     0.000868897
                     0.000111023     0.000428819        -0.263769       -0.100854      -0.00019583     0.000746389         0.953635       0.0622159
                        0.848806        0.431214     -0.000255942     0.000702617         0.264409        0.121959     -0.000434855     0.000959706
                     7.24377e-05     0.000839234         0.953678       0.0624722     -0.000323379      0.00101202         0.272415       -0.066642
281756                 -0.255575       -0.142219      0.000118153     0.000494788         0.849655        0.430584      2.32737e-05     0.000868961
                     0.000111077      0.00042849        -0.263808       -0.100784     -0.000195534     0.000746364         0.953657       0.0618197
                        0.848986        0.430861     -0.000256543     0.000702864         0.264471        0.121819     -0.000434735     0.000959958
                     7.31497e-05     0.000839747         0.953701       0.0620766     -0.000322807      0.00101235          0.27239      -0.0667939
281758                 -0.255616       -0.142138      0.000119375     0.000493771         0.849835        0.430231       2.3342e-05     0.000869016
                     0.000111146     0.000428133        -0.263848       -0.100714     -0.000195253     0.000746348         0.953679       0.0614236
                        0.849166        0.430508     -0.000254687     0.000701338         0.264532        0.121678     -0.000434618     0.000960208
                     7.38799e-05     0.000840258         0.953724        0.061681     -0.000322237      0.00101267         0.272365      -0.0669458
281760                 -0.255658       -0.142057      0.000120623     0.000496451         0.850015        0.429878       2.3414e-05     0.000869074
                      0.00011123     0.000427772        -0.263887       -0.100644     -0.000194968     0.000746329         0.953701       0.0610274
                        0.849347        0.430155     -0.000254866     0.000702217         0.264593        0.121538     -0.000434503     0.000960458
                      7.4621e-05     0.000840773         0.953747       0.0612853     -0.000321664      0.00101299          0.27234      -0.0670977
281762                   -0.2557       -0.141976      0.000119364      0.00049679         0.850195        0.429524      2.34844e-05     0.000869133
                      0.00011132     0.000427414        -0.263927       -0.100574     -0.000194682     0.000746309         0.953723       0.0606312
                        0.849527        0.429802     -0.000254849     0.000702418         0.264655        0.121398      -0.00043439     0.000960707
