! TOUCHSTONE file generated by CST MICROWAVE STUDIO
! Date and time: Tue Oct 14 07:25:19 2025
! Project name: Teste_Macro_Metasurface_Nanopilar.cst
! Parameters = {H=600; L_x=75; L_y=175; Lambda=1064; Max_L=200; Min_L=70; PathPara=1; Phi=0; Step_L=10; Theta=0; p=520; phaseX=180; phaseY=0}
! Header version: 2018
! Port assignment regex: !\s*Touchstone port\s*([0-9]+)\s*=\s*(CST MWS port|CST DS port)\s*([0-9]+|Zmin|Zmax)\s*\(\"(.*)\"\)(\s*mode\s*([0-9]+))?.*
! Touchstone port assignment:
! Touchstone port 1 = CST MWS port Zmax ("") mode 1
! Touchstone port 2 = CST MWS port Zmax ("") mode 2
! Touchstone port 3 = CST MWS port Zmin ("") mode 1
! Touchstone port 4 = CST MWS port Zmin ("") mode 2
! S-Parameters are not renormalized. Each port impedance will be approximated by the real part at minimum frequency. The values are described via the [Reference] keyword.
! Default impedance is overridden by [Reference]
[Version] 2.0
# GHz S RI R 376.73
[Number of Ports] 4
[Reference]
376.73 376.73 259.814 259.814 
[Number of Frequencies] 51
[Network Data]
281700                0.00795176       -0.153676      0.000242028     0.000260348        -0.243675        0.950448     -0.000214737     8.04817e-05
                     3.06845e-05       0.0003399       0.00935703       0.0755075     -0.000192816     0.000375245         0.963539       -0.253138
                       -0.243854        0.950313      8.46537e-06     0.000225741       -0.0657946        0.139785     -0.000489503    -0.000258716
                    -0.000153599      0.00022737         0.963961       -0.253006     -0.000454512    -0.000161336        0.0288848       0.0706579
281702                0.00789078       -0.153706       0.00024165     0.000259232        -0.243219        0.950561     -0.000214464     8.05583e-05
                     3.09345e-05     0.000339851       0.00938741       0.0754988     -0.000192432      0.00037495         0.963445       -0.253498
                       -0.243399        0.950426      8.77063e-06     0.000225262       -0.0657293        0.139845     -0.000489361    -0.000258465
                     -0.00015359     0.000227422         0.963867       -0.253364     -0.000454721    -0.000161073        0.0289069        0.070644
281704                0.00782977       -0.153736      0.000241269     0.000258119        -0.242763        0.950674      -0.00021419     8.06351e-05
                     3.11847e-05     0.000339801       0.00941778       0.0754902     -0.000192048     0.000374656          0.96335       -0.253857
                       -0.242944        0.950538      9.07371e-06     0.000224783       -0.0656639        0.139906     -0.000489219    -0.000258213
                    -0.000153582     0.000227473         0.963774       -0.253723      -0.00045493    -0.000160809         0.028929         0.07063
281706                0.00776875       -0.153767      0.000240886     0.000257009        -0.242308        0.950786     -0.000213915      8.0712e-05
                     3.14353e-05     0.000339752       0.00944815       0.0754815     -0.000191664     0.000374362         0.963256       -0.254217
                       -0.242488         0.95065       9.3746e-06     0.000224304       -0.0655986        0.139966     -0.000489075    -0.000257961
                    -0.000153573     0.000227525          0.96368       -0.254082     -0.000455139    -0.000160546        0.0289511        0.070616
281708                0.00770771       -0.153797        0.0002405     0.000255902        -0.241852        0.950898      -0.00021364     8.07891e-05
                     3.16862e-05     0.000339703       0.00947852       0.0754728      -0.00019128     0.000374068         0.963161       -0.254577
                       -0.242033        0.950762      9.67329e-06     0.000223826       -0.0655331        0.140026      -0.00048893    -0.000257708
                    -0.000153565     0.000227575         0.963586       -0.254441     -0.000455347    -0.000160283        0.0289731        0.070602
281710                0.00764666       -0.153827      0.000240111     0.000254798        -0.241396         0.95101     -0.000213364     8.08664e-05
                     3.19374e-05     0.000339654       0.00950888       0.0754641     -0.000190896     0.000373775         0.963066       -0.254937
                       -0.241577        0.950874      9.96976e-06     0.000223348       -0.0654676        0.140086     -0.000488785    -0.000257455
                    -0.000153556     0.000227626         0.963492         -0.2548     -0.000455555     -0.00016002        0.0289952        0.070588
281712                0.00758559       -0.153857       0.00023972     0.000253696         -0.24094        0.951122     -0.000213088     8.09439e-05
                     3.21889e-05     0.000339606       0.00953923       0.0754554     -0.000190512     0.000373482         0.962972       -0.255297
                       -0.241122        0.950985       1.0264e-05      0.00022287       -0.0654021        0.140146     -0.000488638    -0.000257201
                    -0.000153548     0.000227676         0.963397       -0.255159     -0.000455763    -0.000159756        0.0290172        0.070574
281714                 0.0075245       -0.153888      0.000239327     0.000252598        -0.240485        0.951234     -0.000212811     8.10215e-05
                     3.24407e-05     0.000339557       0.00956959       0.0754467     -0.000190128     0.000373189         0.962877       -0.255656
                       -0.240666        0.951096       1.0556e-05     0.000222393       -0.0653365        0.140206      -0.00048849    -0.000256947
                     -0.00015354     0.000227726         0.963303       -0.255517     -0.000455971    -0.000159493        0.0290393         0.07056
281716                0.00746339       -0.153918      0.000238931     0.000251502        -0.240029        0.951345     -0.000212533     8.10993e-05
                     3.26927e-05     0.000339509       0.00959993       0.0754379     -0.000189744     0.000372896         0.962781       -0.256016
                       -0.240211        0.951207      1.08458e-05     0.000221915       -0.0652709        0.140266     -0.000488342    -0.000256693
                    -0.000153533     0.000227776         0.963209       -0.255876     -0.000456179     -0.00015923        0.0290613        0.070546
281718                0.00740227       -0.153948      0.000238532     0.000250409        -0.239573        0.951456     -0.000212254     8.11773e-05
                      3.2945e-05     0.000339461       0.00963027       0.0754292      -0.00018936     0.000372604         0.962686       -0.256376
                       -0.239755        0.951318      1.11333e-05     0.000221438       -0.0652052        0.140326     -0.000488192    -0.000256438
                    -0.000153525     0.000227825         0.963114       -0.256235     -0.000456387    -0.000158966        0.0290834        0.070532
281720                0.00734113       -0.153978      0.000238131      0.00024932        -0.239117        0.951567     -0.000211975     8.12554e-05
                     3.31976e-05     0.000339413       0.00966061       0.0754204     -0.000188976     0.000372312         0.962591       -0.256735
                       -0.239299        0.951428      1.14186e-05     0.000220961       -0.0651395        0.140386     -0.000488042    -0.000256182
                    -0.000153518     0.000227875         0.963019       -0.256593     -0.000456594    -0.000158703        0.0291054        0.070518
281722                0.00727997       -0.154008      0.000237728     0.000248233        -0.238661        0.951678     -0.000211695     8.13336e-05
                     3.34505e-05     0.000339365       0.00969094       0.0754116     -0.000188592      0.00037202         0.962495       -0.257095
                       -0.238843        0.951539      1.17016e-05     0.000220485       -0.0650737        0.140446      -0.00048789    -0.000255926
                    -0.000153511     0.000227923         0.962924       -0.256952     -0.000456801    -0.000158439        0.0291274       0.0705039
281724                0.00721879       -0.154038      0.000237322      0.00024715        -0.238205        0.951788     -0.000211415     8.14121e-05
                     3.37036e-05     0.000339318       0.00972127       0.0754029     -0.000188208     0.000371728         0.962399       -0.257454
                       -0.238387        0.951649      1.19823e-05     0.000220009       -0.0650079        0.140506     -0.000487738     -0.00025567
                    -0.000153504     0.000227972         0.962829        -0.25731     -0.000457009    -0.000158176        0.0291495       0.0704899
281726                 0.0071576       -0.154068      0.000236913      0.00024607        -0.237749        0.951898     -0.000211133     8.14906e-05
                     3.39569e-05      0.00033927       0.00975159       0.0753941     -0.000187824     0.000371437         0.962303       -0.257814
                       -0.237932        0.951759      1.22607e-05     0.000219533        -0.064942        0.140566     -0.000487585    -0.000255413
                    -0.000153497      0.00022802         0.962734       -0.257669     -0.000457216    -0.000157912        0.0291715       0.0704759
281728                0.00709639       -0.154098      0.000236502     0.000244992        -0.237292        0.952008     -0.000210852     8.15693e-05
                     3.42106e-05     0.000339223        0.0097819       0.0753853      -0.00018744     0.000371146         0.962207       -0.258173
                       -0.237476        0.951868      1.25368e-05     0.000219058        -0.064876        0.140625      -0.00048743    -0.000255156
                     -0.00015349     0.000228068         0.962639       -0.258027     -0.000457422    -0.000157649        0.0291935       0.0704618
281730                0.00703516       -0.154128      0.000236089     0.000243919        -0.236836        0.952118     -0.000210569     8.16482e-05
                     3.44644e-05     0.000339177       0.00981221       0.0753765     -0.000187056     0.000370855         0.962111       -0.258533
                        -0.23702        0.951978      1.28106e-05     0.000218582       -0.0648101        0.140685     -0.000487275    -0.000254898
                    -0.000153483     0.000228116         0.962543       -0.258386     -0.000457629    -0.000157386        0.0292155       0.0704478
281732                0.00697392       -0.154158      0.000235673     0.000242848         -0.23638        0.952228     -0.000210286     8.17272e-05
                     3.47185e-05      0.00033913       0.00984252       0.0753676     -0.000186672     0.000370565         0.962015       -0.258892
                       -0.236564        0.952087      1.30822e-05     0.000218108        -0.064744        0.140745     -0.000487119     -0.00025464
                    -0.000153477     0.000228163         0.962448       -0.258744     -0.000457835    -0.000157122        0.0292374       0.0704337
281734                0.00691266       -0.154188      0.000235255     0.000241781        -0.235924        0.952337     -0.000210002     8.18063e-05
                     3.49729e-05     0.000339083       0.00987282       0.0753588     -0.000186288     0.000370274         0.961919       -0.259251
                       -0.236108        0.952196      1.33514e-05     0.000217633       -0.0646779        0.140805     -0.000486962    -0.000254381
                    -0.000153471      0.00022821         0.962352       -0.259102     -0.000458042    -0.000156858        0.0292594       0.0704196
281736                0.00685138       -0.154218      0.000234835     0.000240717        -0.235467        0.952446     -0.000209718     8.18856e-05
                     3.52274e-05     0.000339037       0.00990312       0.0753499     -0.000185904     0.000369984         0.961822       -0.259611
                       -0.235651        0.952305      1.36184e-05     0.000217159       -0.0646118        0.140865     -0.000486804    -0.000254122
                    -0.000153465     0.000228257         0.962256       -0.259461     -0.000458248    -0.000156595        0.0292814       0.0704056
281738                0.00679009       -0.154248      0.000234412     0.000239656        -0.235011        0.952555     -0.000209433      8.1965e-05
                     3.54822e-05     0.000338991       0.00993341       0.0753411     -0.000185519     0.000369695         0.961726        -0.25997
                       -0.235195        0.952413      1.38832e-05     0.000216685       -0.0645456        0.140924     -0.000486645    -0.000253863
                    -0.000153459     0.000228304          0.96216       -0.259819     -0.000458453    -0.000156332        0.0293034       0.0703915
281740                0.00672878       -0.154278      0.000233987     0.000238599        -0.234554        0.952664     -0.000209147     8.20445e-05
                     3.57373e-05     0.000338945        0.0099637       0.0753322     -0.000185134     0.000369406         0.961629       -0.260329
                       -0.234739        0.952522      1.41458e-05     0.000216212       -0.0644794        0.140984     -0.000486485    -0.000253603
                    -0.000153453      0.00022835         0.962064       -0.260177     -0.000458659    -0.000156068        0.0293253       0.0703774
281742                0.00666745       -0.154308      0.000233559     0.000237545        -0.234098        0.952772      -0.00020886     8.21242e-05
                     3.59925e-05     0.000338899       0.00999398       0.0753233     -0.000184749     0.000369118         0.961532       -0.260688
                       -0.234283         0.95263      1.44063e-05     0.000215738       -0.0644131        0.141044     -0.000486324    -0.000253343
                    -0.000153448     0.000228396         0.961968       -0.260536     -0.000458864    -0.000155805        0.0293473       0.0703633
281744                 0.0066061       -0.154338      0.000233129     0.000236494        -0.233641        0.952881     -0.000208573      8.2204e-05
                      3.6248e-05     0.000338854        0.0100243       0.0753144     -0.000184362     0.000368831         0.961435       -0.261048
                       -0.233827        0.952738      1.46649e-05     0.000215265       -0.0643468        0.141103     -0.000486162    -0.000253082
                    -0.000153443     0.000228442         0.961871       -0.260894     -0.000459068    -0.000155543        0.0293692       0.0703492
281746                0.00654474       -0.154367      0.000232697     0.000235446        -0.233185        0.952989     -0.000208286     8.22839e-05
                     3.65038e-05     0.000338809        0.0100545       0.0753055     -0.000183966     0.000368553         0.961338       -0.261407
                        -0.23337        0.952845      1.49198e-05     0.000214789       -0.0642804        0.141163        -0.000486    -0.000252821
                    -0.000153437     0.000228487         0.961775       -0.261252     -0.000459267    -0.000155284        0.0293912       0.0703351
281748                0.00648336       -0.154397      0.000232259     0.000234401        -0.232728        0.953097     -0.000207997      8.2364e-05
                     3.67597e-05     0.000338764        0.0100848       0.0752966     -0.000183729     0.000368146          0.96124       -0.261766
                       -0.232914        0.952953       1.5168e-05     0.000214315       -0.0642141        0.141222     -0.000485836    -0.000252559
                    -0.000153432     0.000228532         0.961678        -0.26161     -0.000459537    -0.000154956        0.0294131        0.070321
281750                0.00642196       -0.154427       0.00023182     0.000233367        -0.232271        0.953204     -0.000207708     8.24443e-05
                      3.7016e-05     0.000338719        0.0101151       0.0752877     -0.000183239      0.00036794         0.961143       -0.262125
                       -0.232457         0.95306      1.54155e-05     0.000213846       -0.0641475        0.141282     -0.000485671    -0.000252297
                    -0.000153428     0.000228577         0.961581       -0.261968     -0.000459698    -0.000154739         0.029435       0.0703069
281752                0.00636055       -0.154457      0.000231384     0.000232333        -0.231814        0.953311     -0.000207419     8.25248e-05
                     3.72725e-05     0.000338674        0.0101453       0.0752787     -0.000182848     0.000367658         0.961045       -0.262484
                       -0.232001        0.953167      1.56628e-05     0.000213378       -0.0640809        0.141342     -0.000485505    -0.000252034
                    -0.000153423     0.000228622         0.961484       -0.262326     -0.000459899    -0.000154479         0.029457       0.0702928
281754                0.00629912       -0.154486      0.000230945       0.0002313        -0.231358        0.953419     -0.000207128     8.26056e-05
                     3.75294e-05      0.00033863        0.0101756       0.0752698     -0.000182462     0.000367372         0.960947       -0.262843
                       -0.231544        0.953274      1.59083e-05     0.000212909       -0.0640144        0.141401     -0.000485339    -0.000251771
                    -0.000153418     0.000228666         0.961387       -0.262684     -0.000460103    -0.000154216        0.0294789       0.0702786
281756                0.00623767       -0.154516      0.000230502     0.000230272        -0.230901        0.953526     -0.000206837     8.26868e-05
                     3.77867e-05     0.000338585        0.0102058       0.0752608     -0.000182077     0.000367085          0.96085       -0.263202
                       -0.231088         0.95338      1.61515e-05      0.00021244       -0.0639477         0.14146     -0.000485171    -0.000251507
                    -0.000153414      0.00022871          0.96129       -0.263042     -0.000460307    -0.000153952        0.0295008       0.0702645
281758                0.00617621       -0.154546      0.000230057     0.000229246        -0.230444        0.953632     -0.000206544     8.27687e-05
                     3.80447e-05     0.000338541        0.0102361       0.0752518     -0.000181693     0.000366797         0.960752       -0.263561
                       -0.230631        0.953487      1.63922e-05     0.000211971        -0.063881         0.14152     -0.000485001    -0.000251241
                     -0.00015341     0.000228753         0.961193         -0.2634     -0.000460511    -0.000153688        0.0295227       0.0702504
281760                0.00611473       -0.154575       0.00022961     0.000228225        -0.229987        0.953739     -0.000206249     8.28522e-05
                     3.83043e-05     0.000338497        0.0102663       0.0752428      -0.00018131      0.00036651         0.960653        -0.26392
                       -0.230174        0.953593      1.66305e-05     0.000211503       -0.0638143        0.141579      -0.00048483    -0.000250973
                    -0.000153406     0.000228797         0.961095       -0.263758     -0.000460716    -0.000153424        0.0295446       0.0702362
281762                0.00605323       -0.154605      0.000229161     0.000227208         -0.22953        0.953845      -0.00020595     8.29408e-05
                     3.85692e-05      0.00033845        0.0102965       0.0752338     -0.000180926     0.000366223         0.960555       -0.264279
                       -0.229718        0.953698      1.68663e-05     0.000211035       -0.0637475        0.141639     -0.000484655    -0.000250696
