! TOUCHSTONE file generated by CST MICROWAVE STUDIO
! Date and time: Tue Oct 14 07:32:34 2025
! Project name: Teste_Macro_Metasurface_Nanopilar.cst
! Parameters = {H=600; L_x=190; L_y=180; Lambda=1064; Max_L=200; Min_L=70; PathPara=1; Phi=0; Step_L=10; Theta=0; p=520; phaseX=180; phaseY=0}
! Header version: 2018
! Port assignment regex: !\s*Touchstone port\s*([0-9]+)\s*=\s*(CST MWS port|CST DS port)\s*([0-9]+|Zmin|Zmax)\s*\(\"(.*)\"\)(\s*mode\s*([0-9]+))?.*
! Touchstone port assignment:
! Touchstone port 1 = CST MWS port Zmax ("") mode 1
! Touchstone port 2 = CST MWS port Zmax ("") mode 2
! Touchstone port 3 = CST MWS port Zmin ("") mode 1
! Touchstone port 4 = CST MWS port Zmin ("") mode 2
! S-Parameters are not renormalized. Each port impedance will be approximated by the real part at minimum frequency. The values are described via the [Reference] keyword.
! Default impedance is overridden by [Reference]
[Version] 2.0
# GHz S RI R 376.73
[Number of Ports] 4
[Reference]
376.73 376.73 259.814 259.814 
[Number of Frequencies] 51
[Network Data]
281700                 -0.315943       -0.165048      -0.00012634    -6.76333e-05         0.898016        0.244717     -0.000123344    -0.000287643
                    -9.33584e-05    -5.83436e-05        -0.380415       -0.730916      0.000196174     1.51459e-05         0.334776        0.285662
                        0.897995        0.244696     -0.000218686     0.000241877         0.354491       0.0179372      9.77479e-05    -0.000177843
                    -4.14127e-05    -0.000202584         0.334246        0.285523      0.000295703    -0.000194198         0.641451        0.506762
281702                 -0.315995       -0.164951     -0.000127056    -6.82648e-05         0.898117        0.244345     -0.000124132    -0.000287418
                    -9.35245e-05    -5.87473e-05        -0.381499       -0.729822      0.000195087     1.46751e-05         0.336041        0.286173
                        0.898095        0.244324     -0.000218703      0.00024254         0.354502       0.0177531      9.75082e-05    -0.000177292
                    -4.19575e-05    -0.000202296         0.335511        0.286036      0.000295731    -0.000193018         0.642132        0.505153
281704                 -0.316047       -0.164854     -0.000127772    -6.88891e-05         0.898218        0.243973     -0.000124917     -0.00028719
                    -9.36913e-05    -5.91474e-05        -0.382576       -0.728728      0.000194009     1.42045e-05         0.337305        0.286677
                        0.898196        0.243952     -0.000218714     0.000243199         0.354512       0.0175689      9.72722e-05    -0.000176742
                    -4.24975e-05    -0.000202006         0.336776        0.286542      0.000295759    -0.000191851         0.642806        0.503547
281706                 -0.316099       -0.164757     -0.000128488    -6.95063e-05         0.898318        0.243601     -0.000125701    -0.000286959
                    -9.38588e-05    -5.95441e-05        -0.383647       -0.727633      0.000192937     1.37342e-05         0.338568        0.287176
                        0.898297         0.24358     -0.000218718     0.000243854         0.354522       0.0173847      9.70399e-05    -0.000176192
                    -4.30326e-05    -0.000201716         0.338039        0.287041      0.000295789    -0.000190696         0.643474        0.501942
281708                 -0.316151       -0.164659     -0.000129205    -7.01163e-05         0.898419        0.243229     -0.000126482    -0.000286727
                    -9.40267e-05    -5.99374e-05        -0.384712       -0.726538      0.000191872     1.32642e-05         0.339829        0.287667
                        0.898397        0.243208     -0.000218717     0.000244504         0.354533       0.0172005      9.68112e-05    -0.000175642
                    -4.35628e-05    -0.000201424         0.339301        0.287534      0.000295819    -0.000189554         0.644135         0.50034
281710                 -0.316203       -0.164562     -0.000129921    -7.07193e-05         0.898519        0.242857     -0.000127261    -0.000286491
                    -9.41949e-05    -6.03272e-05         -0.38577       -0.725443      0.000190814     1.27946e-05          0.34109        0.288153
                        0.898497        0.242836      -0.00021871     0.000245149         0.354543       0.0170163      9.65861e-05    -0.000175092
                    -4.40882e-05    -0.000201132         0.340563        0.288021       0.00029585    -0.000188424          0.64479         0.49874
281712                 -0.316255       -0.164465     -0.000130638    -7.13153e-05         0.898619        0.242485     -0.000128037    -0.000286253
                    -9.43635e-05    -6.07138e-05        -0.386823       -0.724348      0.000189764     1.23256e-05          0.34235        0.288632
                        0.898597        0.242464     -0.000218698      0.00024579         0.354553       0.0168321      9.63645e-05    -0.000174543
                    -4.46088e-05     -0.00020084         0.341823        0.288501      0.000295882    -0.000187307         0.645438        0.497141
281714                 -0.316307       -0.164368     -0.000131356    -7.19042e-05         0.898719        0.242113     -0.000128811    -0.000286013
                    -9.45321e-05    -6.10971e-05        -0.387869       -0.723253       0.00018872     1.18573e-05         0.343608        0.289104
                        0.898697        0.242092     -0.000218679     0.000246426         0.354563       0.0166478      9.61466e-05    -0.000173993
                    -4.51246e-05    -0.000200546         0.343082        0.288975      0.000295915    -0.000186201          0.64608        0.495545
281716                 -0.316359        -0.16427     -0.000132073    -7.24861e-05         0.898819        0.241741     -0.000129583     -0.00028577
                    -9.47008e-05    -6.14772e-05        -0.388909       -0.722158      0.000187683     1.13896e-05         0.344866        0.289571
                        0.898797         0.24172     -0.000218655     0.000247056         0.354573       0.0164636      9.59322e-05    -0.000173443
                    -4.56357e-05    -0.000200253          0.34434        0.289443      0.000295949    -0.000185108         0.646715        0.493951
281718                  -0.31641       -0.164173      -0.00013279     -7.3061e-05         0.898918        0.241369     -0.000130353    -0.000285525
                    -9.48694e-05    -6.18541e-05        -0.389944       -0.721063      0.000186653     1.09227e-05         0.346122        0.290031
                        0.898897        0.241348     -0.000218625     0.000247682         0.354583       0.0162794      9.57214e-05    -0.000172894
                    -4.61421e-05    -0.000199959         0.345597        0.289905      0.000295985    -0.000184026         0.647344        0.492359
281720                 -0.316462       -0.164076     -0.000133507     -7.3629e-05         0.899018        0.240997      -0.00013112    -0.000285277
                    -9.50379e-05     -6.2228e-05        -0.390972       -0.719967      0.000185629     1.04567e-05         0.347377        0.290485
                        0.898996        0.240976     -0.000218589     0.000248302         0.354592       0.0160952      9.55141e-05    -0.000172345
                    -4.66438e-05    -0.000199665         0.346853         0.29036      0.000296021    -0.000182957         0.647966         0.49077
281722                 -0.316514       -0.163978     -0.000134223    -7.41901e-05         0.899117        0.240624     -0.000131885    -0.000285027
                     -9.5206e-05    -6.25988e-05        -0.391994       -0.718872      0.000184613     9.99166e-06         0.348631        0.290932
                        0.899096        0.240604     -0.000218547     0.000248917         0.354602        0.015911      9.53103e-05    -0.000171796
                     -4.7141e-05     -0.00019937         0.348107        0.290809      0.000296058    -0.000181899         0.648582        0.489182
281724                 -0.316566       -0.163881     -0.000134939    -7.47442e-05         0.899216        0.240252     -0.000132648    -0.000284774
                    -9.53738e-05    -6.29666e-05        -0.393011       -0.717777      0.000183603      9.5276e-06         0.349883        0.291374
                        0.899195        0.240232       -0.0002185     0.000249527         0.354611       0.0157267        9.511e-05    -0.000171247
                    -4.76335e-05    -0.000199076          0.34936        0.291252      0.000296097    -0.000180853         0.649192        0.487597
281726                 -0.316617       -0.163784     -0.000135655    -7.52916e-05         0.899315         0.23988     -0.000133408    -0.000284519
                    -9.55412e-05    -6.33315e-05        -0.394021       -0.716681      0.000182599     9.06461e-06         0.351135        0.291809
                        0.899294        0.239859     -0.000218447     0.000250131         0.354621       0.0155425      9.49132e-05    -0.000170698
                    -4.81215e-05    -0.000198781         0.350612        0.291689      0.000296136    -0.000179819         0.649796        0.486014
281728                 -0.316669       -0.163686      -0.00013637    -7.58321e-05         0.899413        0.239508     -0.000134166    -0.000284261
                    -9.57081e-05    -6.36936e-05        -0.395025       -0.715586      0.000181603     8.60277e-06         0.352385        0.292238
                        0.899392        0.239487     -0.000218388     0.000250729          0.35463       0.0153583      9.47198e-05    -0.000170149
                    -4.86051e-05    -0.000198487         0.351863        0.292119      0.000296177    -0.000178797         0.650393        0.484433
281730                 -0.316721       -0.163589     -0.000137085    -7.63659e-05         0.899512        0.239135     -0.000134921    -0.000284001
                    -9.58743e-05    -6.40529e-05        -0.396024       -0.714491      0.000180612     8.14213e-06         0.353634        0.292662
                        0.899491        0.239115     -0.000218324     0.000251322         0.354639        0.015174      9.45299e-05      -0.0001696
                    -4.90842e-05    -0.000198193         0.353112        0.292544       0.00029622    -0.000177786         0.650985        0.482854
281732                 -0.316772       -0.163492     -0.000137799     -7.6893e-05          0.89961        0.238763     -0.000135675    -0.000283739
                    -9.60399e-05    -6.44095e-05        -0.397017       -0.713396      0.000179628     7.68277e-06         0.354881        0.293079
                         0.89959        0.238742     -0.000218254     0.000251908         0.354649       0.0149898      9.43435e-05    -0.000169051
                    -4.95589e-05      -0.0001979          0.35436        0.292962      0.000296263    -0.000176786          0.65157        0.481278
281734                 -0.316824       -0.163394     -0.000138512    -7.74133e-05         0.899709        0.238391     -0.000136425    -0.000283474
                    -9.62047e-05    -6.47634e-05        -0.398004       -0.712301      0.000178651     7.22474e-06         0.356127         0.29349
                        0.899688         0.23837     -0.000218179     0.000252489         0.354658       0.0148055      9.41605e-05    -0.000168503
                    -5.00292e-05    -0.000197607         0.355607        0.293375      0.000296308    -0.000175799         0.652149        0.479704
281736                 -0.316876       -0.163297     -0.000139224     -7.7927e-05         0.899807        0.238018     -0.000137174    -0.000283206
                    -9.63687e-05    -6.51146e-05        -0.398985       -0.711207       0.00017768     6.76811e-06         0.357372        0.293895
                        0.899786        0.237998     -0.000218097     0.000253063         0.354667       0.0146213      9.39809e-05    -0.000167954
                    -5.04953e-05    -0.000197314         0.356853        0.293781      0.000296354    -0.000174822         0.652722        0.478132
281738                 -0.316927       -0.163199     -0.000139935    -7.84341e-05         0.899905        0.237646      -0.00013792    -0.000282936
                    -9.65318e-05    -6.54634e-05         -0.39996       -0.710112      0.000176715     6.31292e-06         0.358615        0.294295
                        0.899884        0.237625     -0.000218011     0.000253632         0.354675        0.014437      9.38047e-05    -0.000167406
                    -5.09572e-05    -0.000197022         0.358096        0.294182      0.000296402    -0.000173857         0.653289        0.476563
281740                 -0.316979       -0.163102     -0.000140645    -7.89346e-05         0.900002        0.237274     -0.000138664    -0.000282664
                     -9.6694e-05    -6.58096e-05         -0.40093       -0.709018      0.000175757     5.85924e-06         0.359857        0.294688
                        0.899982        0.237253     -0.000217919     0.000254194         0.354684       0.0142528      9.36319e-05    -0.000166857
                    -5.14149e-05     -0.00019673         0.359339        0.294577      0.000296451    -0.000172903         0.653851        0.474996
281742                  -0.31703       -0.163005     -0.000141355    -7.94285e-05           0.9001        0.236901     -0.000139405    -0.000282389
                    -9.68552e-05    -6.61535e-05        -0.401894       -0.707924      0.000174804     5.40711e-06         0.361098        0.295076
                         0.90008         0.23688     -0.000217821     0.000254749         0.354693       0.0140685      9.34624e-05    -0.000166309
                    -5.18685e-05     -0.00019644          0.36058        0.294966      0.000296502    -0.000171961         0.654406        0.473431
281744                 -0.317082       -0.162907     -0.000142063     -7.9916e-05         0.900198        0.236529     -0.000140144    -0.000282112
                    -9.70153e-05     -6.6495e-05        -0.402852        -0.70683      0.000173858      4.9566e-06         0.362337        0.295458
                        0.900177        0.236508     -0.000217718     0.000255298         0.354702       0.0138843      9.32964e-05    -0.000165761
                    -5.23181e-05     -0.00019615          0.36182        0.295349      0.000296554     -0.00017103         0.654955        0.471869
281746                 -0.317133        -0.16281     -0.000142769     -8.0397e-05         0.900295        0.236156     -0.000140881    -0.000281832
                    -9.71744e-05    -6.68341e-05        -0.403805       -0.705737      0.000172918     4.50774e-06         0.363574        0.295834
                        0.900275        0.236135      -0.00021761      0.00025584          0.35471          0.0137      9.31337e-05    -0.000165213
                    -5.27637e-05    -0.000195861         0.363058        0.295726      0.000296607     -0.00017011         0.655498        0.470309
281748                 -0.317185       -0.162712     -0.000143475    -8.08717e-05         0.900392        0.235784     -0.000141615     -0.00028155
                    -9.73322e-05    -6.71711e-05        -0.404752       -0.704644      0.000171984     4.06059e-06          0.36481        0.296204
                        0.900372        0.235762     -0.000217496     0.000256375         0.354719       0.0135157      9.29743e-05    -0.000164665
                    -5.32053e-05    -0.000195573         0.364295        0.296097      0.000296662    -0.000169201         0.656036        0.468751
281750                 -0.317236       -0.162615     -0.000144179    -8.13399e-05         0.900489        0.235411     -0.000142346    -0.000281265
                    -9.74889e-05    -6.75058e-05        -0.405693       -0.703551      0.000171056     3.61518e-06         0.366045        0.296568
                        0.900469         0.23539     -0.000217377     0.000256904         0.354727       0.0133315      9.28182e-05    -0.000164117
                    -5.36431e-05    -0.000195287          0.36553        0.296463      0.000296719    -0.000168303         0.656568        0.467196
281752                 -0.317287       -0.162517     -0.000144882    -8.18019e-05         0.900586        0.235038     -0.000143076    -0.000280978
                    -9.76443e-05    -6.78384e-05        -0.406629       -0.702459      0.000170134     3.17157e-06         0.367278        0.296927
                        0.900566        0.235017     -0.000217253     0.000257425         0.354735       0.0131472      9.26655e-05    -0.000163569
                    -5.40771e-05    -0.000195001         0.366764        0.296823      0.000296777    -0.000167416         0.657094        0.465643
281754                 -0.317339        -0.16242     -0.000145583    -8.22576e-05         0.900682        0.234666     -0.000143803    -0.000280688
                    -9.77985e-05    -6.81689e-05        -0.407559       -0.701367      0.000169217     2.72978e-06         0.368509         0.29728
                        0.900662        0.234644     -0.000217123     0.000257939         0.354743       0.0129629       9.2516e-05    -0.000163021
                    -5.45074e-05    -0.000194717         0.367996        0.297177      0.000296837     -0.00016654         0.657614        0.464093
281756                  -0.31739       -0.162322     -0.000146282    -8.27071e-05         0.900779        0.234293     -0.000144527    -0.000280396
                    -9.79512e-05    -6.84973e-05        -0.408484       -0.700275      0.000168307     2.28984e-06         0.369739        0.297627
                        0.900759        0.234271     -0.000216989     0.000258446         0.354751       0.0127786      9.23699e-05    -0.000162473
                    -5.49341e-05    -0.000194434         0.369226        0.297526      0.000296898    -0.000165675         0.658129        0.462545
281758                 -0.317441       -0.162225      -0.00014698    -8.31504e-05         0.900875         0.23392     -0.000145249    -0.000280102
                    -9.81027e-05    -6.88238e-05        -0.409403       -0.699184      0.000167402     1.85179e-06         0.370968        0.297969
                        0.900855        0.233899     -0.000216849     0.000258946         0.354759       0.0125943       9.2227e-05    -0.000161925
                    -5.53572e-05    -0.000194152         0.370455        0.297869      0.000296961     -0.00016482         0.658638           0.461
281760                 -0.317492       -0.162127     -0.000147677    -8.35877e-05         0.900971        0.233548     -0.000145969    -0.000279805
                    -9.82527e-05    -6.91483e-05        -0.410316       -0.698093      0.000166503     1.41561e-06         0.372194        0.298305
                        0.900952        0.233526     -0.000216704     0.000259438         0.354767       0.0124101      9.20875e-05    -0.000161377
                    -5.57767e-05    -0.000193872         0.371683        0.298206      0.000297026    -0.000163977         0.659141        0.459457
281762                 -0.317544        -0.16203     -0.000148371    -8.40188e-05         0.901067        0.233175     -0.000146686    -0.000279506
                    -9.84013e-05    -6.94708e-05        -0.411225       -0.697003      0.000165609     9.81265e-07          0.37342        0.298636
                        0.901048        0.233153     -0.000216554     0.000259923         0.354775       0.0122258      9.19511e-05     -0.00016083
