! TOUCHSTONE file generated by CST MICROWAVE STUDIO
! Date and time: Tue Oct 14 07:26:42 2025
! Project name: Teste_Macro_Metasurface_Nanopilar.cst
! Parameters = {H=600; L_x=100; L_y=95; Lambda=1064; Max_L=200; Min_L=70; PathPara=1; Phi=0; Step_L=10; Theta=0; p=520; phaseX=180; phaseY=0}
! Header version: 2018
! Port assignment regex: !\s*Touchstone port\s*([0-9]+)\s*=\s*(CST MWS port|CST DS port)\s*([0-9]+|Zmin|Zmax)\s*\(\"(.*)\"\)(\s*mode\s*([0-9]+))?.*
! Touchstone port assignment:
! Touchstone port 1 = CST MWS port Zmax ("") mode 1
! Touchstone port 2 = CST MWS port Zmax ("") mode 2
! Touchstone port 3 = CST MWS port Zmin ("") mode 1
! Touchstone port 4 = CST MWS port Zmin ("") mode 2
! S-Parameters are not renormalized. Each port impedance will be approximated by the real part at minimum frequency. The values are described via the [Reference] keyword.
! Default impedance is overridden by [Reference]
[Version] 2.0
# GHz S RI R 376.73
[Number of Ports] 4
[Reference]
376.73 376.73 259.814 259.814 
[Number of Frequencies] 51
[Network Data]
281700                0.00916807        0.045657      0.000323589     0.000259553         0.925565       -0.370474     -0.000127391     0.000134152
                     0.000425726     0.000338234       0.00731538       0.0220639      0.000174608     0.000259918         0.877374       -0.476082
                        0.926928       -0.370091     -2.46831e-05     3.17671e-05        0.0246326       0.0397881     -0.000111106     0.000447714
                    -6.54839e-06     9.03358e-05         0.877262       -0.476091      0.000142925     0.000573747        0.0142795       0.0187133
281702                 0.0091887       0.0456456      0.000323677     0.000259428         0.925422        -0.37083     -0.000127461     0.000134179
                      0.00042586      0.00033822       0.00732745       0.0220511        0.0001749     0.000260151         0.877188       -0.476425
                        0.926786       -0.370446     -2.47098e-05     3.16867e-05        0.0246402       0.0397752     -0.000111005     0.000447809
                    -6.54754e-06     9.03715e-05         0.877075       -0.476433      0.000143187     0.000573891        0.0142765       0.0187053
281704                0.00920933       0.0456342      0.000323765     0.000259303          0.92528       -0.371185     -0.000127531     0.000134207
                     0.000425996     0.000338206       0.00733951       0.0220382      0.000175192     0.000260382         0.877002       -0.476768
                        0.926644       -0.370802     -2.47365e-05     3.16062e-05        0.0246479       0.0397622     -0.000110904     0.000447905
                    -6.54683e-06     9.04075e-05         0.876889       -0.476776      0.000143448     0.000574034        0.0142735       0.0186972
281706                0.00922995       0.0456228      0.000323854     0.000259178         0.925137       -0.371541       -0.0001276     0.000134234
                     0.000426132     0.000338192       0.00735157       0.0220253      0.000175484     0.000260611         0.876816       -0.477111
                        0.926503       -0.371158     -2.47632e-05     3.15257e-05        0.0246555       0.0397493     -0.000110803        0.000448
                    -6.54624e-06     9.04439e-05         0.876703       -0.477118       0.00014371     0.000574176        0.0142706       0.0186892
281708                0.00925056       0.0456114      0.000323942     0.000259052         0.924994       -0.371896      -0.00012767      0.00013426
                     0.000426269     0.000338178       0.00736362       0.0220124      0.000175777     0.000260839         0.876629       -0.477453
                        0.926361       -0.371513       -2.479e-05     3.14451e-05         0.024663       0.0397363     -0.000110702     0.000448096
                    -6.54571e-06     9.04807e-05         0.876516       -0.477461      0.000143972     0.000574317        0.0142676       0.0186812
281710                0.00927117          0.0456       0.00032403     0.000258927         0.924851       -0.372251      -0.00012774     0.000134287
                     0.000426406     0.000338164       0.00737566       0.0219995      0.000176069     0.000261066         0.876443       -0.477796
                        0.926218       -0.371869     -2.48168e-05     3.13644e-05        0.0246706       0.0397234       -0.0001106     0.000448191
                    -6.54524e-06     9.05178e-05          0.87633       -0.477803      0.000144233     0.000574456        0.0142646       0.0186731
281712                0.00929177       0.0455886      0.000324118     0.000258802         0.924708       -0.372606     -0.000127809     0.000134313
                     0.000426543      0.00033815        0.0073877       0.0219866      0.000176361      0.00026129         0.876256       -0.478138
                        0.926076       -0.372224     -2.48437e-05     3.12836e-05        0.0246782       0.0397105     -0.000110498     0.000448287
                    -6.54477e-06     9.05553e-05         0.876143       -0.478145      0.000144495     0.000574595        0.0142616       0.0186651
281714                0.00931236       0.0455771      0.000324205     0.000258677         0.924565       -0.372962     -0.000127879     0.000134338
                     0.000426682     0.000338136       0.00739973       0.0219737      0.000176654     0.000261513         0.876069       -0.478481
                        0.925934        -0.37258     -2.48706e-05     3.12028e-05        0.0246858       0.0396975     -0.000110396     0.000448382
                    -6.54427e-06     9.05931e-05         0.875956       -0.478488      0.000144756     0.000574733        0.0142586       0.0186571
281716                0.00933295       0.0455657      0.000324293     0.000258551         0.924421       -0.373317     -0.000127948     0.000134364
                      0.00042682     0.000338123       0.00741175       0.0219608      0.000176946     0.000261735         0.875882       -0.478823
                        0.925791       -0.372935     -2.48976e-05     3.11219e-05        0.0246933       0.0396846     -0.000110293     0.000448478
                    -6.54373e-06     9.06313e-05         0.875769        -0.47883      0.000145017      0.00057487        0.0142556       0.0186491
281718                0.00935353       0.0455542      0.000324381     0.000258426         0.924278       -0.373672     -0.000128017     0.000134389
                     0.000426959     0.000338109       0.00742376       0.0219478      0.000177238     0.000261955         0.875695       -0.479165
                        0.925649       -0.373291     -2.49246e-05     3.10409e-05        0.0247009       0.0396716      -0.00011019     0.000448573
                     -6.5431e-06     9.06698e-05         0.875582       -0.479172      0.000145278     0.000575006        0.0142526       0.0186411
281720                0.00937411       0.0455428      0.000324469       0.0002583         0.924134       -0.374027     -0.000128086     0.000134414
                     0.000427099     0.000338095       0.00743576       0.0219349       0.00017753     0.000262173         0.875508       -0.479508
                        0.925506       -0.373646     -2.49517e-05     3.09599e-05        0.0247085       0.0396587     -0.000110087     0.000448669
                    -6.54238e-06     9.07086e-05         0.875394       -0.479514      0.000145539     0.000575141        0.0142496       0.0186331
281722                0.00939468       0.0455313      0.000324556     0.000258175         0.923991       -0.374382     -0.000128155     0.000134438
                     0.000427238     0.000338082       0.00744776        0.021922      0.000177822      0.00026239         0.875321        -0.47985
                        0.925363       -0.374001     -2.49788e-05     3.08788e-05         0.024716       0.0396458     -0.000109983     0.000448764
                    -6.54152e-06     9.07477e-05         0.875207       -0.479856        0.0001458     0.000575275        0.0142466       0.0186251
281724                0.00941524       0.0455198      0.000324644     0.000258049         0.923847       -0.374737     -0.000128223     0.000134462
                     0.000427379     0.000338068       0.00745975        0.021909      0.000178114     0.000262605         0.875133       -0.480192
                         0.92522       -0.374356      -2.5006e-05     3.07976e-05        0.0247235       0.0396328     -0.000109879     0.000448859
                    -6.54053e-06     9.07871e-05         0.875019       -0.480198       0.00014606     0.000575409        0.0142436       0.0186171
281726                 0.0094358       0.0455083      0.000324731     0.000257924         0.923703       -0.375091     -0.000128292     0.000134486
                     0.000427519     0.000338054       0.00747173       0.0218961      0.000178406     0.000262819         0.874945       -0.480534
                        0.925076       -0.374711     -2.50332e-05     3.07164e-05        0.0247311       0.0396199     -0.000109775     0.000448955
                    -6.53938e-06     9.08267e-05         0.874832       -0.480539      0.000146321     0.000575541        0.0142406       0.0186091
281728                0.00945635       0.0454969      0.000324819     0.000257798         0.923558       -0.375446      -0.00012836      0.00013451
                      0.00042766     0.000338041       0.00748371       0.0218831      0.000178698     0.000263031         0.874758       -0.480876
                        0.924933       -0.375066     -2.50604e-05     3.06351e-05        0.0247386        0.039607      -0.00010967      0.00044905
                    -6.53805e-06     9.08666e-05         0.874644       -0.480881      0.000146581     0.000575672        0.0142376       0.0186012
281730                 0.0094769       0.0454853      0.000324906     0.000257673         0.923414       -0.375801     -0.000128428     0.000134533
                     0.000427801     0.000338027       0.00749567       0.0218702       0.00017899     0.000263242          0.87457       -0.481218
                         0.92479       -0.375421     -2.50877e-05     3.05537e-05        0.0247461        0.039594     -0.000109565     0.000449145
                    -6.53655e-06     9.09066e-05         0.874456       -0.481223      0.000146841     0.000575802        0.0142345       0.0185932
281732                0.00949744       0.0454738      0.000324993     0.000257547          0.92327       -0.376156     -0.000128495     0.000134556
                     0.000427942     0.000338013       0.00750763       0.0218572      0.000179281     0.000263451         0.874382        -0.48156
                        0.924646       -0.375776     -2.51151e-05     3.04722e-05        0.0247536       0.0395811      -0.00010946     0.000449241
                    -6.53487e-06     9.09469e-05         0.874268       -0.481564      0.000147101     0.000575932        0.0142315       0.0185853
281734                0.00951797       0.0454623      0.000325081     0.000257421         0.923125        -0.37651     -0.000128563     0.000134578
                     0.000428083     0.000337999       0.00751959       0.0218442      0.000179573     0.000263658         0.874194       -0.481901
                        0.924502       -0.376131     -2.51425e-05     3.03907e-05        0.0247611       0.0395682     -0.000109354     0.000449336
                      -6.533e-06     9.09873e-05         0.874079       -0.481906       0.00014736      0.00057606        0.0142285       0.0185773
281736                 0.0095385       0.0454508      0.000325168     0.000257296          0.92298       -0.376865      -0.00012863     0.000134601
                     0.000428225     0.000337985       0.00753153       0.0218313      0.000179864     0.000263864         0.874005       -0.482243
                        0.924358       -0.376486     -2.51699e-05     3.03092e-05        0.0247686       0.0395553     -0.000109247     0.000449431
                    -6.53093e-06     9.10278e-05         0.873891       -0.482247       0.00014762     0.000576188        0.0142254       0.0185694
281738                0.00955902       0.0454392      0.000325255      0.00025717         0.922835        -0.37722     -0.000128697     0.000134623
                     0.000428367     0.000337971       0.00754347       0.0218183      0.000180155     0.000264069         0.873817       -0.482585
                        0.924214       -0.376841     -2.51974e-05     3.02275e-05        0.0247761       0.0395423     -0.000109141     0.000449526
                    -6.52868e-06     9.10685e-05         0.873703       -0.482589      0.000147879     0.000576314        0.0142224       0.0185614
281740                0.00957954       0.0454277      0.000325342     0.000257044          0.92269       -0.377574     -0.000128764     0.000134644
                     0.000428509     0.000337957        0.0075554       0.0218053      0.000180445     0.000264272         0.873628       -0.482926
                         0.92407       -0.377196     -2.52249e-05     3.01458e-05        0.0247836       0.0395294     -0.000109034     0.000449622
                    -6.52624e-06     9.11093e-05         0.873514        -0.48293      0.000148138      0.00057644        0.0142193       0.0185535
281742                0.00960004       0.0454161      0.000325429     0.000256919         0.922545       -0.377928      -0.00012883     0.000134666
                     0.000428652     0.000337942       0.00756732       0.0217923      0.000180736     0.000264473          0.87344       -0.483268
                        0.923926        -0.37755     -2.52525e-05     3.00641e-05        0.0247911       0.0395165     -0.000108926     0.000449717
                    -6.52362e-06     9.11502e-05         0.873325       -0.483271      0.000148397     0.000576564        0.0142163       0.0185456
281744                0.00962055       0.0454046      0.000325516     0.000256793           0.9224       -0.378283     -0.000128896     0.000134687
                     0.000428794     0.000337928       0.00757924       0.0217793      0.000181026     0.000264673         0.873251       -0.483609
                        0.923781       -0.377905     -2.52802e-05     2.99822e-05        0.0247985       0.0395036     -0.000108818     0.000449812
                    -6.52081e-06     9.11911e-05         0.873136       -0.483612      0.000148656     0.000576688        0.0142132       0.0185376
281746                0.00964104        0.045393      0.000325603     0.000256667         0.922255       -0.378637     -0.000128962     0.000134708
                     0.000428937     0.000337914       0.00759114       0.0217663      0.000181316     0.000264872         0.873062        -0.48395
                        0.923637        -0.37826     -2.53079e-05     2.99004e-05         0.024806       0.0394906     -0.000108709     0.000449908
                    -6.51784e-06     9.12321e-05         0.872947       -0.483953      0.000148915     0.000576811        0.0142102       0.0185297
281748                0.00966153       0.0453814      0.000325689     0.000256541         0.922109       -0.378991     -0.000129027     0.000134728
                      0.00042908     0.000337899       0.00760304       0.0217533      0.000181605     0.000265069         0.872873       -0.484292
                        0.923492       -0.378614     -2.53356e-05     2.98184e-05        0.0248135       0.0394777       -0.0001086     0.000450003
                    -6.51469e-06     9.12732e-05         0.872758       -0.484294      0.000149173     0.000576933        0.0142071       0.0185218
281750                0.00968202       0.0453698      0.000325776     0.000256415         0.921963       -0.379346     -0.000129092     0.000134749
                     0.000429223     0.000337885       0.00761493       0.0217403      0.000181895     0.000265265         0.872683       -0.484633
                        0.923347       -0.378969     -2.53634e-05     2.97364e-05        0.0248209       0.0394648     -0.000108491     0.000450098
                    -6.51138e-06     9.13142e-05         0.872569       -0.484635      0.000149431     0.000577054         0.014204       0.0185139
281752                0.00970249       0.0453582      0.000325863      0.00025629         0.921818         -0.3797     -0.000129157     0.000134769
                     0.000429366      0.00033787       0.00762682       0.0217273      0.000182183     0.000265459         0.872494       -0.484974
                        0.923202       -0.379323     -2.53913e-05     2.96543e-05        0.0248283       0.0394519     -0.000108381     0.000450194
                    -6.50792e-06     9.13553e-05         0.872379       -0.484976      0.000149689     0.000577174        0.0142009        0.018506
281754                0.00972296       0.0453466      0.000325949     0.000256164         0.921672       -0.380054     -0.000129221     0.000134789
                      0.00042951     0.000337855        0.0076387       0.0217142      0.000182472     0.000265652         0.872304       -0.485315
                        0.923057       -0.379677     -2.54192e-05     2.95722e-05        0.0248358       0.0394389      -0.00010827     0.000450289
                    -6.50431e-06     9.13964e-05         0.872189       -0.485317      0.000149947     0.000577293        0.0141979       0.0184981
281756                0.00974343        0.045335      0.000326036     0.000256038         0.921526       -0.380408     -0.000129285     0.000134808
                     0.000429653      0.00033784       0.00765057       0.0217012       0.00018276     0.000265843         0.872115       -0.485656
                        0.922912       -0.380032     -2.54472e-05       2.949e-05        0.0248432        0.039426     -0.000108159     0.000450384
                    -6.50056e-06     9.14374e-05            0.872       -0.485657      0.000150204     0.000577412        0.0141948       0.0184903
281758                0.00976389       0.0453234      0.000326122     0.000255912         0.921379       -0.380762     -0.000129349     0.000134828
                     0.000429797     0.000337826       0.00766243       0.0216882      0.000183048     0.000266033         0.871925       -0.485997
                        0.922766       -0.380386     -2.54752e-05     2.94078e-05        0.0248506       0.0394131     -0.000108048      0.00045048
                    -6.49667e-06     9.14784e-05          0.87181       -0.485998      0.000150461     0.000577529        0.0141917       0.0184824
281760                0.00978434       0.0453117      0.000326209     0.000255786         0.921233       -0.381116     -0.000129412     0.000134847
                      0.00042994     0.000337811       0.00767428       0.0216751      0.000183336     0.000266221         0.871735       -0.486338
                        0.922621        -0.38074     -2.55033e-05     2.93255e-05         0.024858       0.0394002     -0.000107935     0.000450576
                    -6.49266e-06     9.15194e-05          0.87162       -0.486339      0.000150718     0.000577646        0.0141886       0.0184745
281762                0.00980478       0.0453001      0.000326295     0.000255661         0.921087        -0.38147     -0.000129474     0.000134866
                     0.000430084     0.000337796       0.00768613       0.0216621      0.000183623     0.000266408         0.871545       -0.486678
                        0.922475       -0.381094     -2.55314e-05     2.92432e-05        0.0248654       0.0393873     -0.000107823     0.000450671
