! TOUCHSTONE file generated by CST MICROWAVE STUDIO
! Date and time: Tue Oct 14 07:25:20 2025
! Project name: Teste_Macro_Metasurface_Nanopilar.cst
! Parameters = {H=600; L_x=75; L_y=180; Lambda=1064; Max_L=200; Min_L=70; PathPara=1; Phi=0; Step_L=10; Theta=0; p=520; phaseX=180; phaseY=0}
! Header version: 2018
! Port assignment regex: !\s*Touchstone port\s*([0-9]+)\s*=\s*(CST MWS port|CST DS port)\s*([0-9]+|Zmin|Zmax)\s*\(\"(.*)\"\)(\s*mode\s*([0-9]+))?.*
! Touchstone port assignment:
! Touchstone port 1 = CST MWS port Zmax ("") mode 1
! Touchstone port 2 = CST MWS port Zmax ("") mode 2
! Touchstone port 3 = CST MWS port Zmin ("") mode 1
! Touchstone port 4 = CST MWS port Zmin ("") mode 2
! S-Parameters are not renormalized. Each port impedance will be approximated by the real part at minimum frequency. The values are described via the [Reference] keyword.
! Default impedance is overridden by [Reference]
[Version] 2.0
# GHz S RI R 376.73
[Number of Ports] 4
[Reference]
376.73 376.73 259.814 259.814 
[Number of Frequencies] 51
[Network Data]
281700                -0.0148747       -0.187528     -0.000127427    -0.000152633       -0.0793196        0.972473     -8.36461e-05     0.000354996
                    -0.000164596    -5.83987e-05        0.0112184       0.0704378      -0.00046594     0.000167235         0.957954       -0.275102
                      -0.0791679        0.972138     -0.000269259     9.42591e-05       -0.0433764        0.183078      0.000186349     0.000169422
                    -2.59288e-05     0.000391618         0.957869       -0.274739      0.000115964     0.000275863        0.0277921       0.0659555
281702                -0.0149457       -0.187553     -0.000127609    -0.000152592       -0.0788569        0.972505     -8.34571e-05     0.000355015
                    -0.000164678    -5.82765e-05        0.0112469       0.0704285     -0.000465916      0.00016747         0.957851       -0.275461
                      -0.0787056         0.97217     -0.000269353     9.43029e-05       -0.0432765        0.183133      0.000186451     0.000169351
                    -2.57021e-05     0.000391629         0.957766       -0.275098      0.000116071     0.000275957        0.0278122        0.065942
281704                -0.0150168       -0.187578     -0.000127791     -0.00015255       -0.0783942        0.972536     -8.32681e-05     0.000355033
                    -0.000164759    -5.81543e-05        0.0112755       0.0704192     -0.000465892     0.000167705         0.957748       -0.275819
                      -0.0782433        0.972202     -0.000269447     9.43469e-05       -0.0431766        0.183187      0.000186553      0.00016928
                    -2.54752e-05     0.000391641         0.957663       -0.275456      0.000116178     0.000276051        0.0278324       0.0659284
281706                -0.0150878       -0.187603     -0.000127973    -0.000152509       -0.0779315        0.972568      -8.3079e-05     0.000355052
                    -0.000164841    -5.80321e-05         0.011304       0.0704099     -0.000465868      0.00016794         0.957645       -0.276178
                       -0.077781        0.972233     -0.000269541      9.4391e-05       -0.0430766        0.183242      0.000186656     0.000169209
                    -2.52482e-05     0.000391652          0.95756       -0.275815      0.000116285     0.000276146        0.0278525       0.0659149
281708                -0.0151589       -0.187628     -0.000128156    -0.000152467       -0.0774688        0.972599     -8.28898e-05     0.000355071
                    -0.000164922      -5.791e-05        0.0113325       0.0704006     -0.000465843     0.000168175         0.957542       -0.276536
                      -0.0773187        0.972264     -0.000269635     9.44353e-05       -0.0429766        0.183296      0.000186759     0.000169138
                    -2.50211e-05     0.000391663         0.957457       -0.276173      0.000116392      0.00027624        0.0278726       0.0659013
281710                  -0.01523       -0.187653     -0.000128338    -0.000152425       -0.0770061        0.972631     -8.27007e-05     0.000355089
                    -0.000165004     -5.7788e-05         0.011361       0.0703913     -0.000465818      0.00016841         0.957439       -0.276895
                      -0.0768564        0.972295      -0.00026973     9.44798e-05       -0.0428765        0.183351      0.000186861     0.000169068
                    -2.47939e-05     0.000391674         0.957353       -0.276532        0.0001165     0.000276335        0.0278927       0.0658877
281712                -0.0153011       -0.187677     -0.000128521    -0.000152383       -0.0765434        0.972661     -8.25115e-05     0.000355108
                    -0.000165085     -5.7666e-05        0.0113895       0.0703819     -0.000465793     0.000168646         0.957336       -0.277253
                      -0.0763941        0.972326     -0.000269824     9.45244e-05       -0.0427763        0.183405      0.000186964     0.000168998
                    -2.45666e-05     0.000391684          0.95725        -0.27689      0.000116607      0.00027643        0.0279128       0.0658742
281714                -0.0153723       -0.187702     -0.000128704    -0.000152341       -0.0760806        0.972692     -8.23222e-05     0.000355127
                    -0.000165166    -5.75441e-05         0.011418       0.0703726     -0.000465768     0.000168881         0.957232       -0.277611
                      -0.0759317        0.972357     -0.000269918     9.45692e-05       -0.0426762        0.183459      0.000187066     0.000168927
                    -2.43392e-05     0.000391695         0.957146       -0.277249      0.000116715     0.000276525        0.0279329       0.0658606
281716                -0.0154434       -0.187727     -0.000128886    -0.000152298       -0.0756179        0.972723     -8.21329e-05     0.000355145
                    -0.000165246    -5.74222e-05        0.0114465       0.0703632     -0.000465742     0.000169117         0.957129        -0.27797
                      -0.0754694        0.972387     -0.000270013     9.46142e-05       -0.0425759        0.183513      0.000187169     0.000168857
                    -2.41117e-05     0.000391705         0.957042       -0.277607      0.000116824      0.00027662         0.027953        0.065847
281718                -0.0155146       -0.187752      -0.00012907    -0.000152256       -0.0751551        0.972753     -8.19436e-05     0.000355164
                    -0.000165327    -5.73004e-05        0.0114749       0.0703539     -0.000465717     0.000169352         0.957025       -0.278328
                       -0.075007        0.972417     -0.000270107     9.46593e-05       -0.0424756        0.183568      0.000187272     0.000168787
                     -2.3884e-05     0.000391715         0.956938       -0.277965      0.000116932     0.000276715        0.0279731       0.0658334
281720                -0.0155857       -0.187777     -0.000129253    -0.000152213       -0.0746924        0.972783     -8.17543e-05     0.000355183
                    -0.000165407    -5.71787e-05        0.0115034       0.0703445      -0.00046569     0.000169588         0.956921       -0.278686
                      -0.0745447        0.972447     -0.000270202     9.47046e-05       -0.0423753        0.183622      0.000187375     0.000168717
                    -2.36563e-05     0.000391725         0.956834       -0.278323      0.000117041      0.00027681        0.0279932       0.0658198
281722                -0.0156569       -0.187801     -0.000129436     -0.00015217       -0.0742296        0.972813     -8.15649e-05     0.000355202
                    -0.000165487     -5.7057e-05        0.0115319       0.0703351     -0.000465664     0.000169824         0.956817       -0.279044
                      -0.0740823        0.972476     -0.000270296     9.47501e-05       -0.0422749        0.183676      0.000187477     0.000168648
                    -2.34284e-05     0.000391734          0.95673       -0.278682      0.000117149     0.000276906        0.0280133       0.0658062
281724                -0.0157281       -0.187826     -0.000129619    -0.000152127       -0.0737668        0.972842     -8.13755e-05      0.00035522
                    -0.000165567    -5.69354e-05        0.0115604       0.0703257     -0.000465637      0.00017006         0.956713       -0.279403
                      -0.0736199        0.972506     -0.000270391     9.47958e-05       -0.0421745         0.18373       0.00018758     0.000168578
                    -2.32005e-05     0.000391744         0.956625        -0.27904      0.000117258     0.000277001        0.0280334       0.0657926
281726                -0.0157994       -0.187851     -0.000129803    -0.000152084        -0.073304        0.972872     -8.11861e-05     0.000355239
                    -0.000165647    -5.68139e-05        0.0115888       0.0703163     -0.000465611     0.000170296         0.956609       -0.279761
                      -0.0731575        0.972535     -0.000270485     9.48417e-05        -0.042074        0.183784      0.000187683     0.000168508
                    -2.29724e-05     0.000391753         0.956521       -0.279398      0.000117368     0.000277097        0.0280534        0.065779
281728                -0.0158706       -0.187875     -0.000129987    -0.000152041       -0.0728412        0.972901     -8.09966e-05     0.000355258
                    -0.000165727    -5.66924e-05        0.0116173       0.0703069     -0.000465583     0.000170533         0.956504       -0.280119
                      -0.0726951        0.972564      -0.00027058     9.48877e-05       -0.0419734        0.183838      0.000187785     0.000168439
                    -2.27443e-05     0.000391762         0.956416       -0.279756      0.000117477     0.000277193        0.0280735       0.0657654
281730                -0.0159419         -0.1879      -0.00013017    -0.000151998       -0.0723784         0.97293     -8.08072e-05     0.000355277
                    -0.000165807     -5.6571e-05        0.0116457       0.0702974     -0.000465556     0.000170769           0.9564       -0.280477
                      -0.0722327        0.972593     -0.000270675      9.4934e-05       -0.0418728        0.183892      0.000187888     0.000168369
                     -2.2516e-05     0.000391771         0.956311       -0.280114      0.000117587     0.000277289        0.0280935       0.0657518
281732                -0.0160131       -0.187925     -0.000130354    -0.000151955       -0.0719156        0.972959     -8.06177e-05     0.000355296
                    -0.000165886    -5.64496e-05        0.0116742        0.070288     -0.000465528     0.000171006         0.956295       -0.280835
                      -0.0717703        0.972621      -0.00027077     9.49804e-05       -0.0417722        0.183946      0.000187991       0.0001683
                    -2.22876e-05      0.00039178         0.956206       -0.280472      0.000117697     0.000277385        0.0281136       0.0657382
281734                -0.0160844       -0.187949     -0.000130538    -0.000151911       -0.0714528        0.972987     -8.04282e-05     0.000355314
                    -0.000165965    -5.63283e-05        0.0117026       0.0702785       -0.0004655     0.000171242          0.95619       -0.281193
                      -0.0713079         0.97265     -0.000270865      9.5027e-05       -0.0416715        0.183999      0.000188094     0.000168231
                    -2.20591e-05     0.000391788         0.956101        -0.28083      0.000117807     0.000277481        0.0281336       0.0657246
281736                -0.0161557       -0.187974     -0.000130722    -0.000151868       -0.0709899        0.973015     -8.02387e-05     0.000355333
                    -0.000166044    -5.62071e-05        0.0117311        0.070269     -0.000465472     0.000171479         0.956086       -0.281551
                      -0.0708454        0.972678     -0.000270959     9.50738e-05       -0.0415707        0.184053      0.000188197     0.000168162
                    -2.18304e-05     0.000391796         0.955996       -0.281188      0.000117917     0.000277578        0.0281537       0.0657109
281738                -0.0162271       -0.187998     -0.000130907    -0.000151824       -0.0705271        0.973043     -8.00491e-05     0.000355352
                    -0.000166123    -5.60859e-05        0.0117595       0.0702596     -0.000465444     0.000171716          0.95598       -0.281909
                       -0.070383        0.972706     -0.000271054     9.51208e-05       -0.0414699        0.184107      0.000188299     0.000168092
                    -2.16016e-05     0.000391804         0.955891       -0.281546      0.000118028     0.000277674        0.0281737       0.0656973
281740                -0.0162984       -0.188023     -0.000131091     -0.00015178       -0.0700642        0.973071     -7.98596e-05     0.000355371
                    -0.000166202    -5.59648e-05        0.0117879       0.0702501     -0.000465415     0.000171953         0.955875       -0.282266
                      -0.0699205        0.972733     -0.000271149     9.51679e-05       -0.0413691         0.18416      0.000188402     0.000168023
                    -2.13725e-05     0.000391812         0.955785       -0.281904      0.000118139     0.000277771        0.0281937       0.0656837
281742                -0.0163697       -0.188047     -0.000131275    -0.000151736       -0.0696013        0.973099       -7.967e-05      0.00035539
                    -0.000166281    -5.58436e-05        0.0118164       0.0702406     -0.000465386      0.00017219          0.95577       -0.282624
                      -0.0694581        0.972761     -0.000271244     9.52153e-05       -0.0412682        0.184214      0.000188505     0.000167954
                    -2.11427e-05      0.00039182          0.95568       -0.282262       0.00011825     0.000277867        0.0282137         0.06567
281744                -0.0164411       -0.188072      -0.00013146    -0.000151692       -0.0691385        0.973126     -7.94805e-05     0.000355408
                     -0.00016636    -5.57226e-05        0.0118448       0.0702311     -0.000465357     0.000172427         0.955664       -0.282982
                      -0.0689956        0.972788      -0.00027134     9.52628e-05       -0.0411672        0.184268      0.000188608     0.000167885
                    -2.09138e-05     0.000391821         0.955574        -0.28262      0.000118361     0.000277964        0.0282337       0.0656564
281746                -0.0165125       -0.188096     -0.000131644    -0.000151648       -0.0686756        0.973153     -7.92909e-05     0.000355427
                    -0.000166438    -5.56036e-05        0.0118732       0.0702215     -0.000465327     0.000172664         0.955559        -0.28334
                      -0.0685331        0.972815     -0.000271435     9.53106e-05       -0.0410662        0.184321       0.00018871     0.000167817
                    -2.06881e-05     0.000391833         0.955468       -0.282977      0.000118473     0.000278061        0.0282537       0.0656427
281748                -0.0165839       -0.188121     -0.000131829    -0.000151604       -0.0682127         0.97318     -7.91013e-05     0.000355446
                    -0.000166515    -5.54825e-05        0.0119016        0.070212     -0.000465298     0.000172902         0.955453       -0.283697
                      -0.0680707        0.972842      -0.00027153     9.53585e-05       -0.0409652        0.184374      0.000188813     0.000167748
                    -2.04584e-05     0.000391841         0.955362       -0.283335      0.000118584     0.000278159        0.0282737        0.065629
281750                -0.0166553       -0.188145     -0.000132014    -0.000151559       -0.0677498        0.973207     -7.89118e-05     0.000355465
                    -0.000166593    -5.53615e-05          0.01193       0.0702025     -0.000465268     0.000173139         0.955347       -0.284055
                      -0.0676082        0.972869     -0.000271625     9.54066e-05       -0.0408641        0.184428      0.000188916     0.000167679
                    -2.02288e-05     0.000391848         0.955256       -0.283693      0.000118696     0.000278256        0.0282937       0.0656154
281752                -0.0167268       -0.188169     -0.000132199    -0.000151515       -0.0672869        0.973233     -7.87222e-05     0.000355483
                    -0.000166671    -5.52408e-05        0.0119584       0.0701929     -0.000465237     0.000173377         0.955241       -0.284413
                      -0.0671457        0.972895      -0.00027172     9.54549e-05       -0.0407629        0.184481      0.000189019      0.00016761
                    -1.99993e-05     0.000391855          0.95515        -0.28405      0.000118809     0.000278353        0.0283137       0.0656017
281754                -0.0167982       -0.188194     -0.000132384     -0.00015147        -0.066824         0.97326     -7.85326e-05     0.000355502
                    -0.000166748    -5.51202e-05        0.0119868       0.0701833     -0.000465207     0.000173614         0.955135        -0.28477
                      -0.0666832        0.972921     -0.000271816     9.55033e-05       -0.0406617        0.184534      0.000189121     0.000167542
                    -1.97698e-05     0.000391861         0.955043       -0.284408      0.000118921     0.000278451        0.0283337        0.065588
281756                -0.0168697       -0.188218     -0.000132569    -0.000151425       -0.0663611        0.973286      -7.8343e-05     0.000355521
                    -0.000166826    -5.49997e-05        0.0120152       0.0701738     -0.000465176     0.000173852         0.955029       -0.285128
                      -0.0662207        0.972947     -0.000271911      9.5552e-05       -0.0405604        0.184588      0.000189224     0.000167473
                    -1.95402e-05     0.000391867         0.954937       -0.284765      0.000119034     0.000278548        0.0283536       0.0655744
281758                -0.0169412       -0.188242     -0.000132755     -0.00015138       -0.0658981        0.973312     -7.81534e-05     0.000355539
                    -0.000166903    -5.48793e-05        0.0120436       0.0701642     -0.000465145      0.00017409         0.954922       -0.285485
                      -0.0657582        0.972973     -0.000272007     9.56009e-05       -0.0404591        0.184641      0.000189327     0.000167404
                    -1.93105e-05     0.000391873          0.95483       -0.285123      0.000119147     0.000278646        0.0283736       0.0655607
281760                -0.0170127       -0.188267      -0.00013294    -0.000151335       -0.0654352        0.973337     -7.79639e-05     0.000355558
                     -0.00016698    -5.47589e-05         0.012072       0.0701546     -0.000465113     0.000174328         0.954816       -0.285843
                      -0.0652956        0.972998     -0.000272102     9.56499e-05       -0.0403578        0.184694      0.000189429     0.000167336
                    -1.90807e-05     0.000391879         0.954723        -0.28548       0.00011926     0.000278744        0.0283935        0.065547
281762                -0.0170842       -0.188291     -0.000133126     -0.00015129       -0.0649723        0.973362     -7.77743e-05     0.000355576
                    -0.000167057    -5.46387e-05        0.0121004        0.070145     -0.000465081     0.000174566         0.954709         -0.2862
                      -0.0648331        0.973023     -0.000272198     9.56991e-05       -0.0402563        0.184747      0.000189532     0.000167267
