! TOUCHSTONE file generated by CST MICROWAVE STUDIO
! Date and time: Tue Oct 14 07:31:21 2025
! Project name: Teste_Macro_Metasurface_Nanopilar.cst
! Parameters = {H=600; L_x=170; L_y=200; Lambda=1064; Max_L=200; Min_L=70; PathPara=1; Phi=0; Step_L=10; Theta=0; p=520; phaseX=180; phaseY=0}
! Header version: 2018
! Port assignment regex: !\s*Touchstone port\s*([0-9]+)\s*=\s*(CST MWS port|CST DS port)\s*([0-9]+|Zmin|Zmax)\s*\(\"(.*)\"\)(\s*mode\s*([0-9]+))?.*
! Touchstone port assignment:
! Touchstone port 1 = CST MWS port Zmax ("") mode 1
! Touchstone port 2 = CST MWS port Zmax ("") mode 2
! Touchstone port 3 = CST MWS port Zmin ("") mode 1
! Touchstone port 4 = CST MWS port Zmin ("") mode 2
! S-Parameters are not renormalized. Each port impedance will be approximated by the real part at minimum frequency. The values are described via the [Reference] keyword.
! Default impedance is overridden by [Reference]
[Version] 2.0
# GHz S RI R 376.73
[Number of Ports] 4
[Reference]
376.73 376.73 259.814 259.814 
[Number of Frequencies] 51
[Network Data]
281700                 -0.262081      -0.0911419      0.000379236     0.000702323         0.951736      -0.0892258     -1.93062e-05      0.00111679
                     0.000386342     0.000762783        -0.264702       -0.134739     -0.000133036        0.001088         0.897636        0.315961
                         0.95225      -0.0892722      0.000135167      0.00107046         0.238908       -0.136528     -0.000447354      0.00108201
                    -1.59773e-05      0.00115297         0.897684        0.315877     -0.000416439      0.00119995         0.289496       0.0595761
281702                 -0.262099      -0.0910657       0.00037949     0.000702557         0.951701      -0.0896502     -1.89246e-05      0.00111734
                     0.000386409     0.000762497        -0.264751       -0.134668      8.83413e-05      0.00120686         0.897759          0.3156
                        0.952214      -0.0896924      0.000135885      0.00107118         0.238819        -0.13667     -0.000446656      0.00108233
                    -1.55736e-05      0.00115296         0.897813        0.315516     -0.000410932      0.00119821         0.289537       0.0594286
281704                 -0.262118      -0.0909896      0.000379738     0.000702794         0.951666      -0.0900769     -1.85442e-05      0.00111788
                     0.000386477     0.000762209        -0.264799       -0.134596      0.000135031      0.00113663         0.897882        0.315239
                        0.952176      -0.0901123      0.000136602      0.00107192         0.238729       -0.136812     -0.000445956      0.00108265
                    -1.51735e-05      0.00115296         0.897942        0.315155     -0.000406611      0.00119692         0.289577       0.0592811
281706                 -0.262136      -0.0909135      0.000379979     0.000703037          0.95163      -0.0905069      -1.8165e-05      0.00111843
                     0.000386546      0.00076192        -0.264847       -0.134524      0.000140184      0.00110654         0.898006        0.314878
                        0.952138      -0.0905319      0.000137318      0.00107266         0.238639       -0.136953     -0.000445253      0.00108297
                    -1.47776e-05      0.00115296          0.89807        0.314794     -0.000403112      0.00119593         0.289617       0.0591335
281708                 -0.262154      -0.0908373      0.000380212     0.000703285         0.951595      -0.0909416     -1.77872e-05      0.00111897
                     0.000386616     0.000761628        -0.264895       -0.134452      0.000140401       0.0010913         0.898129        0.314516
                        0.952099      -0.0909512      0.000138032      0.00107342         0.238549       -0.137093     -0.000444546      0.00108328
                    -1.43866e-05      0.00115295         0.898199        0.314432     -0.000400205      0.00119516         0.289657       0.0589859
281710                 -0.262173      -0.0907612      0.000380435      0.00070354         0.951562       -0.091383     -1.74112e-05      0.00111952
                     0.000386686     0.000761335        -0.264944        -0.13438      0.000139873      0.00108227         0.898253        0.314155
                        0.952059        -0.09137      0.000138743       0.0010742         0.238459       -0.137232     -0.000443836       0.0010836
                    -1.40015e-05      0.00115295         0.898327        0.314071     -0.000397739      0.00119457         0.289697       0.0588382
281712                 -0.262191      -0.0906851      0.000380647     0.000703802         0.951535      -0.0918331     -1.70372e-05      0.00112006
                     0.000386758     0.000761038        -0.264992       -0.134308      0.000139318      0.00107632         0.898377        0.313793
                        0.952019      -0.0917883      0.000139451        0.001075         0.238369       -0.137372     -0.000443122      0.00108392
                    -1.36233e-05      0.00115296         0.898455         0.31371     -0.000395611      0.00119409         0.289737       0.0586906
281714                 -0.262209       -0.090609      0.000380845     0.000704073         0.951525      -0.0922909     -1.66654e-05      0.00112061
                     0.000386831     0.000760739         -0.26504       -0.134236      0.000138874      0.00107213           0.8985        0.313431
                        0.951978       -0.092206      0.000140153      0.00107583         0.238278        -0.13751     -0.000442402      0.00108423
                    -1.32536e-05      0.00115296         0.898583        0.313348     -0.000393747      0.00119372         0.289777       0.0585428
281716                 -0.262227      -0.0905329      0.000381025     0.000704356         0.951542      -0.0927445     -1.62963e-05      0.00112115
                     0.000386906     0.000760436        -0.265088       -0.134164       0.00013855      0.00106901         0.898624        0.313068
                        0.951936       -0.092623      0.000140848      0.00107669         0.238188       -0.137648     -0.000441677      0.00108455
                    -1.28942e-05      0.00115297         0.898711        0.312987     -0.000392093      0.00119343         0.289816       0.0583951
281718                 -0.262245      -0.0904568      0.000381184     0.000704652         0.951583       -0.093167     -1.59302e-05       0.0011217
                     0.000386983     0.000760129        -0.265136       -0.134091      0.000138333      0.00106661         0.898748        0.312706
                        0.951894      -0.0930391      0.000141532      0.00107759         0.238098       -0.137786     -0.000440946      0.00108486
                    -1.25478e-05      0.00115298         0.898838        0.312625     -0.000390609       0.0011932         0.289856       0.0582472
281720                 -0.262262      -0.0903806      0.000381316     0.000704967         0.951614      -0.0935453     -1.55675e-05      0.00112224
                     0.000387063     0.000759817        -0.265184       -0.134019      0.000138203       0.0010647         0.898871        0.312344
                        0.951852      -0.0934544      0.000142202      0.00107854         0.238008       -0.137923     -0.000440206      0.00108517
                    -1.22175e-05        0.001153         0.898966        0.312264     -0.000389264      0.00119302         0.289895       0.0580994
281722                  -0.26228      -0.0903045      0.000381412     0.000705305         0.951609      -0.0939053     -1.52087e-05      0.00112277
                     0.000387146     0.000759498        -0.265231       -0.133946      0.000138144      0.00106314         0.898995        0.311981
                        0.951809      -0.0938688       0.00014285      0.00107955         0.237918        -0.13806     -0.000439456      0.00108548
                    -1.19079e-05      0.00115303         0.899093        0.311902     -0.000388034      0.00119289         0.289934       0.0579515
281724                 -0.262298      -0.0902282      0.000381463     0.000705675         0.951575      -0.0942742     -1.48541e-05      0.00112331
                     0.000387233     0.000759171        -0.265279       -0.133873      0.000138141      0.00106184         0.899119        0.311619
                        0.951766      -0.0942823      0.000143467      0.00108065         0.237828       -0.138197     -0.000438693       0.0010858
                    -1.16251e-05      0.00115307          0.89922        0.311541     -0.000386901      0.00119278         0.289973       0.0578036
281726                 -0.262315       -0.090152      0.000381451      0.00070609         0.951529      -0.0946582     -1.45042e-05      0.00112384
                     0.000387325     0.000758834        -0.265327       -0.133801      0.000138184      0.00106074         0.899242        0.311256
                        0.951724       -0.094695      0.000144038      0.00108186         0.237738       -0.138333     -0.000437913      0.00108611
                    -1.13775e-05      0.00115314         0.899347         0.31118      -0.00038585      0.00119271         0.290012       0.0576557
281728                 -0.262332      -0.0900756      0.000381355     0.000706572          0.95148      -0.0950539     -1.41595e-05      0.00112437
                     0.000387424     0.000758483        -0.265374       -0.133728      0.000138264       0.0010598         0.899366        0.310893
                        0.951682      -0.0951071      0.000144535      0.00108324         0.237648       -0.138469     -0.000437113      0.00108642
                    -1.11766e-05      0.00115324         0.899474        0.310818     -0.000384868      0.00119267         0.290051       0.0575077
281730                  -0.26235      -0.0899992      0.000381139     0.000707159         0.951432      -0.0954572     -1.38199e-05      0.00112489
                     0.000387531     0.000758113        -0.265422       -0.133655      0.000138374      0.00105897         0.899489        0.310531
                        0.951641      -0.0955186      0.000144908      0.00108487         0.237559       -0.138605     -0.000436283      0.00108674
                    -1.10373e-05      0.00115341           0.8996        0.310457     -0.000383946      0.00119264          0.29009       0.0573597
281732                 -0.262367      -0.0899226      0.000380749     0.000707925         0.951386      -0.0958651     -1.34857e-05       0.0011254
                     0.000387649     0.000757714        -0.265469       -0.133582      0.000138508      0.00105824         0.899613        0.310168
                          0.9516      -0.0959298      0.000145057      0.00108691         0.237469       -0.138741     -0.000435413      0.00108707
                    -1.09756e-05      0.00115369         0.899727        0.310096     -0.000383075      0.00119263         0.290129       0.0572116
281734                 -0.262384       -0.089846      0.000380103     0.000709027          0.95134      -0.0962759     -1.31561e-05      0.00112589
                      0.00038778     0.000757271        -0.265516       -0.133508      0.000138661      0.00105758         0.899736        0.309805
                         0.95156       -0.096341      0.000144738      0.00108967          0.23738       -0.138877     -0.000434484      0.00108742
                    -1.09934e-05      0.00115419         0.899854        0.309736     -0.000382247      0.00119263         0.290167       0.0570635
281736                 -0.262401      -0.0897692      0.000379101     0.000710839         0.951297      -0.0966886     -1.28298e-05      0.00112638
                     0.000387925     0.000756756        -0.265562       -0.133435      0.000138828      0.00105698         0.899859        0.309442
                         0.95152      -0.0967522      0.000143232      0.00109393          0.23729       -0.139012     -0.000433469      0.00108782
                    -1.10128e-05      0.00115508         0.899981        0.309376     -0.000381458      0.00119264         0.290206       0.0569154
281738                 -0.262418      -0.0896923      0.000377852     0.000714359         0.951254      -0.0971025     -1.25041e-05      0.00112684
                     0.000388071     0.000756108        -0.265609       -0.133361      0.000139006      0.00105642         0.899982        0.309079
                        0.951481      -0.0971638       0.00013731      0.00110197         0.237201       -0.139148     -0.000432325      0.00108832
                    -1.06661e-05       0.0011566         0.900109        0.309017     -0.000380701      0.00119265         0.290244       0.0567673
281740                 -0.262435      -0.0896153       0.00037862     0.000721845         0.951212      -0.0975171     -1.21744e-05      0.00112728
                     0.000388145     0.000755207        -0.265655       -0.133288      0.000139189       0.0010559         0.900105        0.308716
                        0.951443      -0.0975759      9.56515e-05      0.00111113         0.237112       -0.139283     -0.000431011      0.00108909
                    -9.09313e-06      0.00115843         0.900236        0.308658     -0.000379972      0.00119267         0.290283       0.0566192
281742                 -0.262452      -0.0895382      0.000390421     0.000728301          0.95117      -0.0979323     -1.18332e-05      0.00112769
                     0.000387789     0.000753875          -0.2657       -0.133215      0.000139374      0.00105539         0.900227        0.308354
                        0.951404      -0.0979887       0.00014005      0.00103756         0.237023       -0.139418     -0.000429644      0.00109051
                    -6.28973e-06      0.00115899         0.900364        0.308302     -0.000379265      0.00119268         0.290321        0.056471
281744                  -0.26247      -0.0894612      0.000399207     0.000719422         0.951129      -0.0983479     -1.14694e-05      0.00112807
                     0.000385983     0.000752794        -0.265746       -0.133142      0.000139556      0.00105489          0.90035        0.307991
                        0.951366      -0.0984021      0.000154737      0.00106377         0.236933       -0.139553     -0.000429241      0.00109296
                    -4.11771e-06      0.00115797         0.900492        0.307948     -0.000378577      0.00119269         0.290359       0.0563228
281746                 -0.262487      -0.0893841      0.000397969      0.00071335         0.951088      -0.0987637     -1.10684e-05      0.00112843
                     0.000384339     0.000754169        -0.265791       -0.133069      0.000139727      0.00105439         0.900472        0.307627
                        0.951327      -0.0988162      0.000156236      0.00107264         0.236844       -0.139688      -0.00043099      0.00109445
                    -3.09285e-06      0.00115675          0.90062        0.307599     -0.000377902      0.00119269         0.290397       0.0561747
281748                 -0.262504      -0.0893071       0.00039606     0.000711326         0.951047      -0.0991798     -1.06127e-05      0.00112877
                     0.000384816     0.000755338        -0.265835       -0.132997       0.00013988      0.00105386         0.900594        0.307264
                        0.951288       -0.099231      0.000156952       0.0010773         0.236755       -0.139824      -0.00043211      0.00109366
                    -2.61382e-06      0.00115589         0.900745        0.307255     -0.000377233      0.00119266         0.290435       0.0560265
281750                 -0.262522      -0.0892301      0.000394785     0.000710812         0.951007      -0.0995961     -1.00866e-05      0.00112911
                      0.00038549     0.000755494         -0.26588       -0.132925      0.000140001      0.00105327         0.900716        0.306901
                        0.951248      -0.0996465      0.000157641      0.00108049         0.236665       -0.139958     -0.000431824      0.00109278
                    -2.29786e-06      0.00115537         0.900862         0.30692     -0.000376563      0.00119259         0.290473       0.0558783
281752                 -0.262539      -0.0891531      0.000393986     0.000710927         0.950966       -0.100013     -9.48208e-06      0.00112949
                      0.00038594     0.000755285        -0.265925       -0.132854       0.00014007       0.0010526         0.900838        0.306538
                        0.951208       -0.100062      0.000158391      0.00108307         0.236576       -0.140093     -0.000431059      0.00109235
                     -2.0048e-06      0.00115507         0.900962         0.30659      -0.00037588      0.00119246         0.290511         0.05573
281754                 -0.262556      -0.0890763      0.000393474     0.000711389         0.950926       -0.100429     -8.80672e-06      0.00112994
                     0.000386226     0.000754955         -0.26597       -0.132783      0.000140047      0.00105176         0.900959        0.306175
                        0.951166       -0.100479      0.000159206      0.00108542         0.236487       -0.140228      -0.00043019      0.00109222
                    -1.68963e-06      0.00115492         0.901035        0.306247     -0.000375161      0.00119223         0.290549       0.0555818
281756                 -0.262574      -0.0889995      0.000393119     0.000712119         0.950885       -0.100846     -8.08671e-06      0.00113051
                     0.000386406     0.000754576        -0.266015       -0.132712      0.000139859      0.00105062         0.901081        0.305811
                        0.951124       -0.100895       0.00016008      0.00108779         0.236398       -0.140363     -0.000429312      0.00109225
                    -1.33749e-06      0.00115487         0.901099        0.305868     -0.000374363       0.0011918         0.290586       0.0554336
281758                 -0.262591      -0.0889229      0.000392812     0.000713128         0.950845       -0.101264     -7.36405e-06      0.00113123
                     0.000386511     0.000754172        -0.266061       -0.132642      0.000139326      0.00104886         0.901202        0.305448
                         0.95108       -0.101311      0.000160992      0.00109039         0.236309       -0.140498     -0.000428444      0.00109239
                    -9.40745e-07      0.00115491         0.901189        0.305461     -0.000373378      0.00119098         0.290624       0.0552854
281760                 -0.262608      -0.0888464      0.000392428     0.000714496         0.950804       -0.101683     -6.69158e-06      0.00113211
                     0.000386554     0.000753751        -0.266107       -0.132572      0.000137892      0.00104557         0.901323        0.305085
                        0.951035       -0.101727      0.000161895      0.00109349         0.236221       -0.140632     -0.000427585      0.00109258
                    -4.89896e-07      0.00115502         0.901308        0.305055     -0.000371831      0.00118909         0.290662       0.0551372
281762                 -0.262625      -0.0887701       0.00039174     0.000716379         0.950762       -0.102104     -6.13892e-06      0.00113321
                     0.000386541     0.000753316        -0.266153       -0.132502      0.000132563      0.00103631         0.901443        0.304721
                         0.95099       -0.102141      0.000162637      0.00109758         0.236133       -0.140764     -0.000426731      0.00109281
