! TOUCHSTONE file generated by CST MICROWAVE STUDIO
! Date and time: Tue Oct 14 07:30:25 2025
! Project name: Teste_Macro_Metasurface_Nanopilar.cst
! Parameters = {H=600; L_x=155; L_y=200; Lambda=1064; Max_L=200; Min_L=70; PathPara=1; Phi=0; Step_L=10; Theta=0; p=520; phaseX=180; phaseY=0}
! Header version: 2018
! Port assignment regex: !\s*Touchstone port\s*([0-9]+)\s*=\s*(CST MWS port|CST DS port)\s*([0-9]+|Zmin|Zmax)\s*\(\"(.*)\"\)(\s*mode\s*([0-9]+))?.*
! Touchstone port assignment:
! Touchstone port 1 = CST MWS port Zmax ("") mode 1
! Touchstone port 2 = CST MWS port Zmax ("") mode 2
! Touchstone port 3 = CST MWS port Zmin ("") mode 1
! Touchstone port 4 = CST MWS port Zmin ("") mode 2
! S-Parameters are not renormalized. Each port impedance will be approximated by the real part at minimum frequency. The values are described via the [Reference] keyword.
! Default impedance is overridden by [Reference]
[Version] 2.0
# GHz S RI R 376.73
[Number of Ports] 4
[Reference]
376.73 376.73 259.814 259.814 
[Number of Frequencies] 51
[Network Data]
281700                 -0.269543       -0.104866      9.34302e-05    -0.000244457         0.949266       0.0922789      2.07867e-05    -0.000110076
                     0.000116995    -0.000259315        -0.218785       -0.115498      9.29071e-05     0.000161063         0.782398        0.564887
                        0.948881       0.0923594      1.69472e-05    -0.000126852         0.282328      -0.0526265      3.59565e-05    -0.000463117
                     4.45149e-05    -0.000177083         0.782096        0.564203      1.54144e-05    -0.000353256         0.177356        0.170563
281702                  -0.26959       -0.104797      9.32523e-05    -0.000244668         0.949299       0.0918868      2.07357e-05    -0.000110147
                     0.000116772    -0.000259637        -0.218819        -0.11543      9.40621e-05     0.000158765         0.782635        0.564561
                        0.948914       0.0919665      1.67919e-05    -0.000126865         0.282318      -0.0527838      3.59366e-05    -0.000463111
                     4.43139e-05    -0.000177133         0.782333        0.563877      1.73762e-05    -0.000354415         0.177446        0.170467
281704                 -0.269636       -0.104729      9.30742e-05    -0.000244878         0.949333       0.0914947      2.06848e-05    -0.000110219
                      0.00011655    -0.000259959        -0.218852       -0.115363      9.51922e-05     0.000156427         0.782871        0.564235
                        0.948947       0.0915735      1.66363e-05    -0.000126878         0.282307      -0.0529411      3.59173e-05    -0.000463104
                     4.41148e-05    -0.000177182          0.78257        0.563551       1.9343e-05     -0.00035562         0.177536        0.170371
281706                 -0.269683       -0.104661      9.28958e-05    -0.000245089         0.949367       0.0911026      2.06338e-05    -0.000110291
                     0.000116329     -0.00026028        -0.218886       -0.115296      9.62964e-05     0.000154051         0.783107        0.563909
                         0.94898       0.0911805      1.64807e-05    -0.000126891         0.282297      -0.0530985      3.58985e-05    -0.000463098
                     4.39177e-05     -0.00017723         0.782806        0.563225       2.1312e-05     -0.00035687         0.177626        0.170274
281708                  -0.26973       -0.104592      9.27172e-05    -0.000245299           0.9494       0.0907105       2.0583e-05    -0.000110363
                     0.000116109    -0.000260601         -0.21892       -0.115229       9.7374e-05     0.000151636         0.783343        0.563583
                        0.949013       0.0907875       1.6325e-05    -0.000126905         0.282287      -0.0532558      3.58802e-05    -0.000463092
                     4.37225e-05    -0.000177276         0.783043        0.562898      2.32807e-05    -0.000358163         0.177716        0.170178
281710                 -0.269777       -0.104524      9.25383e-05    -0.000245509         0.949433       0.0903184      2.05322e-05    -0.000110435
                      0.00011589     -0.00026092        -0.218953       -0.115162      9.84245e-05     0.000149184         0.783579        0.563257
                        0.949046       0.0903946      1.61691e-05    -0.000126918         0.282276      -0.0534131      3.58624e-05    -0.000463087
                     4.35292e-05    -0.000177322         0.783279        0.562572      2.52467e-05    -0.000359499         0.177806        0.170081
281712                 -0.269824       -0.104456      9.23593e-05     -0.00024572         0.949466       0.0899263      2.04815e-05    -0.000110508
                     0.000115672     -0.00026124        -0.218987       -0.115095      9.94471e-05     0.000146694         0.783814        0.562931
                        0.949079       0.0900016      1.60131e-05    -0.000126932         0.282265      -0.0535704       3.5845e-05    -0.000463082
                     4.33378e-05    -0.000177366         0.783515        0.562245      2.72081e-05    -0.000360876         0.177896        0.169985
281714                 -0.269871       -0.104387      9.21799e-05     -0.00024593         0.949499       0.0895342      2.04309e-05     -0.00011058
                     0.000115455    -0.000261558        -0.219021       -0.115028      0.000100441     0.000144168          0.78405        0.562605
                        0.949111       0.0896086       1.5857e-05    -0.000126946         0.282255      -0.0537277      3.58282e-05    -0.000463078
                     4.31484e-05    -0.000177409         0.783751        0.561919      2.91636e-05    -0.000362291         0.177986        0.169889
281716                 -0.269918       -0.104319      9.20004e-05     -0.00024614         0.949531       0.0891422      2.03804e-05    -0.000110653
                     0.000115238    -0.000261876        -0.219054       -0.114961      0.000101406     0.000141606         0.784285        0.562279
                        0.949144       0.0892156      1.57008e-05     -0.00012696         0.282244       -0.053885      3.58118e-05    -0.000463073
                     4.29608e-05    -0.000177451         0.783987        0.561592      3.11122e-05    -0.000363744         0.178076        0.169792
281718                 -0.269964        -0.10425      9.18206e-05     -0.00024635         0.949564       0.0887501      2.03299e-05    -0.000110726
                     0.000115023    -0.000262194        -0.219088       -0.114894      0.000102341     0.000139009         0.784521        0.561952
                        0.949176       0.0888226      1.55444e-05    -0.000126974         0.282233      -0.0540423      3.57959e-05     -0.00046307
                     4.27751e-05    -0.000177491         0.784222        0.561266      3.30534e-05    -0.000365232         0.178166        0.169695
281720                 -0.270011       -0.104182      9.16406e-05    -0.000246561         0.949596        0.088358      2.02795e-05    -0.000110799
                     0.000114808    -0.000262511        -0.219122       -0.114827      0.000103246     0.000136377         0.784756        0.561626
                        0.949208       0.0884296      1.53879e-05    -0.000126989         0.282222      -0.0541996      3.57804e-05    -0.000463066
                     4.25912e-05    -0.000177531         0.784458        0.560939      3.49871e-05    -0.000366754         0.178256        0.169599
281722                 -0.270058       -0.104113      9.14604e-05    -0.000246771         0.949628       0.0879659      2.02293e-05    -0.000110872
                     0.000114594    -0.000262827        -0.219155        -0.11476       0.00010412     0.000133711          0.78499        0.561299
                        0.949239       0.0880366      1.52313e-05    -0.000127003         0.282211      -0.0543569      3.57653e-05    -0.000463063
                     4.24093e-05    -0.000177569         0.784693        0.560612      3.69132e-05    -0.000368308         0.178346        0.169502
281724                 -0.270105       -0.104045        9.128e-05    -0.000246981          0.94966       0.0875739      2.01791e-05    -0.000110945
                     0.000114381    -0.000263142        -0.219189       -0.114693      0.000104962     0.000131013         0.785225        0.560973
                        0.949271       0.0876436      1.50746e-05    -0.000127018           0.2822      -0.0545142      3.57507e-05    -0.000463061
                     4.22292e-05    -0.000177606         0.784928        0.560285      3.88318e-05    -0.000369895         0.178435        0.169406
281726                 -0.270151       -0.103976      9.10993e-05    -0.000247191         0.949692       0.0871818      2.01291e-05    -0.000111019
                     0.000114169    -0.000263457        -0.219222       -0.114626      0.000105773     0.000128282          0.78546        0.560646
                        0.949303       0.0872507      1.49177e-05    -0.000127033         0.282188      -0.0546715      3.57365e-05    -0.000463059
                      4.2051e-05    -0.000177642         0.785163        0.559958       4.0743e-05    -0.000371513         0.178525        0.169309
281728                 -0.270198       -0.103908      9.09183e-05    -0.000247401         0.949724       0.0867897      2.00792e-05    -0.000111092
                     0.000113957    -0.000263771        -0.219256       -0.114559      0.000106551      0.00012552         0.785694        0.560319
                        0.949334       0.0868577      1.47607e-05    -0.000127048         0.282177      -0.0548288      3.57226e-05    -0.000463057
                     4.18746e-05    -0.000177677         0.785398        0.559631      4.26468e-05    -0.000373161         0.178615        0.169212
281730                 -0.270245       -0.103839      9.07371e-05    -0.000247612         0.949755       0.0863976      2.00294e-05    -0.000111166
                     0.000113747    -0.000264085         -0.21929       -0.114492      0.000107297     0.000122727         0.785929        0.559992
                        0.949365       0.0864647      1.46036e-05    -0.000127063         0.282166      -0.0549861      3.57091e-05    -0.000463056
                     4.17002e-05    -0.000177711         0.785633        0.559303      4.45431e-05     -0.00037484         0.178704        0.169115
281732                 -0.270291        -0.10377      9.05556e-05    -0.000247822         0.949787       0.0860056      1.99797e-05    -0.000111239
                     0.000113537    -0.000264398        -0.219323       -0.114425       0.00010801     0.000119905         0.786163        0.559665
                        0.949396       0.0860717      1.44464e-05    -0.000127078         0.282154      -0.0551434       3.5696e-05    -0.000463056
                     4.15276e-05    -0.000177743         0.785868        0.558976      4.64319e-05    -0.000376549         0.178794        0.169018
281734                 -0.270338       -0.103702      9.03737e-05    -0.000248032         0.949818       0.0856135      1.99302e-05    -0.000111313
                     0.000113328    -0.000264711        -0.219357       -0.114358      0.000108689     0.000117055         0.786397        0.559338
                        0.949427       0.0856787       1.4289e-05    -0.000127094         0.282143      -0.0553007      3.56833e-05    -0.000463055
                     4.13569e-05    -0.000177775         0.786102        0.558649      4.83127e-05    -0.000378288         0.178883        0.168922
281736                 -0.270385       -0.103633      9.01913e-05    -0.000248242         0.949849       0.0852214      1.98807e-05    -0.000111387
                     0.000113119    -0.000265022         -0.21939       -0.114291      0.000109335     0.000114177         0.786631        0.559011
                        0.949458       0.0852857      1.41315e-05     -0.00012711         0.282131       -0.055458      3.56708e-05    -0.000463056
                     4.11881e-05    -0.000177805         0.786336        0.558321      5.01853e-05    -0.000380056         0.178973        0.168825
281738                 -0.270431       -0.103564      9.00084e-05    -0.000248452          0.94988       0.0848294      1.98315e-05    -0.000111461
                     0.000112912    -0.000265333        -0.219424       -0.114224      0.000109947     0.000111273         0.786864        0.558684
                        0.949488       0.0848926      1.39738e-05    -0.000127125         0.282119      -0.0556153      3.56587e-05    -0.000463056
                     4.10213e-05    -0.000177834         0.786571        0.557994      5.20492e-05    -0.000381854         0.179062        0.168728
281740                 -0.270478       -0.103496      8.98253e-05    -0.000248662          0.94991       0.0844373      1.97823e-05    -0.000111535
                     0.000112705    -0.000265644        -0.219457       -0.114157      0.000110526     0.000108344         0.787098        0.558357
                        0.949518       0.0844996      1.38161e-05    -0.000127141         0.282107      -0.0557726      3.56469e-05    -0.000463058
                     4.08566e-05    -0.000177862         0.786805        0.557666      5.39038e-05    -0.000383682         0.179152        0.168631
281742                 -0.270524       -0.103427      8.96423e-05    -0.000248871         0.949941       0.0840452      1.97332e-05    -0.000111609
                     0.000112499    -0.000265953         -0.21949        -0.11409      0.000111072      0.00010539         0.787331        0.558029
                        0.949549       0.0841066      1.36582e-05    -0.000127158         0.282095      -0.0559299      3.56353e-05    -0.000463059
                     4.06941e-05    -0.000177889         0.787038        0.557338      5.57486e-05    -0.000385538         0.179241        0.168534
281744                 -0.270571       -0.103358      8.94592e-05    -0.000249081         0.949971       0.0836531      1.96843e-05    -0.000111683
                     0.000112294    -0.000266262        -0.219524       -0.114023      0.000111585     0.000102413         0.787564        0.557702
                        0.949579       0.0837136      1.35002e-05    -0.000127174         0.282083      -0.0560872      3.56239e-05    -0.000463062
                     4.05341e-05    -0.000177916         0.787272         0.55701       5.7583e-05    -0.000387423          0.17933        0.168437
281746                 -0.270617       -0.103289      8.92761e-05     -0.00024929         0.950001       0.0832611      1.96355e-05    -0.000111758
                     0.000112089    -0.000266569        -0.219557       -0.113956      0.000112065      9.9413e-05         0.787798        0.557374
                        0.949608       0.0833206      1.33421e-05     -0.00012719         0.282071      -0.0562445      3.56126e-05    -0.000463064
                     4.03771e-05    -0.000177941         0.787506        0.556682      5.94063e-05    -0.000389336          0.17942         0.16834
281748                 -0.270664       -0.103221      8.90928e-05    -0.000249499         0.950031        0.082869      1.95867e-05    -0.000111832
                     0.000111883    -0.000266875        -0.219591       -0.113889      0.000112513     9.63912e-05          0.78803        0.557046
                        0.949638       0.0829276      1.31838e-05    -0.000127207         0.282059      -0.0564018      3.56015e-05    -0.000463068
                     4.02243e-05    -0.000177966         0.787739        0.556354      6.12179e-05    -0.000391277         0.179509        0.168243
281750                  -0.27071       -0.103152      8.89092e-05    -0.000249709         0.950061       0.0824769       1.9538e-05    -0.000111906
                     0.000111677    -0.000267178        -0.219624       -0.113822       0.00011293     9.33478e-05         0.788263        0.556719
                        0.949667       0.0825346      1.30253e-05    -0.000127223         0.282047      -0.0565591      3.55905e-05    -0.000463072
                     4.00796e-05    -0.000177991         0.787972        0.556026      6.30173e-05    -0.000393245         0.179598        0.168145
281752                 -0.270757       -0.103083      8.87254e-05    -0.000249918         0.950091       0.0820848      1.94893e-05    -0.000111981
                     0.000111464    -0.000267474        -0.219657       -0.113755      0.000113315     9.02827e-05         0.788496        0.556391
                        0.949696       0.0821416      1.28659e-05     -0.00012724         0.282034      -0.0567164      3.55793e-05    -0.000463076
                     3.99592e-05    -0.000178023         0.788206        0.555698      6.48037e-05     -0.00039524         0.179687        0.168048
281754                 -0.270804       -0.103014      8.85414e-05    -0.000250128          0.95012       0.0816927      1.94403e-05    -0.000112055
                     0.000111169    -0.000267764        -0.219691       -0.113688      0.000113668     8.71963e-05         0.788728        0.556063
                        0.949728       0.0817484      1.27071e-05    -0.000127258         0.282022      -0.0568737       3.5568e-05     -0.00046308
                     3.99963e-05    -0.000178538         0.788439         0.55537      6.65767e-05     -0.00039726         0.179776        0.167951
281756                  -0.27085       -0.102945      8.83571e-05    -0.000250337          0.95015       0.0813006      1.93909e-05    -0.000112129
                     0.000111097    -0.000268183        -0.219724       -0.113621      0.000113989     8.40887e-05         0.788961        0.555735
                        0.949756       0.0813555      1.25483e-05    -0.000127275         0.282009       -0.057031      3.55566e-05    -0.000463085
                     3.94848e-05    -0.000178043         0.788671        0.555041      6.83357e-05    -0.000399306         0.179865        0.167854
281758                 -0.270896       -0.102876      8.81725e-05    -0.000250547         0.950179       0.0809085      1.93403e-05    -0.000112203
                     0.000110898     -0.00026845        -0.219757       -0.113555      0.000114278     8.09605e-05         0.789193        0.555407
                        0.949785       0.0809625      1.23894e-05    -0.000127293         0.281997      -0.0571883       3.5545e-05    -0.000463089
                     3.93817e-05    -0.000178058         0.788904        0.554713      7.00803e-05    -0.000401377         0.179954        0.167756
281760                 -0.270943       -0.102808      8.79877e-05    -0.000250756         0.950208       0.0805162      1.92871e-05    -0.000112275
                     0.000110697    -0.000268745        -0.219791       -0.113488      0.000114534     7.78124e-05         0.789425        0.555079
                        0.949813       0.0805695      1.22302e-05    -0.000127311         0.281984      -0.0573456      3.55334e-05    -0.000463093
                     3.92475e-05    -0.000178075         0.789137        0.554384      7.18098e-05    -0.000403471         0.180043        0.167659
281762                 -0.270989       -0.102739      8.78026e-05    -0.000250966         0.950237       0.0801245      1.92354e-05    -0.000112334
                     0.000110498    -0.000269045        -0.219824       -0.113421      0.000114756     7.46456e-05         0.789657         0.55475
                        0.949842       0.0801764       1.2071e-05    -0.000127329         0.281971      -0.0575029      3.55225e-05    -0.000463097
