! TOUCHSTONE file generated by CST MICROWAVE STUDIO
! Date and time: Tue Oct 14 07:25:09 2025
! Project name: Teste_Macro_Metasurface_Nanopilar.cst
! Parameters = {H=600; L_x=75; L_y=105; Lambda=1064; Max_L=200; Min_L=70; PathPara=1; Phi=0; Step_L=10; Theta=0; p=520; phaseX=180; phaseY=0}
! Header version: 2018
! Port assignment regex: !\s*Touchstone port\s*([0-9]+)\s*=\s*(CST MWS port|CST DS port)\s*([0-9]+|Zmin|Zmax)\s*\(\"(.*)\"\)(\s*mode\s*([0-9]+))?.*
! Touchstone port assignment:
! Touchstone port 1 = CST MWS port Zmax ("") mode 1
! Touchstone port 2 = CST MWS port Zmax ("") mode 2
! Touchstone port 3 = CST MWS port Zmin ("") mode 1
! Touchstone port 4 = CST MWS port Zmin ("") mode 2
! S-Parameters are not renormalized. Each port impedance will be approximated by the real part at minimum frequency. The values are described via the [Reference] keyword.
! Default impedance is overridden by [Reference]
[Version] 2.0
# GHz S RI R 376.73
[Number of Ports] 4
[Reference]
376.73 376.73 259.814 259.814 
[Number of Frequencies] 51
[Network Data]
281700                -0.0048316       0.0482901     -0.000502328    -0.000166809          0.93903       -0.336796     -3.88675e-05    -0.000260989
                    -0.000541048    -0.000166838       -0.0381252        0.118611     -1.09885e-05    -0.000182803         0.989901       0.0672817
                        0.938949       -0.336884      4.90011e-05    -0.000438306        0.0341475       0.0345505      0.000432771    -0.000326473
                    -5.78243e-05    -0.000200357         0.989571       0.0674411       0.00042123    -0.000333941        0.0216578        0.122712
281702               -0.00481093       0.0482837     -0.000502304    -0.000166567         0.938902       -0.337154     -3.89717e-05    -0.000260984
                    -0.000541007     -0.00016645       -0.0380837        0.118621     -1.10392e-05    -0.000182745         0.989925        0.066923
                         0.93882       -0.337242       4.8803e-05    -0.000438354        0.0341537       0.0345327      0.000432682     -0.00032664
                    -5.79278e-05    -0.000200265         0.989596       0.0670822      0.000421097    -0.000334077        0.0217042        0.122701
281704               -0.00479026       0.0482773     -0.000502279    -0.000166326         0.938774       -0.337513     -3.90758e-05    -0.000260979
                    -0.000540966    -0.000166063       -0.0380421        0.118631     -1.10899e-05    -0.000182688          0.98995       0.0665642
                        0.938692         -0.3376       4.8605e-05    -0.000438402        0.0341599       0.0345148      0.000432593    -0.000326807
                    -5.80312e-05    -0.000200174          0.98962       0.0667234      0.000420964    -0.000334214        0.0217506        0.122689
281706                -0.0047696       0.0482709     -0.000502254    -0.000166085         0.938645       -0.337871       -3.918e-05    -0.000260974
                    -0.000540925    -0.000165675       -0.0380006         0.11864     -1.11406e-05     -0.00018263         0.989974       0.0662054
                        0.938564       -0.337959      4.84072e-05    -0.000438449         0.034166       0.0344969      0.000432504    -0.000326974
                    -5.81347e-05    -0.000200083         0.989645       0.0663645      0.000420831    -0.000334351         0.021797        0.122678
281708               -0.00474894       0.0482645     -0.000502229    -0.000165844         0.938516       -0.338229     -3.92841e-05    -0.000260969
                    -0.000540883    -0.000165287       -0.0379591         0.11865     -1.11914e-05    -0.000182573         0.989999       0.0658466
                        0.938435       -0.338317      4.82096e-05    -0.000438497        0.0341722       0.0344791      0.000432415    -0.000327141
                    -5.82382e-05    -0.000199992          0.98967       0.0660057      0.000420699    -0.000334487        0.0218434        0.122666
281710               -0.00472829       0.0482581     -0.000502203    -0.000165603         0.938388       -0.338587     -3.93882e-05    -0.000260963
                    -0.000540841      -0.0001649       -0.0379175         0.11866     -1.12423e-05    -0.000182515         0.990023       0.0654878
                        0.938306       -0.338675      4.80122e-05    -0.000438544        0.0341783       0.0344612      0.000432326    -0.000327308
                    -5.83417e-05      -0.0001999         0.989694       0.0656468      0.000420566    -0.000334624        0.0218898        0.122655
281712               -0.00470764       0.0482517     -0.000502178    -0.000165362         0.938259       -0.338945     -3.94923e-05    -0.000260958
                    -0.000540798    -0.000164512        -0.037876         0.11867     -1.12933e-05    -0.000182458         0.990047       0.0651289
                        0.938177       -0.339033      4.78149e-05    -0.000438591        0.0341845       0.0344434      0.000432237    -0.000327475
                    -5.84452e-05    -0.000199809         0.989718       0.0652879      0.000420432     -0.00033476        0.0219362        0.122643
281714                 -0.004687       0.0482453     -0.000502152    -0.000165121          0.93813       -0.339303     -3.95964e-05    -0.000260953
                    -0.000540755    -0.000164125       -0.0378344         0.11868     -1.13443e-05      -0.0001824         0.990071       0.0647701
                        0.938048       -0.339391      4.76177e-05    -0.000438638        0.0341906       0.0344255      0.000432147    -0.000327642
                    -5.85486e-05    -0.000199718         0.989742        0.064929      0.000420299    -0.000334897        0.0219826        0.122631
281716               -0.00466636       0.0482388     -0.000502127     -0.00016488         0.938001        -0.33966     -3.97005e-05    -0.000260948
                    -0.000540711    -0.000163737       -0.0377929         0.11869     -1.13953e-05    -0.000182342         0.990095       0.0644112
                        0.937919       -0.339748      4.74208e-05    -0.000438685        0.0341968       0.0344076      0.000432058    -0.000327809
                    -5.86521e-05    -0.000199626         0.989766       0.0645701      0.000420166    -0.000335033         0.022029         0.12262
281718               -0.00464572       0.0482324     -0.000502101     -0.00016464         0.937871       -0.340018     -3.98045e-05    -0.000260942
                    -0.000540667     -0.00016335       -0.0377513        0.118699     -1.14464e-05    -0.000182285         0.990119       0.0640524
                         0.93779       -0.340106       4.7224e-05    -0.000438732        0.0342029       0.0343898      0.000431968    -0.000327976
                    -5.87555e-05    -0.000199535          0.98979       0.0642112      0.000420033    -0.000335169        0.0220753        0.122608
281720               -0.00462509       0.0482259     -0.000502075    -0.000164399         0.937742       -0.340376     -3.99086e-05    -0.000260937
                    -0.000540623    -0.000162963       -0.0377098        0.118709     -1.14976e-05    -0.000182227         0.990142       0.0636935
                         0.93766       -0.340464      4.70274e-05    -0.000438778         0.034209       0.0343719      0.000431879    -0.000328143
                     -5.8859e-05    -0.000199443         0.989814       0.0638523      0.000419899    -0.000335305        0.0221217        0.122596
281722               -0.00460447       0.0482194     -0.000502049    -0.000164159         0.937612       -0.340734     -4.00126e-05    -0.000260931
                    -0.000540578    -0.000162575       -0.0376682        0.118719     -1.15488e-05    -0.000182169         0.990166       0.0633346
                        0.937531       -0.340822      4.68309e-05    -0.000438825        0.0342151       0.0343541      0.000431789     -0.00032831
                    -5.89624e-05    -0.000199352         0.989838       0.0634933      0.000419766    -0.000335441        0.0221681        0.122585
281724               -0.00458384        0.048213     -0.000502023    -0.000163919         0.937483       -0.341091     -4.01166e-05    -0.000260926
                    -0.000540533    -0.000162188       -0.0376267        0.118729        -1.16e-05    -0.000182112         0.990189       0.0629758
                        0.937401       -0.341179      4.66346e-05    -0.000438871        0.0342212       0.0343362      0.000431699    -0.000328477
                    -5.90658e-05     -0.00019926         0.989861       0.0631344      0.000419632    -0.000335577        0.0222144        0.122573
281726               -0.00456322       0.0482065     -0.000501997    -0.000163679         0.937353       -0.341449     -4.02207e-05     -0.00026092
                    -0.000540487    -0.000161801       -0.0375851        0.118738     -1.16513e-05    -0.000182054         0.990212       0.0626169
                        0.937271       -0.341537      4.64385e-05    -0.000438917        0.0342272       0.0343184      0.000431609    -0.000328644
                    -5.91692e-05    -0.000199169         0.989885       0.0627754      0.000419499    -0.000335713        0.0222608        0.122561
281728               -0.00454261          0.0482     -0.000501971    -0.000163439         0.937223       -0.341807     -4.03247e-05    -0.000260915
                    -0.000540441    -0.000161414       -0.0375435        0.118748     -1.17027e-05    -0.000181996         0.990235        0.062258
                        0.937141       -0.341895      4.62426e-05    -0.000438963        0.0342333       0.0343005      0.000431519    -0.000328811
                    -5.92725e-05    -0.000199077         0.989908       0.0624165      0.000419365    -0.000335849        0.0223071        0.122549
281730                 -0.004522       0.0481935     -0.000501944    -0.000163199         0.937093       -0.342164     -4.04286e-05    -0.000260909
                    -0.000540394    -0.000161027        -0.037502        0.118758      -1.1754e-05    -0.000181939         0.990258       0.0618991
                        0.937011       -0.342252      4.60468e-05    -0.000439009        0.0342394       0.0342827      0.000431429    -0.000328978
                    -5.93759e-05    -0.000198985         0.989931       0.0620575      0.000419231    -0.000335985        0.0223534        0.122538
281732                -0.0045014        0.048187     -0.000501918    -0.000162959         0.936962       -0.342522     -4.05326e-05    -0.000260903
                    -0.000540347     -0.00016064       -0.0374604        0.118767     -1.18055e-05    -0.000181881         0.990281       0.0615401
                        0.936881        -0.34261      4.58512e-05    -0.000439055        0.0342454       0.0342648      0.000431338    -0.000329145
                    -5.94792e-05    -0.000198894         0.989954       0.0616985      0.000419097    -0.000336121        0.0223998        0.122526
281734                -0.0044808       0.0481804     -0.000501891    -0.000162719         0.936832       -0.342879     -4.06366e-05    -0.000260897
                      -0.0005403    -0.000160253       -0.0374188        0.118777     -1.18569e-05    -0.000181823         0.990304       0.0611812
                         0.93675       -0.342967      4.56559e-05      -0.0004391        0.0342515        0.034247      0.000431248    -0.000329312
                    -5.95825e-05    -0.000198802         0.989977       0.0613396      0.000418963    -0.000336256        0.0224461        0.122514
281736                -0.0044602       0.0481739     -0.000501865     -0.00016248         0.936702       -0.343236     -4.07405e-05    -0.000260892
                    -0.000540252    -0.000159866       -0.0373772        0.118787     -1.19084e-05    -0.000181765         0.990326       0.0608223
                         0.93662       -0.343324      4.54607e-05    -0.000439146        0.0342575       0.0342291      0.000431157    -0.000329479
                    -5.96858e-05     -0.00019871         0.989999       0.0609806      0.000418829    -0.000336392        0.0224924        0.122502
281738               -0.00443961       0.0481674     -0.000501838     -0.00016224         0.936571       -0.343594     -4.08445e-05    -0.000260886
                    -0.000540204    -0.000159479       -0.0373357        0.118796       -1.196e-05    -0.000181707         0.990349       0.0604633
                        0.936489       -0.343682      4.52658e-05    -0.000439191        0.0342635       0.0342113      0.000431066    -0.000329646
                     -5.9789e-05    -0.000198618         0.990022       0.0606216      0.000418695    -0.000336527        0.0225387         0.12249
281740               -0.00441902       0.0481608     -0.000501811    -0.000162001          0.93644       -0.343951     -4.09484e-05    -0.000260879
                    -0.000540155    -0.000159092       -0.0372941        0.118806     -1.20115e-05    -0.000181649         0.990371       0.0601044
                        0.936358       -0.344039      4.50711e-05    -0.000439236        0.0342695       0.0341934      0.000430974    -0.000329813
                    -5.98923e-05    -0.000198526         0.990044       0.0602625      0.000418561    -0.000336663         0.022585        0.122479
281742               -0.00439844       0.0481543     -0.000501784    -0.000161762         0.936309       -0.344308     -4.10524e-05    -0.000260873
                    -0.000540106    -0.000158705       -0.0372525        0.118816     -1.20631e-05    -0.000181591         0.990393       0.0597454
                        0.936227       -0.344396      4.48768e-05    -0.000439281        0.0342755       0.0341756      0.000430881    -0.000329979
                    -5.99955e-05    -0.000198434         0.990067       0.0599035      0.000418427    -0.000336798        0.0226313        0.122467
281744               -0.00437786       0.0481477     -0.000501757    -0.000161522         0.936178       -0.344665     -4.11568e-05    -0.000260864
                    -0.000540056    -0.000158318       -0.0372109        0.118825     -1.21148e-05    -0.000181533         0.990415       0.0593863
                        0.936096       -0.344754      4.46828e-05    -0.000439326        0.0342815       0.0341578      0.000430784    -0.000330144
                    -6.00986e-05    -0.000198342         0.990089       0.0595445      0.000418292    -0.000336933        0.0226776        0.122455
281746               -0.00435729       0.0481411      -0.00050173    -0.000161283         0.936047       -0.345023     -4.12652e-05    -0.000260873
                    -0.000540006    -0.000157932       -0.0371693        0.118835     -1.21665e-05    -0.000181475         0.990437       0.0590276
                        0.935965       -0.345111      4.44894e-05    -0.000439372        0.0342875       0.0341399      0.000430713    -0.000330259
                    -6.02018e-05     -0.00019825         0.990111       0.0591854      0.000418158    -0.000337069        0.0227239        0.122443
281748               -0.00433672       0.0481345     -0.000501704    -0.000161044         0.935915        -0.34538     -4.13644e-05     -0.00026086
                    -0.000539956    -0.000157545       -0.0371278        0.118844     -1.22182e-05    -0.000181417         0.990459       0.0586685
                        0.935833       -0.345468      4.42968e-05    -0.000439417        0.0342935       0.0341221      0.000430629    -0.000330477
                    -6.03051e-05    -0.000198158         0.990133       0.0588264      0.000418023    -0.000337204        0.0227702        0.122431
281750               -0.00431615        0.048128     -0.000501678    -0.000160804         0.935784       -0.345737      -4.1468e-05    -0.000260852
                    -0.000539905    -0.000157158       -0.0370862        0.118854       -1.227e-05    -0.000181359          0.99048       0.0583095
                        0.935702       -0.345825      4.41055e-05    -0.000439463        0.0342995       0.0341042      0.000430532    -0.000330646
                    -6.04091e-05    -0.000198066         0.990155       0.0584673      0.000417889    -0.000337339        0.0228165        0.122419
281752               -0.00429559       0.0481214     -0.000501653    -0.000160563         0.935652       -0.346094     -4.15718e-05    -0.000260846
                     -0.00053985    -0.000156778       -0.0370446        0.118863     -1.23218e-05    -0.000181301         0.990502       0.0579505
                         0.93557       -0.346182      4.39173e-05    -0.000439511        0.0343054       0.0340864      0.000430439    -0.000330814
                    -6.05043e-05    -0.000197965         0.990176       0.0581083      0.000417754    -0.000337474        0.0228627        0.122407
281754               -0.00427503       0.0481147     -0.000501634    -0.000160318         0.935521       -0.346451     -4.16756e-05     -0.00026084
                      -0.0005398    -0.000156387        -0.037003        0.118873     -1.23737e-05    -0.000181243         0.990523       0.0575915
                        0.935439       -0.346539      4.37378e-05    -0.000439563        0.0343114       0.0340686      0.000430347    -0.000330981
                    -6.06122e-05    -0.000197879         0.990198       0.0577492       0.00041762    -0.000337609         0.022909        0.122395
281756               -0.00425448       0.0481081     -0.000501652    -0.000160042         0.935389       -0.346808     -4.17794e-05    -0.000260833
                    -0.000539748    -0.000156001       -0.0369614        0.118883     -1.24256e-05    -0.000181185         0.990545       0.0572324
                        0.935307       -0.346896      4.36289e-05    -0.000439661        0.0343173       0.0340507      0.000430256    -0.000331148
                    -6.07155e-05    -0.000197787         0.990219         0.05739      0.000417485    -0.000337744        0.0229553        0.122383
281758               -0.00423393       0.0481015     -0.000501506    -0.000159895         0.935257       -0.347164     -4.18832e-05    -0.000260827
                    -0.000539696    -0.000155614       -0.0369198        0.118892     -1.24777e-05    -0.000181127         0.990566       0.0568734
                        0.935175       -0.347253      4.32235e-05    -0.000439575        0.0343232       0.0340329      0.000430164    -0.000331315
                    -6.08185e-05    -0.000197695         0.990241       0.0570312       0.00041735    -0.000337878        0.0230015        0.122371
281760               -0.00421339       0.0480949      -0.00050151    -0.000159634         0.935124       -0.347521      -4.1987e-05    -0.000260821
                    -0.000539643    -0.000155228       -0.0368782        0.118901     -1.25299e-05    -0.000181069         0.990587       0.0565144
                        0.935042       -0.347609      4.30865e-05    -0.000439651        0.0343292       0.0340151      0.000430073    -0.000331482
                    -6.09214e-05    -0.000197602         0.990262        0.056672      0.000417215    -0.000338013        0.0230478        0.122359
281762               -0.00419285       0.0480882     -0.000501488    -0.000159391         0.934992       -0.347878     -4.20908e-05    -0.000260815
                    -0.000539589    -0.000154842       -0.0368366        0.118911     -1.25825e-05    -0.000181011         0.990607       0.0561553
                         0.93491       -0.347966      4.29053e-05    -0.000439702        0.0343351       0.0339972      0.000429982    -0.000331649
