! TOUCHSTONE file generated by CST MICROWAVE STUDIO
! Date and time: Tue Oct 14 07:28:44 2025
! Project name: Teste_Macro_Metasurface_Nanopilar.cst
! Parameters = {H=600; L_x=130; L_y=155; Lambda=1064; Max_L=200; Min_L=70; PathPara=1; Phi=0; Step_L=10; Theta=0; p=520; phaseX=180; phaseY=0}
! Header version: 2018
! Port assignment regex: !\s*Touchstone port\s*([0-9]+)\s*=\s*(CST MWS port|CST DS port)\s*([0-9]+|Zmin|Zmax)\s*\(\"(.*)\"\)(\s*mode\s*([0-9]+))?.*
! Touchstone port assignment:
! Touchstone port 1 = CST MWS port Zmax ("") mode 1
! Touchstone port 2 = CST MWS port Zmax ("") mode 2
! Touchstone port 3 = CST MWS port Zmin ("") mode 1
! Touchstone port 4 = CST MWS port Zmin ("") mode 2
! S-Parameters are not renormalized. Each port impedance will be approximated by the real part at minimum frequency. The values are described via the [Reference] keyword.
! Default impedance is overridden by [Reference]
[Version] 2.0
# GHz S RI R 376.73
[Number of Ports] 4
[Reference]
376.73 376.73 259.814 259.814 
[Number of Frequencies] 51
[Network Data]
281700                 -0.447459       -0.492044      0.000118345    -0.000268978         0.665179        0.270984      0.000542282      -0.0012129
                     3.63598e-05    -0.000384543       -0.0965238       -0.126911       0.00124481    -4.06593e-05         0.124279        0.974465
                        0.664981        0.271337       0.00141536     0.000119047         0.645448      -0.0975472      0.000681235     -0.00055003
                     0.000114113     -0.00114675         0.124217        0.975058      0.000532265    -0.000622643       -0.0604232        0.146744
281702                 -0.448077       -0.492003      0.000121905    -0.000276105         0.665049        0.270225      0.000345411     -0.00130633
                     3.55851e-05    -0.000376379       -0.0965669       -0.126898       0.00124316    -4.06298e-05          0.12475         0.97452
                        0.664831        0.270526       0.00142267      0.00011791           0.6457      -0.0984226      0.000549135    -0.000697907
                     0.000105969      -0.0011521         0.124644        0.974996      0.000535716    -0.000617916       -0.0603104        0.146831
281704                 -0.448701       -0.491947      0.000118064    -0.000282815         0.664924        0.269464      0.000291364     -0.00127528
                     7.17974e-05    -0.000373596         -0.09661       -0.126886       0.00124043    -3.98315e-05         0.125176        0.974447
                        0.664702        0.269701       0.00142823     0.000109959          0.64595      -0.0993008      0.000496506    -0.000720113
                     8.65483e-05     -0.00115926         0.125071        0.974935      0.000540153    -0.000609369       -0.0602185        0.146879
281706                 -0.449326       -0.491826      0.000113841    -0.000284373         0.664802        0.268699       0.00027474      -0.0012575
                     5.59187e-05    -0.000394888       -0.0966532       -0.126873       0.00123532    -3.70985e-05         0.125604        0.974387
                        0.664607        0.268886       0.00142732     0.000102706         0.646199       -0.100182      0.000472404    -0.000726786
                      2.0712e-05     -0.00107655         0.125499        0.974874      0.000544592    -0.000591628       -0.0601322        0.146929
281708                 -0.449448       -0.492037      0.000111564     -0.00028459         0.664683         0.26793      0.000268078     -0.00124783
                     5.13655e-05    -0.000394348       -0.0966964       -0.126861        0.0012235    -2.70016e-05         0.126033        0.974329
                        0.664528        0.268106       0.00142545     9.89592e-05         0.646447       -0.101066      0.000459625    -0.000729723
                     0.000133626     -0.00111102         0.125927        0.974814      0.000534897    -0.000549391       -0.0600471         0.14698
281710                 -0.450451       -0.492014      0.000110323    -0.000284809         0.664564        0.267156      0.000265159     -0.00124238
                     5.02911e-05    -0.000393792       -0.0967395       -0.126848       0.00120679     6.33048e-05         0.126462        0.974272
                        0.664431        0.267356        0.0014244     9.66545e-05         0.646694       -0.101953      0.000452367    -0.000731392
                     0.000124685     -0.00113347         0.126356        0.974753       0.00043044     -0.00053208       -0.0599625        0.147032
281712                 -0.451109       -0.491945      0.000109558    -0.000285207         0.664444        0.266378      0.000263985     -0.00123933
                     5.02044e-05      -0.0003935       -0.0967825       -0.126835       0.00132176    -5.30796e-05         0.126891        0.974215
                         0.66431         0.26661       0.00142399     9.47984e-05          0.64694       -0.102842      0.000448195    -0.000732533
                     0.000118319     -0.00114165         0.126784        0.974693      0.000424409    -0.000636243        -0.059878        0.147084
281714                 -0.451743       -0.491896      0.000109026    -0.000285763         0.664323        0.265598      0.000263747     -0.00123778
                     5.05151e-05    -0.000393379       -0.0968252       -0.126822       0.00128384     -5.9599e-05         0.127321        0.974158
                        0.664175        0.265859       0.00142398     9.30731e-05         0.647184       -0.103735      0.000445919     -0.00073342
                      0.00011348     -0.00114647         0.127213        0.974633      0.000461703    -0.000657376       -0.0597935        0.147135
281716                 -0.452372       -0.491853      0.000108616    -0.000286438         0.664199        0.264814      0.000264064     -0.00123722
                     5.10183e-05    -0.000393372       -0.0968678       -0.126809       0.00127349    -5.92255e-05          0.12775          0.9741
                        0.664034          0.2651       0.00142421     9.13773e-05         0.647428        -0.10463      0.000444891    -0.000734171
                     0.000109366     -0.00114996         0.127642        0.974573      0.000480367     -0.00065952       -0.0597091        0.147187
281718                    -0.453       -0.491813      0.000108275      -0.0002872         0.664073        0.264029      0.000264732     -0.00123734
                     5.16247e-05    -0.000393447       -0.0969104       -0.126796       0.00126894    -5.92165e-05         0.128179        0.974043
                        0.663889        0.264335       0.00142459     8.96779e-05         0.647671       -0.105528      0.000444727    -0.000734841
                     0.000105639     -0.00115275          0.12807        0.974512      0.000490662    -0.000659178       -0.0596246        0.147239
281720                 -0.453627       -0.491774      0.000107973    -0.000288029         0.663944        0.263243      0.000265636     -0.00123797
                      5.2289e-05    -0.000393586       -0.0969531       -0.126783       0.00126651    -5.95691e-05         0.128608        0.973985
                        0.663744        0.263565       0.00142506     8.79646e-05         0.647913       -0.106429      0.000445187    -0.000735457
                     0.000102144     -0.00115512         0.128499        0.974451      0.000497214    -0.000658721         -0.05954         0.14729
281722                 -0.454255       -0.491735      0.000107694    -0.000288909         0.663812        0.262455      0.000266703     -0.00123899
                     5.29853e-05    -0.000393778       -0.0969958       -0.126771       0.00126508    -6.01559e-05         0.129037        0.973926
                        0.663598        0.262792        0.0014256     8.62349e-05         0.648154       -0.107332       0.00044611    -0.000736035
                     9.88037e-05     -0.00115716         0.128928         0.97439      0.000501883    -0.000658555       -0.0594554        0.147342
281724                 -0.454884       -0.491696      0.000107427    -0.000289829         0.663677        0.261668      0.000267887     -0.00124031
                     5.36978e-05    -0.000394018       -0.0970387       -0.126758       0.00126422    -6.08996e-05         0.129467        0.973868
                        0.663451        0.262016       0.00142617     8.44895e-05         0.648395       -0.108238      0.000447388    -0.000736581
                     9.55767e-05     -0.00115897         0.129357        0.974329      0.000505523    -0.000658752       -0.0593707        0.147394
281726                 -0.455513       -0.491657      0.000107165    -0.000290783          0.66354         0.26088      0.000269156     -0.00124187
                     5.44158e-05    -0.000394301       -0.0970815       -0.126745        0.0012637    -6.17577e-05         0.129896        0.973809
                        0.663304        0.261239       0.00142678     8.27297e-05         0.648635       -0.109147      0.000448942    -0.000737101
                     9.24425e-05     -0.00116056         0.129786        0.974267      0.000508578    -0.000659337        -0.059286        0.147445
281728                 -0.456143       -0.491618      0.000106905    -0.000291765           0.6634        0.260093      0.000270485     -0.00124364
                     5.51317e-05    -0.000394626       -0.0971245       -0.126733       0.00126343    -6.27078e-05         0.130325         0.97375
                        0.663157         0.26046        0.0014274     8.09574e-05         0.648874       -0.110059      0.000450713    -0.000737597
                     8.93911e-05     -0.00116198         0.130215        0.974206      0.000511305     -0.00066036       -0.0592011        0.147496
281730                 -0.456774       -0.491579      0.000106643    -0.000292771         0.663258        0.259306      0.000271857     -0.00124559
                     5.58395e-05    -0.000394992       -0.0971674        -0.12672       0.00126334      -6.374e-05         0.130754         0.97369
                        0.663009         0.25968       0.00142803      7.9174e-05         0.649113       -0.110973      0.000452657     -0.00073807
                     8.64195e-05     -0.00116323         0.130643        0.974143      0.000513859    -0.000661917       -0.0591162        0.147548
281732                 -0.457406       -0.491539      0.000106376    -0.000293798         0.663114         0.25852      0.000273258     -0.00124771
                     5.65346e-05    -0.000395398       -0.0972104       -0.126707       0.00126339    -6.48541e-05         0.131183        0.973631
                         0.66286        0.258898       0.00142867     7.73812e-05         0.649352       -0.111889      0.000454741     -0.00073852
                     8.35282e-05     -0.00116434         0.131072        0.974081      0.000516319    -0.000664185       -0.0590312        0.147599
281734                 -0.458038       -0.491498      0.000106102    -0.000294845         0.662968        0.257734      0.000274675     -0.00124996
                     5.72128e-05    -0.000395845       -0.0972534       -0.126694       0.00126355    -6.60578e-05         0.131612         0.97357
                        0.662711        0.258116        0.0014293     7.55804e-05         0.649591       -0.112808      0.000456935    -0.000738947
                     8.07206e-05      -0.0011653           0.1315        0.974018      0.000518665    -0.000667461       -0.0589462         0.14765
281736                 -0.458672       -0.491458      0.000105819    -0.000295909          0.66282        0.256949      0.000276097     -0.00125235
                     5.78703e-05    -0.000396333       -0.0972964       -0.126681        0.0012638     -6.7367e-05         0.132041         0.97351
                        0.662561        0.257333       0.00142992      7.3773e-05          0.64983       -0.113729      0.000459217    -0.000739351
                     7.80011e-05     -0.00116615         0.131929        0.973954      0.000520669    -0.000672228        -0.058861        0.147701
281738                 -0.459306       -0.491417      0.000105524    -0.000296989          0.66267        0.256164      0.000277514     -0.00125488
                     5.85036e-05    -0.000396863       -0.0973395       -0.126668       0.00126412    -6.88063e-05         0.132471        0.973449
                         0.66241         0.25655       0.00143054     7.19602e-05         0.650068       -0.114651      0.000461566    -0.000739731
                      7.5375e-05     -0.00116687         0.132357         0.97389      0.000521589    -0.000679175       -0.0587758        0.147752
281740                 -0.459942       -0.491375      0.000105216    -0.000298085         0.662519        0.255381      0.000278915     -0.00125753
                      5.9109e-05    -0.000397437       -0.0973825       -0.126655       0.00126448    -7.04089e-05           0.1329        0.973388
                        0.662258        0.255766       0.00143114     7.01436e-05         0.650307       -0.115576      0.000463964    -0.000740087
                     7.28478e-05     -0.00116749         0.132785        0.973826      0.000519487    -0.000688827       -0.0586904        0.147803
281742                 -0.460578       -0.491333      0.000104893    -0.000299197         0.662366        0.254598      0.000280288     -0.00126032
                     5.96832e-05    -0.000398056       -0.0974256       -0.126642       0.00126484    -7.22136e-05         0.133329        0.973327
                        0.662105        0.254982       0.00143172     6.83244e-05         0.650546       -0.116502      0.000466392    -0.000740418
                     7.04246e-05     -0.00116802         0.133213        0.973762      0.000510635    -0.000699581        -0.058605        0.147854
281744                 -0.461215        -0.49129      0.000104551    -0.000300323         0.662211        0.253816      0.000281619     -0.00126324
                     6.02222e-05    -0.000398721       -0.0974688       -0.126629        0.0012651     -7.4254e-05         0.133758        0.973265
                        0.661951        0.254197       0.00143228     6.65045e-05         0.650784        -0.11743      0.000468834    -0.000740724
                     6.81102e-05     -0.00116847          0.13364        0.973696      0.000493225     -0.00070404       -0.0585195        0.147905
281746                 -0.461852       -0.491247      0.000104187    -0.000301464         0.662055        0.253034      0.000282894     -0.00126631
                     6.07222e-05    -0.000399434        -0.097512       -0.126616       0.00126515    -7.65331e-05         0.134187        0.973203
                        0.661796        0.253412       0.00143281     6.46856e-05         0.651023       -0.118359      0.000471272    -0.000741004
                     6.59086e-05     -0.00116884         0.134067        0.973631      0.000476427    -0.000695289       -0.0584339        0.147956
281748                 -0.462491       -0.491203      0.000103798    -0.000302621         0.661897        0.252253      0.000284093     -0.00126952
                     6.11791e-05    -0.000400196       -0.0975552       -0.126603       0.00126483    -7.89814e-05         0.134616        0.973141
                        0.661639        0.252628        0.0014333     6.28703e-05         0.651262       -0.119288      0.000473684    -0.000741259
                     6.38231e-05     -0.00116915         0.134494        0.973565      0.000470222    -0.000680741       -0.0583482        0.148007
281750                  -0.46313       -0.491159      0.000103379    -0.000303794         0.661738        0.251473      0.000285194     -0.00127291
                     6.15883e-05    -0.000401009       -0.0975985       -0.126589       0.00126402    -8.14177e-05         0.135045        0.973078
                        0.661481        0.251843       0.00143375     6.10615e-05         0.651501       -0.120218       0.00047605    -0.000741488
                      6.1856e-05     -0.00116941          0.13492        0.973499      0.000471759    -0.000669405       -0.0582625        0.148058
281752                  -0.46377       -0.491114      0.000102922    -0.000304985         0.661578        0.250693      0.000286167     -0.00127648
                     6.19449e-05    -0.000401874       -0.0976418       -0.126576       0.00126273    -8.35721e-05         0.135474        0.973016
                        0.661322        0.251057       0.00143415     5.92632e-05         0.651739       -0.121149       0.00047834    -0.000741695
                     6.00086e-05     -0.00116963         0.135346        0.973432      0.000475721    -0.000662488       -0.0581766        0.148108
281754                  -0.46441       -0.491069      0.000102419    -0.000306195         0.661417        0.249914      0.000286975     -0.00128025
                     6.22437e-05    -0.000402794       -0.0976852       -0.126563       0.00126114    -8.52087e-05         0.135903        0.972953
                        0.661161        0.250272       0.00143448     5.74811e-05         0.651977       -0.122079      0.000480521    -0.000741883
                     5.82811e-05     -0.00116982          0.13577        0.973365       0.00047976    -0.000658531       -0.0580906        0.148159
281756                 -0.465051       -0.491023      0.000101858    -0.000307426         0.661254        0.249136      0.000287568     -0.00128426
                     6.24787e-05    -0.000403769       -0.0977286        -0.12655       0.00125955    -8.62657e-05         0.136332         0.97289
                        0.660999        0.249487       0.00143472     5.57229e-05         0.652214       -0.123009       0.00048255    -0.000742058
                     5.66729e-05        -0.00117         0.136194        0.973298      0.000483256    -0.000656289       -0.0580046         0.14821
281758                 -0.465693       -0.490976      0.000101222    -0.000308683          0.66109        0.248357      0.000287879     -0.00128853
                     6.26437e-05    -0.000404801        -0.097772       -0.126537       0.00125821     -8.6868e-05         0.136761        0.972827
                        0.660836        0.248703       0.00143486     5.40003e-05         0.652449       -0.123939      0.000484369    -0.000742233
                     5.51825e-05     -0.00117017         0.136616         0.97323      0.000486156    -0.000655029       -0.0579184         0.14826
281760                 -0.466336       -0.490929      0.000100486    -0.000309971         0.660924         0.24758      0.000287818      -0.0012931
                     6.27317e-05    -0.000405891       -0.0978155       -0.126523       0.00125722    -8.72176e-05          0.13719        0.972764
                        0.660671        0.247918       0.00143484     5.23312e-05         0.652682       -0.124869        0.0004859     -0.00074243
                     5.38071e-05     -0.00117034         0.137037        0.973164      0.000488546    -0.000654347       -0.0578322        0.148311
281762                 -0.466979       -0.490881      9.96085e-05    -0.000311299         0.660758        0.246802      0.000287256     -0.00129801
                      6.2735e-05    -0.000407041        -0.097859        -0.12651       0.00125657    -8.74871e-05         0.137618        0.972701
                        0.660505        0.247134       0.00143464     5.07445e-05         0.652912       -0.125799      0.000487033    -0.000742687
