! TOUCHSTONE file generated by CST MICROWAVE STUDIO
! Date and time: Tue Oct 14 07:28:25 2025
! Project name: Teste_Macro_Metasurface_Nanopilar.cst
! Parameters = {H=600; L_x=125; L_y=160; Lambda=1064; Max_L=200; Min_L=70; PathPara=1; Phi=0; Step_L=10; Theta=0; p=520; phaseX=180; phaseY=0}
! Header version: 2018
! Port assignment regex: !\s*Touchstone port\s*([0-9]+)\s*=\s*(CST MWS port|CST DS port)\s*([0-9]+|Zmin|Zmax)\s*\(\"(.*)\"\)(\s*mode\s*([0-9]+))?.*
! Touchstone port assignment:
! Touchstone port 1 = CST MWS port Zmax ("") mode 1
! Touchstone port 2 = CST MWS port Zmax ("") mode 2
! Touchstone port 3 = CST MWS port Zmin ("") mode 1
! Touchstone port 4 = CST MWS port Zmin ("") mode 2
! S-Parameters are not renormalized. Each port impedance will be approximated by the real part at minimum frequency. The values are described via the [Reference] keyword.
! Default impedance is overridden by [Reference]
[Version] 2.0
# GHz S RI R 376.73
[Number of Ports] 4
[Reference]
376.73 376.73 259.814 259.814 
[Number of Frequencies] 51
[Network Data]
281700                 -0.820631       -0.377264     -0.000183841      0.00037394         0.327047      -0.0155448      0.000321251    -0.000158399
                    -0.000421025     0.000139555       -0.0865697       -0.103163     -0.000709989     0.000227971       -0.0583723        0.983798
                        0.327289      -0.0145123     -0.000776648     0.000750046         0.603237       -0.647589       0.00024238     0.000624689
                     0.000226745    -7.31535e-05       -0.0575233        0.984244      0.000274147     0.000688992       -0.0967747       0.0926339
281702                 -0.821392         -0.3764     -0.000181746     0.000374623         0.326008      -0.0158071      0.000321336    -0.000159167
                     -0.00042045     0.000140025       -0.0866074       -0.103153     -0.000709874     0.000229167       -0.0579313        0.983821
                        0.326251      -0.0147746     -0.000775591     0.000752828          0.60228       -0.648916      0.000243162     0.000624455
                     0.000226819    -7.35668e-05       -0.0570812        0.984268      0.000274719     0.000688706        -0.096728       0.0927062
281704                 -0.822152       -0.375534     -0.000179645     0.000375302         0.324968      -0.0160664      0.000321419    -0.000159936
                    -0.000419873     0.000140495       -0.0866451       -0.103142     -0.000709756     0.000230364       -0.0574903        0.983845
                        0.325211       -0.015034     -0.000774523     0.000755611         0.601318       -0.650242      0.000243945     0.000624216
                     0.000226891    -7.39805e-05        -0.056639        0.984292       0.00027529     0.000688419       -0.0966813       0.0927784
281706                 -0.822911       -0.374665     -0.000177536     0.000375977         0.323926      -0.0163227      0.000321499    -0.000160708
                    -0.000419294     0.000140962       -0.0866829       -0.103132     -0.000709635     0.000231562       -0.0570492        0.983868
                        0.324171      -0.0152903     -0.000773443     0.000758397         0.600353       -0.651567      0.000244729     0.000623975
                     0.000226963    -7.43949e-05       -0.0561969        0.984315       0.00027586      0.00068813       -0.0966346       0.0928506
281708                 -0.823669       -0.373794      -0.00017542     0.000376648         0.322883      -0.0165759      0.000321576    -0.000161481
                    -0.000418714     0.000141429       -0.0867206       -0.103121      -0.00070951      0.00023276       -0.0566082        0.983891
                        0.323129      -0.0155436     -0.000772353     0.000761185         0.599383        -0.65289      0.000245513     0.000623729
                     0.000227034    -7.48097e-05       -0.0557548        0.984338       0.00027643     0.000687841       -0.0965878       0.0929228
281710                 -0.824425        -0.37292     -0.000173296     0.000377314         0.321839       -0.016826       0.00032165    -0.000162257
                    -0.000418132     0.000141894       -0.0867583       -0.103111     -0.000709382     0.000233958       -0.0561671        0.983914
                        0.322085      -0.0157938      -0.00077125     0.000763976         0.598409       -0.654212      0.000246297      0.00062348
                     0.000227105    -7.52251e-05       -0.0553127        0.984361      0.000276999      0.00068755       -0.0965409        0.092995
281712                  -0.82518       -0.372044     -0.000171164     0.000377977         0.320794      -0.0170731      0.000321721    -0.000163035
                    -0.000417548     0.000142357        -0.086796         -0.1031     -0.000709252     0.000235156       -0.0557261        0.983936
                         0.32104       -0.016041     -0.000770136     0.000766769         0.597432       -0.655533      0.000247082     0.000623226
                     0.000227174     -7.5641e-05       -0.0548705        0.984384      0.000277567     0.000687259        -0.096494       0.0930671
281714                 -0.825933       -0.371165     -0.000169024     0.000378635         0.319747      -0.0173172      0.000321789    -0.000163815
                    -0.000416956     0.000142819       -0.0868337        -0.10309     -0.000709117     0.000236355        -0.055285        0.983959
                        0.319994      -0.0162851      -0.00076901     0.000769566          0.59645       -0.656853      0.000247867      0.00062297
                     0.000227243    -7.60574e-05       -0.0544284        0.984407      0.000278135     0.000686966        -0.096447       0.0931392
281716                 -0.826686       -0.370284     -0.000166876     0.000379289         0.318699      -0.0175582      0.000321854    -0.000164598
                    -0.000416372     0.000143292       -0.0868714       -0.103079      -0.00070898     0.000237554       -0.0548439        0.983981
                        0.318947      -0.0165261     -0.000767872     0.000772365         0.595464        -0.65817      0.000248653     0.000622709
                     0.000227311    -7.64744e-05       -0.0539863        0.984429      0.000278702     0.000686672          -0.0964       0.0932113
281718                 -0.827436       -0.369401     -0.000164719     0.000379939         0.317649       -0.017796      0.000321916    -0.000165383
                    -0.000415789     0.000143751       -0.0869091       -0.103068      -0.00070884     0.000238754       -0.0544028        0.984003
                        0.317898      -0.0167641     -0.000766722     0.000775169         0.594474       -0.659487      0.000249439     0.000622444
                     0.000227378    -7.68919e-05       -0.0535441        0.984452      0.000279268     0.000686377        -0.096353       0.0932834
281720                 -0.828186       -0.368515     -0.000162553     0.000380585         0.316598      -0.0180308      0.000321975    -0.000166171
                    -0.000415201      0.00014421       -0.0869468       -0.103058     -0.000708696     0.000239954       -0.0539617        0.984025
                        0.316848       -0.016999     -0.000765559     0.000777976          0.59348       -0.660802      0.000250225     0.000622176
                     0.000227444      -7.731e-05        -0.053102        0.984474      0.000279834      0.00068608       -0.0963059       0.0933554
281722                 -0.828934       -0.367627     -0.000160377     0.000381226         0.315546      -0.0182625      0.000322031     -0.00016696
                    -0.000414611     0.000144667       -0.0869845       -0.103047     -0.000708549     0.000241154       -0.0535206        0.984046
                        0.315797      -0.0172308     -0.000764385     0.000780787         0.592482       -0.662116      0.000251012     0.000621904
                      0.00022751    -7.77285e-05       -0.0526599        0.984495      0.000280399     0.000685783       -0.0962587       0.0934274
281724                 -0.829681       -0.366736     -0.000158192     0.000381863         0.314493      -0.0184911      0.000322084    -0.000167753
                    -0.000414019     0.000145123       -0.0870222       -0.103037     -0.000708399     0.000242354       -0.0530796        0.984068
                        0.314745      -0.0174595     -0.000763197     0.000783601          0.59148       -0.663428      0.000251799     0.000621628
                     0.000227574    -7.81476e-05       -0.0522177        0.984517      0.000280963     0.000685484       -0.0962115       0.0934994
281726                 -0.830427       -0.365843     -0.000155998     0.000382496         0.313438      -0.0187166      0.000322135    -0.000168548
                    -0.000413426     0.000145579       -0.0870599       -0.103026     -0.000708246     0.000243555       -0.0526384        0.984089
                        0.313691       -0.017685     -0.000761997      0.00078642         0.590474       -0.664739      0.000252586     0.000621348
                     0.000227638    -7.85673e-05       -0.0517756        0.984538      0.000281526     0.000685185       -0.0961642       0.0935714
281728                 -0.831171       -0.364948     -0.000153794     0.000383125         0.312382      -0.0189389      0.000322182    -0.000169345
                    -0.000412831     0.000146033       -0.0870976       -0.103015     -0.000708089     0.000244756       -0.0521973         0.98411
                        0.312636      -0.0179075     -0.000760784     0.000789244         0.589464       -0.666048      0.000253374     0.000621064
                     0.000227701    -7.89874e-05       -0.0513334         0.98456      0.000282089     0.000684884       -0.0961169       0.0936433
281730                 -0.831914        -0.36405      -0.00015158     0.000383749         0.311325      -0.0191582      0.000322227    -0.000170145
                    -0.000412234     0.000146485       -0.0871353       -0.103005      -0.00070793     0.000245958       -0.0517562        0.984131
                         0.31158      -0.0181268     -0.000759558     0.000792071          0.58845       -0.667356      0.000254162     0.000620776
                     0.000227763    -7.94081e-05       -0.0508913        0.984581      0.000282652     0.000684582       -0.0960695       0.0937152
281732                 -0.832655        -0.36315     -0.000149356     0.000384369         0.310267      -0.0193742      0.000322269    -0.000170947
                    -0.000411636     0.000146937        -0.087173       -0.102994     -0.000707767      0.00024716       -0.0513151        0.984152
                        0.310522       -0.018343     -0.000758318     0.000794903         0.587432       -0.668662      0.000254951     0.000620484
                     0.000227825    -7.98294e-05       -0.0504491        0.984601      0.000283213     0.000684279       -0.0960221       0.0937871
281734                 -0.833395       -0.362247     -0.000147121     0.000384985         0.309207      -0.0195872      0.000322309    -0.000171751
                    -0.000411037     0.000147387       -0.0872107       -0.102983       -0.0007076     0.000248362        -0.050874        0.984172
                        0.309463      -0.0185561     -0.000757066     0.000797739         0.586409       -0.669966       0.00025574     0.000620188
                     0.000227886    -8.02511e-05       -0.0500069        0.984622      0.000283774     0.000683974       -0.0959746        0.093859
281736                 -0.834133       -0.361342     -0.000144876     0.000385596         0.308147      -0.0197969      0.000322346    -0.000172558
                    -0.000410436     0.000147836       -0.0872484       -0.102973     -0.000707431     0.000249564       -0.0504328        0.984192
                        0.308403       -0.018766     -0.000755799      0.00080058         0.585383       -0.671269      0.000256529     0.000619889
                     0.000227945    -8.06734e-05       -0.0495648        0.984642      0.000284334     0.000683669       -0.0959271       0.0939308
281738                  -0.83487       -0.360435     -0.000142621     0.000386202         0.307085      -0.0200035       0.00032238    -0.000173367
                    -0.000409834     0.000148283       -0.0872861       -0.102962     -0.000707258     0.000250766       -0.0499917        0.984212
                        0.307342      -0.0189727     -0.000754519     0.000803425         0.584353       -0.672571      0.000257318     0.000619585
                     0.000228004    -8.10963e-05       -0.0491226        0.984663      0.000284894     0.000683363       -0.0958795       0.0940026
281740                 -0.835606       -0.359525     -0.000140355     0.000386804         0.306022       -0.020207      0.000322412    -0.000174179
                     -0.00040923     0.000148729       -0.0873239       -0.102951     -0.000707082     0.000251969       -0.0495506        0.984232
                         0.30628      -0.0191763     -0.000753226     0.000806275         0.583318       -0.673871      0.000258108     0.000619277
                     0.000228063    -8.15197e-05       -0.0486804        0.984683      0.000285452     0.000683055       -0.0958319       0.0940744
281742                  -0.83634       -0.358613     -0.000138079     0.000387401         0.304957      -0.0204072       0.00032244    -0.000174993
                    -0.000408625     0.000149174       -0.0873616        -0.10294     -0.000706903     0.000253172       -0.0491094        0.984252
                        0.305216      -0.0193767     -0.000751918     0.000809129          0.58228       -0.675169      0.000258898     0.000618965
                      0.00022812    -8.19436e-05       -0.0482383        0.984703       0.00028601     0.000682746       -0.0957842       0.0941462
281744                 -0.837073       -0.357699     -0.000135791     0.000387994         0.303892      -0.0206043      0.000322467    -0.000175808
                    -0.000408018     0.000149617       -0.0873993        -0.10293      -0.00070672     0.000254375       -0.0486683        0.984271
                        0.304152      -0.0195739     -0.000750596     0.000811988         0.581238       -0.676466      0.000259688     0.000618649
                     0.000228176    -8.23682e-05       -0.0477961        0.984722      0.000286568     0.000682436       -0.0957365       0.0942179
281746                 -0.837804       -0.356782     -0.000133493     0.000388582         0.302825      -0.0207982       0.00032249    -0.000176626
                     -0.00040741     0.000150059        -0.087437       -0.102919     -0.000706534     0.000255579       -0.0482271        0.984291
                        0.303086      -0.0197679      -0.00074926     0.000814851         0.580191       -0.677761      0.000260479     0.000618328
                     0.000228232    -8.27932e-05       -0.0473539        0.984742      0.000287124     0.000682125       -0.0956887       0.0942897
281748                 -0.838534       -0.355862     -0.000131185     0.000389165         0.301757      -0.0209888      0.000322511    -0.000177446
                      -0.0004068       0.0001505       -0.0874747       -0.102908     -0.000706345     0.000256782       -0.0477859         0.98431
                        0.302019      -0.0199587      -0.00074791     0.000817719         0.579141       -0.679054       0.00026127     0.000618004
                     0.000228287    -8.32189e-05       -0.0469117        0.984761       0.00028768     0.000681812       -0.0956408       0.0943613
281750                 -0.839263       -0.354941     -0.000128865     0.000389743         0.300688      -0.0211763      0.000322529    -0.000178268
                     -0.00040619     0.000150939       -0.0875124       -0.102897     -0.000706154     0.000257987       -0.0473448        0.984329
                        0.300951      -0.0201463     -0.000746546     0.000820592         0.578086       -0.680346      0.000262061     0.000617675
                     0.000228341     -8.3645e-05       -0.0464695         0.98478      0.000288235     0.000681499        -0.095593        0.094433
281752                 -0.839989       -0.354017     -0.000126534     0.000390316         0.299618      -0.0213605      0.000322545    -0.000179093
                    -0.000405577     0.000151377       -0.0875501       -0.102886     -0.000705957     0.000259193       -0.0469036        0.984347
                        0.299881      -0.0203307     -0.000745167     0.000823469         0.577027       -0.681636      0.000262852     0.000617342
                     0.000228394    -8.40718e-05       -0.0460273        0.984799      0.000288791     0.000681184        -0.095545       0.0945047
281754                 -0.840715        -0.35309     -0.000124193     0.000390884         0.298547      -0.0215415      0.000322557    -0.000179919
                    -0.000404964     0.000151813       -0.0875878       -0.102876     -0.000705757     0.000260397       -0.0464624        0.984366
                        0.298811      -0.0205119     -0.000743773     0.000826351         0.575965       -0.682924      0.000263644     0.000617005
                     0.000228446    -8.44991e-05       -0.0455852        0.984817      0.000289344     0.000680871        -0.095497       0.0945763
281756                 -0.841438       -0.352161      -0.00012184     0.000391447         0.297474      -0.0217193      0.000322567    -0.000180747
                    -0.000404349     0.000152248       -0.0876256       -0.102865     -0.000705554     0.000261601       -0.0460212        0.984384
                        0.297739      -0.0206898     -0.000742366     0.000829237         0.574898       -0.684211      0.000264436     0.000616664
                     0.000228498    -8.49269e-05        -0.045143        0.984836      0.000289896     0.000680554        -0.095449       0.0946479
281758                 -0.842161        -0.35123     -0.000119477     0.000392005         0.296401      -0.0218938      0.000322574    -0.000181577
                    -0.000403732     0.000152681       -0.0876633       -0.102854     -0.000705348     0.000262805       -0.0455801        0.984402
                        0.296667      -0.0208645     -0.000740943     0.000832127         0.573827       -0.685496      0.000265228     0.000616318
                     0.000228548    -8.53553e-05       -0.0447008        0.984854      0.000290448     0.000680236       -0.0954009       0.0947194
281760                 -0.842882       -0.350297     -0.000117103     0.000392558         0.295326      -0.0220651      0.000322579     -0.00018241
                    -0.000403115     0.000153113        -0.087701       -0.102843     -0.000705139      0.00026401       -0.0451389         0.98442
                        0.295593      -0.0210359     -0.000739506     0.000835022         0.572753       -0.686779       0.00026602     0.000615968
                     0.000228598    -8.57842e-05       -0.0442586        0.984872      0.000290999     0.000679917       -0.0953528        0.094791
281762                 -0.843601       -0.349361     -0.000114718     0.000393106          0.29425      -0.0222331       0.00032258    -0.000183244
                    -0.000402495     0.000153544       -0.0877387       -0.102832     -0.000704926     0.000265215       -0.0446977        0.984438
                        0.294518      -0.0212041     -0.000738054     0.000837921         0.571674        -0.68806      0.000266813     0.000615614
