! TOUCHSTONE file generated by CST MICROWAVE STUDIO
! Date and time: Tue Oct 14 07:26:36 2025
! Project name: Teste_Macro_Metasurface_Nanopilar.cst
! Parameters = {H=600; L_x=95; L_y=185; Lambda=1064; Max_L=200; Min_L=70; PathPara=1; Phi=0; Step_L=10; Theta=0; p=520; phaseX=180; phaseY=0}
! Header version: 2018
! Port assignment regex: !\s*Touchstone port\s*([0-9]+)\s*=\s*(CST MWS port|CST DS port)\s*([0-9]+|Zmin|Zmax)\s*\(\"(.*)\"\)(\s*mode\s*([0-9]+))?.*
! Touchstone port assignment:
! Touchstone port 1 = CST MWS port Zmax ("") mode 1
! Touchstone port 2 = CST MWS port Zmax ("") mode 2
! Touchstone port 3 = CST MWS port Zmin ("") mode 1
! Touchstone port 4 = CST MWS port Zmin ("") mode 2
! S-Parameters are not renormalized. Each port impedance will be approximated by the real part at minimum frequency. The values are described via the [Reference] keyword.
! Default impedance is overridden by [Reference]
[Version] 2.0
# GHz S RI R 376.73
[Number of Ports] 4
[Reference]
376.73 376.73 259.814 259.814 
[Number of Frequencies] 51
[Network Data]
281700                 -0.651503       -0.478469     -0.000466576     2.76516e-05         0.556234       0.0745865     -0.000153904     0.000635652
                    -0.000729037     0.000159863       -0.0969499       -0.155609      0.000405435     0.000156128        -0.155612       -0.964981
                        0.557009       0.0741304      0.000649797     3.20917e-05         0.726449       -0.336847      0.000342694    -0.000117295
                    -8.79607e-05     0.000556999        -0.155441       -0.964648      0.000395247    -0.000132334       -0.0415705        0.178095
281702                 -0.651998       -0.478182     -0.000466303     2.72713e-05          0.55595       0.0741002     -0.000153525     0.000636197
                    -0.000728827     0.000160005       -0.0970168       -0.155587      0.000406105     0.000155841        -0.156066       -0.964904
                        0.556726       0.0736442       0.00065076     3.14343e-05         0.726316       -0.337672      0.000342253     -0.00011692
                    -8.74778e-05     0.000557345        -0.155895       -0.964571      0.000395131    -0.000131869       -0.0414731        0.178135
281704                 -0.652493       -0.477894      -0.00046603     2.68895e-05         0.555666       0.0736143     -0.000153144     0.000636743
                    -0.000728617     0.000160146       -0.0970837       -0.155565      0.000406776     0.000155554         -0.15652       -0.964827
                        0.556443       0.0731581      0.000651724     3.07748e-05         0.726181       -0.338497       0.00034181    -0.000116543
                     -8.6994e-05     0.000557691        -0.156348       -0.964494      0.000395017    -0.000131404       -0.0413758        0.178175
281706                 -0.652989       -0.477605     -0.000465758     2.65063e-05         0.555382       0.0731287     -0.000152762     0.000637288
                    -0.000728407     0.000160286       -0.0971506       -0.155543      0.000407446     0.000155264        -0.156973       -0.964749
                        0.556158       0.0726722      0.000652689     3.01133e-05         0.726045       -0.339322      0.000341365    -0.000116165
                    -8.65092e-05     0.000558036        -0.156802       -0.964417      0.000394903    -0.000130938       -0.0412784        0.178215
281708                 -0.653484       -0.477316     -0.000465486     2.61217e-05         0.555097       0.0726435     -0.000152377     0.000637834
                    -0.000728197     0.000160426       -0.0972176       -0.155522      0.000408117     0.000154974        -0.157427       -0.964672
                        0.555873       0.0721864      0.000653654     2.94499e-05         0.725909       -0.340148       0.00034092    -0.000115786
                    -8.60235e-05     0.000558381        -0.157255       -0.964339      0.000394791    -0.000130471        -0.041181        0.178255
281710                 -0.653979       -0.477026     -0.000465215     2.57357e-05         0.554811       0.0721586     -0.000151991      0.00063838
                    -0.000727987     0.000160566       -0.0972845         -0.1555      0.000408787     0.000154683        -0.157881       -0.964594
                        0.555587       0.0717008      0.000654619     2.87844e-05         0.725771       -0.340974      0.000340473    -0.000115406
                    -8.55369e-05     0.000558726        -0.157708       -0.964262      0.000394679    -0.000130004       -0.0410835        0.178295
281712                 -0.654474       -0.476736     -0.000464944     2.53482e-05         0.554524       0.0716741     -0.000151603     0.000638926
                    -0.000727777     0.000160706       -0.0973514       -0.155478      0.000409457      0.00015439        -0.158335       -0.964516
                          0.5553       0.0712153      0.000655585     2.81169e-05         0.725632         -0.3418      0.000340025    -0.000115024
                    -8.50494e-05      0.00055907        -0.158162       -0.964184      0.000394568    -0.000129537        -0.040986        0.178335
281714                  -0.65497       -0.476445     -0.000464674     2.49593e-05         0.554236         0.07119     -0.000151212     0.000639472
                    -0.000727567     0.000160844       -0.0974183       -0.155456      0.000410127     0.000154096        -0.158788       -0.964437
                        0.555012       0.0707302      0.000656552     2.74474e-05         0.725492       -0.342627      0.000339576    -0.000114642
                     -8.4561e-05     0.000559414        -0.158615       -0.964106      0.000394458    -0.000129068       -0.0408885        0.178374
281716                 -0.655465       -0.476153     -0.000464404     2.45689e-05         0.553948       0.0707062     -0.000150819     0.000640019
                    -0.000727357     0.000160983       -0.0974852       -0.155434      0.000410798     0.000153801        -0.159242       -0.964359
                        0.554723       0.0702453      0.000657519     2.67758e-05         0.725352       -0.343453      0.000339125    -0.000114258
                    -8.40717e-05     0.000559758        -0.159068       -0.964027      0.000394349      -0.0001286       -0.0407909        0.178414
281718                  -0.65596       -0.475861     -0.000464135     2.41771e-05         0.553659       0.0702228     -0.000150424     0.000640566
                    -0.000727148     0.000161121       -0.0975521       -0.155412      0.000411468     0.000153504        -0.159696        -0.96428
                        0.554434       0.0697607      0.000658487     2.61022e-05          0.72521        -0.34428      0.000338674    -0.000113872
                    -8.35816e-05     0.000560102        -0.159521       -0.963949      0.000394241     -0.00012813       -0.0406933        0.178454
281720                 -0.656456       -0.475568     -0.000463866     2.37839e-05          0.55337       0.0697397     -0.000150027     0.000641113
                    -0.000726938     0.000161259        -0.097619        -0.15539      0.000412138     0.000153207        -0.160149       -0.964201
                        0.554144       0.0692764      0.000659456     2.54266e-05         0.725067       -0.345107      0.000338222    -0.000113486
                    -8.30907e-05     0.000560445        -0.159975        -0.96387      0.000394134     -0.00012766       -0.0405957        0.178493
281722                 -0.656951       -0.475275     -0.000463598     2.33892e-05         0.553079        0.069257     -0.000149627     0.000641661
                    -0.000726729     0.000161396       -0.0976859       -0.155368      0.000412808     0.000152908        -0.160603       -0.964122
                        0.553853       0.0687924      0.000660424     2.47489e-05         0.724923       -0.345935       0.00033777    -0.000113098
                    -8.25989e-05     0.000560788        -0.160428       -0.963791      0.000394028     -0.00012719        -0.040498        0.178533
281724                 -0.657446       -0.474981     -0.000463331     2.29931e-05         0.552788       0.0687747     -0.000149225      0.00064221
                    -0.000726519     0.000161532       -0.0977528       -0.155346      0.000413478     0.000152608        -0.161056       -0.964042
                        0.553561       0.0683088      0.000661394     2.40692e-05         0.724778       -0.346763      0.000337316    -0.000112709
                    -8.21064e-05     0.000561131        -0.160881       -0.963712      0.000393922    -0.000126719       -0.0404003        0.178572
281726                 -0.657942       -0.474686     -0.000463064     2.25955e-05         0.552497       0.0682927      -0.00014882     0.000642761
                     -0.00072631     0.000161669       -0.0978197       -0.155324      0.000414148     0.000152307         -0.16151       -0.963963
                        0.553269       0.0678256      0.000662364     2.33874e-05         0.724633        -0.34759      0.000336862    -0.000112319
                    -8.16131e-05     0.000561473        -0.161334       -0.963633      0.000393818    -0.000126247       -0.0403025        0.178611
281728                 -0.658437       -0.474391     -0.000462797     2.21964e-05         0.552204       0.0678111     -0.000148413     0.000643312
                      -0.0007261     0.000161804       -0.0978866       -0.155302      0.000414817     0.000152004        -0.161963       -0.963883
                        0.552976       0.0673427      0.000663334     2.27035e-05         0.724486       -0.348419      0.000336408    -0.000111927
                     -8.1119e-05     0.000561815        -0.161787       -0.963553      0.000393715    -0.000125775       -0.0402048        0.178651
281730                 -0.658932       -0.474095     -0.000462531     2.17959e-05         0.551911       0.0673299     -0.000148004     0.000643865
                    -0.000725891     0.000161939       -0.0979535       -0.155279      0.000415487     0.000151701        -0.162417       -0.963803
                        0.552682       0.0668603      0.000664306     2.20176e-05         0.724338       -0.349247      0.000335953    -0.000111535
                    -8.06242e-05     0.000562158         -0.16224       -0.963473      0.000393612    -0.000125302        -0.040107         0.17869
281732                 -0.659428       -0.473798     -0.000462266      2.1394e-05         0.551617        0.066849     -0.000147592      0.00064442
                    -0.000725682     0.000162074       -0.0980204       -0.155257      0.000416157     0.000151396         -0.16287       -0.963723
                        0.552388       0.0663783      0.000665277     2.13296e-05         0.724189       -0.350076      0.000335498    -0.000111141
                    -8.01287e-05       0.0005625        -0.162693       -0.963393       0.00039351    -0.000124829       -0.0400091        0.178729
281734                 -0.659923       -0.473501     -0.000462001     2.09906e-05         0.551323       0.0663685     -0.000147179     0.000644976
                    -0.000725473     0.000162208       -0.0980873       -0.155235      0.000416827      0.00015109        -0.163323       -0.963642
                        0.552093       0.0658967      0.000666249     2.06396e-05         0.724039       -0.350904      0.000335042    -0.000110746
                    -7.96325e-05     0.000562842        -0.163146       -0.963313       0.00039341    -0.000124355       -0.0399113        0.178768
281736                 -0.660419       -0.473203     -0.000461736     2.05857e-05         0.551027       0.0658884     -0.000146765     0.000645535
                    -0.000725264     0.000162341       -0.0981541       -0.155213      0.000417496     0.000150782        -0.163777       -0.963561
                        0.551797       0.0654156      0.000667222     1.99474e-05         0.723888       -0.351734      0.000334587    -0.000110349
                    -7.91357e-05     0.000563183        -0.163599       -0.963233       0.00039331    -0.000123881       -0.0398134        0.178807
281738                 -0.660914       -0.472905     -0.000461473     2.01793e-05         0.550732       0.0654086     -0.000146348     0.000646096
                    -0.000725055     0.000162473        -0.098221        -0.15519      0.000418166     0.000150474         -0.16423        -0.96348
                        0.551501        0.064935      0.000668196     1.92532e-05         0.723736       -0.352563      0.000334131    -0.000109952
                    -7.86383e-05     0.000563525        -0.164052       -0.963152      0.000393211    -0.000123406       -0.0397154        0.178846
281740                 -0.661409       -0.472606     -0.000461209     1.97715e-05         0.550435       0.0649292     -0.000145932     0.000646659
                    -0.000724847     0.000162605       -0.0982879       -0.155168      0.000418835     0.000150164        -0.164683       -0.963399
                        0.551204       0.0644548      0.000669169     1.85569e-05         0.723582       -0.353392      0.000333675    -0.000109554
                    -7.81404e-05     0.000563867        -0.164505       -0.963071      0.000393113     -0.00012293       -0.0396174        0.178885
281742                 -0.661905       -0.472307     -0.000460946     1.93622e-05         0.550137       0.0644502     -0.000145514     0.000647224
                    -0.000724638     0.000162736       -0.0983547       -0.155146      0.000419505     0.000149853        -0.165136       -0.963318
                        0.550907       0.0639751      0.000670144     1.78584e-05         0.723428       -0.354222       0.00033322    -0.000109154
                    -7.76419e-05     0.000564209        -0.164958        -0.96299      0.000393016    -0.000122454       -0.0395194        0.178924
281744                   -0.6624       -0.472006     -0.000460684     1.89514e-05         0.549839       0.0639716     -0.000145097     0.000647791
                     -0.00072443     0.000162867       -0.0984216       -0.155123      0.000420174      0.00014954         -0.16559       -0.963236
                        0.550609        0.063496      0.000671119     1.71579e-05         0.723273       -0.355052      0.000332764    -0.000108754
                    -7.71429e-05     0.000564551         -0.16541       -0.962909       0.00039292    -0.000121978       -0.0394214        0.178963
281746                 -0.662896       -0.471705     -0.000460422     1.85392e-05          0.54954       0.0634933     -0.000144679      0.00064836
                    -0.000724221     0.000162997       -0.0984885       -0.155101      0.000420843     0.000149227        -0.166043       -0.963155
                         0.55031       0.0630173      0.000672095     1.64552e-05         0.723117       -0.355883      0.000332309    -0.000108352
                    -7.66435e-05     0.000564893        -0.165863       -0.962827      0.000392825    -0.000121501       -0.0393233        0.179002
281748                 -0.663391       -0.471404     -0.000460161     1.81254e-05         0.549241       0.0630155     -0.000144262     0.000648931
                    -0.000724013     0.000163126       -0.0985553       -0.155079      0.000421513     0.000148912        -0.166496       -0.963073
                         0.55001       0.0625391      0.000673071     1.57504e-05          0.72296       -0.356713      0.000331854     -0.00010795
                    -7.61437e-05     0.000565235        -0.166316       -0.962745       0.00039273    -0.000121023       -0.0392252        0.179041
281750                 -0.663887       -0.471102     -0.000459901     1.77102e-05         0.548941        0.062538     -0.000143846     0.000649502
                    -0.000723805     0.000163254       -0.0986222       -0.155056      0.000422182     0.000148596        -0.166949        -0.96299
                        0.549711       0.0620614      0.000674047     1.50435e-05         0.722801       -0.357544      0.000331399    -0.000107547
                    -7.56435e-05     0.000565577        -0.166769       -0.962663      0.000392637    -0.000120545       -0.0391271        0.179079
281752                 -0.664382       -0.470799      -0.00045964     1.72935e-05          0.54864       0.0620609     -0.000143431     0.000650075
                    -0.000723597     0.000163381        -0.098689       -0.155034      0.000422851     0.000148279        -0.167402       -0.962908
                         0.54941       0.0615843      0.000675025     1.43345e-05         0.722642       -0.358375      0.000330945    -0.000107142
                     -7.5143e-05     0.000565919        -0.167221       -0.962581      0.000392545    -0.000120066       -0.0390289        0.179118
281754                 -0.664877       -0.470496     -0.000459381     1.68753e-05         0.548338       0.0615841     -0.000143017     0.000650647
                    -0.000723389     0.000163508       -0.0987559       -0.155011       0.00042352      0.00014796        -0.167855       -0.962825
                        0.549109       0.0611076      0.000676003     1.36233e-05         0.722481       -0.359206      0.000330491    -0.000106737
                    -7.46422e-05     0.000566262        -0.167674       -0.962499      0.000392453    -0.000119587       -0.0389307        0.179157
281756                 -0.665373       -0.470192     -0.000459122     1.64556e-05         0.548036       0.0611078     -0.000142603     0.000651219
                    -0.000723181     0.000163633       -0.0988227       -0.154988      0.000424189      0.00014764        -0.168308       -0.962743
                        0.548807       0.0606314      0.000676981     1.29099e-05          0.72232       -0.360037      0.000330038    -0.000106331
                     -7.4141e-05     0.000566605        -0.168127       -0.962416      0.000392363    -0.000119107       -0.0388325        0.179195
281758                 -0.665868       -0.469887     -0.000458863     1.60343e-05         0.547733       0.0606318     -0.000142189      0.00065179
                    -0.000722974     0.000163758       -0.0988896       -0.154966      0.000424858     0.000147319        -0.168761        -0.96266
                        0.548504       0.0601556       0.00067796     1.21944e-05         0.722158       -0.360869      0.000329585    -0.000105925
                    -7.36395e-05     0.000566947        -0.168579       -0.962333      0.000392273    -0.000118626       -0.0387342        0.179234
281760                 -0.666364       -0.469582     -0.000458605     1.56116e-05         0.547429       0.0601563     -0.000141776      0.00065236
                    -0.000722767     0.000163882       -0.0989564       -0.154943      0.000425527     0.000146997        -0.169214       -0.962576
                        0.548201       0.0596802       0.00067894     1.14768e-05         0.721994       -0.361701      0.000329133    -0.000105517
                    -7.31376e-05      0.00056729        -0.169032        -0.96225      0.000392184    -0.000118145       -0.0386359        0.179272
281762                 -0.666859       -0.469276     -0.000458348     1.51873e-05         0.547124       0.0596811     -0.000141363      0.00065293
                    -0.000722559     0.000164006       -0.0990232       -0.154921      0.000426195     0.000146673        -0.169667       -0.962493
                        0.547897       0.0592052       0.00067992     1.07569e-05         0.721829       -0.362533      0.000328682    -0.000105109
