! TOUCHSTONE file generated by CST MICROWAVE STUDIO
! Date and time: Tue Oct 14 07:29:56 2025
! Project name: Teste_Macro_Metasurface_Nanopilar.cst
! Parameters = {H=600; L_x=150; L_y=130; Lambda=1064; Max_L=200; Min_L=70; PathPara=1; Phi=0; Step_L=10; Theta=0; p=520; phaseX=180; phaseY=0}
! Header version: 2018
! Port assignment regex: !\s*Touchstone port\s*([0-9]+)\s*=\s*(CST MWS port|CST DS port)\s*([0-9]+|Zmin|Zmax)\s*\(\"(.*)\"\)(\s*mode\s*([0-9]+))?.*
! Touchstone port assignment:
! Touchstone port 1 = CST MWS port Zmax ("") mode 1
! Touchstone port 2 = CST MWS port Zmax ("") mode 2
! Touchstone port 3 = CST MWS port Zmin ("") mode 1
! Touchstone port 4 = CST MWS port Zmin ("") mode 2
! S-Parameters are not renormalized. Each port impedance will be approximated by the real part at minimum frequency. The values are described via the [Reference] keyword.
! Default impedance is overridden by [Reference]
[Version] 2.0
# GHz S RI R 376.73
[Number of Ports] 4
[Reference]
376.73 376.73 259.814 259.814 
[Number of Frequencies] 51
[Network Data]
281700                -0.0925179       -0.122498      0.000934996     -0.00139124        0.0673292        0.980972       0.00240347     -0.00105072
                     0.000858944      -0.0014925        -0.167951       -0.288462       0.00208274     -0.00122115         0.592761        0.724712
                       0.0668634        0.980723       0.00212916     -0.00120706       -0.0738158        0.133829       0.00284722    -6.29282e-05
                       0.0024391     -0.00118666         0.592882        0.724797        0.0026793    -6.64949e-06         0.250624        0.214317
281702                -0.0925611       -0.122486      0.000934441     -0.00139243         0.067767        0.980939       0.00240313     -0.00105204
                      0.00085825     -0.00149368        -0.168082       -0.288498       0.00208227     -0.00122285         0.593114        0.724375
                       0.0672993        0.980691       0.00212905     -0.00120864       -0.0737412        0.133889       0.00284822    -6.44866e-05
                      0.00243913     -0.00118839         0.593233        0.724463        0.0026803    -8.27105e-06          0.25086        0.214187
281704                -0.0926043       -0.122474      0.000933884     -0.00139361        0.0682048        0.980907       0.00240279     -0.00105336
                     0.000857556     -0.00149486        -0.168212       -0.288534        0.0020818     -0.00122454         0.593467        0.724038
                       0.0677351        0.980659       0.00212895     -0.00121023       -0.0736665        0.133949       0.00284922    -6.60477e-05
                      0.00243917     -0.00119012         0.593585        0.724128       0.00268131    -9.89351e-06         0.251095        0.214057
281706                -0.0926476       -0.122462      0.000933326     -0.00139479        0.0686425        0.980874       0.00240244     -0.00105468
                      0.00085686     -0.00149604        -0.168342        -0.28857       0.00208133     -0.00122623         0.593819        0.723701
                       0.0681709        0.980627       0.00212884     -0.00121182       -0.0735917        0.134009       0.00285022    -6.76114e-05
                      0.00243921     -0.00119185         0.593936        0.723793       0.00268232    -1.15169e-05         0.251331        0.213926
281708                -0.0926908        -0.12245      0.000932766     -0.00139598        0.0690803        0.980841       0.00240209       -0.001056
                     0.000856163     -0.00149722        -0.168473       -0.288607       0.00208086     -0.00122793         0.594172        0.723364
                       0.0686067        0.980594       0.00212872     -0.00121342        -0.073517        0.134068       0.00285122    -6.91778e-05
                      0.00243924     -0.00119358         0.594286        0.723458       0.00268333    -1.31412e-05         0.251566        0.213795
281710                 -0.092734       -0.122438      0.000932205     -0.00139716         0.069518        0.980808       0.00240174     -0.00105732
                     0.000855465      -0.0014984        -0.168603       -0.288643       0.00208039     -0.00122962         0.594524        0.723026
                       0.0690424        0.980561       0.00212861     -0.00121501       -0.0734422        0.134128       0.00285222    -7.07468e-05
                      0.00243928     -0.00119531         0.594637        0.723122       0.00268434    -1.47664e-05         0.251802        0.213664
281712                -0.0927773       -0.122426      0.000931642     -0.00139835        0.0699556        0.980775       0.00240139     -0.00105864
                     0.000854766     -0.00149958        -0.168734       -0.288679       0.00207993     -0.00123132         0.594877        0.722688
                       0.0694782        0.980528        0.0021285      -0.0012166       -0.0733673        0.134188       0.00285323    -7.23185e-05
                      0.00243931     -0.00119705         0.594987        0.722786       0.00268535    -1.63926e-05         0.252038        0.213532
281714                -0.0928205       -0.122414      0.000931077     -0.00139953        0.0703933        0.980742       0.00240103     -0.00105996
                     0.000854066     -0.00150076        -0.168865       -0.288715       0.00207946     -0.00123301         0.595229         0.72235
                       0.0699139        0.980495       0.00212838     -0.00121819       -0.0732924        0.134247       0.00285423    -7.38929e-05
                      0.00243934     -0.00119878         0.595337        0.722449       0.00268636    -1.80197e-05         0.252273        0.213401
281716                -0.0928637       -0.122402      0.000930512     -0.00140072        0.0708309        0.980708       0.00240067     -0.00106128
                     0.000853365     -0.00150195        -0.168996       -0.288751       0.00207899     -0.00123471         0.595581        0.722011
                       0.0703497        0.980462       0.00212827     -0.00121978       -0.0732174        0.134307       0.00285523    -7.54699e-05
                      0.00243938     -0.00120052         0.595686        0.722113       0.00268737    -1.96477e-05         0.252509        0.213269
281718                 -0.092907        -0.12239      0.000929944      -0.0014019        0.0712685        0.980674       0.00240031      -0.0010626
                     0.000852663     -0.00150313        -0.169126       -0.288787       0.00207853     -0.00123641         0.595932        0.721672
                       0.0707854        0.980428       0.00212815     -0.00122138       -0.0731424        0.134367       0.00285624    -7.70496e-05
                      0.00243941     -0.00120225         0.596036        0.721776       0.00268838    -2.12767e-05         0.252745        0.213137
281720                -0.0929502       -0.122377      0.000929376     -0.00140309        0.0717061         0.98064       0.00239994     -0.00106392
                      0.00085196     -0.00150431        -0.169257       -0.288823       0.00207807     -0.00123811         0.596284        0.721333
                        0.071221        0.980394       0.00212804     -0.00122297       -0.0730674        0.134426       0.00285724     -7.8632e-05
                      0.00243944     -0.00120399         0.596385        0.721438       0.00268939    -2.29067e-05          0.25298        0.213005
281722                -0.0929934       -0.122365      0.000928806     -0.00140428        0.0721437        0.980606       0.00239958     -0.00106524
                     0.000851255     -0.00150549        -0.169389       -0.288859        0.0020776     -0.00123981         0.596635        0.720994
                       0.0716567         0.98036       0.00212792     -0.00122457       -0.0729923        0.134486       0.00285825     -8.0217e-05
                      0.00243947     -0.00120573         0.596734          0.7211       0.00269041    -2.45376e-05         0.253216        0.212872
281724                -0.0930367       -0.122353      0.000928235     -0.00140547        0.0725812        0.980571       0.00239921     -0.00106656
                      0.00085055     -0.00150667         -0.16952       -0.288895       0.00207714     -0.00124151         0.596987        0.720655
                       0.0720923        0.980326        0.0021278     -0.00122616       -0.0729171        0.134545       0.00285926    -8.18048e-05
                       0.0024395     -0.00120747         0.597083        0.720762       0.00269142    -2.61696e-05         0.253452         0.21274
281726                -0.0930799       -0.122341      0.000927662     -0.00140665        0.0730188        0.980537       0.00239884     -0.00106788
                     0.000849844     -0.00150785        -0.169651       -0.288931       0.00207668     -0.00124322         0.597338        0.720315
                        0.072528        0.980292       0.00212768     -0.00122776        -0.072842        0.134604       0.00286027    -8.33952e-05
                      0.00243953     -0.00120921         0.597432        0.720424       0.00269243    -2.78025e-05         0.253688        0.212607
281728                -0.0931231       -0.122329      0.000927088     -0.00140784        0.0734562        0.980502       0.00239846      -0.0010692
                     0.000849136     -0.00150903        -0.169782       -0.288967       0.00207622     -0.00124492         0.597689        0.719975
                       0.0729636        0.980257       0.00212756     -0.00122936       -0.0727667        0.134664       0.00286128    -8.49883e-05
                      0.00243955     -0.00121095         0.597781        0.720086       0.00269345    -2.94364e-05         0.253923        0.212474
281730                -0.0931664       -0.122317      0.000926513     -0.00140903        0.0738937        0.980467       0.00239808     -0.00107052
                     0.000848428     -0.00151022        -0.169914       -0.289003       0.00207576     -0.00124663          0.59804        0.719635
                       0.0733991        0.980223       0.00212744     -0.00123095       -0.0726915        0.134723       0.00286229    -8.65842e-05
                      0.00243958     -0.00121269         0.598129        0.719747       0.00269446    -3.10713e-05         0.254159         0.21234
281732                -0.0932096       -0.122305      0.000925937     -0.00141022        0.0743312        0.980432        0.0023977     -0.00107184
                     0.000847718      -0.0015114        -0.170045       -0.289039        0.0020753     -0.00124833          0.59839        0.719294
                       0.0738347        0.980188       0.00212731     -0.00123255       -0.0726161        0.134782        0.0028633    -8.81827e-05
                      0.00243961     -0.00121443         0.598478        0.719408       0.00269548    -3.27073e-05         0.254395        0.212207
281734                -0.0932528       -0.122292       0.00092536     -0.00141141        0.0747686        0.980396       0.00239732     -0.00107316
                     0.000847008     -0.00151258        -0.170177       -0.289075       0.00207484     -0.00125004         0.598741        0.718954
                       0.0742703        0.980153       0.00212719     -0.00123415       -0.0725408        0.134842       0.00286431    -8.97839e-05
                      0.00243963     -0.00121617         0.598826        0.719069        0.0026965    -3.43442e-05         0.254631        0.212073
281736                 -0.093296        -0.12228      0.000924782     -0.00141261         0.075206        0.980361       0.00239694     -0.00107448
                     0.000846296     -0.00151376        -0.170309       -0.289111       0.00207439     -0.00125175         0.599091        0.718613
                       0.0747058        0.980117       0.00212707     -0.00123575       -0.0724653        0.134901       0.00286532    -9.13879e-05
                      0.00243966     -0.00121791         0.599174        0.718729       0.00269752    -3.59822e-05         0.254867        0.211939
281738                -0.0933393       -0.122268      0.000924203      -0.0014138        0.0756434        0.980325       0.00239655      -0.0010758
                     0.000845583     -0.00151495         -0.17044       -0.289147       0.00207393     -0.00125346         0.599441        0.718271
                       0.0751413        0.980082       0.00212695     -0.00123734       -0.0723899         0.13496       0.00286633    -9.29946e-05
                      0.00243968     -0.00121966         0.599522         0.71839       0.00269853    -3.76212e-05         0.255103        0.211805
281740                -0.0933825       -0.122256      0.000923623     -0.00141499        0.0760807        0.980289       0.00239616     -0.00107712
                      0.00084487     -0.00151613        -0.170572       -0.289183       0.00207348     -0.00125517         0.599791         0.71793
                       0.0755768        0.980046       0.00212682     -0.00123894       -0.0723144        0.135019       0.00286735     -9.4604e-05
                       0.0024397      -0.0012214          0.59987         0.71805       0.00269955    -3.92612e-05         0.255339         0.21167
281742                -0.0934257       -0.122243      0.000923042     -0.00141618        0.0765181        0.980252       0.00239577     -0.00107844
                     0.000844155     -0.00151731        -0.170704       -0.289219       0.00207302     -0.00125688         0.600141        0.717588
                       0.0760122         0.98001        0.0021267     -0.00124054       -0.0722388        0.135078       0.00286836    -9.62161e-05
                      0.00243973     -0.00122315         0.600218         0.71771       0.00270057    -4.09023e-05         0.255575        0.211536
281744                 -0.093469       -0.122231       0.00092246     -0.00141738        0.0769554        0.980216       0.00239537     -0.00107977
                     0.000843439      -0.0015185        -0.170836       -0.289255       0.00207257     -0.00125859         0.600491        0.717246
                       0.0764477        0.979974       0.00212658     -0.00124214       -0.0721632        0.135137       0.00286938    -9.78309e-05
                      0.00243975      -0.0012249         0.600566        0.717371       0.00270159    -4.25445e-05         0.255811        0.211401
281746                -0.0935122       -0.122219      0.000921878     -0.00141858        0.0773927        0.980179       0.00239497     -0.00108109
                     0.000842722     -0.00151968        -0.170968       -0.289292       0.00207211      -0.0012603         0.600841        0.716904
                       0.0768831        0.979938       0.00212645     -0.00124374       -0.0720876        0.135196       0.00287039    -9.94485e-05
                      0.00243977     -0.00122664         0.600914        0.717031       0.00270261    -4.41877e-05         0.256047        0.211266
281748                -0.0935554       -0.122207      0.000921294     -0.00141977        0.0778299        0.980143       0.00239457     -0.00108241
                     0.000842004     -0.00152086        -0.171101       -0.289328       0.00207166     -0.00126202          0.60119        0.716562
                       0.0773185        0.979901       0.00212633     -0.00124534       -0.0720119        0.135255       0.00287141    -0.000101069
                      0.00243979     -0.00122839         0.601262        0.716691       0.00270364     -4.5832e-05         0.256283         0.21113
281750                -0.0935986       -0.122194      0.000920711     -0.00142097        0.0782672        0.980106       0.00239417     -0.00108373
                     0.000841285     -0.00152205        -0.171233       -0.289364       0.00207121     -0.00126373         0.601539        0.716219
                       0.0777539        0.979865       0.00212621     -0.00124695       -0.0719362        0.135314       0.00287243    -0.000102692
                      0.00243981     -0.00123014         0.601609        0.716352       0.00270466    -4.74773e-05         0.256519        0.210995
281752                -0.0936419       -0.122182      0.000920126     -0.00142217        0.0787044        0.980068       0.00239376     -0.00108505
                     0.000840565     -0.00152323        -0.171365         -0.2894       0.00207076     -0.00126545         0.601888        0.715876
                       0.0781893        0.979828       0.00212608     -0.00124855       -0.0718604        0.135373       0.00287344    -0.000104318
                      0.00243983     -0.00123189         0.601956        0.716012       0.00270568    -4.91238e-05         0.256755        0.210859
281754                -0.0936851        -0.12217      0.000919541     -0.00142337        0.0791416        0.980031       0.00239335     -0.00108637
                     0.000839843     -0.00152441        -0.171498       -0.289436       0.00207031     -0.00126716         0.602237        0.715533
                       0.0786246        0.979791       0.00212596     -0.00125015       -0.0717846        0.135431       0.00287446    -0.000105946
                      0.00243985     -0.00123364         0.602303        0.715673       0.00270671    -5.07713e-05         0.256991        0.210723
281756                -0.0937283       -0.122157      0.000918956     -0.00142457        0.0795787        0.979993       0.00239294     -0.00108769
                     0.000839121      -0.0015256         -0.17163       -0.289472       0.00206986     -0.00126888         0.602586        0.715189
                         0.07906        0.979753       0.00212584     -0.00125175       -0.0717087         0.13549       0.00287548    -0.000107578
                      0.00243986     -0.00123539          0.60265        0.715334       0.00270773      -5.242e-05         0.257227        0.210587
281758                -0.0937715       -0.122145      0.000918369     -0.00142577        0.0800159        0.979956       0.00239253     -0.00108902
                     0.000838398     -0.00152678        -0.171763       -0.289508       0.00206941      -0.0012706         0.602935        0.714846
                       0.0794953        0.979716       0.00212572     -0.00125335       -0.0716328        0.135549        0.0028765    -0.000109212
                      0.00243988     -0.00123715         0.602996        0.714994       0.00270876    -5.40697e-05         0.257463         0.21045
281760                -0.0938148       -0.122132      0.000917782     -0.00142697         0.080453        0.979918       0.00239211     -0.00109034
                     0.000837673     -0.00152797        -0.171896       -0.289544       0.00206896     -0.00127232         0.603283        0.714502
                       0.0799306        0.979678       0.00212559     -0.00125496       -0.0715568        0.135608       0.00287752    -0.000110849
                       0.0024399      -0.0012389         0.603342        0.714655       0.00270978    -5.57205e-05         0.257699        0.210313
281762                 -0.093858        -0.12212      0.000917194     -0.00142817        0.0808901         0.97988       0.00239169     -0.00109166
                     0.000836948     -0.00152915        -0.172028       -0.289581       0.00206852     -0.00127404         0.603631        0.714158
                       0.0803658         0.97964       0.00212547     -0.00125656       -0.0714808        0.135666       0.00287855    -0.000112488
