! TOUCHSTONE file generated by CST MICROWAVE STUDIO
! Date and time: Tue Oct 14 07:26:43 2025
! Project name: Teste_Macro_Metasurface_Nanopilar.cst
! Parameters = {H=600; L_x=100; L_y=105; Lambda=1064; Max_L=200; Min_L=70; PathPara=1; Phi=0; Step_L=10; Theta=0; p=520; phaseX=180; phaseY=0}
! Header version: 2018
! Port assignment regex: !\s*Touchstone port\s*([0-9]+)\s*=\s*(CST MWS port|CST DS port)\s*([0-9]+|Zmin|Zmax)\s*\(\"(.*)\"\)(\s*mode\s*([0-9]+))?.*
! Touchstone port assignment:
! Touchstone port 1 = CST MWS port Zmax ("") mode 1
! Touchstone port 2 = CST MWS port Zmax ("") mode 2
! Touchstone port 3 = CST MWS port Zmin ("") mode 1
! Touchstone port 4 = CST MWS port Zmin ("") mode 2
! S-Parameters are not renormalized. Each port impedance will be approximated by the real part at minimum frequency. The values are described via the [Reference] keyword.
! Default impedance is overridden by [Reference]
[Version] 2.0
# GHz S RI R 376.73
[Number of Ports] 4
[Reference]
376.73 376.73 259.814 259.814 
[Number of Frequencies] 51
[Network Data]
281700                -0.0140277      -0.0375924      0.000243017     0.000679028         0.663695       -0.743099     -0.000131943    -0.000247115
                     0.000394673     0.000623902       0.00615029     -0.00943384     -0.000191332    -0.000115386         0.782411       -0.618732
                        0.664125       -0.743262     -0.000210935    -0.000178238       -0.0389558     -0.00871021      0.000652895      0.00027297
                    -0.000119078    -0.000210323         0.782821       -0.618837      0.000639042     0.000375567        -0.010739      0.00462743
281702                -0.0140402      -0.0376031      0.000243407     0.000679043         0.663385       -0.743374     -0.000132015    -0.000247059
                     0.000395133     0.000623619       0.00615045      -0.0094495     -0.000191394    -0.000115358         0.782162       -0.619047
                        0.663816       -0.743538     -0.000211003    -0.000178148       -0.0389754     -0.00868895       0.00065306     0.000272887
                    -0.000119021    -0.000210327         0.782572       -0.619152      0.000639212     0.000375326       -0.0107508      0.00463267
281704                -0.0140526      -0.0376138      0.000243797     0.000679057         0.663076       -0.743649     -0.000132087    -0.000247003
                     0.000395592     0.000623335       0.00615061     -0.00946517     -0.000191455    -0.000115331         0.781912       -0.619361
                        0.663506       -0.743813     -0.000211071    -0.000178058        -0.038995     -0.00866767      0.000653224     0.000272804
                    -0.000118964    -0.000210331         0.782322       -0.619466      0.000639382     0.000375083       -0.0107626      0.00463791
281706                -0.0140651      -0.0376245      0.000244187     0.000679072         0.662767       -0.743924      -0.00013216    -0.000246947
                     0.000396051     0.000623051       0.00615075     -0.00948083     -0.000191516    -0.000115303         0.781662       -0.619676
                        0.663197       -0.744088     -0.000211139    -0.000177968       -0.0390146     -0.00864637      0.000653388     0.000272721
                    -0.000118906    -0.000210336         0.782073       -0.619781      0.000639551     0.000374841       -0.0107744      0.00464317
281708                -0.0140775      -0.0376352      0.000244577     0.000679086         0.662457       -0.744198     -0.000132232    -0.000246891
                     0.000396509     0.000622766       0.00615089      -0.0094965     -0.000191577    -0.000115276         0.781413        -0.61999
                        0.662887       -0.744363     -0.000211207    -0.000177877       -0.0390342     -0.00862506      0.000653552     0.000272638
                    -0.000118848    -0.000210341         0.781823       -0.620095      0.000639719     0.000374597       -0.0107862      0.00464845
281710                  -0.01409      -0.0376459      0.000244967       0.0006791         0.662148       -0.744473     -0.000132304    -0.000246834
                     0.000396967     0.000622481       0.00615101     -0.00951217     -0.000191638    -0.000115248         0.781163       -0.620304
                        0.662578       -0.744638     -0.000211275    -0.000177787       -0.0390538     -0.00860373      0.000653716     0.000272556
                     -0.00011879    -0.000210347         0.781573       -0.620409      0.000639887     0.000374353        -0.010798      0.00465373
281712                -0.0141024      -0.0376566      0.000245358     0.000679114         0.661838       -0.744748     -0.000132375    -0.000246778
                     0.000397424     0.000622195       0.00615113     -0.00952784     -0.000191699    -0.000115221         0.780913       -0.620618
                        0.662268       -0.744913     -0.000211343    -0.000177697       -0.0390734     -0.00858238       0.00065388     0.000272473
                    -0.000118731    -0.000210352         0.781323       -0.620723      0.000640054     0.000374109       -0.0108098      0.00465903
281714                -0.0141149      -0.0376673      0.000245748     0.000679127         0.661528       -0.745022     -0.000132447    -0.000246721
                     0.000397881     0.000621909       0.00615124     -0.00954351      -0.00019176    -0.000115193         0.780662       -0.620932
                        0.661958       -0.745188     -0.000211411    -0.000177607       -0.0390929     -0.00856101      0.000654044      0.00027239
                    -0.000118672    -0.000210358         0.781073       -0.621038       0.00064022     0.000373864       -0.0108216      0.00466434
281716                -0.0141274      -0.0376779      0.000246139      0.00067914         0.661218       -0.745296     -0.000132519    -0.000246665
                     0.000398338     0.000621622       0.00615133     -0.00955918      -0.00019182    -0.000115165         0.780412       -0.621245
                        0.661648       -0.745462     -0.000211479    -0.000177517       -0.0391125     -0.00853963      0.000654208     0.000272307
                    -0.000118613    -0.000210364         0.780823       -0.621352      0.000640386     0.000373619       -0.0108334      0.00466966
281718                -0.0141399      -0.0376886      0.000246529     0.000679153         0.660908        -0.74557     -0.000132591    -0.000246608
                     0.000398794     0.000621334       0.00615142     -0.00957486      -0.00019188    -0.000115138         0.780161       -0.621559
                        0.661338       -0.745737     -0.000211546    -0.000177426        -0.039132     -0.00851823      0.000654372     0.000272224
                    -0.000118553     -0.00021037         0.780573       -0.621665      0.000640551     0.000373373       -0.0108451      0.00467499
281720                -0.0141524      -0.0376993       0.00024692     0.000679166         0.660598       -0.745844     -0.000132662    -0.000246551
                      0.00039925     0.000621047        0.0061515     -0.00959053     -0.000191938    -0.000115111         0.779911       -0.621873
                        0.661027       -0.746011     -0.000211614    -0.000177336       -0.0391515     -0.00849681      0.000654536     0.000272141
                    -0.000118493    -0.000210377         0.780322       -0.621979      0.000640716     0.000373127       -0.0108569      0.00468034
281722                -0.0141649      -0.0377099      0.000247311     0.000679179         0.660287       -0.746118     -0.000132734    -0.000246494
                     0.000399705     0.000620758       0.00615156     -0.00960621     -0.000191993    -0.000115087          0.77966       -0.622186
                        0.660717       -0.746285     -0.000211681    -0.000177246        -0.039171     -0.00847538        0.0006547     0.000272059
                    -0.000118432    -0.000210383         0.780072       -0.622293       0.00064088     0.000372881       -0.0108687      0.00468569
281724                -0.0141774      -0.0377206      0.000247702     0.000679191         0.659977       -0.746392     -0.000132805    -0.000246437
                      0.00040016     0.000620469       0.00615162     -0.00962189     -0.000192044    -0.000115075         0.779409       -0.622499
                        0.660406       -0.746559     -0.000211749    -0.000177156       -0.0391905     -0.00845393      0.000654864     0.000271976
                    -0.000118372     -0.00021039         0.779821       -0.622606      0.000641043     0.000372635       -0.0108805      0.00469106
281726                  -0.01419      -0.0377313      0.000248093     0.000679203         0.659666       -0.746665     -0.000132877     -0.00024638
                     0.000400614      0.00062018       0.00615167     -0.00963757     -0.000192147    -0.000115082         0.779158       -0.622813
                        0.660096       -0.746833     -0.000211816    -0.000177065         -0.03921     -0.00843246      0.000655028     0.000271893
                    -0.000118311    -0.000210397          0.77957        -0.62292      0.000641206     0.000372388       -0.0108922      0.00469645
281728                -0.0142025      -0.0377419      0.000248484     0.000679215         0.659356       -0.746939     -0.000132948    -0.000246323
                     0.000401068      0.00061989       0.00615171     -0.00965325     -0.000192222    -0.000115014         0.778907       -0.623126
                        0.659785       -0.747107     -0.000211883    -0.000176975       -0.0392295     -0.00841097      0.000655192      0.00027181
                    -0.000118249    -0.000210404          0.77932       -0.623233      0.000641368     0.000372141        -0.010904      0.00470184
281730                -0.0142151      -0.0377526      0.000248875     0.000679227         0.659045       -0.747212     -0.000133019    -0.000246265
                     0.000401522     0.000619599       0.00615174     -0.00966894     -0.000192275    -0.000114976         0.778656       -0.623439
                        0.659474       -0.747381      -0.00021195    -0.000176885        -0.039249     -0.00838947      0.000655355     0.000271727
                    -0.000118188    -0.000210411         0.779068       -0.623547       0.00064153     0.000371894       -0.0109158      0.00470725
281732                -0.0142276      -0.0377632      0.000249266     0.000679238         0.658734       -0.747485     -0.000133091    -0.000246208
                     0.000401975     0.000619308       0.00615175     -0.00968462     -0.000192333    -0.000114945         0.778405       -0.623752
                        0.659163       -0.747654     -0.000212017    -0.000176795       -0.0392684     -0.00836795      0.000655519     0.000271644
                    -0.000118126    -0.000210418         0.778817        -0.62386      0.000641691     0.000371647       -0.0109275      0.00471267
281734                -0.0142402      -0.0377739      0.000249658      0.00067925         0.658423       -0.747758     -0.000133162    -0.000246151
                     0.000402428     0.000619017       0.00615176     -0.00970031     -0.000192392    -0.000114916         0.778153       -0.624065
                        0.658852       -0.747928     -0.000212084    -0.000176704       -0.0392879     -0.00834641      0.000655683     0.000271561
                    -0.000118064    -0.000210425         0.778566       -0.624173      0.000641851     0.000371399       -0.0109393       0.0047181
281736                -0.0142528      -0.0377845      0.000250049     0.000679261         0.658112       -0.748031     -0.000133233    -0.000246093
                      0.00040288     0.000618725       0.00615176     -0.00971599     -0.000192452    -0.000114887         0.777901       -0.624378
                        0.658541       -0.748201     -0.000212151    -0.000176614       -0.0393073     -0.00832485      0.000655847     0.000271478
                    -0.000118001    -0.000210432         0.778314       -0.624486      0.000642011     0.000371152       -0.0109511      0.00472354
281738                -0.0142654      -0.0377951      0.000250441     0.000679271           0.6578       -0.748304     -0.000133303    -0.000246035
                     0.000403332     0.000618432       0.00615175     -0.00973168     -0.000192512    -0.000114859          0.77765        -0.62469
                        0.658229       -0.748474     -0.000212218    -0.000176524       -0.0393268     -0.00830328      0.000656011     0.000271395
                    -0.000117939     -0.00021044         0.778063       -0.624799      0.000642171     0.000370904       -0.0109628      0.00472899
281740                 -0.014278      -0.0378058      0.000250833     0.000679282         0.657489       -0.748577     -0.000133374    -0.000245978
                     0.000403784     0.000618139       0.00615173     -0.00974737     -0.000192573     -0.00011483         0.777398       -0.625003
                        0.657918       -0.748747     -0.000212285    -0.000176434       -0.0393462     -0.00828169      0.000656174     0.000271312
                    -0.000117876    -0.000210447         0.777811       -0.625112       0.00064233     0.000370655       -0.0109746      0.00473446
281742                -0.0142906      -0.0378164      0.000251224     0.000679292         0.657177       -0.748849     -0.000133445     -0.00024592
                     0.000404235     0.000617846        0.0061517     -0.00976306     -0.000192634    -0.000114802         0.777146       -0.625315
                        0.657606        -0.74902     -0.000212351    -0.000176343       -0.0393656     -0.00826009      0.000656338     0.000271229
                    -0.000117812    -0.000210455         0.777559       -0.625424      0.000642488     0.000370405       -0.0109863      0.00473994
281744                -0.0143032       -0.037827      0.000251616     0.000679303         0.656866       -0.749122     -0.000133516    -0.000245862
                     0.000404686     0.000617552       0.00615166     -0.00977876     -0.000192696    -0.000114773         0.776894       -0.625628
                        0.657294       -0.749293     -0.000212418    -0.000176253       -0.0393849     -0.00823847      0.000656502     0.000271146
                    -0.000117749    -0.000210463         0.777307       -0.625737      0.000642644     0.000370153       -0.0109981      0.00474543
281746                -0.0143158      -0.0378377      0.000252008     0.000679313         0.656554       -0.749395     -0.000133587    -0.000245804
                     0.000405136     0.000617257       0.00615161     -0.00979445     -0.000192757    -0.000114745         0.776641        -0.62594
                        0.656983       -0.749566     -0.000212484    -0.000176163       -0.0394042      -0.0082165      0.000656665     0.000271063
                    -0.000117685     -0.00021047         0.777055       -0.626049      0.000642794     0.000369899       -0.0110098      0.00475093
281748                -0.0143284      -0.0378483        0.0002524     0.000679322         0.656242       -0.749666     -0.000133658    -0.000245745
                     0.000405586     0.000616962       0.00615155     -0.00981015     -0.000192818    -0.000114716         0.776389       -0.626252
                        0.656671       -0.749838     -0.000212551    -0.000176072       -0.0394237     -0.00819515      0.000656829      0.00027098
                     -0.00011762    -0.000210478         0.776803       -0.626362      0.000642934     0.000369655       -0.0110216      0.00475645
281750                -0.0143411      -0.0378589      0.000252793     0.000679332          0.65593       -0.749939     -0.000133726    -0.000245683
                     0.000406035     0.000616667       0.00615148     -0.00982584      -0.00019288    -0.000114688         0.776136       -0.626564
                        0.656359        -0.75011     -0.000212617    -0.000175982       -0.0394431     -0.00817348      0.000656991       0.0002709
                    -0.000117555    -0.000210486         0.776551       -0.626674      0.000643088     0.000369426       -0.0110333      0.00476198
281752                -0.0143537      -0.0378695      0.000253185     0.000679341         0.655618        -0.75021     -0.000133793    -0.000245628
                     0.000406484      0.00061637        0.0061514     -0.00984154     -0.000192941    -0.000114659         0.775884       -0.626876
                        0.656046       -0.750383     -0.000212683    -0.000175892       -0.0394624     -0.00815179       0.00065716     0.000270817
                    -0.000117487    -0.000210495         0.776298       -0.626986       0.00064325     0.000369186        -0.011045      0.00476752
281754                -0.0143664      -0.0378801      0.000253578      0.00067935         0.655306       -0.750482     -0.000133864    -0.000245571
                      0.00040693     0.000616071       0.00615131     -0.00985724     -0.000193002    -0.000114631         0.775631       -0.627188
                        0.655734       -0.750655     -0.000212748    -0.000175802       -0.0394817     -0.00813008      0.000657324     0.000270732
                    -0.000117413    -0.000210499         0.776046       -0.627299      0.000643411      0.00036894       -0.0110568      0.00477307
281756                 -0.014379      -0.0378907      0.000253975     0.000679358         0.654993       -0.750754     -0.000133934    -0.000245513
                     0.000407383     0.000615778       0.00615122     -0.00987294     -0.000193064    -0.000114602         0.775378         -0.6275
                        0.655422       -0.750927      -0.00021281    -0.000175714       -0.0395011     -0.00810835      0.000657487     0.000270648
                    -0.000117361    -0.000210485         0.775793       -0.627611      0.000643569     0.000368694       -0.0110685      0.00477863
281758                -0.0143917      -0.0379013      0.000254357     0.000679369         0.654681       -0.751026     -0.000134004    -0.000245455
                      0.00040783      0.00061548        0.0061511     -0.00988865     -0.000193125    -0.000114573         0.775125       -0.627812
                        0.655109       -0.751199     -0.000212887    -0.000175618       -0.0395204     -0.00808661      0.000657651     0.000270565
                    -0.000117305    -0.000210503          0.77554       -0.627922      0.000643725     0.000368447       -0.0110802      0.00478421
281760                -0.0144044      -0.0379119      0.000254753     0.000679377         0.654368       -0.751297     -0.000134074    -0.000245397
                     0.000408277     0.000615182       0.00615099     -0.00990435     -0.000193186    -0.000114545         0.774872       -0.628123
                        0.654797       -0.751471      -0.00021295    -0.000175529       -0.0395397     -0.00806485      0.000657815     0.000270482
                    -0.000117239    -0.000210515         0.775287       -0.628234      0.000643881     0.000368201        -0.011092       0.0047898
281762                -0.0144171      -0.0379225      0.000255146     0.000679385         0.654056       -0.751568     -0.000134144    -0.000245339
                     0.000408723     0.000614884       0.00615086     -0.00992006     -0.000193245    -0.000114518         0.774618       -0.628435
                        0.654484       -0.751742     -0.000213015    -0.000175439       -0.0395589     -0.00804307      0.000657979     0.000270398
