! TOUCHSTONE file generated by CST MICROWAVE STUDIO
! Date and time: Tue Oct 14 07:29:21 2025
! Project name: Teste_Macro_Metasurface_Nanopilar.cst
! Parameters = {H=600; L_x=140; L_y=150; Lambda=1064; Max_L=200; Min_L=70; PathPara=1; Phi=0; Step_L=10; Theta=0; p=520; phaseX=180; phaseY=0}
! Header version: 2018
! Port assignment regex: !\s*Touchstone port\s*([0-9]+)\s*=\s*(CST MWS port|CST DS port)\s*([0-9]+|Zmin|Zmax)\s*\(\"(.*)\"\)(\s*mode\s*([0-9]+))?.*
! Touchstone port assignment:
! Touchstone port 1 = CST MWS port Zmax ("") mode 1
! Touchstone port 2 = CST MWS port Zmax ("") mode 2
! Touchstone port 3 = CST MWS port Zmin ("") mode 1
! Touchstone port 4 = CST MWS port Zmin ("") mode 2
! S-Parameters are not renormalized. Each port impedance will be approximated by the real part at minimum frequency. The values are described via the [Reference] keyword.
! Default impedance is overridden by [Reference]
[Version] 2.0
# GHz S RI R 376.73
[Number of Ports] 4
[Reference]
376.73 376.73 259.814 259.814 
[Number of Frequencies] 51
[Network Data]
281700                 -0.442762       -0.488347      -0.00110734     -0.00130045         0.665821        0.270978      0.000437932     -0.00189839
                    -0.000952188     -0.00136792          -0.1386       -0.220051      0.000189572     -0.00246269         0.502891        0.818149
                        0.665913        0.271574     -0.000160054     -0.00216956         0.635377       -0.107874       0.00214819      -0.0012479
                     0.000479443     -0.00185453         0.503513         0.81728       0.00218011     -0.00108454         0.135313        0.218457
281702                 -0.443451       -0.488345      -0.00111062     -0.00129982         0.665658        0.270126        0.0004354     -0.00190063
                    -0.000954636     -0.00136752        -0.138683       -0.220069      0.000188149     -0.00246619         0.503274        0.817893
                        0.665748        0.270719     -0.000163634     -0.00217135          0.63566       -0.108866       0.00214786     -0.00125108
                      0.00047753      -0.0018564         0.503899        0.817023       0.00217732     -0.00108622         0.135504        0.218407
281704                 -0.444141       -0.488343       -0.0011139     -0.00129919         0.665492        0.269275      0.000432849     -0.00190286
                    -0.000957087     -0.00136711        -0.138765       -0.220087      0.000186722     -0.00246963         0.503656        0.817636
                        0.665582        0.269864     -0.000167229     -0.00217314         0.635942       -0.109861       0.00214753     -0.00125426
                     0.000475611     -0.00185826         0.504284        0.816766       0.00217452     -0.00108789         0.135695        0.218356
281706                 -0.444832       -0.488339      -0.00111719     -0.00129854         0.665325        0.268422      0.000430277     -0.00190509
                    -0.000959539      -0.0013667        -0.138848       -0.220106      0.000185293     -0.00247301         0.504039        0.817379
                        0.665414        0.269008     -0.000170839     -0.00217493         0.636224       -0.110857       0.00214719     -0.00125744
                     0.000473687     -0.00186013         0.504669        0.816509       0.00217174     -0.00108955         0.135886        0.218305
281708                 -0.445525       -0.488334      -0.00112047     -0.00129788         0.665156         0.26757      0.000427685     -0.00190731
                    -0.000961993     -0.00136629        -0.138931       -0.220124       0.00018386     -0.00247632         0.504421        0.817122
                        0.665244        0.268153     -0.000174464     -0.00217672         0.636503       -0.111856       0.00214685     -0.00126062
                     0.000471759     -0.00186199         0.505053        0.816251       0.00216896      -0.0010912         0.136077        0.218253
281710                 -0.446218       -0.488329      -0.00112376     -0.00129721         0.664986        0.266717      0.000425073     -0.00190952
                     -0.00096445     -0.00136587        -0.139014       -0.220142      0.000182422     -0.00247958         0.504803        0.816864
                        0.665072        0.267296     -0.000178105      -0.0021785         0.636782       -0.112856        0.0021465      -0.0012638
                     0.000469825     -0.00186385         0.505438        0.815994        0.0021662     -0.00109285         0.136269        0.218202
281712                 -0.446912       -0.488322      -0.00112705     -0.00129652         0.664814        0.265864      0.000422442     -0.00191173
                    -0.000966908     -0.00136545        -0.139097       -0.220161      0.000180979     -0.00248277         0.505185        0.816606
                        0.664898         0.26644     -0.000181761     -0.00218029         0.637059       -0.113858       0.00214614     -0.00126698
                     0.000467886     -0.00186571         0.505823        0.815735       0.00216345      -0.0010945          0.13646        0.218151
281714                 -0.447608       -0.488315      -0.00113035     -0.00129582          0.66464         0.26501      0.000419791     -0.00191393
                    -0.000969368     -0.00136502         -0.13918       -0.220179      0.000179532     -0.00248589         0.505567        0.816348
                        0.664723        0.265583     -0.000185434     -0.00218207         0.637335       -0.114862       0.00214578     -0.00127017
                     0.000465941     -0.00186758         0.506207        0.815477       0.00216071     -0.00109614         0.136651        0.218099
281716                 -0.448304       -0.488306      -0.00113364     -0.00129511         0.664464        0.264156      0.000417121     -0.00191612
                     -0.00097183     -0.00136459        -0.139264       -0.220197      0.000178078     -0.00248895         0.505948         0.81609
                        0.664545        0.264726     -0.000189122     -0.00218386          0.63761       -0.115868       0.00214541     -0.00127335
                     0.000463991     -0.00186944         0.506591        0.815218         0.002158     -0.00109778         0.136842        0.218047
281718                 -0.449002       -0.488297      -0.00113693     -0.00129439         0.664286        0.263302      0.000414432      -0.0019183
                    -0.000974295     -0.00136415        -0.139347       -0.220216      0.000176619     -0.00249193          0.50633        0.815832
                        0.664366        0.263868     -0.000192827     -0.00218564         0.637883       -0.116875       0.00214504     -0.00127654
                     0.000462036      -0.0018713         0.506976         0.81496       0.00215531     -0.00109943         0.137034        0.217995
281720                 -0.449701       -0.488286      -0.00114023     -0.00129365         0.664107        0.262448      0.000411724     -0.00192048
                    -0.000976761     -0.00136372         -0.13943       -0.220234      0.000175152     -0.00249485         0.506711        0.815573
                        0.664185         0.26301      -0.00019655     -0.00218743         0.638155       -0.117885       0.00214466     -0.00127973
                     0.000460075     -0.00187315          0.50736          0.8147       0.00215264     -0.00110107         0.137225        0.217943
281722                 -0.450401       -0.488275      -0.00114352      -0.0012929         0.663926        0.261593      0.000408997     -0.00192265
                    -0.000979229     -0.00136327        -0.139513       -0.220253      0.000173679     -0.00249769         0.507093        0.815314
                        0.664001        0.262151     -0.000200289     -0.00218922         0.638426       -0.118896       0.00214427     -0.00128291
                     0.000458108     -0.00187501         0.507744        0.814441       0.00215001     -0.00110272         0.137417        0.217891
281724                 -0.451102       -0.488263      -0.00114682     -0.00129214         0.663743        0.260738      0.000406253     -0.00192481
                    -0.000981699     -0.00136282        -0.139596       -0.220271      0.000172198     -0.00250045         0.507474        0.815055
                        0.663816        0.261293     -0.000204046     -0.00219101         0.638695        -0.11991       0.00214388      -0.0012861
                     0.000456136     -0.00187687         0.508128        0.814182        0.0021474     -0.00110438         0.137608        0.217839
281726                 -0.451804       -0.488249      -0.00115012     -0.00129137         0.663558        0.259882      0.000403491     -0.00192697
                    -0.000984171     -0.00136237         -0.13968       -0.220289      0.000170708     -0.00250314         0.507855        0.814796
                        0.663629        0.260434     -0.000207821      -0.0021928         0.638964       -0.120925       0.00214348     -0.00128929
                     0.000454158     -0.00187873         0.508512        0.813922       0.00214483     -0.00110605           0.1378        0.217786
281728                 -0.452507       -0.488235      -0.00115341     -0.00129058         0.663371        0.259026      0.000400711     -0.00192911
                    -0.000986645     -0.00136192        -0.139763       -0.220308       0.00016921     -0.00250575         0.508236        0.814536
                        0.663441        0.259574     -0.000211614      -0.0021946          0.63923       -0.121942       0.00214307     -0.00129249
                     0.000452174     -0.00188058         0.508896        0.813662        0.0021423     -0.00110772         0.137991        0.217734
281730                 -0.453212        -0.48822      -0.00115671     -0.00128978         0.663183         0.25817      0.000397915     -0.00193125
                    -0.000989121     -0.00136146        -0.139846       -0.220326      0.000167703     -0.00250827         0.508617        0.814277
                         0.66325        0.258715     -0.000215427      -0.0021964         0.639496       -0.122961       0.00214266     -0.00129568
                     0.000450184     -0.00188244         0.509279        0.813402        0.0021398     -0.00110941         0.138183        0.217681
281732                 -0.453917       -0.488204      -0.00116001     -0.00128897         0.662993        0.257313      0.000395102     -0.00193337
                    -0.000991599     -0.00136099         -0.13993       -0.220345      0.000166185     -0.00251072         0.508997        0.814017
                        0.663057        0.257854     -0.000219258      -0.0021982          0.63976       -0.123982       0.00214224     -0.00129887
                     0.000448189     -0.00188429         0.509663        0.813141       0.00213735     -0.00111111         0.138374        0.217628
281734                 -0.454623       -0.488186      -0.00116331     -0.00128815         0.662801        0.256456      0.000392272     -0.00193549
                    -0.000994078     -0.00136052        -0.140013       -0.220363      0.000164658     -0.00251309         0.509378        0.813756
                        0.662862        0.256994      -0.00022311     -0.00220001         0.640023       -0.125005       0.00214181     -0.00130207
                     0.000446187     -0.00188614         0.510047        0.812881       0.00213494     -0.00111283         0.138566        0.217575
281736                 -0.455331       -0.488168       -0.0011666     -0.00128732         0.662607        0.255599      0.000389428      -0.0019376
                     -0.00099656     -0.00136004        -0.140097       -0.220382      0.000163119     -0.00251537         0.509758        0.813496
                        0.662666        0.256133     -0.000226982     -0.00220183         0.640284        -0.12603       0.00214138     -0.00130527
                      0.00044418     -0.00188799         0.510431         0.81262       0.00213257     -0.00111456         0.138758        0.217522
281738                  -0.45604       -0.488149       -0.0011699     -0.00128648         0.662412        0.254741      0.000386567      -0.0019397
                    -0.000999043     -0.00135957         -0.14018         -0.2204      0.000161569     -0.00251757         0.510138        0.813235
                        0.662467        0.255272     -0.000230875     -0.00220366         0.640544       -0.127057       0.00214094     -0.00130847
                     0.000442166     -0.00188984         0.510814        0.812359       0.00213026     -0.00111631          0.13895        0.217469
281740                  -0.45675       -0.488129       -0.0011732     -0.00128562         0.662214        0.253883      0.000383693     -0.00194178
                     -0.00100153     -0.00135908        -0.140264       -0.220419      0.000160007     -0.00251968         0.510518        0.812975
                        0.662267        0.254411      -0.00023479     -0.00220549         0.640803       -0.128086       0.00214049     -0.00131168
                     0.000440146     -0.00189169         0.511198        0.812098       0.00212799     -0.00111809         0.139141        0.217415
281742                  -0.45746       -0.488107       -0.0011765     -0.00128476         0.662015        0.253025      0.000380804     -0.00194386
                     -0.00100402     -0.00135859        -0.140348       -0.220437      0.000158433     -0.00252171         0.510898        0.812713
                        0.662064        0.253549     -0.000238728     -0.00220734          0.64106       -0.129116       0.00214003     -0.00131488
                     0.000438121     -0.00189354         0.511582        0.811837       0.00212578     -0.00111989         0.139333        0.217362
281744                 -0.458172       -0.488085      -0.00117981     -0.00128389         0.661814        0.252166      0.000377901     -0.00194593
                     -0.00100651      -0.0013581        -0.140431       -0.220456      0.000156846     -0.00252366         0.511278        0.812452
                         0.66186        0.252687     -0.000242688      -0.0022092         0.641316       -0.130149       0.00213957     -0.00131809
                     0.000436089     -0.00189539         0.511965        0.811575       0.00212362     -0.00112171         0.139525        0.217308
281746                 -0.458886       -0.488062      -0.00118311       -0.001283         0.661611        0.251307      0.000374985     -0.00194799
                       -0.001009      -0.0013576        -0.140515       -0.220474      0.000155245     -0.00252551         0.511658        0.812191
                        0.661653        0.251825     -0.000246673     -0.00221107          0.64157       -0.131183        0.0021391      -0.0013213
                      0.00043405     -0.00189724         0.512349        0.811314       0.00212152     -0.00112356         0.139717        0.217254
281748                   -0.4596       -0.488037      -0.00118642     -0.00128211         0.661406        0.250448      0.000372056     -0.00195003
                     -0.00101149      -0.0013571        -0.140599       -0.220493       0.00015363     -0.00252728         0.512037        0.811929
                        0.661445        0.250962     -0.000250682     -0.00221295         0.641823       -0.132219       0.00213862     -0.00132451
                     0.000432006     -0.00189908         0.512733        0.811052       0.00211948     -0.00112544         0.139909          0.2172
281750                 -0.460315       -0.488012      -0.00118974      -0.0012812         0.661199        0.249588      0.000369116     -0.00195207
                     -0.00101398     -0.00135659        -0.140683       -0.220512      0.000152001     -0.00252896         0.512417        0.811667
                        0.661235          0.2501     -0.000254718     -0.00221485         0.642075       -0.133257       0.00213813     -0.00132773
                     0.000429955     -0.00190092         0.513117         0.81079        0.0021175     -0.00112735         0.140101        0.217146
281752                 -0.461032       -0.487986      -0.00119306     -0.00128029          0.66099        0.248728      0.000366164     -0.00195409
                     -0.00101648     -0.00135608        -0.140766        -0.22053      0.000150357     -0.00253056         0.512796        0.811405
                        0.661023        0.249236     -0.000258779     -0.00221678         0.642325       -0.134298       0.00213763     -0.00133095
                     0.000427898     -0.00190277           0.5135        0.810528       0.00211557      -0.0011293         0.140293        0.217092
281754                 -0.461749       -0.487958       -0.0011964     -0.00127937          0.66078        0.247868      0.000363201     -0.00195611
                     -0.00101898     -0.00135556         -0.14085       -0.220549      0.000148697     -0.00253207         0.513175        0.811142
                        0.660808        0.248373     -0.000262868     -0.00221872         0.642573        -0.13534       0.00213713     -0.00133417
                     0.000425835     -0.00190461         0.513884        0.810266       0.00211371     -0.00113127         0.140485        0.217037
281756                 -0.462468       -0.487929      -0.00119975     -0.00127843         0.660567        0.247007      0.000360228     -0.00195811
                     -0.00102148     -0.00135504        -0.140934       -0.220567      0.000147022     -0.00253349         0.513554         0.81088
                        0.660592        0.247509     -0.000266985     -0.00222068         0.642821       -0.136384       0.00213661      -0.0013374
                     0.000423766     -0.00190645         0.514268        0.810004       0.00211192     -0.00113329         0.140677        0.216983
281758                 -0.463187         -0.4879      -0.00120312     -0.00127749         0.660353        0.246146      0.000357246      -0.0019601
                     -0.00102398     -0.00135451        -0.141018       -0.220586      0.000145331     -0.00253482         0.513933        0.810617
                        0.660374        0.246645     -0.000271131     -0.00222267         0.643067       -0.137429       0.00213609     -0.00134063
                      0.00042169     -0.00190829         0.514652        0.809742       0.00211018     -0.00113534          0.14087        0.216928
281760                 -0.463908       -0.487869      -0.00120651     -0.00127652         0.660137        0.245285      0.000354254     -0.00196208
                     -0.00102648     -0.00135398        -0.141102       -0.220605      0.000143622     -0.00253607         0.514312        0.810354
                        0.660154        0.245781     -0.000275306     -0.00222469         0.643311       -0.138477       0.00213556     -0.00134387
                     0.000419608     -0.00191013         0.515036        0.809479       0.00210852     -0.00113743         0.141062        0.216873
281762                  -0.46463       -0.487837      -0.00120995     -0.00127554         0.659918        0.244423      0.000351254     -0.00196404
                     -0.00102899     -0.00135344        -0.141186       -0.220623      0.000141897     -0.00253723         0.514691        0.810091
                        0.659932        0.244916      -0.00027951     -0.00222673         0.643554       -0.139527       0.00213502     -0.00134711
