! TOUCHSTONE file generated by CST MICROWAVE STUDIO
! Date and time: Tue Oct 14 07:32:15 2025
! Project name: Teste_Macro_Metasurface_Nanopilar.cst
! Parameters = {H=600; L_x=185; L_y=180; Lambda=1064; Max_L=200; Min_L=70; PathPara=1; Phi=0; Step_L=10; Theta=0; p=520; phaseX=180; phaseY=0}
! Header version: 2018
! Port assignment regex: !\s*Touchstone port\s*([0-9]+)\s*=\s*(CST MWS port|CST DS port)\s*([0-9]+|Zmin|Zmax)\s*\(\"(.*)\"\)(\s*mode\s*([0-9]+))?.*
! Touchstone port assignment:
! Touchstone port 1 = CST MWS port Zmax ("") mode 1
! Touchstone port 2 = CST MWS port Zmax ("") mode 2
! Touchstone port 3 = CST MWS port Zmin ("") mode 1
! Touchstone port 4 = CST MWS port Zmin ("") mode 2
! S-Parameters are not renormalized. Each port impedance will be approximated by the real part at minimum frequency. The values are described via the [Reference] keyword.
! Default impedance is overridden by [Reference]
[Version] 2.0
# GHz S RI R 376.73
[Number of Ports] 4
[Reference]
376.73 376.73 259.814 259.814 
[Number of Frequencies] 51
[Network Data]
281700                 -0.379168        -0.27646      0.000314413    -1.65229e-05         0.787748        0.371522      0.000255085     0.000154092
                     0.000461651    -0.000107613         0.143817      -0.0655412     -0.000253164     6.80921e-05         0.913419       -0.253733
                        0.787556        0.371011     -0.000190298     4.00271e-05         0.449017          0.1316     -0.000135955    -4.84499e-06
                     8.26642e-05    -4.12721e-05         0.913719       -0.252937     -0.000482934    -8.70417e-05        -0.127609       0.0848758
281702                 -0.379206       -0.276201      0.000314264    -1.66609e-05         0.788026        0.371121      0.000255154     0.000153895
                     0.000462205    -0.000108285         0.144454      -0.0659058     -0.000252775      6.8033e-05         0.912907       -0.254729
                        0.787832        0.370609     -0.000190526     4.02738e-05         0.448987        0.131264     -0.000135856    -4.98876e-06
                      8.1946e-05    -4.20665e-05         0.913209       -0.253929     -0.000482603    -8.66079e-05        -0.128122       0.0854265
281704                 -0.379243       -0.275943      0.000314113       -1.68e-05         0.788303         0.37072      0.000255222     0.000153696
                     0.000462763     -0.00010896         0.145092      -0.0662728     -0.000252389      6.7974e-05         0.912392       -0.255725
                        0.788108        0.370207     -0.000190754       4.052e-05         0.448958        0.130927     -0.000135758    -5.13165e-06
                     8.12228e-05    -4.28635e-05         0.912697       -0.254923     -0.000482273    -8.61689e-05        -0.128635       0.0859801
281706                 -0.379281       -0.275685       0.00031396    -1.69405e-05          0.78858        0.370319      0.000255289     0.000153498
                     0.000463323    -0.000109636         0.145731      -0.0666422     -0.000252004     6.79151e-05         0.911874       -0.256722
                        0.788383        0.369805     -0.000190982     4.07656e-05         0.448929        0.130591     -0.000135661    -5.27359e-06
                     8.04946e-05    -4.36632e-05         0.912181       -0.255917     -0.000481943    -8.57248e-05        -0.129149       0.0865366
281708                 -0.379318       -0.275427      0.000313806    -1.70821e-05         0.788857        0.369918      0.000255356       0.0001533
                     0.000463887    -0.000110315         0.146371      -0.0670141     -0.000251622     6.78562e-05         0.911353        -0.25772
                        0.788657        0.369403     -0.000191211     4.10107e-05         0.448899        0.130256     -0.000135565    -5.41447e-06
                     7.97616e-05    -4.44654e-05         0.911663       -0.256912     -0.000481613    -8.52755e-05        -0.129663       0.0870961
281710                 -0.379356        -0.27517       0.00031365     -1.7225e-05         0.789133        0.369517      0.000255422     0.000153102
                     0.000464453    -0.000110996         0.147012      -0.0673885     -0.000251242     6.77973e-05          0.91083       -0.258718
                        0.788932        0.369001      -0.00019144     4.12553e-05          0.44887         0.12992      -0.00013547    -5.55415e-06
                     7.90237e-05    -4.52701e-05         0.911142       -0.257908     -0.000481283    -8.48211e-05        -0.130177       0.0876585
281712                 -0.379393       -0.274913      0.000313493    -1.73692e-05         0.789409        0.369115      0.000255486     0.000152903
                     0.000465023    -0.000111679         0.147654      -0.0677654     -0.000250865     6.77384e-05         0.910303       -0.259717
                        0.789205        0.368599      -0.00019167     4.14993e-05          0.44884        0.129585     -0.000135377    -5.69247e-06
                      7.8281e-05    -4.60774e-05         0.910618       -0.258904     -0.000480953    -8.43615e-05        -0.130691       0.0882239
281714                  -0.37943       -0.274656      0.000313335    -1.75146e-05         0.789684        0.368714       0.00025555     0.000152704
                     0.000465596    -0.000112364         0.148297      -0.0681448     -0.000250489     6.76796e-05         0.909773       -0.260716
                        0.789479        0.368197     -0.000191901     4.17427e-05          0.44881         0.12925     -0.000135285    -5.82918e-06
                     7.75335e-05    -4.68871e-05         0.910091       -0.259901     -0.000480624    -8.38968e-05        -0.131205       0.0887923
281716                 -0.379467         -0.2744      0.000313175    -1.76612e-05         0.789959        0.368312      0.000255613     0.000152505
                     0.000466172    -0.000113052         0.148942      -0.0685268     -0.000250116     6.76207e-05         0.909241       -0.261717
                        0.789751        0.367795     -0.000192132     4.19855e-05          0.44878        0.128916     -0.000135196    -5.96398e-06
                     7.67813e-05    -4.76992e-05         0.909561       -0.260899     -0.000480294     -8.3427e-05         -0.13172       0.0893638
281718                 -0.379504       -0.274143      0.000313014     -1.7809e-05         0.790233        0.367911      0.000255674     0.000152306
                     0.000466751    -0.000113742         0.149587      -0.0689112     -0.000249745     6.75619e-05         0.908705       -0.262718
                        0.790024        0.367393     -0.000192363     4.22277e-05          0.44875        0.128581      -0.00013511    -6.09642e-06
                     7.60246e-05    -4.85138e-05         0.909028       -0.261897     -0.000479965     -8.2952e-05        -0.132234       0.0899382
281720                 -0.379541       -0.273887      0.000312851    -1.79581e-05         0.790507        0.367509      0.000255734     0.000152107
                     0.000467333    -0.000114434         0.150234      -0.0692982     -0.000249376     6.75031e-05         0.908167       -0.263719
                        0.790296         0.36699     -0.000192595     4.24693e-05          0.44872        0.128247     -0.000135028    -6.22587e-06
                     7.52632e-05    -4.93307e-05         0.908492       -0.262895     -0.000479635     -8.2472e-05        -0.132749       0.0905157
281722                 -0.379578       -0.273632      0.000312687    -1.81083e-05          0.79078        0.367107      0.000255791     0.000151908
                     0.000467918    -0.000115128         0.150882      -0.0696878      -0.00024901     6.74442e-05         0.907625       -0.264721
                        0.790567        0.366588     -0.000192827     4.27103e-05          0.44869        0.127913     -0.000134951    -6.35142e-06
                     7.44973e-05      -5.015e-05         0.907953       -0.263895     -0.000479306    -8.19868e-05        -0.133264       0.0910963
281724                 -0.379615       -0.273376      0.000312521    -1.82598e-05         0.791053        0.366705      0.000255847     0.000151709
                     0.000468506    -0.000115825         0.151531        -0.07008     -0.000248646     6.73854e-05          0.90708       -0.265724
                        0.790838        0.366186      -0.00019306     4.29507e-05          0.44866         0.12758     -0.000134882    -6.47162e-06
                     7.37269e-05    -5.09717e-05          0.90741       -0.264895     -0.000478977    -8.14965e-05        -0.133779       0.0916799
281726                 -0.379651       -0.273121      0.000312354    -1.84125e-05         0.791326        0.366304      0.000255899      0.00015151
                     0.000469098    -0.000116524         0.152181      -0.0704748     -0.000248284     6.73264e-05         0.906533       -0.266727
                        0.791109        0.365783     -0.000193293     4.31905e-05          0.44863        0.127247     -0.000134824    -6.58417e-06
                     7.29521e-05    -5.17956e-05         0.906865       -0.265896     -0.000478648     -8.1001e-05        -0.134294       0.0922665
281728                 -0.379688       -0.272866      0.000312185    -1.85663e-05         0.791598        0.365902      0.000255947     0.000151312
                     0.000469692    -0.000117226         0.152832      -0.0708721     -0.000247924     6.72675e-05         0.905982       -0.267731
                        0.791379        0.365381     -0.000193527     4.34296e-05           0.4486        0.126914     -0.000134782    -6.68507e-06
                     7.21729e-05    -5.26218e-05         0.906317       -0.266897     -0.000478319    -8.05005e-05        -0.134809       0.0928563
281730                 -0.379725       -0.272612      0.000312015    -1.87214e-05         0.791869          0.3655       0.00025599     0.000151116
                      0.00047029     -0.00011793         0.153484      -0.0712721     -0.000247567     6.72085e-05         0.905428       -0.268736
                        0.791648        0.364978     -0.000193761      4.3668e-05         0.448569        0.126581     -0.000134766    -6.76672e-06
                     7.13894e-05    -5.34503e-05         0.905766       -0.267899      -0.00047799    -7.99949e-05        -0.135325       0.0934492
281732                 -0.379761       -0.272357      0.000311844    -1.88777e-05         0.792141        0.365098      0.000256027     0.000150922
                     0.000470891    -0.000118636         0.154137      -0.0716748     -0.000247212     6.71494e-05         0.904871       -0.269741
                        0.791917        0.364576     -0.000193995     4.39058e-05         0.448539        0.126249     -0.000134794    -6.81305e-06
                     7.06017e-05     -5.4281e-05         0.905212       -0.268901     -0.000477661    -7.94842e-05         -0.13584       0.0940451
281734                 -0.379797       -0.272103      0.000311672    -1.90351e-05         0.792411        0.364696      0.000256055     0.000150734
                     0.000471495    -0.000119345         0.154791        -0.07208     -0.000246859     6.70903e-05         0.904311       -0.270747
                        0.792186        0.364173     -0.000194231     4.41429e-05         0.448508        0.125917     -0.000134908    -6.78317e-06
                     6.98098e-05    -5.51138e-05         0.904654       -0.269904     -0.000477332    -7.89684e-05        -0.136356       0.0946442
281736                 -0.379834        -0.27185      0.000311498    -1.91938e-05         0.792682        0.364293      0.000256071     0.000150555
                     0.000472102    -0.000120057         0.155447       -0.072488     -0.000246509      6.7031e-05         0.903748       -0.271753
                        0.792454         0.36377     -0.000194466     4.43794e-05         0.448477        0.125585     -0.000135215     -6.5385e-06
                     6.90137e-05    -5.59489e-05         0.904094       -0.270908     -0.000477003    -7.84476e-05        -0.136872       0.0952465
281738                  -0.37987       -0.271596      0.000311322    -1.93536e-05         0.792952        0.363891      0.000256075     0.000150396
                     0.000472712    -0.000120771         0.156103      -0.0728986     -0.000246161     6.69717e-05         0.903182        -0.27276
                        0.792722        0.363368     -0.000194703     4.46151e-05         0.448447        0.125254     -0.000136042    -5.25222e-06
                     6.82136e-05    -5.67861e-05          0.90353       -0.271912     -0.000476674    -7.79216e-05        -0.137387       0.0958519
281740                 -0.379906       -0.271343      0.000311145    -1.95146e-05         0.793221        0.363489      0.000256069     0.000150273
                     0.000473326    -0.000121488         0.156761      -0.0733119     -0.000245815     6.69122e-05         0.902612       -0.273768
                         0.79299        0.362965     -0.000194939     4.48502e-05         0.448416        0.124922     -0.000127811    -7.92898e-07
                     6.74094e-05    -5.76255e-05         0.902964       -0.272917     -0.000476346    -7.73906e-05        -0.137903       0.0964605
281742                 -0.379942        -0.27109      0.000310967    -1.96769e-05          0.79349        0.363087      0.000256077      0.00015021
                     0.000473942    -0.000122207         0.157419       -0.073728     -0.000245472     6.68526e-05         0.902039       -0.274776
                        0.793256        0.362562     -0.000195177     4.50845e-05         0.448385        0.124591     -0.000130715    -8.34684e-06
                     6.66012e-05    -5.84669e-05         0.902394       -0.273923     -0.000476017    -7.68545e-05        -0.138419       0.0970722
281744                 -0.379978       -0.270837      0.000310788    -1.98403e-05         0.793759        0.362684       0.00025616     0.000150211
                     0.000474562    -0.000122929         0.158079      -0.0741467     -0.000245131     6.67928e-05         0.901464       -0.275784
                        0.793523        0.362159     -0.000195415     4.53182e-05         0.448354        0.124261     -0.000131951    -8.51651e-06
                     6.57891e-05    -5.93104e-05         0.901821       -0.274928     -0.000475689    -7.63134e-05        -0.138935       0.0976872
281746                 -0.380014       -0.270585      0.000310607    -2.00049e-05         0.794027        0.362282       0.00025638     0.000150192
                     0.000475185    -0.000123654          0.15874      -0.0745682     -0.000244792     6.67329e-05         0.900885       -0.276793
                        0.793789        0.361756     -0.000195654     4.55513e-05         0.448323         0.12393     -0.000132326    -8.57081e-06
                     6.49731e-05     -6.0156e-05         0.901244       -0.275935      -0.00047536    -7.57672e-05        -0.139451       0.0983053
281748                  -0.38005       -0.270333      0.000310425    -2.01708e-05         0.794294        0.361879      0.000256668     0.000150039
                      0.00047581    -0.000124381         0.159402      -0.0749924     -0.000244457     6.66727e-05         0.900303       -0.277803
                        0.794055        0.361353     -0.000195894     4.57838e-05         0.448292          0.1236     -0.000132461     -8.6467e-06
                     6.41533e-05    -6.10037e-05         0.900665       -0.276942     -0.000475031    -7.52159e-05        -0.139967       0.0989267
281750                 -0.380085       -0.270081      0.000310242     -2.0338e-05         0.794562        0.361477      0.000256902     0.000149774
                     0.000476439    -0.000125111         0.160065      -0.0754194     -0.000244123     6.66124e-05         0.899717       -0.278813
                         0.79432         0.36095     -0.000196135     4.60159e-05         0.448261         0.12327     -0.000132497    -8.74098e-06
                     6.33296e-05    -6.18533e-05         0.900082        -0.27795     -0.000474703    -7.46596e-05        -0.140483       0.0995513
281752                 -0.380121        -0.26983      0.000310057    -2.05065e-05         0.794828        0.361074      0.000257057     0.000149481
                     0.000477071    -0.000125844         0.160729      -0.0758492     -0.000243792     6.65518e-05         0.899129       -0.279824
                        0.794584        0.360547     -0.000196377      4.6248e-05          0.44823        0.122941     -0.000132484    -8.84732e-06
                     6.25023e-05     -6.2705e-05         0.899496       -0.278958     -0.000474374    -7.40983e-05        -0.140999        0.100179
281754                 -0.380156       -0.269578      0.000309871    -2.06764e-05         0.795095        0.360671      0.000257162       0.0001492
                     0.000477706     -0.00012658         0.161394      -0.0762818     -0.000243464      6.6491e-05         0.898537       -0.280836
                        0.794849        0.360144      -0.00019662      4.6481e-05         0.448198        0.122611     -0.000132441    -8.96163e-06
                     6.16712e-05    -6.35586e-05         0.898907       -0.279967     -0.000474046    -7.35319e-05        -0.141515         0.10081
281756                 -0.380192       -0.269327      0.000309685    -2.08476e-05         0.795361        0.360269      0.000257243     0.000148938
                     0.000478344    -0.000127318          0.16206      -0.0767172     -0.000243138     6.64299e-05         0.897942       -0.281848
                        0.795112        0.359741     -0.000196865     4.67167e-05         0.448167        0.122282     -0.000132381    -9.08142e-06
                     6.08365e-05    -6.44142e-05         0.898315       -0.280976     -0.000473718    -7.29605e-05        -0.142031        0.101445
281758                 -0.380227       -0.269077      0.000309498    -2.10201e-05         0.795626        0.359866      0.000257312     0.000148691
                     0.000478985     -0.00012806         0.162727      -0.0771555     -0.000242814     6.63685e-05         0.897343        -0.28286
                        0.795376        0.359338     -0.000197108     4.69574e-05         0.448135        0.121953     -0.000132308    -9.20515e-06
                     5.99981e-05    -6.52718e-05         0.897719       -0.281986     -0.000473389    -7.23841e-05        -0.142547        0.102083
281760                 -0.380263       -0.268826      0.000309311    -2.11933e-05         0.795891        0.359463      0.000257377     0.000148457
                     0.000479629    -0.000128804         0.163395      -0.0775965     -0.000242493     6.63067e-05         0.896742       -0.283873
                        0.795639        0.358934     -0.000197341     4.72007e-05         0.448104        0.121625     -0.000132226    -9.33185e-06
                     5.91562e-05    -6.61312e-05         0.897121       -0.282996      -0.00047306    -7.18027e-05        -0.143063        0.102724
281762                 -0.380298       -0.268576      0.000309125    -2.13661e-05         0.796156         0.35906       0.00025744     0.000148231
                     0.000480276    -0.000129551         0.164064      -0.0780405     -0.000242175     6.62445e-05         0.896137       -0.284886
                        0.795901        0.358531     -0.000197565     4.74338e-05         0.448072        0.121297     -0.000132138    -9.46088e-06
