! TOUCHSTONE file generated by CST MICROWAVE STUDIO
! Date and time: Tue Oct 14 07:32:55 2025
! Project name: Teste_Macro_Metasurface_Nanopilar.cst
! Parameters = {H=600; L_x=195; L_y=195; Lambda=1064; Max_L=200; Min_L=70; PathPara=1; Phi=0; Step_L=10; Theta=0; p=520; phaseX=180; phaseY=0}
! Header version: 2018
! Port assignment regex: !\s*Touchstone port\s*([0-9]+)\s*=\s*(CST MWS port|CST DS port)\s*([0-9]+|Zmin|Zmax)\s*\(\"(.*)\"\)(\s*mode\s*([0-9]+))?.*
! Touchstone port assignment:
! Touchstone port 1 = CST MWS port Zmax ("") mode 1
! Touchstone port 2 = CST MWS port Zmax ("") mode 2
! Touchstone port 3 = CST MWS port Zmin ("") mode 1
! Touchstone port 4 = CST MWS port Zmin ("") mode 2
! S-Parameters are not renormalized. Each port impedance will be approximated by the real part at minimum frequency. The values are described via the [Reference] keyword.
! Default impedance is overridden by [Reference]
[Version] 2.0
# GHz S RI R 376.73
[Number of Ports] 4
[Reference]
376.73 376.73 259.814 259.814 
[Number of Frequencies] 51
[Network Data]
281700                 -0.400143       -0.149827     -0.000326001     0.000321992         0.899774       -0.040168     -6.48047e-05    -0.000523368
                    -0.000289498     0.000287596        -0.400695       -0.149571     -7.41611e-05    -0.000601485         0.899479      -0.0409365
                        0.900064        -0.03988     -0.000152339    -0.000596548         0.382995        -0.18568      0.000176192    -0.000175287
                    -6.41432e-05    -0.000541467         0.899584      -0.0409551      0.000242529    -0.000288848          0.38331       -0.186152
281702                 -0.400206       -0.149708     -0.000325488      0.00032186         0.899748       -0.040536     -6.39383e-05    -0.000523996
                    -0.000285992     0.000287753        -0.400754       -0.149453      -8.0754e-05    -0.000607801         0.899456      -0.0413019
                        0.900043      -0.0402415     -0.000152797    -0.000595569         0.382914       -0.185882         0.000176    -0.000176385
                    -6.03531e-05    -0.000540999         0.899558      -0.0413213      0.000240712    -0.000291653         0.383228       -0.186353
281704                 -0.400269        -0.14959     -0.000324995     0.000321699         0.899723      -0.0409037     -6.30213e-05    -0.000524637
                    -0.000282627     0.000287762        -0.400813       -0.149335     -8.72159e-05    -0.000613651         0.899432      -0.0416673
                        0.900023      -0.0406032     -0.000153255    -0.000594558         0.382832       -0.186084      0.000175828    -0.000177507
                    -5.63003e-05    -0.000540596         0.899532      -0.0416875      0.000238796    -0.000294442         0.383147       -0.186553
281706                 -0.400331       -0.149472     -0.000324528     0.000321508         0.899697      -0.0412714     -6.20443e-05     -0.00052529
                    -0.000279407     0.000287639        -0.400872       -0.149217     -9.35361e-05    -0.000619049         0.899408      -0.0420328
                        0.900003       -0.040965     -0.000153715    -0.000593508         0.382751       -0.186285       0.00017568    -0.000178653
                    -5.19521e-05    -0.000540287         0.899507      -0.0420536      0.000236774    -0.000297213         0.383065       -0.186754
281708                 -0.400394       -0.149354     -0.000324095     0.000321289         0.899671      -0.0416388     -6.09954e-05    -0.000525951
                    -0.000276338     0.000287398        -0.400931       -0.149099     -9.97053e-05    -0.000624009         0.899385      -0.0423984
                        0.899984       -0.041327     -0.000154179    -0.000592409          0.38267       -0.186487       0.00017556    -0.000179825
                     -4.7273e-05     -0.00054011          0.89948      -0.0424197       0.00023464    -0.000299959         0.382983       -0.186955
281710                 -0.400457       -0.149236     -0.000323704     0.000321046         0.899645      -0.0420062     -5.98606e-05    -0.000526615
                    -0.000273423     0.000287051         -0.40099       -0.148981     -0.000105716    -0.000628544          0.89936       -0.042764
                        0.899964      -0.0416893     -0.000154652    -0.000591246         0.382588       -0.186688      0.000175473     -0.00018102
                    -4.22258e-05    -0.000540112         0.899454      -0.0427858      0.000232383    -0.000302675         0.382901       -0.187155
281712                 -0.400519       -0.149118     -0.000323363     0.000320785         0.899619      -0.0423734     -5.86232e-05    -0.000527271
                    -0.000270664     0.000286614        -0.401048       -0.148863     -0.000111561     -0.00063267         0.899336      -0.0431298
                        0.899945       -0.042052      -0.00015514    -0.000589995         0.382506       -0.186889      0.000175427    -0.000182239
                    -3.67731e-05    -0.000540355         0.899428      -0.0431518      0.000229992    -0.000305355         0.382819       -0.187356
281714                 -0.400581       -0.149001     -0.000323078     0.000320515         0.899594      -0.0427404     -5.72635e-05    -0.000527907
                    -0.000268064     0.000286101        -0.401107       -0.148745     -0.000117236    -0.000636399         0.899312      -0.0434955
                        0.899926      -0.0424151     -0.000155655    -0.000588627         0.382424        -0.18709      0.000175426    -0.000183478
                    -3.08803e-05    -0.000540918         0.899401      -0.0435178      0.000227455    -0.000307989         0.382737       -0.187556
281716                 -0.400643       -0.148883     -0.000322856     0.000320249         0.899568      -0.0431073     -5.57595e-05    -0.000528498
                    -0.000265622     0.000285524        -0.401166       -0.148627     -0.000122738    -0.000639747         0.899287      -0.0438614
                        0.899907      -0.0427787      -0.00015622    -0.000587088         0.382342       -0.187291      0.000175478    -0.000184736
                    -2.45203e-05    -0.000541895         0.899375      -0.0438838      0.000224754    -0.000310568         0.382654       -0.187757
281718                 -0.400705       -0.148765     -0.000322698     0.000320001         0.899542      -0.0434741     -5.40884e-05     -0.00052901
                    -0.000263337       0.0002849        -0.401225       -0.148509     -0.000128063    -0.000642727         0.899263      -0.0442273
                        0.899888      -0.0431428     -0.000156881    -0.000585296          0.38226       -0.187491      0.000175592    -0.000186007
                    -1.76806e-05    -0.000543402         0.899348      -0.0442497       0.00022187    -0.000313075         0.382572       -0.187957
281720                 -0.400766       -0.148648     -0.000322602     0.000319787         0.899516      -0.0438407       -5.223e-05    -0.000529393
                    -0.000261209     0.000284242        -0.401283       -0.148391     -0.000133211    -0.000645352         0.899238      -0.0445933
                        0.899868      -0.0435076     -0.000157737    -0.000583107         0.382178       -0.187692      0.000175774    -0.000187285
                    -1.03721e-05    -0.000545569         0.899321      -0.0446155      0.000218778    -0.000315495         0.382489       -0.188158
281722                 -0.400828       -0.148531      -0.00032256     0.000319624         0.899491      -0.0442073     -5.01735e-05    -0.000529577
                    -0.000259234     0.000283564        -0.401342       -0.148273     -0.000138183    -0.000647633         0.899213      -0.0449594
                        0.899849      -0.0438731     -0.000159044    -0.000580257         0.382095       -0.187892      0.000176033    -0.000188563
                    -2.64074e-06    -0.000548535         0.899294      -0.0449814      0.000215445      -0.0003178         0.382406       -0.188358
281724                 -0.400888       -0.148413     -0.000322559     0.000319525         0.899465      -0.0445737       -4.793e-05    -0.000529468
                     -0.00025741     0.000282883          -0.4014       -0.148154      -0.00014298    -0.000649583         0.899188      -0.0453255
                         0.89983      -0.0442393     -0.000161561    -0.000576281         0.382013       -0.188092      0.000176376     -0.00018983
                      5.4216e-06    -0.000552429         0.899267      -0.0453471      0.000211832    -0.000319958         0.382323       -0.188559
281726                 -0.400949       -0.148296     -0.000322582     0.000319501         0.899439        -0.04494     -4.55503e-05    -0.000528954
                    -0.000255732     0.000282215        -0.401459       -0.148036     -0.000147607     -0.00065121         0.899163      -0.0456916
                         0.89981      -0.0446063     -0.000168004    -0.000570883          0.38193       -0.188292      0.000176811    -0.000191073
                      1.3671e-05    -0.000557335          0.89924      -0.0457128      0.000207885    -0.000321919          0.38224       -0.188759
281728                 -0.401009       -0.148178     -0.000322608     0.000319558         0.899413      -0.0453063     -4.31459e-05    -0.000527919
                    -0.000254196     0.000281577        -0.401518       -0.147918      -0.00015207    -0.000652523         0.899138      -0.0460579
                        0.899789      -0.0449742     -0.000185604    -0.000571921         0.381847       -0.188492      0.000177342    -0.000192279
                     2.19183e-05    -0.000563246         0.899213      -0.0460783      0.000203534    -0.000323612         0.382157       -0.188959
281730                 -0.401069       -0.148061     -0.000322616     0.000319696         0.899387      -0.0456724      -4.0903e-05    -0.000526286
                    -0.000252795     0.000280991        -0.401576       -0.147799     -0.000156377    -0.000653526         0.899112      -0.0464241
                        0.899768      -0.0453428     -0.000187653    -0.000596894         0.381764       -0.188692      0.000177973    -0.000193432
                     2.99585e-05    -0.000569991         0.899185      -0.0464438      0.000198687    -0.000324928         0.382074       -0.189159
281732                 -0.401128       -0.147943     -0.000322587     0.000319911         0.899362      -0.0460384     -3.90671e-05    -0.000524064
                    -0.000251526     0.000280482        -0.401635       -0.147681     -0.000160542     -0.00065422         0.899087      -0.0467905
                        0.899746      -0.0457124     -0.000172582    -0.000600395         0.381682       -0.188892      0.000178707    -0.000194514
                     3.76269e-05    -0.000577154         0.899158      -0.0468091      0.000193217    -0.000325694          0.38199        -0.18936
281734                 -0.401187       -0.147825     -0.000322502     0.000320198         0.899336      -0.0464043     -3.78824e-05    -0.000521393
                    -0.000250382      0.00028008        -0.401694       -0.147562     -0.000164581    -0.000654599         0.899061      -0.0471568
                        0.899723      -0.0460827     -0.000166594    -0.000596585         0.381599       -0.189091      0.000179544    -0.000195508
                     4.48659e-05    -0.000583968         0.899131      -0.0471741       0.00018696    -0.000325626         0.381907        -0.18956
281736                 -0.401245       -0.147707     -0.000322344     0.000320551          0.89931      -0.0467701     -3.74994e-05    -0.000518535
                    -0.000249358     0.000279828        -0.401752       -0.147443     -0.000168519    -0.000654647         0.899035      -0.0475232
                        0.899698      -0.0464539     -0.000164386    -0.000593249         0.381515       -0.189291      0.000180487    -0.000196398
                     5.17337e-05    -0.000589184         0.899104       -0.047539      0.000179702    -0.000324222         0.381823        -0.18976
281738                 -0.401304       -0.147588       -0.0003221     0.000320971         0.899284      -0.0471358     -3.79071e-05     -0.00051578
                    -0.000248457     0.000279785        -0.401811       -0.147325     -0.000172395    -0.000654332         0.899009      -0.0478896
                        0.899671      -0.0468258     -0.000163535    -0.000590629         0.381432        -0.18949       0.00018154    -0.000197171
                     5.81721e-05    -0.000590886         0.899079      -0.0479036      0.000171222    -0.000320551          0.38174        -0.18996
281740                 -0.401361       -0.147469     -0.000321757     0.000321473         0.899259      -0.0475014     -3.89491e-05    -0.000513324
                    -0.000247688     0.000280037         -0.40187       -0.147206     -0.000176267    -0.000653587         0.898983       -0.048256
                        0.899642      -0.0471987     -0.000163278    -0.000588465         0.381349       -0.189689      0.000182726    -0.000197818
                     6.31384e-05    -0.000586445         0.899055       -0.048269      0.000161501    -0.000312768         0.381656        -0.19016
281742                 -0.401418        -0.14735     -0.000321312     0.000322097         0.899233      -0.0478668     -4.04182e-05    -0.000511174
                    -0.000247094     0.000280719        -0.401929       -0.147087     -0.000180235    -0.000652282         0.898956      -0.0486224
                         0.89961      -0.0475725     -0.000163349    -0.000586571         0.381266       -0.189888      0.000184107     -0.00019834
                     6.28344e-05    -0.000573737         0.899033      -0.0486388      0.000151784    -0.000297053         0.381572        -0.19036
281744                 -0.401475       -0.147229     -0.000320799     0.000322933         0.899208      -0.0482318     -4.21916e-05    -0.000509059
                    -0.000246795     0.000282049        -0.401988       -0.146969      -0.00018448    -0.000650136         0.898928      -0.0489886
                        0.899574      -0.0479476     -0.000163657    -0.000584837         0.381182       -0.190087      0.000185861    -0.000198749
                     5.06581e-05    -0.000555788         0.899005      -0.0490133      0.000149478    -0.000266443         0.381488        -0.19056
281746                 -0.401531       -0.147108     -0.000320388     0.000324103         0.899183      -0.0485961     -4.44853e-05     -0.00050614
                    -0.000247124      0.00028436        -0.402047        -0.14685     -0.000189368    -0.000646451           0.8989      -0.0493542
                        0.899533      -0.0483251     -0.000164197    -0.000583213         0.381098       -0.190285      0.000188592    -0.000199081
                     2.55741e-05    -0.000543606         0.898971      -0.0493835      0.000184334    -0.000223407         0.381404        -0.19076
281748                 -0.401586       -0.146985     -0.000320504     0.000325523         0.899159      -0.0489582     -4.96354e-05    -0.000498995
                    -0.000249014     0.000288039        -0.402106       -0.146733     -0.000195705    -0.000639014         0.898867      -0.0497169
                        0.899483      -0.0487072     -0.000165014    -0.000581722         0.381015       -0.190481      0.000195589    -0.000199432
                    -1.79206e-06    -0.000544077         0.898938      -0.0497494      0.000267272     -0.00025138         0.381321        -0.19096
281750                 -0.401638       -0.146858     -0.000321328     0.000326485         0.899131      -0.0493153     -0.000125427    -0.000528346
                     -0.00025478     0.000292585        -0.402165       -0.146615     -0.000204065    -0.000616655         0.898839      -0.0500393
                        0.899423      -0.0491002     -0.000166139    -0.000580501         0.380939       -0.190677      3.63946e-05    -0.000122135
                    -2.22977e-05    -0.000552247         0.898907      -0.0501145      0.000218434    -0.000335081         0.381219       -0.191194
281752                 -0.401686        -0.14672     -0.000322084     0.000326558         0.899093      -0.0496787     -4.45521e-05     -0.00053212
                    -0.000266717     0.000292881        -0.402223       -0.146497     -9.80545e-05     -0.00056765         0.898852      -0.0504512
                        0.899353      -0.0495202     -0.000167444    -0.000579786         0.380856       -0.190887      0.000173385    -0.000197481
                    -3.53041e-05    -0.000561556         0.898877      -0.0504795      0.000228758    -0.000255713         0.381146       -0.191359
281754                  -0.40172       -0.146493     -0.000322264      0.00032629         0.899063       -0.050051     -4.41686e-05    -0.000524278
                    -0.000276489     0.000282264        -0.402281       -0.146379     -0.000146971    -0.000671311         0.898815       -0.050823
                        0.899302      -0.0499951     -0.000168532    -0.000579657         0.380768       -0.191086      0.000178901     -0.00019797
                    -4.32664e-05    -0.000569229         0.898848      -0.0508447      0.000265838    -0.000300024         0.381063       -0.191559
281756                  -0.40193       -0.146593     -0.000322051     0.000326095         0.899037      -0.0504198     -4.45968e-05    -0.000522066
                    -0.000275577     0.000270794        -0.402339        -0.14626     -0.000169811    -0.000666154         0.898785      -0.0511904
                        0.899356       -0.050487     -0.000169063    -0.000579781         0.380683       -0.191284      0.000180891    -0.000197977
                    -4.82346e-05    -0.000574835         0.898819      -0.0512101      0.000259236    -0.000330052         0.380978       -0.191759
281758                 -0.401918       -0.146434     -0.000321666     0.000326036         0.899011      -0.0507865     -4.49108e-05    -0.000521317
                    -0.000271268     0.000265241        -0.402397       -0.146142     -0.000178473    -0.000661744         0.898757      -0.0515573
                        0.899461      -0.0508586     -0.000169124    -0.000579731         0.380599       -0.191483      0.000181869    -0.000197868
                    -5.14212e-05    -0.000578685         0.898789      -0.0515757      0.000248241    -0.000346347         0.380893       -0.191959
281760                 -0.401962       -0.146301     -0.000321213     0.000326078         0.898985      -0.0511524     -4.50806e-05    -0.000521151
                    -0.000267886     0.000263137        -0.402455       -0.146023     -0.000183409    -0.000658436         0.898729      -0.0519242
                        0.899491      -0.0511687     -0.000169006    -0.000579372         0.380515       -0.191681      0.000182369    -0.000197723
                    -5.34933e-05    -0.000581204          0.89876      -0.0519413      0.000238126    -0.000356387         0.380808       -0.192158
281762                 -0.402013       -0.146174     -0.000320735     0.000326185         0.898958      -0.0515179     -4.51282e-05    -0.000521269
                    -0.000265785     0.000262427        -0.402513       -0.145904     -0.000186813    -0.000655677         0.898702       -0.052291
                        0.899471      -0.0514922     -0.000168897    -0.000578775         0.380431        -0.19188      0.000182583    -0.000197576
