! TOUCHSTONE file generated by CST MICROWAVE STUDIO
! Date and time: Tue Oct 14 07:30:59 2025
! Project name: Teste_Macro_Metasurface_Nanopilar.cst
! Parameters = {H=600; L_x=165; L_y=175; Lambda=1064; Max_L=200; Min_L=70; PathPara=1; Phi=0; Step_L=10; Theta=0; p=520; phaseX=180; phaseY=0}
! Header version: 2018
! Port assignment regex: !\s*Touchstone port\s*([0-9]+)\s*=\s*(CST MWS port|CST DS port)\s*([0-9]+|Zmin|Zmax)\s*\(\"(.*)\"\)(\s*mode\s*([0-9]+))?.*
! Touchstone port assignment:
! Touchstone port 1 = CST MWS port Zmax ("") mode 1
! Touchstone port 2 = CST MWS port Zmax ("") mode 2
! Touchstone port 3 = CST MWS port Zmin ("") mode 1
! Touchstone port 4 = CST MWS port Zmin ("") mode 2
! S-Parameters are not renormalized. Each port impedance will be approximated by the real part at minimum frequency. The values are described via the [Reference] keyword.
! Default impedance is overridden by [Reference]
[Version] 2.0
# GHz S RI R 376.73
[Number of Ports] 4
[Reference]
376.73 376.73 259.814 259.814 
[Number of Frequencies] 51
[Network Data]
281700                 -0.194472      -0.0666139     -0.000874276    -0.000329316         0.884202        0.410779     -8.26381e-05     1.14056e-05
                    -0.000838215    -0.000289011        -0.181091      -0.0520423     -1.24052e-05    -0.000286484         0.840901        0.500206
                        0.884578          0.4104      4.59247e-05    -0.000434343         0.175068        0.103338      0.000805543     0.000672608
                    -1.51253e-05    -0.000531016         0.840692        0.500702      0.000560605     0.000479807         0.130994        0.132287
281702                 -0.194498      -0.0665713       -0.0008736    -0.000330529         0.884369        0.410416     -8.26342e-05     1.11737e-05
                    -0.000838974    -0.000289027        -0.181109      -0.0520048     -1.24714e-05    -0.000286735         0.841105        0.499856
                        0.884744        0.410036      4.56361e-05    -0.000434395         0.175138        0.103242      0.000805218     0.000672003
                    -1.49931e-05    -0.000530613         0.840899        0.500356      0.000560896     0.000479498         0.131077        0.132214
281704                 -0.194525      -0.0665288     -0.000872728    -0.000332016         0.884536        0.410053     -8.26296e-05     1.09452e-05
                     -0.00083972    -0.000289038        -0.181127      -0.0519686      -1.2539e-05    -0.000286996         0.841308        0.499507
                         0.88491        0.409672      4.53497e-05    -0.000434454         0.175208        0.103145       0.00080489     0.000671398
                    -1.48646e-05    -0.000530212         0.841106        0.500009      0.000561187     0.000479191          0.13116        0.132141
281706                 -0.194551      -0.0664862      -0.00087153    -0.000333853         0.884702         0.40969     -8.26247e-05     1.07205e-05
                    -0.000840452    -0.000289045        -0.181141      -0.0519335     -1.26078e-05     -0.00028727          0.84151        0.499159
                        0.885075        0.409308      4.50665e-05     -0.00043452         0.175277        0.103049      0.000804561     0.000670793
                    -1.47402e-05    -0.000529813         0.841313        0.499663      0.000561476     0.000478887         0.131242        0.132068
281708                 -0.194577      -0.0664437     -0.000869778    -0.000336126         0.884869        0.409327     -8.26199e-05     1.05002e-05
                     -0.00084117    -0.000289046        -0.181151      -0.0518948     -1.26772e-05    -0.000287559         0.841713        0.498813
                         0.88524        0.408943      4.47883e-05    -0.000434595         0.175347        0.102952       0.00080423     0.000670186
                    -1.46202e-05    -0.000529415         0.841519        0.499316      0.000561764     0.000478584         0.131325        0.131995
281710                 -0.194603      -0.0664011     -0.000867053    -0.000338882         0.885035        0.408964     -8.26155e-05     1.02849e-05
                    -0.000841872    -0.000289043        -0.181163       -0.051849     -1.27467e-05    -0.000287864         0.841916        0.498467
                        0.885405        0.408579      4.45179e-05     -0.00043468         0.175417        0.102855      0.000803897     0.000669578
                     -1.4505e-05     -0.00052902         0.841725        0.498969       0.00056205     0.000478284         0.131408        0.131922
281712                  -0.19463      -0.0663585     -0.000862593    -0.000341952           0.8852        0.408601     -8.26121e-05     1.00753e-05
                    -0.000842557    -0.000289034        -0.181182      -0.0518037     -1.28151e-05     -0.00028819          0.84212        0.498121
                        0.885569        0.408214      4.42593e-05    -0.000434776         0.175486        0.102759      0.000803561     0.000668969
                    -1.43951e-05    -0.000528627          0.84193        0.498622      0.000562335     0.000477987         0.131491        0.131849
281714                 -0.194656      -0.0663159     -0.000855217    -0.000344369         0.885366        0.408238     -8.26107e-05     9.87223e-06
                    -0.000843226    -0.000289018        -0.181202      -0.0517612     -1.28809e-05    -0.000288539         0.842324        0.497775
                        0.885734         0.40785      4.40188e-05    -0.000434886         0.175556        0.102662      0.000803223     0.000668359
                    -1.42909e-05    -0.000528237         0.842135        0.498275      0.000562618     0.000477693         0.131573        0.131775
281716                 -0.194682      -0.0662733     -0.000844242    -0.000343137         0.885531        0.407875     -8.26123e-05     9.67665e-06
                    -0.000843875    -0.000288997        -0.181221      -0.0517203     -1.29416e-05    -0.000288916         0.842528        0.497429
                        0.885898        0.407485      4.38049e-05    -0.000435006         0.175625        0.102565      0.000802881     0.000667747
                    -1.41932e-05    -0.000527849          0.84234        0.497928      0.000562899     0.000477402         0.131656        0.131702
281718                 -0.194708      -0.0662307     -0.000833397    -0.000333797         0.885697        0.407511     -8.26184e-05     9.48973e-06
                    -0.000844505    -0.000288968         -0.18124        -0.05168     -1.29939e-05    -0.000289326         0.842732        0.497083
                        0.886062         0.40712      4.36295e-05    -0.000435133         0.175694        0.102468      0.000802535     0.000667133
                    -1.41025e-05    -0.000527464         0.842544        0.497581      0.000563178     0.000477114         0.131738        0.131629
281720                 -0.194734       -0.066188     -0.000831191    -0.000318909         0.885862        0.407148      -8.2631e-05     9.31279e-06
                    -0.000845114    -0.000288932        -0.181259        -0.05164     -1.30324e-05    -0.000289776         0.842936        0.496736
                        0.886226        0.406755      4.35056e-05    -0.000435253         0.175764        0.102371      0.000802186     0.000666518
                    -1.40198e-05    -0.000527082         0.842748        0.497234      0.000563455      0.00047683         0.131821        0.131555
281722                 -0.194761      -0.0661454     -0.000837481    -0.000308219         0.886026        0.406784      -8.2653e-05      9.1473e-06
                      -0.0008457    -0.000288888        -0.181277      -0.0516002     -1.30489e-05    -0.000290275          0.84314        0.496389
                         0.88639         0.40639       4.3442e-05    -0.000435339         0.175833        0.102274       0.00080183       0.0006659
                    -1.39459e-05    -0.000526702         0.842952        0.496887      0.000563728      0.00047655         0.131903        0.131482
281724                 -0.194787      -0.0661028     -0.000845143    -0.000303973         0.886191        0.406421     -8.26886e-05     8.99476e-06
                    -0.000846262    -0.000288836        -0.181296      -0.0515604     -1.30309e-05    -0.000290834         0.843343        0.496042
                        0.886554        0.406025      4.34303e-05    -0.000435354         0.175902        0.102177      0.000801468     0.000665279
                     -1.3882e-05    -0.000526326         0.843155         0.49654         0.000564     0.000476275         0.131986        0.131408
281726                 -0.194813      -0.0660601     -0.000851015    -0.000303234         0.886356        0.406057     -8.27436e-05     8.85646e-06
                    -0.000846799    -0.000288774        -0.181314      -0.0515207     -1.29583e-05    -0.000291463         0.843547        0.495695
                        0.886717        0.405659      4.34325e-05    -0.000435263         0.175971         0.10208      0.000801097     0.000664657
                    -1.38293e-05    -0.000525954         0.843358        0.496193      0.000564267     0.000476005         0.132068        0.131335
281728                 -0.194839      -0.0660175     -0.000855022    -0.000303828          0.88652        0.405694     -8.28265e-05     8.73288e-06
                    -0.000847309    -0.000288702        -0.181332      -0.0514809     -1.27985e-05    -0.000292177          0.84375        0.495348
                        0.886881        0.405294      4.33869e-05    -0.000435065          0.17604        0.101983      0.000800715     0.000664032
                    -1.37897e-05    -0.000525585          0.84356        0.495845      0.000564531     0.000475741          0.13215        0.131261
281730                 -0.194865      -0.0659749     -0.000857705    -0.000304812         0.886684         0.40533     -8.29495e-05     8.62235e-06
                    -0.000847789    -0.000288619         -0.18135      -0.0514412      -1.2498e-05    -0.000292985         0.843953        0.495001
                        0.887044        0.404929      4.32428e-05    -0.000434801         0.176109        0.101885      0.000800318     0.000663407
                    -1.37649e-05     -0.00052522         0.843763        0.495498      0.000564791     0.000475483         0.132233        0.131188
281732                 -0.194891      -0.0659323     -0.000859518    -0.000305835         0.886848        0.404966     -8.31294e-05      8.5183e-06
                    -0.000848238    -0.000288524        -0.181368      -0.0514014     -1.19694e-05    -0.000293879         0.844156        0.494653
                        0.887207        0.404563       4.2992e-05    -0.000434534         0.176178        0.101788      0.000799899     0.000662783
                    -1.37573e-05     -0.00052486         0.843965        0.495151      0.000565046     0.000475233         0.132315        0.131114
281734                 -0.194917      -0.0658897     -0.000860758    -0.000306782         0.887011        0.404602     -8.33881e-05     8.40399e-06
                    -0.000848653    -0.000288416        -0.181386      -0.0513617     -1.10766e-05      -0.0002948         0.844359        0.494305
                         0.88737        0.404198      4.26624e-05    -0.000434307         0.176247        0.101691      0.000799448     0.000662168
                      -1.377e-05    -0.000524505         0.844166        0.494804      0.000565296     0.000474992         0.132397         0.13104
281736                 -0.194943      -0.0658471     -0.000861612    -0.000307622         0.887175        0.404238     -8.37483e-05     8.24341e-06
                    -0.000849032    -0.000288293        -0.181403      -0.0513219     -9.64692e-06    -0.000295548         0.844561        0.493958
                        0.887533        0.403833      4.22903e-05    -0.000434135         0.176315        0.101594      0.000798951     0.000661579
                    -1.38065e-05    -0.000524154         0.844368        0.494458       0.00056554     0.000474761         0.132479        0.130967
281738                 -0.194969      -0.0658045     -0.000862201    -0.000308356         0.887338        0.403874      -8.4218e-05     7.97083e-06
                    -0.000849372    -0.000288154        -0.181421      -0.0512821     -7.61761e-06    -0.000295657         0.844763         0.49361
                        0.887696        0.403467      4.19031e-05    -0.000434012         0.176384        0.101496      0.000798393     0.000661062
                    -1.38714e-05     -0.00052381          0.84457        0.494111      0.000565777     0.000474544         0.132561        0.130893
281740                 -0.194995       -0.065762     -0.000862601    -0.000308996         0.887502         0.40351     -8.47551e-05     7.49407e-06
                    -0.000849671    -0.000287998        -0.181439      -0.0512424     -5.47409e-06    -0.000294469         0.844965        0.493262
                        0.887859        0.403102      4.15163e-05    -0.000433928         0.176452        0.101399      0.000797801     0.000660717
                    -1.39709e-05    -0.000523472         0.844771        0.493764      0.000566007     0.000474342         0.132643        0.130819
281742                 -0.195021      -0.0657194     -0.000862864    -0.000309555         0.887665        0.403146     -8.52296e-05     6.74543e-06
                    -0.000849924    -0.000287822        -0.181457      -0.0512026     -4.45394e-06    -0.000292017         0.845167        0.492914
                        0.888023        0.402736      4.11373e-05    -0.000433873         0.176521        0.101302      0.000797387     0.000660652
                    -1.41125e-05    -0.000523142         0.844972        0.493417      0.000566229     0.000474161         0.132725        0.130745
281744                 -0.195046       -0.065677     -0.000863025    -0.000310044         0.887827        0.402782     -8.54583e-05     5.77983e-06
                    -0.000850127    -0.000287623        -0.181474      -0.0511628     -5.21566e-06    -0.000289641         0.845369        0.492565
                        0.888186        0.402371      4.07684e-05    -0.000433837         0.176589        0.101204      0.000797493     0.000660562
                    -1.43066e-05     -0.00052282         0.845174         0.49307      0.000566442     0.000474006         0.132807        0.130671
281746                 -0.195072      -0.0656346     -0.000863108    -0.000310474          0.88799        0.402417       -8.535e-05     4.79194e-06
                    -0.000850277      -0.0002874        -0.181492       -0.051123     -6.92828e-06    -0.000288435          0.84557        0.492217
                        0.888349        0.402006      4.04097e-05    -0.000433814         0.176657        0.101107      0.000797773     0.000659943
                    -1.45675e-05    -0.000522507         0.845375        0.492723      0.000566648     0.000473885         0.132889        0.130597
281748                 -0.195098      -0.0655923     -0.000863132    -0.000310856         0.888153        0.402053      -8.4987e-05     3.96811e-06
                    -0.000850368    -0.000287148         -0.18151      -0.0510831     -8.61454e-06     -0.00028832         0.845771        0.491869
                        0.888513        0.401641      4.00603e-05    -0.000433801         0.176725         0.10101      0.000797774     0.000659046
                    -1.49146e-05    -0.000522205         0.845576        0.492376      0.000566849      0.00047381         0.132971        0.130523
281750                 -0.195124      -0.0655501      -0.00086311    -0.000311196         0.888315        0.401689     -8.45233e-05     3.36507e-06
                    -0.000850394    -0.000286864        -0.181527      -0.0510433     -9.90302e-06    -0.000288837         0.845972         0.49152
                        0.888677        0.401276      3.97191e-05    -0.000433793         0.176794        0.100913      0.000797561     0.000658156
                    -1.53764e-05    -0.000521915         0.845777        0.492029      0.000567054       0.0004738         0.133053        0.130449
281752                 -0.195149       -0.065508     -0.000863051      -0.0003115         0.888477        0.401324     -8.40691e-05     2.94226e-06
                    -0.000850347     -0.00028654        -0.181545      -0.0510035     -1.07653e-05    -0.000289654         0.846172        0.491172
                        0.888842        0.400912      3.93849e-05    -0.000433789         0.176862        0.100816      0.000797255     0.000657325
                    -1.59952e-05    -0.000521639         0.845978        0.491681      0.000567283      0.00047388         0.133135        0.130375
281754                 -0.195175      -0.0654661     -0.000862963    -0.000311776         0.888639         0.40096     -8.36697e-05     2.63671e-06
                    -0.000850219     -0.00028617        -0.181562      -0.0509636     -1.12576e-05    -0.000290591         0.846373        0.490823
                        0.889007        0.400548      3.90565e-05    -0.000433788         0.176931         0.10072      0.000796914     0.000656537
                    -1.68377e-05     -0.00052138         0.846179        0.491333      0.000567582     0.000474078         0.133217          0.1303
281756                 -0.195201      -0.0654245     -0.000862852    -0.000312026         0.888801        0.400595     -8.33326e-05     2.39898e-06
                    -0.000849996    -0.000285743         -0.18158      -0.0509237     -1.14363e-05    -0.000291548         0.846573        0.490474
                        0.889175        0.400185       3.8733e-05    -0.000433788            0.177        0.100622      0.000796561     0.000655778
                    -1.80141e-05     -0.00052114          0.84638        0.490985      0.000568044     0.000474411         0.133299        0.130226
281758                 -0.195227      -0.0653833     -0.000862722    -0.000312255         0.888963        0.400231     -8.30501e-05     2.19785e-06
                    -0.000849661    -0.000285243        -0.181597      -0.0508839     -1.13473e-05    -0.000292456         0.846773        0.490125
                        0.889345        0.399823      3.84136e-05     -0.00043379          0.17707        0.100524      0.000796204     0.000655035
                    -1.97222e-05    -0.000520921          0.84658        0.490637      0.000568833     0.000474811          0.13338        0.130152
281760                 -0.195253      -0.0653426     -0.000862578    -0.000312466         0.889125        0.399866     -8.28111e-05     2.01553e-06
                    -0.000849185    -0.000284642        -0.181615       -0.050844      -1.1036e-05    -0.000293256         0.846972        0.489776
                        0.889519        0.399464      3.80975e-05    -0.000433791         0.177138        0.100426      0.000795848     0.000654299
                    -2.23552e-05    -0.000520717         0.846781        0.490289       0.00057008     0.000474997         0.133462        0.130077
281762                  -0.19528      -0.0653024     -0.000862422    -0.000312664         0.889287        0.399502     -8.26053e-05     1.84244e-06
                    -0.000848518    -0.000283892        -0.181632      -0.0508041      -1.0556e-05    -0.000293901         0.847172        0.489428
                        0.889705        0.399109      3.77841e-05    -0.000433793         0.177207        0.100328      0.000795494     0.000653566
