! TOUCHSTONE file generated by CST MICROWAVE STUDIO
! Date and time: Tue Oct 14 07:30:50 2025
! Project name: Teste_Macro_Metasurface_Nanopilar.cst
! Parameters = {H=600; L_x=165; L_y=110; Lambda=1064; Max_L=200; Min_L=70; PathPara=1; Phi=0; Step_L=10; Theta=0; p=520; phaseX=180; phaseY=0}
! Header version: 2018
! Port assignment regex: !\s*Touchstone port\s*([0-9]+)\s*=\s*(CST MWS port|CST DS port)\s*([0-9]+|Zmin|Zmax)\s*\(\"(.*)\"\)(\s*mode\s*([0-9]+))?.*
! Touchstone port assignment:
! Touchstone port 1 = CST MWS port Zmax ("") mode 1
! Touchstone port 2 = CST MWS port Zmax ("") mode 2
! Touchstone port 3 = CST MWS port Zmin ("") mode 1
! Touchstone port 4 = CST MWS port Zmin ("") mode 2
! S-Parameters are not renormalized. Each port impedance will be approximated by the real part at minimum frequency. The values are described via the [Reference] keyword.
! Default impedance is overridden by [Reference]
[Version] 2.0
# GHz S RI R 376.73
[Number of Ports] 4
[Reference]
376.73 376.73 259.814 259.814 
[Number of Frequencies] 51
[Network Data]
281700                 -0.105664       0.0267253     -0.000492184    -0.000596991        -0.953216        0.249727     -0.000512397    -0.000515905
                     -0.00052132     -0.00062524        -0.251142       -0.390473     -0.000380907     0.000349639         0.680594        0.552153
                       -0.952584          0.2496     -0.000237771     0.000241549          0.10367      -0.0261063     -0.000793672     0.000592858
                     -0.00046317    -0.000658691         0.680419        0.552754     -0.000864208      0.00047798         0.433692        0.150775
281702                 -0.105636       0.0267467     -0.000492342    -0.000596622         -0.95309        0.250221     -0.000512998    -0.000515725
                    -0.000521338     -0.00062378        -0.251375       -0.390506     -0.000380615     0.000349902          0.68085          0.5517
                       -0.952461        0.250095       -0.0002377     0.000241812         0.103627      -0.0261812     -0.000793551     0.000593496
                    -0.000464441    -0.000657223         0.680674        0.552303     -0.000864151     0.000478419         0.433956        0.150475
281704                 -0.105607       0.0267681     -0.000492498    -0.000596253        -0.952963        0.250715     -0.000513598    -0.000515544
                    -0.000521313    -0.000622227        -0.251609        -0.39054     -0.000380323     0.000350166         0.681104        0.551247
                       -0.952338        0.250591     -0.000237629     0.000242075         0.103585      -0.0262562      -0.00079343     0.000594136
                    -0.000465772    -0.000655656         0.680929        0.551852     -0.000864094     0.000478858         0.434221        0.150175
281706                 -0.105578       0.0267895     -0.000492654    -0.000595885        -0.952836        0.251209     -0.000514198    -0.000515362
                     -0.00052125    -0.000620588        -0.251842       -0.390573     -0.000380029     0.000350429         0.681359        0.550794
                       -0.952214        0.251087     -0.000237558     0.000242339         0.103542       -0.026331     -0.000793309     0.000594775
                    -0.000467158    -0.000653997         0.681184          0.5514     -0.000864037     0.000479296         0.434485        0.149875
281708                  -0.10555       0.0268109     -0.000492808    -0.000595517        -0.952708        0.251703     -0.000514798    -0.000515179
                    -0.000521149    -0.000618869        -0.252076       -0.390606     -0.000379736     0.000350693         0.681613         0.55034
                       -0.952091        0.251583     -0.000237487     0.000242602         0.103499      -0.0264059     -0.000793187     0.000595416
                    -0.000468596    -0.000652254         0.681438        0.550948     -0.000863979     0.000479735         0.434749        0.149574
281710                 -0.105521       0.0268323     -0.000492962     -0.00059515        -0.952581        0.252197     -0.000515399    -0.000514995
                    -0.000521015    -0.000617078         -0.25231        -0.39064     -0.000379441     0.000350957         0.681867        0.549886
                       -0.951967        0.252079     -0.000237416     0.000242865         0.103456      -0.0264807     -0.000793065     0.000596058
                    -0.000470081    -0.000650433         0.681693        0.550496     -0.000863921     0.000480173         0.435014        0.149272
281712                 -0.105492       0.0268536     -0.000493114    -0.000594784        -0.952453         0.25269     -0.000515999    -0.000514809
                     -0.00052085     -0.00061522        -0.252544       -0.390673     -0.000379146     0.000351222         0.682121        0.549432
                       -0.951844        0.252574     -0.000237345     0.000243129         0.103414      -0.0265554     -0.000792942       0.0005967
                     -0.00047161    -0.000648542         0.681947        0.550044     -0.000863863     0.000480612         0.435278        0.148971
281714                 -0.105464       0.0268749     -0.000493265    -0.000594417        -0.952325        0.253184     -0.000516599    -0.000514623
                    -0.000520656    -0.000613304        -0.252778       -0.390706      -0.00037885     0.000351486         0.682374        0.548978
                        -0.95172         0.25307     -0.000237274     0.000243392         0.103371      -0.0266302     -0.000792819     0.000597343
                    -0.000473177    -0.000646586           0.6822        0.549591     -0.000863804     0.000481051         0.435542        0.148669
281716                 -0.105435       0.0268962     -0.000493415    -0.000594052        -0.952196        0.253678     -0.000517199    -0.000514436
                    -0.000520436    -0.000611335        -0.253012       -0.390739     -0.000378554     0.000351751         0.682627        0.548523
                       -0.951596        0.253566     -0.000237203     0.000243656         0.103328      -0.0267048     -0.000792695     0.000597986
                    -0.000474779    -0.000644575         0.682454        0.549138     -0.000863745     0.000481489         0.435806        0.148367
281718                 -0.105406       0.0269175     -0.000493564    -0.000593687        -0.952068        0.254171     -0.000517799    -0.000514247
                    -0.000520193    -0.000609321        -0.253247       -0.390772     -0.000378257     0.000352016          0.68288        0.548068
                       -0.951472        0.254062     -0.000237131      0.00024392         0.103285      -0.0267795     -0.000792571     0.000598631
                    -0.000476412    -0.000642513         0.682707        0.548685     -0.000863685     0.000481928         0.436069        0.148064
281720                 -0.105378       0.0269388     -0.000493712    -0.000593322        -0.951939        0.254665     -0.000518398    -0.000514058
                    -0.000519931    -0.000607268        -0.253481       -0.390805      -0.00037796     0.000352282         0.683132        0.547613
                       -0.951348        0.254558      -0.00023706     0.000244183         0.103242       -0.026854     -0.000792447     0.000599276
                     -0.00047807    -0.000640409         0.682959        0.548231     -0.000863625     0.000482366         0.436333        0.147761
281722                 -0.105349         0.02696     -0.000493858    -0.000592958         -0.95181        0.255158     -0.000518998    -0.000513867
                    -0.000519651    -0.000605183        -0.253716       -0.390838     -0.000377661     0.000352547         0.683384        0.547158
                       -0.951224        0.255054     -0.000236989     0.000244447         0.103198      -0.0269286     -0.000792322     0.000599922
                     -0.00047975    -0.000638268         0.683212        0.547777     -0.000863564     0.000482805         0.436597        0.147457
281724                  -0.10532       0.0269813     -0.000494004    -0.000592594         -0.95168        0.255651     -0.000519598    -0.000513676
                    -0.000519356    -0.000603071        -0.253951        -0.39087     -0.000377363     0.000352813         0.683636        0.546702
                       -0.951099        0.255549     -0.000236917     0.000244711         0.103155      -0.0270031     -0.000792197     0.000600569
                    -0.000481449    -0.000636097         0.683464        0.547324     -0.000863503     0.000483243          0.43686        0.147153
281726                 -0.105292       0.0270025     -0.000494148    -0.000592231        -0.951551        0.256145     -0.000520197    -0.000513483
                    -0.000519048    -0.000600939        -0.254186       -0.390903     -0.000377063     0.000353079         0.683887        0.546246
                       -0.950974        0.256045     -0.000236846     0.000244975         0.103112      -0.0270775     -0.000792071     0.000601216
                    -0.000483162    -0.000633903         0.683716        0.546869     -0.000863442     0.000483682         0.437124        0.146849
281728                 -0.105263       0.0270237     -0.000494291    -0.000591869        -0.951421        0.256638     -0.000520797    -0.000513289
                    -0.000518731    -0.000598792        -0.254422       -0.390936     -0.000376763     0.000353346         0.684138         0.54579
                       -0.950849        0.256541     -0.000236775     0.000245239         0.103069       -0.027152     -0.000791944     0.000601864
                    -0.000484887    -0.000631691         0.683967        0.546415      -0.00086338      0.00048412         0.437387        0.146545
281730                 -0.105234       0.0270448     -0.000494434    -0.000591507        -0.951291        0.257131     -0.000521396    -0.000513094
                    -0.000518406    -0.000596636        -0.254657       -0.390968     -0.000376463     0.000353612         0.684389        0.545333
                       -0.950724        0.257036     -0.000236703     0.000245504         0.103025      -0.0272263     -0.000791818     0.000602513
                    -0.000486618    -0.000629465         0.684218         0.54596     -0.000863318     0.000484558         0.437651         0.14624
281732                 -0.105205        0.027066     -0.000494575    -0.000591146         -0.95116        0.257624     -0.000521995    -0.000512898
                    -0.000518076    -0.000594475        -0.254893       -0.391001     -0.000376161     0.000353879          0.68464        0.544877
                       -0.950598        0.257532     -0.000236632     0.000245768         0.102982      -0.0273007     -0.000791691     0.000603163
                    -0.000488355    -0.000627233         0.684469        0.545505     -0.000863255     0.000484996         0.437914        0.145935
281734                 -0.105177       0.0270871     -0.000494714    -0.000590785         -0.95103        0.258117     -0.000522594    -0.000512701
                    -0.000517742    -0.000592314        -0.255129       -0.391033      -0.00037586     0.000354146          0.68489         0.54442
                       -0.950472        0.258027     -0.000236561     0.000246032         0.102939      -0.0273749     -0.000791563     0.000603814
                    -0.000490092    -0.000624998          0.68472         0.54505     -0.000863192     0.000485435         0.438177        0.145629
281736                 -0.105148       0.0271082     -0.000494853    -0.000590424        -0.950899         0.25861     -0.000523193    -0.000512503
                    -0.000517407    -0.000590157        -0.255365       -0.391066     -0.000375557     0.000354414          0.68514        0.543962
                       -0.950346        0.258523     -0.000236489     0.000246297         0.102895      -0.0274492     -0.000791435     0.000604465
                    -0.000491829    -0.000622765          0.68497        0.544594     -0.000863129     0.000485873          0.43844        0.145323
281738                 -0.105119       0.0271293     -0.000494991    -0.000590065        -0.950768        0.259103     -0.000523792    -0.000512303
                    -0.000517072    -0.000588009        -0.255601       -0.391098     -0.000375254     0.000354681          0.68539        0.543505
                       -0.950219        0.259018     -0.000236418     0.000246561         0.102851      -0.0275234     -0.000791306     0.000605117
                    -0.000493561    -0.000620537          0.68522        0.544138     -0.000863065     0.000486311         0.438703        0.145016
281740                  -0.10509       0.0271504     -0.000495127    -0.000589706        -0.950636        0.259596     -0.000524391    -0.000512103
                    -0.000516739    -0.000585873        -0.255837        -0.39113      -0.00037495     0.000354949         0.685639        0.543047
                       -0.950092        0.259513     -0.000236346     0.000246826         0.102808      -0.0275975     -0.000791177      0.00060577
                    -0.000495288     -0.00061832          0.68547        0.543682     -0.000863001     0.000486749         0.438966         0.14471
281742                 -0.105062       0.0271714     -0.000495263    -0.000589347        -0.950505        0.260088     -0.000524989    -0.000511901
                     -0.00051641    -0.000583752        -0.256074       -0.391162     -0.000374646     0.000355218         0.685888        0.542589
                       -0.949965        0.260008     -0.000236275     0.000247091         0.102764      -0.0276716     -0.000791048     0.000606424
                    -0.000497006    -0.000616116         0.685719        0.543226     -0.000862936     0.000487186         0.439229        0.144403
281744                 -0.105033       0.0271925     -0.000495397    -0.000588989        -0.950373        0.260581     -0.000525588    -0.000511699
                    -0.000516085    -0.000581649        -0.256311       -0.391194     -0.000374341     0.000355486         0.686137        0.542131
                       -0.949838        0.260503     -0.000236203     0.000247356          0.10272      -0.0277457     -0.000790918     0.000607078
                    -0.000498713    -0.000613928         0.685968         0.54277     -0.000862871     0.000487624         0.439492        0.144095
281746                 -0.105004       0.0272135      -0.00049553    -0.000588631         -0.95024        0.261074     -0.000526186    -0.000511495
                    -0.000515767    -0.000579568        -0.256548       -0.391226     -0.000374035     0.000355755         0.686385        0.541672
                        -0.94971        0.260998     -0.000236131     0.000247621         0.102677      -0.0278197     -0.000790787     0.000607733
                    -0.000500409     -0.00061176         0.686217        0.542313     -0.000862806     0.000488061         0.439754        0.143787
281748                 -0.104975       0.0272344     -0.000495662    -0.000588274        -0.950108        0.261566     -0.000526784     -0.00051129
                    -0.000515456     -0.00057751        -0.256785       -0.391258     -0.000373729     0.000356024         0.686633        0.541214
                       -0.949582        0.261493      -0.00023606     0.000247886         0.102633      -0.0278937     -0.000790656     0.000608389
                    -0.000502091    -0.000609614         0.686465        0.541856      -0.00086274     0.000488499         0.440017        0.143479
281750                 -0.104946       0.0272554     -0.000495793    -0.000587918        -0.949975        0.262058     -0.000527382    -0.000511084
                    -0.000515153    -0.000575477        -0.257022        -0.39129     -0.000373422     0.000356293         0.686881        0.540755
                       -0.949453        0.261987     -0.000235988     0.000248151         0.102589      -0.0279676     -0.000790525     0.000609046
                    -0.000503759    -0.000607491         0.686714        0.541398     -0.000862674     0.000488935         0.440279         0.14317
281752                 -0.104918       0.0272763     -0.000495923    -0.000587562        -0.949842        0.262551      -0.00052798    -0.000510877
                     -0.00051486    -0.000573473        -0.257259       -0.391322     -0.000373114     0.000356562         0.687128        0.540295
                       -0.949325        0.262482     -0.000235917     0.000248416         0.102545      -0.0280415     -0.000790393     0.000609704
                     -0.00050541    -0.000605395         0.686961        0.540941     -0.000862608     0.000489372         0.440542        0.142861
281754                 -0.104889       0.0272973     -0.000496051    -0.000587207        -0.949709        0.263043     -0.000528578    -0.000510669
                    -0.000514576    -0.000571497        -0.257497       -0.391354     -0.000372804     0.000356832         0.687376        0.539836
                       -0.949196        0.262976     -0.000235845     0.000248681         0.102501      -0.0281154     -0.000790261     0.000610362
                    -0.000507044    -0.000603326         0.687209        0.540483     -0.000862542     0.000489807         0.440804        0.142552
281756                  -0.10486       0.0273182     -0.000496179    -0.000586852        -0.949576        0.263535     -0.000529175    -0.000510459
                    -0.000514303    -0.000569551        -0.257735       -0.391386     -0.000372491     0.000357101         0.687622        0.539376
                       -0.949066        0.263471     -0.000235773     0.000248947         0.102457      -0.0281892     -0.000790128     0.000611022
                    -0.000508659    -0.000601287         0.687456        0.540025     -0.000862477     0.000490242         0.441066        0.142242
281758                 -0.104831        0.027339     -0.000496305    -0.000586498        -0.949442        0.264027     -0.000529772    -0.000510249
                    -0.000514042    -0.000567638        -0.257973       -0.391417     -0.000372169     0.000357372         0.687869        0.538916
                       -0.948936        0.263965     -0.000235702     0.000249212         0.102413      -0.0282629     -0.000789995     0.000611682
                    -0.000510256    -0.000599278         0.687703        0.539567     -0.000862413     0.000490677         0.441328        0.141932
281760                 -0.104802       0.0273599      -0.00049643    -0.000586145        -0.949307         0.26452     -0.000530369    -0.000510037
                    -0.000513793    -0.000565756        -0.258211       -0.391449     -0.000371853     0.000357727         0.688115        0.538455
                       -0.948806        0.264459      -0.00023563     0.000249478         0.102369      -0.0283367     -0.000789861     0.000612342
                    -0.000511834    -0.000597301          0.68795        0.539108     -0.000862351     0.000491115          0.44159        0.141622
281762                 -0.104774       0.0273807     -0.000496554    -0.000585792        -0.949174        0.265011     -0.000530966    -0.000509824
                    -0.000513556    -0.000563909        -0.258449        -0.39148     -0.000371596     0.000357937         0.688361        0.537995
                       -0.948676        0.264953     -0.000235558     0.000249743         0.102324      -0.0284103     -0.000789727     0.000613004
