! TOUCHSTONE file generated by CST MICROWAVE STUDIO
! Date and time: Tue Oct 14 07:28:08 2025
! Project name: Teste_Macro_Metasurface_Nanopilar.cst
! Parameters = {H=600; L_x=120; L_y=170; Lambda=1064; Max_L=200; Min_L=70; PathPara=1; Phi=0; Step_L=10; Theta=0; p=520; phaseX=180; phaseY=0}
! Header version: 2018
! Port assignment regex: !\s*Touchstone port\s*([0-9]+)\s*=\s*(CST MWS port|CST DS port)\s*([0-9]+|Zmin|Zmax)\s*\(\"(.*)\"\)(\s*mode\s*([0-9]+))?.*
! Touchstone port assignment:
! Touchstone port 1 = CST MWS port Zmax ("") mode 1
! Touchstone port 2 = CST MWS port Zmax ("") mode 2
! Touchstone port 3 = CST MWS port Zmin ("") mode 1
! Touchstone port 4 = CST MWS port Zmin ("") mode 2
! S-Parameters are not renormalized. Each port impedance will be approximated by the real part at minimum frequency. The values are described via the [Reference] keyword.
! Default impedance is overridden by [Reference]
[Version] 2.0
# GHz S RI R 376.73
[Number of Ports] 4
[Reference]
376.73 376.73 259.814 259.814 
[Number of Frequencies] 51
[Network Data]
281700                 -0.392223        0.320342     -0.000277684     0.000461531          0.11085        0.836544     -0.000405175     -0.00015522
                    -0.000411376     0.000336387        -0.068586      -0.0776808     -0.000452466    -0.000220941        -0.230269        0.961431
                          0.1108        0.836789     -0.000468062    -6.36027e-05        -0.436446       -0.234088     -0.000194983    -0.000647272
                    -0.000325234    -0.000150953        -0.230562        0.962187     -0.000210296    -0.000589028       -0.0948745       0.0390971
281702                 -0.391868        0.320347     -0.000276917     0.000461211         0.111476        0.836638      -0.00040496    -0.000154635
                    -0.000410918     0.000336427       -0.0686126      -0.0776781     -0.000452163    -0.000220296        -0.229828        0.961536
                        0.111426        0.836883     -0.000467497    -6.30388e-05         -0.43645       -0.233513     -0.000195444    -0.000646462
                    -0.000325037    -0.000150547         -0.23012        0.962292     -0.000210676    -0.000588297       -0.0948615       0.0391701
281704                 -0.391513        0.320352     -0.000276151     0.000460891         0.112102        0.836732     -0.000404745    -0.000154051
                     -0.00041046     0.000336466       -0.0686393      -0.0776755      -0.00045186    -0.000219652        -0.229386         0.96164
                        0.112052        0.836976     -0.000466933    -6.24756e-05        -0.436453       -0.232938     -0.000195904    -0.000645651
                     -0.00032484    -0.000150143        -0.229677        0.962396     -0.000211053    -0.000587567       -0.0948485        0.039243
281706                 -0.391158        0.320357     -0.000275387      0.00046057         0.112728        0.836825     -0.000404528    -0.000153467
                    -0.000410002     0.000336505       -0.0686659      -0.0776728     -0.000451557    -0.000219008        -0.228945        0.961744
                        0.112678        0.837069      -0.00046637    -6.19131e-05        -0.436455       -0.232363     -0.000196363     -0.00064484
                    -0.000324643    -0.000149739        -0.229235          0.9625      -0.00021143    -0.000586838       -0.0948354        0.039316
281708                 -0.390804        0.320361     -0.000274624     0.000460248         0.113354        0.836918     -0.000404311    -0.000152884
                    -0.000409546     0.000336543       -0.0686925      -0.0776701     -0.000451253    -0.000218365        -0.228503        0.961848
                        0.113304        0.837161     -0.000465807    -6.13514e-05        -0.436457       -0.231789      -0.00019682     -0.00064403
                    -0.000324445    -0.000149337        -0.228793        0.962605     -0.000211805    -0.000586108       -0.0948223        0.039389
281710                  -0.39045        0.320366     -0.000273863     0.000459925          0.11398        0.837009     -0.000404093    -0.000152302
                    -0.000409089     0.000336581       -0.0687192      -0.0776674      -0.00045095    -0.000217723        -0.228062        0.961952
                         0.11393        0.837252     -0.000465246    -6.07904e-05        -0.436459       -0.231216     -0.000197276    -0.000643219
                    -0.000324248    -0.000148935         -0.22835        0.962709     -0.000212178    -0.000585379       -0.0948092       0.0394619
281712                 -0.390096         0.32037     -0.000273104     0.000459601         0.114605        0.837101     -0.000403874     -0.00015172
                    -0.000408633     0.000336618       -0.0687459      -0.0776646     -0.000450646     -0.00021708         -0.22762        0.962055
                        0.114556        0.837342     -0.000464684    -6.02302e-05         -0.43646       -0.230642     -0.000197731    -0.000642409
                     -0.00032405    -0.000148534        -0.227908        0.962812      -0.00021255    -0.000584651       -0.0947959       0.0395349
281714                 -0.389743        0.320373     -0.000272346     0.000459277          0.11523        0.837191     -0.000403655    -0.000151138
                    -0.000408178     0.000336654       -0.0687725      -0.0776619     -0.000450343    -0.000216439        -0.227178        0.962158
                        0.115181        0.837432     -0.000464124    -5.96707e-05         -0.43646        -0.23007     -0.000198185    -0.000641599
                    -0.000323852    -0.000148133        -0.227465        0.962916     -0.000212921    -0.000583923       -0.0947827       0.0396078
281716                  -0.38939        0.320377      -0.00027159     0.000458952         0.115855        0.837281     -0.000403435    -0.000150557
                    -0.000407723      0.00033669       -0.0687992      -0.0776592     -0.000450039    -0.000215797        -0.226737        0.962261
                        0.115807        0.837521     -0.000463564     -5.9112e-05         -0.43646       -0.229498     -0.000198638    -0.000640788
                    -0.000323654    -0.000147734        -0.227023        0.963019      -0.00021329    -0.000583195       -0.0947694       0.0396808
281718                 -0.389038         0.32038     -0.000270835     0.000458626         0.116479         0.83737     -0.000403214    -0.000149977
                    -0.000407268     0.000336725       -0.0688259      -0.0776564     -0.000449736    -0.000215155        -0.226295        0.962364
                        0.116432         0.83761     -0.000463005     -5.8554e-05        -0.436459       -0.228926     -0.000199089    -0.000639978
                    -0.000323456    -0.000147335         -0.22658        0.963122     -0.000213658    -0.000582467        -0.094756       0.0397537
281720                 -0.388685        0.320383     -0.000270081     0.000458299         0.117104        0.837458     -0.000402992    -0.000149397
                    -0.000406814      0.00033676       -0.0688525      -0.0776537     -0.000449432    -0.000214514        -0.225853        0.962467
                        0.117058        0.837698     -0.000462446    -5.79967e-05        -0.436457       -0.228355     -0.000199539    -0.000639168
                    -0.000323257    -0.000146936        -0.226137        0.963225     -0.000214025     -0.00058174       -0.0947425       0.0398266
281722                 -0.388334        0.320385      -0.00026933     0.000457971         0.117728        0.837546      -0.00040277    -0.000148818
                     -0.00040636     0.000336794       -0.0688792      -0.0776509     -0.000449128    -0.000213872        -0.225411        0.962569
                        0.117683        0.837785     -0.000461888    -5.74402e-05        -0.436455       -0.227784     -0.000199987    -0.000638357
                    -0.000323059    -0.000146539        -0.225695        0.963328     -0.000214391    -0.000581013       -0.0947291       0.0398996
281724                 -0.387982        0.320388     -0.000268579     0.000457643         0.118353        0.837633     -0.000402547     -0.00014824
                    -0.000405907     0.000336827       -0.0689059      -0.0776481     -0.000448825     -0.00021323        -0.224969        0.962671
                        0.118308        0.837871      -0.00046133    -5.68845e-05        -0.436452       -0.227214     -0.000200435    -0.000637547
                     -0.00032286    -0.000146142        -0.225252         0.96343     -0.000214755    -0.000580286       -0.0947155       0.0399725
281726                 -0.387631         0.32039     -0.000267831     0.000457313         0.118977         0.83772     -0.000402323    -0.000147662
                    -0.000405454      0.00033686       -0.0689326      -0.0776453     -0.000448521    -0.000212588        -0.224527        0.962773
                        0.118933        0.837957     -0.000460772    -5.63296e-05        -0.436449       -0.226644     -0.000200881    -0.000636737
                    -0.000322661    -0.000145746        -0.224809        0.963532     -0.000215119    -0.000579559       -0.0947019       0.0400454
281728                  -0.38728        0.320391     -0.000267083     0.000456983         0.119601        0.837806     -0.000402099    -0.000147085
                    -0.000405001     0.000336892       -0.0689593      -0.0776425     -0.000448218    -0.000211946        -0.224086        0.962875
                        0.119558        0.838042     -0.000460215    -5.57754e-05        -0.436445       -0.226074     -0.000201326    -0.000635927
                    -0.000322462    -0.000145351        -0.224366        0.963634     -0.000215481    -0.000578833       -0.0946883       0.0401183
281730                 -0.386929        0.320393     -0.000266337     0.000456652         0.120225        0.837891     -0.000401874    -0.000146508
                    -0.000404549     0.000336923        -0.068986      -0.0776397     -0.000447914    -0.000211303        -0.223644        0.962977
                        0.120183        0.838126     -0.000459658     -5.5222e-05         -0.43644       -0.225505      -0.00020177    -0.000635117
                    -0.000322263    -0.000144956        -0.223924        0.963736     -0.000215842    -0.000578107       -0.0946746       0.0401912
281732                 -0.386579        0.320394     -0.000265593      0.00045632         0.120849        0.837975     -0.000401649    -0.000145932
                    -0.000404096     0.000336954       -0.0690127      -0.0776369     -0.000447611    -0.000210659        -0.223202        0.963078
                        0.120808         0.83821     -0.000459102    -5.46694e-05        -0.436435       -0.224937     -0.000202212    -0.000634307
                    -0.000322064    -0.000144562        -0.223481        0.963838     -0.000216202    -0.000577381       -0.0946608       0.0402641
281734                 -0.386229        0.320395      -0.00026485     0.000455988         0.121473        0.838059     -0.000401422    -0.000145356
                    -0.000403643     0.000336984       -0.0690394      -0.0776341     -0.000447308    -0.000210014        -0.222759        0.963179
                        0.121433        0.838293     -0.000458545    -5.41176e-05         -0.43643       -0.224369     -0.000202654    -0.000633497
                    -0.000321865    -0.000144168        -0.223038        0.963939     -0.000216562    -0.000576655        -0.094647       0.0403371
281736                  -0.38588        0.320396     -0.000264108     0.000455654         0.122098        0.838142     -0.000401195    -0.000144782
                     -0.00040319     0.000337014       -0.0690662      -0.0776312     -0.000447005    -0.000209369        -0.222317         0.96328
                        0.122057        0.838375     -0.000457989    -5.35666e-05        -0.436423       -0.223801     -0.000203094    -0.000632686
                    -0.000321665    -0.000143775        -0.222595         0.96404     -0.000216921    -0.000575929       -0.0946332         0.04041
281738                 -0.385531        0.320397     -0.000263368      0.00045532         0.122722        0.838224     -0.000400968    -0.000144208
                    -0.000402735     0.000337043       -0.0690929      -0.0776284     -0.000446702    -0.000208722        -0.221875        0.963381
                        0.122682        0.838457     -0.000457433    -5.30164e-05        -0.436416       -0.223234     -0.000203533    -0.000631876
                    -0.000321465    -0.000143383        -0.222152        0.964141     -0.000217279    -0.000575203       -0.0946193       0.0404829
281740                 -0.385182        0.320397     -0.000262629     0.000454984         0.123346        0.838306     -0.000400739    -0.000143634
                    -0.000402276     0.000337073       -0.0691196      -0.0776255       -0.0004464    -0.000208074        -0.221433        0.963482
                        0.123306        0.838538     -0.000456878    -5.24671e-05        -0.436409       -0.222667     -0.000203971    -0.000631066
                    -0.000321265    -0.000142991        -0.221709        0.964242     -0.000217636    -0.000574478       -0.0946053       0.0405557
281742                 -0.384834        0.320397     -0.000261892     0.000454648          0.12397        0.838387     -0.000400511    -0.000143061
                    -0.000401809     0.000337109       -0.0691464      -0.0776227     -0.000446097    -0.000207424        -0.220991        0.963582
                         0.12393        0.838618     -0.000456322    -5.19186e-05        -0.436401       -0.222101     -0.000204407    -0.000630256
                    -0.000321065      -0.0001426        -0.221266        0.964343     -0.000217993    -0.000573752       -0.0945913       0.0406286
281744                 -0.384486        0.320397     -0.000261155     0.000454311         0.124594        0.838467     -0.000400281    -0.000142489
                    -0.000401337     0.000337174       -0.0691731      -0.0776198     -0.000445796    -0.000206773        -0.220548        0.963682
                        0.124555        0.838698     -0.000455767    -5.13709e-05        -0.436392       -0.221535     -0.000204843    -0.000629446
                    -0.000320865    -0.000142209        -0.220823        0.964443     -0.000218349    -0.000573027       -0.0945772       0.0407015
281746                 -0.384138        0.320397     -0.000260421     0.000453974         0.125218        0.838546     -0.000400051    -0.000141918
                    -0.000400942     0.000337266       -0.0691999      -0.0776169     -0.000445494     -0.00020612        -0.220106        0.963782
                        0.125179        0.838777     -0.000455211    -5.08241e-05        -0.436383        -0.22097     -0.000205277    -0.000628636
                    -0.000320665    -0.000141819         -0.22038        0.964543     -0.000218705    -0.000572301       -0.0945631       0.0407744
281748                  -0.38379        0.320396     -0.000259687     0.000453635         0.125842        0.838625      -0.00039982    -0.000141348
                    -0.000400549     0.000337259       -0.0692266       -0.077614     -0.000445193    -0.000205465        -0.219664        0.963882
                        0.125803        0.838855     -0.000454656    -5.02782e-05        -0.436373       -0.220405      -0.00020571    -0.000627826
                    -0.000320464    -0.000141429        -0.219936        0.964643      -0.00021906    -0.000571575       -0.0945489       0.0408473
281750                 -0.383443        0.320395     -0.000258955     0.000453296         0.126466        0.838703     -0.000399589    -0.000140778
                    -0.000400107     0.000337258       -0.0692534      -0.0776111     -0.000444892    -0.000204807        -0.219221        0.963981
                        0.126427        0.838933       -0.0004541    -4.97331e-05        -0.436363       -0.219841     -0.000206142    -0.000627016
                    -0.000320263     -0.00014104        -0.219493        0.964743     -0.000219415    -0.000570849       -0.0945347       0.0409201
281752                 -0.383097        0.320394     -0.000258225     0.000452956          0.12709         0.83878     -0.000399357    -0.000140209
                    -0.000399659      0.00033727       -0.0692801      -0.0776082     -0.000444592    -0.000204148        -0.218779        0.964081
                         0.12705        0.839009     -0.000453545    -4.91888e-05        -0.436352       -0.219277     -0.000206573    -0.000626205
                    -0.000320062    -0.000140651         -0.21905        0.964843      -0.00021977    -0.000570123       -0.0945204        0.040993
281754                  -0.38275        0.320392     -0.000257495     0.000452615         0.127714        0.838857     -0.000399125     -0.00013964
                    -0.000399211     0.000337288       -0.0693069      -0.0776053     -0.000444292    -0.000203486        -0.218337         0.96418
                        0.127674        0.839086     -0.000452989    -4.86454e-05        -0.436341       -0.218713     -0.000207002    -0.000625395
                    -0.000319861    -0.000140263        -0.218607        0.964942     -0.000220125    -0.000569397       -0.0945061       0.0410659
281756                 -0.382404        0.320391     -0.000256767     0.000452274         0.128339        0.838933     -0.000398892    -0.000139072
                    -0.000398764     0.000337309       -0.0693337      -0.0776023     -0.000443993    -0.000202821        -0.217894        0.964279
                        0.128298        0.839161     -0.000452434    -4.81028e-05        -0.436329        -0.21815     -0.000207431    -0.000624586
                    -0.000319659    -0.000139875        -0.218163        0.965041     -0.000220479    -0.000568671       -0.0944917       0.0411387
281758                 -0.382058        0.320389      -0.00025604     0.000451933         0.128963        0.839008     -0.000398658    -0.000138506
                    -0.000398319      0.00033733       -0.0693605      -0.0775994     -0.000443694    -0.000202155        -0.217451        0.964377
                        0.128921        0.839236     -0.000451878    -4.75608e-05        -0.436316       -0.217588     -0.000207858    -0.000623776
                    -0.000319457    -0.000139487         -0.21772         0.96514     -0.000220833    -0.000567945       -0.0944773       0.0412116
281760                 -0.381713        0.320387     -0.000255313     0.000451593         0.129586        0.839083     -0.000398424    -0.000137939
                    -0.000397874     0.000337351       -0.0693872      -0.0775964     -0.000443395    -0.000201486        -0.217009        0.964476
                        0.129545         0.83931     -0.000451322    -4.70195e-05        -0.436303       -0.217025     -0.000208284    -0.000622967
                    -0.000319255      -0.0001391        -0.217277        0.965239     -0.000221187    -0.000567218       -0.0944628       0.0412844
281762                 -0.381368        0.320384     -0.000254586     0.000451255          0.13021        0.839157      -0.00039819    -0.000137374
                     -0.00039743     0.000337373        -0.069414      -0.0775935     -0.000443097    -0.000200815        -0.216566        0.964574
                        0.130168        0.839384     -0.000450766    -4.64785e-05        -0.436289       -0.216464      -0.00020871     -0.00062216
