! TOUCHSTONE file generated by CST MICROWAVE STUDIO
! Date and time: Tue Oct 14 07:29:28 2025
! Project name: Teste_Macro_Metasurface_Nanopilar.cst
! Parameters = {H=600; L_x=140; L_y=200; Lambda=1064; Max_L=200; Min_L=70; PathPara=1; Phi=0; Step_L=10; Theta=0; p=520; phaseX=180; phaseY=0}
! Header version: 2018
! Port assignment regex: !\s*Touchstone port\s*([0-9]+)\s*=\s*(CST MWS port|CST DS port)\s*([0-9]+|Zmin|Zmax)\s*\(\"(.*)\"\)(\s*mode\s*([0-9]+))?.*
! Touchstone port assignment:
! Touchstone port 1 = CST MWS port Zmax ("") mode 1
! Touchstone port 2 = CST MWS port Zmax ("") mode 2
! Touchstone port 3 = CST MWS port Zmin ("") mode 1
! Touchstone port 4 = CST MWS port Zmin ("") mode 2
! S-Parameters are not renormalized. Each port impedance will be approximated by the real part at minimum frequency. The values are described via the [Reference] keyword.
! Default impedance is overridden by [Reference]
[Version] 2.0
# GHz S RI R 376.73
[Number of Ports] 4
[Reference]
376.73 376.73 259.814 259.814 
[Number of Frequencies] 51
[Network Data]
281700                 -0.223761       -0.079268     -0.000189608     3.98111e-05         0.934473        0.251734      7.55427e-05      0.00010548
                    -8.45911e-05     0.000176351        -0.181589       0.0134877     -4.54124e-05     9.21845e-05         0.561145        0.800946
                        0.934252        0.252334     -0.000122162     -7.9186e-05         0.231075       0.0408688     -0.000173156     0.000126097
                     0.000101606     8.09145e-06         0.560808        0.800761     -0.000131908     0.000205592         -0.07375        0.160472
281702                 -0.223801      -0.0792217     -0.000189378     4.06983e-05         0.934573        0.251343      7.55352e-05     0.000105677
                    -8.44464e-05     0.000176496        -0.181573       0.0135066     -4.56663e-05     9.26701e-05         0.561507        0.800697
                        0.934351        0.251944     -0.000122136    -7.87633e-05         0.231121       0.0407361     -0.000173306     0.000126241
                     0.000101491     8.18764e-06         0.561171        0.800512     -0.000132308     0.000205747       -0.0736169        0.160519
281704                 -0.223841      -0.0791753     -0.000189148     4.15852e-05         0.934673        0.250953      7.55268e-05     0.000105806
                    -8.43505e-05     0.000176659        -0.181556       0.0135255     -4.59218e-05     9.31572e-05         0.561868        0.800448
                         0.93445        0.251555     -0.000122109    -7.83402e-05         0.231168       0.0406033     -0.000173485     0.000126356
                     0.000101375     8.28321e-06         0.561533        0.800263     -0.000132708     0.000205905       -0.0734839        0.160567
281706                 -0.223881       -0.079129     -0.000188919     4.24721e-05         0.934773        0.250563      7.55179e-05     0.000105858
                    -8.42632e-05      0.00017684        -0.181539       0.0135445     -4.61786e-05     9.36454e-05          0.56223        0.800199
                        0.934549        0.251165     -0.000122082    -7.79168e-05         0.231214       0.0404706     -0.000173696     0.000126439
                     0.000101257     8.37801e-06         0.561896        0.800013     -0.000133107     0.000206063       -0.0733509        0.160614
281708                  -0.22392      -0.0790826      -0.00018869     4.33588e-05         0.934872        0.250172      7.55088e-05     0.000105826
                    -8.41758e-05     0.000177031        -0.181523       0.0135634     -4.64364e-05     9.41346e-05         0.562592         0.79995
                        0.934648        0.250776     -0.000122054    -7.74932e-05          0.23126       0.0403378     -0.000173941     0.000126486
                     0.000101139     8.47178e-06         0.562258        0.799764     -0.000133507     0.000206223       -0.0732179        0.160661
281710                  -0.22396      -0.0790363     -0.000188461     4.42453e-05         0.934972        0.249782      7.54998e-05     0.000105701
                    -8.40871e-05     0.000177227        -0.181506       0.0135824     -4.66948e-05     9.46246e-05         0.562954          0.7997
                        0.934747        0.250386     -0.000122024    -7.70693e-05         0.231305       0.0402049     -0.000174224     0.000126494
                     0.000101019     8.56412e-06         0.562621        0.799514     -0.000133906     0.000206383       -0.0730849        0.160708
281712                    -0.224      -0.0789899     -0.000188231     4.51318e-05         0.935071        0.249391      7.54911e-05     0.000105478
                    -8.39968e-05     0.000177426         -0.18149       0.0136014     -4.69537e-05     9.51152e-05         0.563316        0.799451
                        0.934846        0.249996     -0.000121995    -7.66451e-05         0.231351       0.0400721     -0.000174547     0.000126461
                     0.000100898      8.6544e-06         0.562983        0.799264     -0.000134304     0.000206545       -0.0729519        0.160755
281714                  -0.22404      -0.0789434     -0.000188003     4.60181e-05          0.93517        0.249001      7.54824e-05     0.000105148
                    -8.39053e-05     0.000177626        -0.181473       0.0136204     -4.72129e-05     9.56063e-05         0.563677        0.799201
                        0.934944        0.249606     -0.000121964    -7.62207e-05         0.231397       0.0399391     -0.000174915     0.000126382
                     0.000100776     8.74163e-06         0.563345        0.799014     -0.000134703     0.000206706        -0.072819        0.160802
281716                 -0.224079       -0.078897     -0.000187774     4.69043e-05         0.935269         0.24861      7.54737e-05     0.000104707
                    -8.38127e-05     0.000177827        -0.181457       0.0136394     -4.74721e-05     9.60977e-05         0.564039        0.798951
                        0.935042        0.249217     -0.000121933     -7.5796e-05         0.231443       0.0398062     -0.000175328     0.000126257
                      0.00010065      8.8244e-06         0.563707        0.798764     -0.000135101     0.000206868        -0.072686        0.160849
281718                 -0.224119      -0.0788505     -0.000187545     4.77905e-05         0.935368         0.24822      7.54644e-05     0.000104154
                    -8.37191e-05     0.000178029         -0.18144       0.0136584     -4.77312e-05     9.65893e-05         0.564401        0.798701
                         0.93514        0.248827     -0.000121901    -7.53711e-05         0.231488       0.0396732     -0.000175787     0.000126083
                     0.000100518     8.90101e-06         0.564069        0.798514     -0.000135498     0.000207031       -0.0725531        0.160895
281720                 -0.224159       -0.078804     -0.000187316     4.86765e-05         0.935466        0.247829      7.54538e-05     0.000103497
                    -8.36246e-05     0.000178232        -0.181424       0.0136775       -4.799e-05      9.7081e-05         0.564762        0.798451
                        0.935238        0.248437     -0.000121868    -7.49459e-05         0.231534       0.0395402     -0.000176289     0.000125864
                     0.000100372     8.97126e-06          0.56443        0.798263     -0.000135896     0.000207193       -0.0724201        0.160942
281722                 -0.224198      -0.0787575     -0.000187087     4.95625e-05         0.935565        0.247438      7.54416e-05     0.000102756
                    -8.35294e-05     0.000178435        -0.181407       0.0136966     -4.82485e-05     9.75727e-05         0.565123        0.798201
                        0.935336        0.248047     -0.000121835    -7.45205e-05         0.231579       0.0394072     -0.000176826     0.000125607
                     0.000100203     9.04281e-06         0.564792        0.798012     -0.000136293     0.000207356       -0.0722872        0.160988
281724                 -0.224238       -0.078711     -0.000186858     5.04484e-05         0.935663        0.247048       7.5428e-05      0.00010197
                    -8.34333e-05     0.000178638        -0.181391       0.0137156     -4.85064e-05     9.80644e-05         0.565484         0.79795
                        0.935433        0.247657     -0.000121801    -7.40948e-05         0.231624       0.0392741     -0.000177381     0.000125332
                     0.000100007     9.14024e-06         0.565153        0.797762      -0.00013669     0.000207518       -0.0721543        0.161034
281726                 -0.224278      -0.0786645     -0.000186629     5.13343e-05         0.935761        0.246657      7.54148e-05     0.000101219
                    -8.33365e-05     0.000178842        -0.181374       0.0137347     -4.87638e-05     9.85559e-05         0.565845        0.797699
                         0.93553        0.247268     -0.000121766    -7.36689e-05          0.23167        0.039141     -0.000177921     0.000125073
                     9.98164e-05     9.28317e-06         0.565514        0.797511     -0.000137086     0.000207681       -0.0720214         0.16108
281728                 -0.224318       -0.078618     -0.000186399     5.22201e-05         0.935859        0.246266      7.54071e-05     0.000100639
                    -8.32391e-05     0.000179046        -0.181358       0.0137539     -4.90206e-05     9.90473e-05         0.566206        0.797449
                        0.935629        0.246879     -0.000121731    -7.32428e-05         0.231715       0.0390079     -0.000178387     0.000124894
                     9.96634e-05     9.44558e-06         0.565875        0.797259     -0.000137482     0.000207843       -0.0718884        0.161126
281730                 -0.224357      -0.0785715      -0.00018617      5.3106e-05         0.935957        0.245875      7.54137e-05      0.00010047
                    -8.31409e-05     0.000179249        -0.181341        0.013773     -4.92767e-05     9.95385e-05         0.566566        0.797198
                        0.935727        0.246488     -0.000121695    -7.28165e-05          0.23176       0.0388747     -0.000178677     0.000124908
                      9.9538e-05      9.5959e-06         0.566236        0.797008     -0.000137878     0.000208005       -0.0717555        0.161173
281732                 -0.224397       -0.078525      -0.00018594     5.39918e-05         0.936054        0.245485       7.5444e-05     0.000101117
                    -8.30421e-05     0.000179453        -0.181325       0.0137921      -4.9532e-05      0.00010003         0.566925        0.796947
                        0.935824        0.246098     -0.000121659      -7.239e-05         0.231805       0.0387415     -0.000178623     0.000125299
                     9.94202e-05     9.72971e-06         0.566597        0.796757     -0.000138273     0.000208167       -0.0716224        0.161219
281734                 -0.224437      -0.0784784      -0.00018571     5.48778e-05         0.936152        0.245094      7.54861e-05      0.00010326
                    -8.29426e-05     0.000179657        -0.181308       0.0138113     -4.97866e-05      0.00010052         0.567282        0.796696
                        0.935921        0.245708     -0.000121622    -7.19633e-05          0.23185       0.0386083      -0.00017795     0.000126357
                     9.93013e-05     9.85292e-06         0.566958        0.796505     -0.000138669     0.000208328       -0.0714893        0.161266
281736                 -0.224476      -0.0784318     -0.000185479     5.57638e-05         0.936249        0.244703      7.54276e-05     0.000107997
                    -8.28424e-05     0.000179861        -0.181292       0.0138305     -5.00404e-05     0.000101011         0.567637        0.796444
                        0.936018        0.245317     -0.000121586    -7.15364e-05         0.231895        0.038475     -0.000176238     0.000128481
                     9.91789e-05     9.97062e-06         0.567318        0.796253     -0.000139064      0.00020849       -0.0713559        0.161313
281738                 -0.224516      -0.0783852     -0.000185247       5.665e-05         0.936346        0.244312      7.48146e-05     0.000117002
                    -8.27415e-05     0.000180065        -0.181276       0.0138497     -5.02935e-05     0.000101501         0.567985        0.796194
                        0.936114        0.244927     -0.000121549    -7.11093e-05          0.23194       0.0383417     -0.000172923     0.000132113
                     9.90532e-05     1.00858e-05         0.567678        0.796001     -0.000139458      0.00020865       -0.0712222        0.161363
281740                 -0.224556      -0.0783385     -0.000185013     5.75366e-05         0.936443        0.243921      7.22808e-05     0.000132399
                    -8.26399e-05     0.000180268        -0.181259       0.0138689     -5.05457e-05     0.000101991         0.568304        0.795956
                        0.936211        0.244537     -0.000121512     -7.0682e-05         0.231984       0.0382084     -0.000167419     0.000137487
                     9.89248e-05     1.02002e-05         0.568039        0.795749     -0.000139853     0.000208811       -0.0710879        0.161419
281742                 -0.224595      -0.0782918     -0.000184775     5.84241e-05          0.93654         0.24353      6.47255e-05     0.000155604
                    -8.25376e-05     0.000180471        -0.181243       0.0138881     -5.07972e-05      0.00010248         0.568817        0.795881
                        0.936307        0.244147     -0.000121477    -7.02544e-05         0.232029       0.0380751     -0.000159522     0.000144233
                     9.87941e-05     1.03146e-05         0.568399        0.795497     -0.000140247     0.000208971       -0.0709796        0.161535
281744                 -0.224635      -0.0782451     -0.000184525     5.93131e-05         0.936636        0.243139      4.78902e-05     0.000184258
                    -8.24345e-05     0.000180673        -0.181227       0.0139074     -5.10479e-05      0.00010297         0.569158        0.795465
                        0.936403        0.243756     -0.000121448    -6.98258e-05         0.232073       0.0379417     -0.000149972     0.000151212
                     9.86617e-05     1.04295e-05         0.568759        0.795245      -0.00014064     0.000209132       -0.0708608         0.16144
281746                 -0.224674      -0.0781984     -0.000184165     6.01642e-05         0.936733        0.242748       2.1304e-05     0.000210366
                    -8.23306e-05     0.000180874         -0.18121       0.0139266     -5.12978e-05     0.000103459         0.569497        0.795199
                        0.936499        0.243366     -0.000121459    -6.93784e-05         0.232118       0.0378082     -0.000140507     0.000157074
                     9.85281e-05     1.05454e-05         0.569119        0.794992     -0.000141034     0.000209291       -0.0707068        0.161507
281748                 -0.224714      -0.0781517      -0.00018418     6.10207e-05         0.936829        0.242357     -7.40887e-06     0.000226622
                     -8.2226e-05     0.000181071        -0.181194       0.0139459     -5.15471e-05     0.000103947         0.569848        0.794943
                        0.936595        0.242976     -0.000121274    -6.89392e-05         0.232162       0.0376748     -0.000132909     0.000161127
                     9.83934e-05     1.06622e-05         0.569478        0.794739     -0.000141427     0.000209451       -0.0705699        0.161558
281750                 -0.224754      -0.0781049     -0.000183911     6.19402e-05         0.936925        0.241965     -2.92466e-05     0.000233569
                    -8.21215e-05     0.000181263        -0.181178       0.0139652     -5.17956e-05     0.000104436         0.570204         0.79469
                         0.93669        0.242585     -0.000121273    -6.85358e-05         0.232207       0.0375413     -0.000127972     0.000163491
                     9.82581e-05     1.07802e-05         0.569838        0.794487      -0.00014182      0.00020961       -0.0704356        0.161605
281752                 -0.224793      -0.0780581     -0.000183668     6.28326e-05         0.937021        0.241574     -4.14834e-05     0.000235741
                    -8.20211e-05     0.000181444        -0.181161       0.0139845     -5.20435e-05     0.000104924         0.570561        0.794436
                        0.936786        0.242195     -0.000121241    -6.81105e-05         0.232251       0.0374078     -0.000125456     0.000164651
                     9.81223e-05     1.08994e-05         0.570197        0.794234     -0.000142212     0.000209769       -0.0703021        0.161651
281754                 -0.224833      -0.0780113      -0.00018343      6.3721e-05         0.937117        0.241183     -4.60888e-05     0.000236208
                    -8.19515e-05     0.000181599        -0.181145       0.0140038     -5.22907e-05     0.000105413         0.570919        0.794183
                        0.936881        0.241804     -0.000121203    -6.76831e-05         0.232295       0.0372742     -0.000124668     0.000165068
                     9.79862e-05     1.10199e-05         0.570557        0.793981     -0.000142605     0.000209928        -0.070169        0.161697
281756                 -0.224872      -0.0779645     -0.000183195      6.4608e-05         0.937212        0.240792     -4.59619e-05     0.000236086
                    -8.19898e-05     0.000181834        -0.181129       0.0140232     -5.25374e-05     0.000105901         0.571277        0.793931
                        0.936976        0.241414     -0.000121163    -6.72549e-05         0.232339       0.0371406     -0.000124927     0.000165067
                       9.785e-05     1.11416e-05         0.570916        0.793727     -0.000142997     0.000210087       -0.0700361        0.161742
281758                 -0.224912      -0.0779177      -0.00018296     6.54945e-05         0.937308          0.2404     -4.33619e-05     0.000235652
                    -8.18457e-05     0.000182176        -0.181112       0.0140425     -5.27835e-05     0.000106388         0.571635        0.793678
                        0.937071        0.241023     -0.000121122    -6.68265e-05         0.232383        0.037007      -0.00012574     0.000164852
                     9.77139e-05     1.12645e-05         0.571275        0.793474     -0.000143388     0.000210246       -0.0699033        0.161786
281760                 -0.224952      -0.0778708     -0.000182726     6.63807e-05         0.937403        0.240009      -3.9729e-05     0.000234986
                    -8.16824e-05     0.000182394        -0.181096       0.0140619     -5.30291e-05     0.000106876         0.571994        0.793425
                        0.937166        0.240633      -0.00012108    -6.63978e-05         0.232427       0.0368733     -0.000126796     0.000164543
                      9.7578e-05     1.13886e-05         0.571634         0.79322     -0.000143779     0.000210404       -0.0697706         0.16183
281762                 -0.224991      -0.0778239     -0.000182491     6.72667e-05         0.937498        0.239618     -3.58869e-05     0.000234159
                     -8.1551e-05     0.000182595         -0.18108       0.0140813     -5.32742e-05     0.000107364         0.572352        0.793172
                         0.93726        0.240242     -0.000121037     -6.5969e-05         0.232471       0.0367396     -0.000127915      0.00016421
