! TOUCHSTONE file generated by CST MICROWAVE STUDIO
! Date and time: Tue Oct 14 07:32:10 2025
! Project name: Teste_Macro_Metasurface_Nanopilar.cst
! Parameters = {H=600; L_x=185; L_y=140; Lambda=1064; Max_L=200; Min_L=70; PathPara=1; Phi=0; Step_L=10; Theta=0; p=520; phaseX=180; phaseY=0}
! Header version: 2018
! Port assignment regex: !\s*Touchstone port\s*([0-9]+)\s*=\s*(CST MWS port|CST DS port)\s*([0-9]+|Zmin|Zmax)\s*\(\"(.*)\"\)(\s*mode\s*([0-9]+))?.*
! Touchstone port assignment:
! Touchstone port 1 = CST MWS port Zmax ("") mode 1
! Touchstone port 2 = CST MWS port Zmax ("") mode 2
! Touchstone port 3 = CST MWS port Zmin ("") mode 1
! Touchstone port 4 = CST MWS port Zmin ("") mode 2
! S-Parameters are not renormalized. Each port impedance will be approximated by the real part at minimum frequency. The values are described via the [Reference] keyword.
! Default impedance is overridden by [Reference]
[Version] 2.0
# GHz S RI R 376.73
[Number of Ports] 4
[Reference]
376.73 376.73 259.814 259.814 
[Number of Frequencies] 51
[Network Data]
281700                 -0.231296        0.112223       7.8719e-05    -0.000595677           0.3587        0.886821      0.000676892    -0.000384353
                     7.94814e-05     -0.00060132        -0.178391      -0.0316551      0.000478033    -0.000611009         0.849513        0.488012
                        0.358777        0.887023      0.000465852     -0.00062772        -0.236446       0.0649606      0.000815708     7.09924e-05
                     0.000705328    -0.000330956          0.84922        0.488473      0.000819452      0.00014215         0.115976        0.134544
281702                 -0.231185        0.112186      7.83848e-05     -0.00059557         0.359206        0.886658      0.000676419    -0.000384677
                     7.92016e-05    -0.000601243        -0.178407      -0.0316279       0.00047761    -0.000611065         0.849715        0.487657
                        0.359284        0.886859      0.000465499    -0.000627693        -0.236269       0.0651912      0.000815539     7.03493e-05
                     0.000704933    -0.000331241         0.849422        0.488117      0.000819413     0.000141535         0.116075        0.134475
281704                 -0.231074        0.112149      7.80508e-05    -0.000595451         0.359712        0.886494      0.000675952    -0.000384994
                     7.94068e-05    -0.000601139        -0.178423      -0.0316007      0.000477187    -0.000611121         0.849916        0.487302
                        0.359793        0.886694      0.000465149    -0.000627658        -0.236091       0.0654214      0.000815365      6.9713e-05
                      0.00071117    -0.000332106         0.849624        0.487761      0.000819374     0.000140921         0.116173        0.134406
281706                 -0.230964        0.112111      7.77098e-05    -0.000595319         0.360217         0.88633      0.000675489    -0.000385305
                     8.02271e-05    -0.000601218        -0.178439      -0.0315735      0.000476765    -0.000611177         0.850118        0.486946
                        0.360305        0.886527      0.000464798    -0.000627613        -0.235913       0.0656513      0.000815188     6.90815e-05
                     0.000720125    -0.000336441         0.849825        0.487405      0.000819334     0.000140307         0.116271        0.134337
281708                 -0.230855        0.112073       7.7351e-05    -0.000595177         0.360723        0.886165      0.000675031    -0.000385608
                     8.14742e-05    -0.000601957        -0.178456      -0.0315463      0.000476344    -0.000611233         0.850319        0.486591
                        0.360822        0.886358      0.000464444    -0.000627552        -0.235735       0.0658809       0.00081501     6.84534e-05
                     0.000726034    -0.000342925         0.850026        0.487049      0.000819293     0.000139694         0.116369        0.134267
281710                 -0.230748        0.112033      7.69695e-05     -0.00059504         0.361228           0.886      0.000674578    -0.000385905
                     8.23654e-05     -0.00060353        -0.178472      -0.0315191      0.000475923    -0.000611289          0.85052        0.486235
                        0.361348        0.886185      0.000464073    -0.000627472        -0.235558       0.0661101       0.00081483      6.7828e-05
                     0.000728476    -0.000348357         0.850228        0.486693      0.000819251     0.000139081         0.116467        0.134198
281712                 -0.230646        0.111991      7.65747e-05    -0.000594921         0.361733        0.885835      0.000674129    -0.000386197
                     8.23482e-05    -0.000605249        -0.178488      -0.0314918      0.000475502    -0.000611345          0.85072        0.485879
                         0.36189        0.886002      0.000463669    -0.000627381         -0.23538        0.066339      0.000814649     6.72045e-05
                     0.000729173    -0.000352048         0.850429        0.486337      0.000819209      0.00013847         0.116565        0.134129
281714                 -0.230559        0.111939      7.61816e-05    -0.000594822         0.362237         0.88567      0.000673682    -0.000386485
                     8.17415e-05    -0.000606485        -0.178505       -0.031464      0.000475082      -0.0006114         0.850921        0.485524
                        0.362469        0.885784       0.00046322    -0.000627308        -0.235202       0.0665676      0.000814468     6.65826e-05
                     0.000729171    -0.000354461         0.850632        0.485981      0.000819166     0.000137858         0.116663        0.134059
281716                 -0.230572        0.111767      7.57976e-05    -0.000594733         0.362742        0.885505      0.000673238    -0.000386768
                     8.10005e-05    -0.000607205        -0.178519      -0.0314374      0.000474662    -0.000611456         0.851122        0.485168
                        0.363106        0.885384      0.000462753    -0.000627283        -0.235024       0.0667959      0.000814285      6.5962e-05
                     0.000728897     -0.00035608         0.850826        0.485628      0.000819123     0.000137248         0.116761         0.13399
281718                 -0.230145        0.111933       7.5423e-05    -0.000594649         0.363246        0.885339      0.000672796    -0.000387049
                     8.03192e-05     -0.00060759        -0.178537      -0.0314106      0.000474242    -0.000611512         0.851322        0.484812
                         0.36293        0.884828      0.000462304      -0.0006273        -0.234846       0.0670238      0.000814102     6.53426e-05
                     0.000728514    -0.000357219         0.851028        0.485268      0.000819078     0.000136638         0.116858         0.13392
281720                 -0.230116        0.111882      7.50555e-05    -0.000594564          0.36375        0.885173      0.000672355    -0.000387327
                     7.97333e-05    -0.000607783        -0.178553      -0.0313833      0.000473823    -0.000611568         0.851522        0.484456
                        0.363376        0.885228      0.000461886    -0.000627333        -0.234667       0.0672514      0.000813919     6.47243e-05
                     0.000728085    -0.000358064         0.851229        0.484912      0.000819033     0.000136028         0.116956         0.13385
281722                 -0.230024        0.111839      7.46928e-05    -0.000594477         0.364253        0.885006      0.000671915    -0.000387604
                     7.92293e-05    -0.000607868        -0.178569       -0.031356      0.000473404    -0.000611625         0.851722          0.4841
                           0.364        0.885167      0.000461492    -0.000627362        -0.234489       0.0674785      0.000813734     6.41068e-05
                     0.000727636    -0.000358723         0.851429        0.484555      0.000818987     0.000135419         0.117054        0.133781
281724                 -0.229923        0.111799      7.43331e-05    -0.000594389         0.364757        0.884839      0.000671475     -0.00038788
                     7.87865e-05    -0.000607891        -0.178586      -0.0313287      0.000472985    -0.000611681         0.851922        0.483743
                        0.364561        0.885029       0.00046111    -0.000627382        -0.234311       0.0677055      0.000813549     6.34902e-05
                     0.000727179    -0.000359265         0.851629        0.484198       0.00081894     0.000134811         0.117152        0.133711
281726                 -0.229817         0.11176      7.39755e-05    -0.000594299          0.36526        0.884672      0.000671035    -0.000388154
                     7.83871e-05    -0.000607878        -0.178602      -0.0313014      0.000472566    -0.000611737         0.852122        0.483387
                        0.365095        0.884873      0.000460734    -0.000627395        -0.234133       0.0679321      0.000813363     6.28744e-05
                     0.000726718    -0.000359728         0.851829        0.483841      0.000818893     0.000134204         0.117249        0.133641
281728                  -0.22971        0.111723      7.36191e-05    -0.000594207         0.365762        0.884505      0.000670595    -0.000388429
                     7.80182e-05    -0.000607841        -0.178618      -0.0312741      0.000472148    -0.000611793         0.852321        0.483031
                        0.365617         0.88471       0.00046036    -0.000627401        -0.233954       0.0681584      0.000813177     6.22593e-05
                     0.000726255    -0.000360139         0.852029        0.483484      0.000818844     0.000133597         0.117347        0.133571
281730                 -0.229603        0.111685      7.32635e-05    -0.000594113         0.366265        0.884337      0.000670154    -0.000388703
                     7.76705e-05    -0.000607789        -0.178635      -0.0312468       0.00047173     -0.00061185         0.852521        0.482674
                        0.366132        0.884546      0.000459987    -0.000627403        -0.233776       0.0683843       0.00081299      6.1645e-05
                     0.000725791    -0.000360514         0.852229        0.483127      0.000818796      0.00013299         0.117445        0.133501
281732                 -0.229495        0.111648      7.29084e-05    -0.000594018         0.366767        0.884169      0.000669713    -0.000388977
                     7.73378e-05    -0.000607728        -0.178651      -0.0312195      0.000471313    -0.000611906          0.85272        0.482318
                        0.366643        0.884379      0.000459614    -0.000627401        -0.233598       0.0686099      0.000812802     6.10313e-05
                     0.000725328    -0.000360864         0.852428         0.48277      0.000818746     0.000132384         0.117542        0.133431
281734                 -0.229386        0.111611      7.25537e-05    -0.000593923         0.367269        0.884001      0.000669271    -0.000389251
                     7.70155e-05    -0.000607661        -0.178667      -0.0311922      0.000470895    -0.000611963         0.852919        0.481961
                        0.367151        0.884212       0.00045924    -0.000627397        -0.233419       0.0688352      0.000812614     6.04184e-05
                     0.000724865    -0.000361197         0.852627        0.482413      0.000818695     0.000131779         0.117639        0.133361
281736                 -0.229278        0.111574      7.21991e-05    -0.000593826         0.367771        0.883833      0.000668828    -0.000389526
                     7.67006e-05    -0.000607589        -0.178683      -0.0311648      0.000470478    -0.000612019         0.853118        0.481605
                        0.367657        0.884045      0.000458865    -0.000627392        -0.233241       0.0690601      0.000812425      5.9806e-05
                     0.000724403    -0.000361517         0.852826        0.482056      0.000818644     0.000131174         0.117737        0.133291
281738                  -0.22917        0.111537      7.18448e-05    -0.000593729         0.368273        0.883664      0.000668384      -0.0003898
                     7.63908e-05    -0.000607514          -0.1787      -0.0311375      0.000470061    -0.000612076         0.853317        0.481248
                        0.368161        0.883876       0.00045849    -0.000627385        -0.233062       0.0692847      0.000812235     5.91944e-05
                     0.000723941    -0.000361829         0.853025        0.481699      0.000818592      0.00013057         0.117834        0.133221
281740                 -0.229061          0.1115      7.14904e-05    -0.000593631         0.368774        0.883495       0.00066794    -0.000390075
                     7.60846e-05    -0.000607436        -0.178716      -0.0311102      0.000469645    -0.000612133         0.853516        0.480891
                        0.368665        0.883707      0.000458113    -0.000627378        -0.232884        0.069509      0.000812044     5.85833e-05
                     0.000723479    -0.000362135         0.853224        0.481342       0.00081854     0.000129966         0.117932         0.13315
281742                 -0.228953        0.111464      7.11361e-05    -0.000593533         0.369275        0.883325      0.000667494     -0.00039035
                      7.5781e-05    -0.000607358        -0.178732      -0.0310828      0.000469229     -0.00061219         0.853714        0.480534
                        0.369168        0.883538      0.000457736     -0.00062737        -0.232705        0.069733      0.000811853     5.79729e-05
                     0.000723018    -0.000362435         0.853423        0.480984      0.000818487     0.000129363         0.118029         0.13308
281744                 -0.228845        0.111427      7.07818e-05    -0.000593434         0.369776        0.883156      0.000667048    -0.000390625
                      7.5479e-05    -0.000607278        -0.178749      -0.0310554      0.000468813    -0.000612247         0.853913        0.480177
                         0.36967        0.883369      0.000457358    -0.000627362        -0.232526       0.0699566      0.000811662     5.73631e-05
                     0.000722557    -0.000362733         0.853621        0.480627      0.000818433     0.000128761         0.118126         0.13301
281746                 -0.228737        0.111391      7.04275e-05    -0.000593334         0.370277        0.882986      0.000666601      -0.0003909
                     7.51782e-05    -0.000607198        -0.178765       -0.031028      0.000468397    -0.000612304         0.854111         0.47982
                        0.370172        0.883199       0.00045698    -0.000627354        -0.232348         0.07018      0.000811469     5.67539e-05
                     0.000722096    -0.000363029          0.85382        0.480269      0.000818378     0.000128159         0.118223        0.132939
281748                 -0.228629        0.111354      7.00732e-05    -0.000593235         0.370777        0.882816      0.000666153    -0.000391176
                     7.48781e-05    -0.000607118        -0.178781      -0.0310007      0.000467982    -0.000612361         0.854309        0.479463
                        0.370673        0.883029      0.000456601    -0.000627347        -0.232169       0.0704029      0.000811276     5.61454e-05
                     0.000721636    -0.000363322         0.854018        0.479911      0.000818323     0.000127557         0.118321        0.132869
281750                 -0.228522        0.111318      6.97189e-05    -0.000593135         0.371277        0.882645      0.000665704    -0.000391451
                     7.45785e-05    -0.000607037        -0.178798      -0.0309732      0.000467567    -0.000612418         0.854507        0.479106
                        0.371174        0.882858      0.000456222    -0.000627339         -0.23199       0.0706256      0.000811083     5.55375e-05
                     0.000721176    -0.000363615         0.854216        0.479554      0.000818267     0.000126957         0.118418        0.132798
281752                 -0.228414        0.111281      6.93646e-05    -0.000593035         0.371777        0.882474      0.000665255    -0.000391727
                      7.4279e-05    -0.000606956        -0.178814      -0.0309458      0.000467152    -0.000612476         0.854704        0.478749
                        0.371675        0.882688      0.000455842    -0.000627332        -0.231811        0.070848      0.000810889     5.49301e-05
                     0.000720716    -0.000363907         0.854414        0.479196       0.00081821     0.000126357         0.118515        0.132727
281754                 -0.228307        0.111245      6.90104e-05    -0.000592935         0.372276        0.882303      0.000664805    -0.000392002
                     7.39796e-05    -0.000606875         -0.17883      -0.0309184      0.000466737    -0.000612533         0.854902        0.478391
                        0.372175        0.882516      0.000455462    -0.000627325        -0.231632         0.07107      0.000810694     5.43235e-05
                     0.000720257    -0.000364198         0.854612        0.478838      0.000818152     0.000125757         0.118612        0.132657
281756                 -0.228199        0.111208      6.86561e-05    -0.000592835         0.372776        0.882132      0.000664354    -0.000392277
                     7.36801e-05    -0.000606794        -0.178846       -0.030891      0.000466323    -0.000612591           0.8551        0.478034
                        0.372675        0.882345      0.000455082    -0.000627319        -0.231454       0.0712917      0.000810499     5.37174e-05
                     0.000719798    -0.000364489         0.854809         0.47848      0.000818094     0.000125158         0.118709        0.132586
281758                 -0.228092        0.111172       6.8302e-05    -0.000592735         0.373275         0.88196      0.000663903    -0.000392553
                     7.33805e-05    -0.000606714        -0.178863      -0.0308635      0.000465909    -0.000612648         0.855297        0.477676
                        0.373175        0.882173      0.000454702    -0.000627314        -0.231275        0.071513      0.000810303     5.31121e-05
                     0.000719339    -0.000364779         0.855007        0.478122      0.000818035      0.00012456         0.118806        0.132515
281760                 -0.227985        0.111136       6.7948e-05    -0.000592635         0.373774        0.881789      0.000663451    -0.000392828
                     7.30808e-05    -0.000606633        -0.178879      -0.0308361      0.000465495    -0.000612706         0.855494        0.477319
                        0.373674        0.882001      0.000454321    -0.000627308        -0.231096       0.0717341      0.000810107     5.25073e-05
                      0.00071888     -0.00036507         0.855204        0.477764      0.000817976     0.000123962         0.118902        0.132444
281762                 -0.227879        0.111099      6.75941e-05    -0.000592536         0.374272        0.881616      0.000662998    -0.000393103
                     7.27808e-05    -0.000606552        -0.178895      -0.0308086      0.000465082    -0.000612764         0.855691        0.476961
                        0.374174        0.881829      0.000453941    -0.000627304        -0.230916       0.0719548       0.00080991     5.19033e-05
