! TOUCHSTONE file generated by CST MICROWAVE STUDIO
! Date and time: Tue Oct 14 07:25:40 2025
! Project name: Teste_Macro_Metasurface_Nanopilar.cst
! Parameters = {H=600; L_x=80; L_y=190; Lambda=1064; Max_L=200; Min_L=70; PathPara=1; Phi=0; Step_L=10; Theta=0; p=520; phaseX=180; phaseY=0}
! Header version: 2018
! Port assignment regex: !\s*Touchstone port\s*([0-9]+)\s*=\s*(CST MWS port|CST DS port)\s*([0-9]+|Zmin|Zmax)\s*\(\"(.*)\"\)(\s*mode\s*([0-9]+))?.*
! Touchstone port assignment:
! Touchstone port 1 = CST MWS port Zmax ("") mode 1
! Touchstone port 2 = CST MWS port Zmax ("") mode 2
! Touchstone port 3 = CST MWS port Zmin ("") mode 1
! Touchstone port 4 = CST MWS port Zmin ("") mode 2
! S-Parameters are not renormalized. Each port impedance will be approximated by the real part at minimum frequency. The values are described via the [Reference] keyword.
! Default impedance is overridden by [Reference]
[Version] 2.0
# GHz S RI R 376.73
[Number of Ports] 4
[Reference]
376.73 376.73 259.814 259.814 
[Number of Frequencies] 51
[Network Data]
281700                 -0.141606       -0.343234     -2.29847e-05     1.96479e-05         0.483556        0.784837     -1.98957e-05    -1.66514e-05
                    -0.000156869    -8.75207e-06         0.036843       0.0211405      0.000131943     3.78833e-05         0.854736       -0.515432
                        0.483424        0.784798     -4.24456e-05     0.000126956         0.245265        0.275913      0.000156304     5.97358e-05
                    -9.31679e-05    -4.05777e-05         0.854567       -0.515061      0.000166134     0.000123282       0.00153965       0.0430761
281702                 -0.141751        -0.34325     -2.29842e-05     1.96367e-05         0.483933        0.784571     -1.99135e-05    -1.68453e-05
                    -0.000156814    -8.69617e-06        0.0368575       0.0211185      0.000132153     3.78816e-05         0.854537       -0.515763
                          0.4838        0.784533     -4.18974e-05     0.000128976         0.245492        0.275804      0.000156262     5.96956e-05
                    -9.31669e-05    -4.05728e-05         0.854368       -0.515393      0.000166271     0.000123234       0.00154649       0.0430768
281704                 -0.141897       -0.343266     -2.29682e-05      1.9614e-05          0.48431        0.784304     -1.99319e-05    -1.70391e-05
                    -0.000156759     -8.6404e-06        0.0368718       0.0210965      0.000132362     3.78808e-05         0.854337       -0.516094
                        0.484176        0.784267     -4.13387e-05     0.000130909         0.245719        0.275695      0.000156221     5.96553e-05
                    -9.31658e-05    -4.05682e-05         0.854169       -0.515724      0.000166405     0.000123184       0.00155333       0.0430774
281706                 -0.142042       -0.343282     -2.29352e-05     1.95786e-05         0.484686        0.784038     -1.99507e-05    -1.72329e-05
                    -0.000156704    -8.58477e-06        0.0368861       0.0210745      0.000132569     3.78809e-05         0.854137       -0.516425
                        0.484551        0.784002     -4.07798e-05     0.000132736         0.245945        0.275586      0.000156179     5.96152e-05
                    -9.31648e-05    -4.05638e-05          0.85397       -0.516056      0.000166537     0.000123132       0.00156018        0.043078
281708                 -0.142187       -0.343298     -2.28833e-05     1.95293e-05         0.485063        0.783771       -1.997e-05    -1.74268e-05
                    -0.000156649     -8.5293e-06        0.0369004       0.0210525      0.000132775      3.7882e-05         0.853936       -0.516756
                        0.484927        0.783736     -4.02329e-05     0.000134436         0.246172        0.275477      0.000156138      5.9575e-05
                    -9.31636e-05    -4.05599e-05          0.85377       -0.516387      0.000166666     0.000123077       0.00156702       0.0430786
281710                 -0.142332       -0.343314     -2.28107e-05     1.94645e-05         0.485439        0.783504     -1.99898e-05    -1.76206e-05
                    -0.000156595    -8.47402e-06        0.0369146       0.0210305       0.00013298     3.78842e-05         0.853736       -0.517087
                        0.485302         0.78347     -3.97117e-05     0.000135985         0.246399        0.275368      0.000156096      5.9535e-05
                    -9.31622e-05    -4.05565e-05          0.85357       -0.516718      0.000166792     0.000123019       0.00157386       0.0430792
281712                 -0.142478        -0.34333     -2.27154e-05     1.93826e-05         0.485816        0.783237       -2.001e-05    -1.78145e-05
                     -0.00015654    -8.41897e-06        0.0369286       0.0210084      0.000133182     3.78873e-05         0.853535       -0.517418
                        0.485677        0.783204     -3.92317e-05     0.000137357         0.246626        0.275258      0.000156055     5.94949e-05
                    -9.31604e-05    -4.05537e-05          0.85337       -0.517049      0.000166915     0.000122958       0.00158071       0.0430798
281714                 -0.142623       -0.343345     -2.25952e-05     1.92819e-05         0.486192        0.782969     -2.00306e-05    -1.80084e-05
                    -0.000156486     -8.3642e-06        0.0369426       0.0209862      0.000133383     3.78916e-05         0.853335       -0.517748
                        0.486052        0.782938     -3.88097e-05     0.000138526         0.246852        0.275149      0.000156013     5.94549e-05
                    -9.31578e-05    -4.05518e-05          0.85317        -0.51738      0.000167035     0.000122895       0.00158755       0.0430805
281716                 -0.142768       -0.343361     -2.24476e-05     1.91606e-05         0.486568        0.782702     -2.00516e-05    -1.82023e-05
                    -0.000156432    -8.30983e-06        0.0369565       0.0209641      0.000133582      3.7897e-05         0.853134       -0.518079
                        0.486427        0.782671     -3.84631e-05     0.000139461         0.247079        0.275039      0.000155972     5.94149e-05
                    -9.31538e-05    -4.05507e-05         0.852969       -0.517711      0.000167153      0.00012283        0.0015944       0.0430811
281718                 -0.142914       -0.343377     -2.22703e-05     1.90165e-05         0.486944        0.782434     -2.00731e-05    -1.83963e-05
                    -0.000156378    -8.25603e-06        0.0369703       0.0209418      0.000133779     3.79034e-05         0.852933       -0.518409
                        0.486802        0.782404       -3.821e-05     0.000140132         0.247306        0.274929       0.00015593      5.9375e-05
                    -9.31474e-05    -4.05502e-05         0.852768       -0.518041      0.000167267     0.000122761       0.00160124       0.0430817
281720                 -0.143059       -0.343392     -2.20608e-05     1.88476e-05         0.487319        0.782166     -2.00949e-05    -1.85903e-05
                    -0.000156325    -8.20314e-06         0.036984       0.0209195      0.000133975     3.79111e-05         0.852732        -0.51874
                        0.487177        0.782137     -3.80675e-05     0.000140505         0.247532        0.274818      0.000155889     5.93351e-05
                    -9.31374e-05    -4.05486e-05         0.852567       -0.518372      0.000167378      0.00012269       0.00160809       0.0430824
281722                 -0.143205       -0.343408     -2.18165e-05     1.86515e-05         0.487695        0.781898      -2.0117e-05    -1.87844e-05
                    -0.000156275    -8.15189e-06        0.0369975       0.0208971      0.000134168     3.79199e-05         0.852531        -0.51907
                        0.487551         0.78187     -3.80507e-05     0.000140549         0.247759        0.274708      0.000155847     5.92953e-05
                    -9.31239e-05    -4.05431e-05         0.852366       -0.518702      0.000167486     0.000122615       0.00161494        0.043083
281724                  -0.14335       -0.343423     -2.15349e-05      1.8426e-05          0.48807        0.781629     -2.01395e-05    -1.89785e-05
                    -0.000156229    -8.10423e-06        0.0370109       0.0208745      0.000134359       3.793e-05          0.85233         -0.5194
                        0.487926        0.781603     -3.81713e-05     0.000140231         0.247986        0.274597      0.000155805     5.92554e-05
                    -9.31106e-05    -4.05307e-05         0.852164       -0.519032      0.000167591     0.000122538       0.00162178       0.0430836
281726                 -0.143496       -0.343439      -2.1214e-05      1.8169e-05         0.488446        0.781361     -2.01623e-05    -1.91726e-05
                    -0.000156205    -8.06606e-06        0.0370241       0.0208517      0.000134549     3.79413e-05         0.852128       -0.519731
                          0.4883        0.781335     -3.84357e-05     0.000139522         0.248212        0.274487      0.000155763     5.92156e-05
                    -9.31025e-05    -4.05135e-05         0.851963       -0.519362      0.000167692     0.000122458       0.00162863       0.0430843
281728                 -0.143642       -0.343454      -2.0852e-05     1.78784e-05         0.488821        0.781092     -2.01855e-05    -1.93668e-05
                    -0.000156302    -7.80344e-06        0.0370371       0.0208287      0.000134736     3.79538e-05         0.851927       -0.520061
                        0.488674        0.781068     -3.88429e-05     0.000138398         0.248439        0.274376      0.000155721     5.91758e-05
                    -9.31005e-05    -4.04964e-05         0.851761       -0.519692      0.000167791     0.000122374       0.00163548       0.0430849
281730                 -0.143787       -0.343469     -2.04483e-05      1.7553e-05         0.489196        0.780823     -2.02089e-05    -1.95611e-05
                     -0.00015601    -7.84668e-06        0.0370501       0.0208054      0.000134921     3.79677e-05         0.851725       -0.520391
                        0.489048          0.7808     -3.93825e-05     0.000136846         0.248665        0.274265      0.000155679      5.9136e-05
                     -9.3102e-05    -4.04822e-05         0.851559       -0.520021      0.000167885     0.000122288       0.00164233       0.0430856
281732                 -0.143933       -0.343485     -2.00037e-05     1.71925e-05         0.489571        0.780554     -2.02327e-05    -1.97555e-05
                    -0.000155963    -7.82589e-06         0.037063       0.0207816      0.000135104      3.7983e-05         0.851523       -0.520721
                        0.489422        0.780531     -4.00329e-05     0.000134869         0.248892        0.274153      0.000155637     5.90962e-05
                    -9.31046e-05     -4.0471e-05         0.851356       -0.520351      0.000167977     0.000122198       0.00164918       0.0430862
281734                 -0.144079         -0.3435     -1.95214e-05     1.67985e-05         0.489946        0.780284     -2.02567e-05    -1.99499e-05
                    -0.000155913      -7.782e-06        0.0370759       0.0207574      0.000135284     3.79996e-05         0.851321       -0.521051
                        0.489795        0.780263     -4.07605e-05     0.000132497         0.249118        0.274042      0.000155595     5.90564e-05
                    -9.31071e-05    -4.04618e-05         0.851154        -0.52068      0.000168065     0.000122105       0.00165603       0.0430869
281736                 -0.144225       -0.343515     -1.90085e-05     1.63757e-05          0.49032        0.780014      -2.0281e-05    -2.01443e-05
                    -0.000155861    -7.73249e-06        0.0370892       0.0207327      0.000135462     3.80176e-05         0.851119       -0.521381
                        0.490169        0.779995     -4.15196e-05     0.000129802         0.249345         0.27393      0.000155553     5.90165e-05
                     -9.3109e-05     -4.0454e-05         0.850951        -0.52101      0.000168149     0.000122009       0.00166288       0.0430875
281738                 -0.144371        -0.34353     -1.84783e-05     1.59336e-05         0.490695        0.779745     -2.03055e-05    -2.03389e-05
                    -0.000155807    -7.68083e-06         0.037103       0.0207078      0.000135637      3.8037e-05         0.850917        -0.52171
                        0.490542        0.779726     -4.22549e-05     0.000126913         0.249571        0.273819      0.000155511     5.89766e-05
                    -9.31103e-05    -4.04469e-05         0.850748       -0.521339      0.000168229      0.00012191       0.00166973       0.0430882
281740                 -0.144516       -0.343545     -1.79532e-05     1.54901e-05         0.491069        0.779475     -2.03303e-05    -2.05335e-05
                    -0.000155753    -7.62816e-06        0.0371173       0.0206829       0.00013581     3.80579e-05         0.850715        -0.52204
                        0.490915        0.779457     -4.29049e-05      0.00012405         0.249798        0.273707      0.000155468     5.89367e-05
                    -9.31112e-05    -4.04402e-05         0.850545       -0.521668      0.000168306     0.000121807       0.00167659       0.0430889
281742                 -0.144662        -0.34356     -1.74709e-05     1.50759e-05         0.491443        0.779204     -2.03554e-05    -2.07282e-05
                    -0.000155699    -7.57495e-06         0.037132       0.0206586       0.00013598     3.80804e-05         0.850512        -0.52237
                        0.491289        0.779188      -4.3404e-05     0.000121571         0.250024        0.273594      0.000155425     5.88966e-05
                    -9.31116e-05    -4.04338e-05         0.850342       -0.521997      0.000168379       0.0001217       0.00168344       0.0430895
281744                 -0.144808       -0.343575     -1.70928e-05     1.47429e-05         0.491817        0.778934     -2.03807e-05     -2.0923e-05
                    -0.000155644    -7.52144e-06        0.0371467       0.0206352      0.000136148     3.81043e-05          0.85031       -0.522699
                        0.491661        0.778918     -4.36764e-05     0.000120049          0.25025        0.273482      0.000155383     5.88565e-05
                    -9.31117e-05    -4.04276e-05          0.85014       -0.522327      0.000168449      0.00012159       0.00169029       0.0430902
281746                 -0.144954        -0.34359     -1.69189e-05     1.45759e-05         0.492191        0.778663     -2.04062e-05    -2.11179e-05
                     -0.00015559    -7.46774e-06        0.0371606       0.0206131      0.000136313     3.81299e-05         0.850107       -0.523029
                        0.492034        0.778649     -4.35899e-05     0.000120437         0.250477         0.27337       0.00015534     5.88162e-05
                    -9.31115e-05    -4.04215e-05         0.849937       -0.522656      0.000168514     0.000121476       0.00169715       0.0430909
281748                   -0.1451       -0.343605     -1.71131e-05     1.47126e-05         0.492565        0.778392     -2.04319e-05    -2.13128e-05
                    -0.000155535    -7.41395e-06        0.0371732       0.0205929      0.000136475      3.8157e-05         0.849904       -0.523358
                        0.492407        0.778379     -4.27723e-05     0.000124408         0.250703        0.273257      0.000155297     5.87758e-05
                    -9.31111e-05    -4.04155e-05         0.849735       -0.522986      0.000168575     0.000121359         0.001704       0.0430915
281750                 -0.145247        -0.34362     -1.79488e-05     1.53722e-05         0.492939        0.778121     -2.04579e-05    -2.15078e-05
                     -0.00015548    -7.36009e-06        0.0371845       0.0205765      0.000136634     3.81858e-05         0.849701       -0.523687
                        0.492779        0.778109     -3.98845e-05      0.00013512         0.250929        0.273144      0.000155254     5.87352e-05
                    -9.31105e-05    -4.04095e-05         0.849534       -0.523317      0.000168632     0.000121238       0.00171086       0.0430922
281752                 -0.145393       -0.343635     -1.98909e-05     1.68934e-05         0.493312         0.77785     -2.04841e-05    -2.17029e-05
                    -0.000155425    -7.30621e-06        0.0371987       0.0205667       0.00013679     3.82163e-05         0.849498       -0.524017
                        0.493152        0.777839     -2.94839e-05      0.00015869         0.251156        0.273031       0.00015521     5.86945e-05
                    -9.31098e-05    -4.04035e-05         0.849335       -0.523649      0.000168686     0.000121113       0.00171772       0.0430929
281754                 -0.145539        -0.34365     -2.37518e-05     1.97674e-05         0.493686        0.777578     -2.05106e-05    -2.18981e-05
                     -0.00015537    -7.25233e-06        0.0372257       0.0205564      0.000136943     3.82484e-05         0.849295       -0.524346
                        0.493524        0.777569      1.20155e-05     0.000201337         0.251382        0.272918      0.000155167     5.86535e-05
                    -9.31089e-05    -4.03975e-05         0.849138       -0.523985      0.000168734     0.000120984       0.00172458       0.0430936
281756                 -0.145685       -0.343665     -3.09768e-05     2.45967e-05         0.494059        0.777306     -2.05372e-05    -2.20933e-05
                    -0.000155315    -7.19846e-06        0.0372545       0.0205314      0.000137092     3.82823e-05         0.849092       -0.524675
                        0.493896        0.777298      0.000138031     0.000201295         0.251608        0.272805      0.000155124     5.86124e-05
                    -9.31079e-05    -4.03915e-05         0.848945       -0.524329      0.000168779     0.000120851       0.00173143       0.0430942
281758                 -0.145831       -0.343679     -4.41017e-05     3.17382e-05         0.494432        0.777034     -2.05641e-05    -2.22886e-05
                     -0.00015526     -7.1446e-06         0.037274       0.0205021      0.000137239      3.8318e-05         0.848888       -0.525004
                        0.494268        0.777028      0.000189394     6.05289e-05         0.251835        0.272691       0.00015508      5.8571e-05
                    -9.31069e-05    -4.03854e-05         0.848756       -0.524694      0.000168819     0.000120713       0.00173829       0.0430949
281760                 -0.145978       -0.343694     -6.70548e-05     4.00122e-05         0.494805        0.776762     -2.05912e-05     -2.2484e-05
                    -0.000155205    -7.09078e-06        0.0372891        0.020475      0.000137382     3.83555e-05         0.848684       -0.525333
                         0.49464        0.776757      0.000135379    -5.83258e-06         0.252061        0.272578      0.000155037     5.85294e-05
                    -9.31057e-05    -4.03794e-05         0.848536       -0.525116      0.000168855     0.000120572       0.00174515       0.0430956
281762                 -0.146124       -0.343709     -0.000103388      4.4002e-05         0.495178         0.77649     -2.06185e-05    -2.26794e-05
                     -0.00015515    -7.03698e-06        0.0373028       0.0204499      0.000137521     3.83949e-05         0.848481       -0.525661
                        0.495012        0.776485      9.96085e-05    -1.95516e-05         0.252287        0.272464      0.000154993     5.84876e-05
