! TOUCHSTONE file generated by CST MICROWAVE STUDIO
! Date and time: Tue Oct 14 07:29:19 2025
! Project name: Teste_Macro_Metasurface_Nanopilar.cst
! Parameters = {H=600; L_x=140; L_y=140; Lambda=1064; Max_L=200; Min_L=70; PathPara=1; Phi=0; Step_L=10; Theta=0; p=520; phaseX=180; phaseY=0}
! Header version: 2018
! Port assignment regex: !\s*Touchstone port\s*([0-9]+)\s*=\s*(CST MWS port|CST DS port)\s*([0-9]+|Zmin|Zmax)\s*\(\"(.*)\"\)(\s*mode\s*([0-9]+))?.*
! Touchstone port assignment:
! Touchstone port 1 = CST MWS port Zmax ("") mode 1
! Touchstone port 2 = CST MWS port Zmax ("") mode 2
! Touchstone port 3 = CST MWS port Zmin ("") mode 1
! Touchstone port 4 = CST MWS port Zmin ("") mode 2
! S-Parameters are not renormalized. Each port impedance will be approximated by the real part at minimum frequency. The values are described via the [Reference] keyword.
! Default impedance is overridden by [Reference]
[Version] 2.0
# GHz S RI R 376.73
[Number of Ports] 4
[Reference]
376.73 376.73 259.814 259.814 
[Number of Frequencies] 51
[Network Data]
281700                  -0.11632       -0.183191     -0.000179194    -0.000615851         0.370703         0.89826      0.000366798    -0.000150228
                    -0.000181936    -0.000585991         -0.11637       -0.182394      0.000246572    -0.000423692         0.372669        0.897519
                        0.370822         0.89822      0.000294276    -0.000403966        0.0481413        0.210058      0.000519921     0.000504592
                      0.00036354    -0.000122618         0.373172        0.897476      0.000456036     0.000533492        0.0483157        0.209357
281702                 -0.116384       -0.183188     -0.000179183    -0.000615764         0.371104        0.898087      0.000366814    -0.000150421
                    -0.000181804    -0.000585571        -0.116434       -0.182392      0.000246294    -0.000424095          0.37307        0.897344
                        0.371222        0.898047      0.000294589    -0.000403925        0.0482841        0.210057      0.000520236     0.000504439
                     0.000363888    -0.000121627         0.373573        0.897301      0.000456247     0.000533182        0.0484584        0.209357
281704                 -0.116448       -0.183186     -0.000179173    -0.000615675         0.371505        0.897913       0.00036683    -0.000150614
                    -0.000181671    -0.000585148        -0.116498       -0.182389      0.000246016    -0.000424498         0.373471         0.89717
                        0.371622        0.897874      0.000294902     -0.00040388        0.0484269        0.210056       0.00052055     0.000504286
                     0.000364235    -0.000120629         0.373974        0.897125      0.000456459      0.00053287        0.0486012        0.209356
281706                 -0.116512       -0.183183     -0.000179162    -0.000615584         0.371906        0.897739      0.000366846    -0.000150809
                    -0.000181536    -0.000584722        -0.116562       -0.182387       0.00024574    -0.000424902         0.373872        0.896995
                        0.372022        0.897701      0.000295216    -0.000403833        0.0485697        0.210056      0.000520864     0.000504131
                     0.000364582    -0.000119623         0.374375        0.896949       0.00045667     0.000532558         0.048744        0.209356
281708                 -0.116577        -0.18318      -0.00017915    -0.000615492         0.372306        0.897565      0.000366862    -0.000151004
                      -0.0001814    -0.000584293        -0.116626       -0.182385      0.000245463    -0.000425307         0.374272         0.89682
                        0.372422        0.897528       0.00029553    -0.000403783        0.0487125        0.210055      0.000521177     0.000503975
                     0.000364929     -0.00011861         0.374776        0.896773      0.000456881     0.000532244        0.0488868        0.209355
281710                 -0.116641       -0.183178     -0.000179138    -0.000615399         0.372707        0.897391      0.000366879    -0.000151199
                    -0.000181261     -0.00058386         -0.11669       -0.182382      0.000245187    -0.000425713         0.374673        0.896645
                        0.372821        0.897354      0.000295844    -0.000403729        0.0488554        0.210054      0.000521489     0.000503818
                     0.000365276     -0.00011759         0.375176        0.896597      0.000457092     0.000531929        0.0490296        0.209354
281712                 -0.116705       -0.183175     -0.000179126    -0.000615303         0.373108        0.897217      0.000366895    -0.000151396
                    -0.000181121    -0.000583424        -0.116753        -0.18238      0.000244912    -0.000426119         0.375074        0.896469
                        0.373221        0.897181       0.00029616    -0.000403672        0.0489983        0.210053      0.000521801     0.000503661
                     0.000365623    -0.000116562         0.375577         0.89642      0.000457304     0.000531613        0.0491725        0.209353
281714                 -0.116769       -0.183173     -0.000179113    -0.000615206         0.373508        0.897043      0.000366913    -0.000151593
                     -0.00018098    -0.000582985        -0.116817       -0.182378      0.000244637    -0.000426526         0.375474        0.896294
                         0.37362        0.897007      0.000296475     -0.00040361        0.0491412        0.210052      0.000522112     0.000503503
                     0.000365969    -0.000115528         0.375978        0.896243      0.000457515     0.000531295        0.0493154        0.209352
281716                 -0.116834        -0.18317     -0.000179099    -0.000615106         0.373909        0.896868       0.00036693     -0.00015179
                    -0.000180836    -0.000582542        -0.116881       -0.182375      0.000244363    -0.000426933         0.375875        0.896118
                         0.37402        0.896833      0.000296791    -0.000403545        0.0492842        0.210051      0.000522422     0.000503344
                     0.000366316    -0.000114486         0.376378        0.896065      0.000457726     0.000530976        0.0494584        0.209351
281718                 -0.116898       -0.183167     -0.000179085    -0.000615005         0.374309        0.896693      0.000366948    -0.000151988
                    -0.000180691    -0.000582096        -0.116945       -0.182373       0.00024409    -0.000427341         0.376275        0.895942
                        0.374419        0.896659      0.000297108    -0.000403475        0.0494272        0.210049      0.000522732     0.000503184
                     0.000366662    -0.000113437         0.376778        0.895888      0.000457938     0.000530656        0.0496013         0.20935
281720                 -0.116962       -0.183165     -0.000179071    -0.000614901          0.37471        0.896518      0.000366966    -0.000152187
                    -0.000180545    -0.000581647        -0.117009        -0.18237      0.000243817     -0.00042775         0.376676        0.895766
                        0.374818        0.896485      0.000297425    -0.000403401        0.0495702        0.210048      0.000523041     0.000503023
                     0.000367008     -0.00011238         0.377178         0.89571       0.00045815     0.000530335        0.0497443        0.209349
281722                 -0.117027       -0.183162     -0.000179056    -0.000614794          0.37511        0.896343      0.000366985    -0.000152385
                    -0.000180396    -0.000581195        -0.117073       -0.182368      0.000243545    -0.000428159         0.377076        0.895589
                        0.375217         0.89631      0.000297742    -0.000403322        0.0497132        0.210047      0.000523349     0.000502863
                     0.000367354    -0.000111317         0.377578        0.895531      0.000458362     0.000530012        0.0498873        0.209348
281724                 -0.117091       -0.183159     -0.000179041    -0.000614685          0.37551        0.896167      0.000367004    -0.000152585
                    -0.000180246    -0.000580739        -0.117137       -0.182366      0.000243273    -0.000428568         0.377476        0.895413
                        0.375616        0.896135       0.00029806    -0.000403237        0.0498563        0.210045      0.000523656     0.000502701
                       0.0003677    -0.000110246         0.377979        0.895353      0.000458574     0.000529689        0.0500304        0.209346
281726                 -0.117156       -0.183157     -0.000179025    -0.000614573          0.37591        0.895992      0.000367023    -0.000152784
                    -0.000180094    -0.000580281        -0.117201       -0.182363      0.000243002    -0.000428978         0.377876        0.895236
                        0.376015        0.895961      0.000298378    -0.000403147        0.0499994        0.210043      0.000523963     0.000502539
                     0.000368045    -0.000109168         0.378378        0.895174      0.000458786     0.000529364        0.0501735        0.209345
281728                  -0.11722       -0.183154     -0.000179008    -0.000614458          0.37631        0.895816      0.000367042    -0.000152984
                    -0.000179941    -0.000579819        -0.117265       -0.182361      0.000242731    -0.000429389         0.378276        0.895059
                        0.376414        0.895785      0.000298696    -0.000403051        0.0501425        0.210042      0.000524269     0.000502377
                      0.00036839    -0.000108082         0.378778        0.894995      0.000458999     0.000529037        0.0503166        0.209343
281730                 -0.117284       -0.183151     -0.000178991     -0.00061434          0.37671         0.89564      0.000367062    -0.000153184
                    -0.000179786    -0.000579353        -0.117329       -0.182358      0.000242462      -0.0004298         0.378676        0.894882
                        0.376813         0.89561      0.000299015    -0.000402949        0.0502857         0.21004      0.000524574     0.000502214
                     0.000368735     -0.00010699         0.379178        0.894815      0.000459212      0.00052871        0.0504597        0.209341
281732                 -0.117349       -0.183149     -0.000178973    -0.000614218          0.37711        0.895464      0.000367083    -0.000153385
                    -0.000179629    -0.000578885        -0.117393       -0.182356      0.000242193    -0.000430211         0.379076        0.894705
                        0.377211        0.895435      0.000299335     -0.00040284        0.0504288        0.210038      0.000524879     0.000502051
                      0.00036908     -0.00010589         0.379578        0.894636      0.000459425     0.000528381        0.0506028         0.20934
281734                 -0.117413       -0.183146     -0.000178955    -0.000614092          0.37751        0.895287      0.000367104    -0.000153586
                    -0.000179471    -0.000578413        -0.117457       -0.182353      0.000241924    -0.000430622         0.379476        0.894527
                         0.37761        0.895259      0.000299654    -0.000402724         0.050572        0.210036      0.000525183     0.000501887
                     0.000369425    -0.000104784         0.379978        0.894456      0.000459639     0.000528051         0.050746        0.209338
281736                 -0.117478       -0.183143     -0.000178936    -0.000613962         0.377909        0.895111      0.000367125    -0.000153787
                     -0.00017931    -0.000577938        -0.117521       -0.182351      0.000241657    -0.000431034         0.379876         0.89435
                        0.378008        0.895083      0.000299974    -0.000402599        0.0507153        0.210034      0.000525486     0.000501724
                     0.000369769     -0.00010367         0.380378        0.894277      0.000459853      0.00052772        0.0508892        0.209336
281738                 -0.117542        -0.18314     -0.000178916    -0.000613828         0.378309        0.894934      0.000367146    -0.000153988
                    -0.000179149     -0.00057746        -0.117585       -0.182348       0.00024139    -0.000431446         0.380275        0.894172
                        0.378407        0.894907      0.000300294    -0.000402467        0.0508585        0.210032      0.000525789      0.00050156
                     0.000370113    -0.000102548         0.380778        0.894097      0.000460068     0.000527388        0.0510325        0.209334
281740                 -0.117607       -0.183138     -0.000178896    -0.000613689         0.378709        0.894757      0.000367168    -0.000154189
                    -0.000178985    -0.000576979         -0.11765       -0.182346      0.000241123    -0.000431858         0.380675        0.893994
                        0.378805        0.894731      0.000300615    -0.000402326        0.0510018         0.21003      0.000526091     0.000501395
                     0.000370457     -0.00010142         0.381177        0.893917      0.000460283     0.000527055        0.0511757        0.209332
281742                 -0.117671       -0.183135     -0.000178875    -0.000613544         0.379108         0.89458       0.00036719     -0.00015439
                     -0.00017882    -0.000576494        -0.117714       -0.182343      0.000240858    -0.000432271         0.381075        0.893816
                        0.379203        0.894555      0.000300935    -0.000402175        0.0511451        0.210027      0.000526393     0.000501231
                     0.000370801    -0.000100285         0.381577        0.893737      0.000460498      0.00052672         0.051319         0.20933
281744                 -0.117736       -0.183132     -0.000178853    -0.000613395         0.379508        0.894403      0.000367212    -0.000154592
                    -0.000178653    -0.000576007        -0.117778       -0.182341      0.000240593    -0.000432683         0.381474        0.893637
                        0.379601        0.894378      0.000301255    -0.000402014        0.0512884        0.210025      0.000526694     0.000501066
                     0.000371145    -9.91424e-05         0.381977        0.893558      0.000460714     0.000526384        0.0514624        0.209327
281746                   -0.1178       -0.183129     -0.000178831    -0.000613239         0.379907        0.894225      0.000367235    -0.000154793
                    -0.000178485    -0.000575516        -0.117842       -0.182338      0.000240328    -0.000433096         0.381873        0.893459
                        0.379999        0.894201      0.000301575    -0.000401842        0.0514318        0.210022      0.000526994     0.000500901
                     0.000371488    -9.79929e-05         0.382377        0.893378      0.000460931     0.000526048        0.0516057        0.209325
281748                 -0.117865       -0.183127     -0.000178808    -0.000613077         0.380306        0.894047      0.000367258    -0.000154995
                    -0.000178315    -0.000575022        -0.117906       -0.182336      0.000240065    -0.000433509         0.382273         0.89328
                        0.380397        0.894025      0.000301895    -0.000401658        0.0515752         0.21002      0.000527294     0.000500736
                     0.000371831    -9.68363e-05         0.382776          0.8932      0.000461149      0.00052571        0.0517491        0.209322
281750                 -0.117929       -0.183124     -0.000178785    -0.000612909         0.380706         0.89387      0.000367281    -0.000155197
                    -0.000178143    -0.000574524         -0.11797       -0.182333      0.000239802    -0.000433922         0.382672        0.893101
                        0.380795        0.893847      0.000302215    -0.000401463        0.0517186        0.210017      0.000527594     0.000500571
                     0.000372174    -9.56727e-05         0.383175        0.893021      0.000461367     0.000525371        0.0518925         0.20932
281752                 -0.117994       -0.183121     -0.000178761    -0.000612734         0.381105        0.893691      0.000367304    -0.000155399
                     -0.00017797    -0.000574024        -0.118034       -0.182331       0.00023954    -0.000434335         0.383071        0.892922
                        0.381193         0.89367      0.000302534    -0.000401254        0.0518621        0.210014      0.000527893     0.000500405
                     0.000372516    -9.45021e-05         0.383574        0.892844      0.000461585     0.000525031        0.0520359        0.209317
281754                 -0.118058       -0.183118     -0.000178737    -0.000612551         0.381504        0.893513      0.000367328      -0.0001556
                    -0.000177795     -0.00057352        -0.118098       -0.182328      0.000239279    -0.000434748          0.38347        0.892743
                         0.38159        0.893493      0.000302852    -0.000401033        0.0520055        0.210012      0.000528191      0.00050024
                     0.000372858    -9.33244e-05         0.383971        0.892666      0.000461805     0.000524689        0.0521794        0.209314
281756                 -0.118123       -0.183115     -0.000178713    -0.000612361         0.381903        0.893335      0.000367352    -0.000155802
                    -0.000177619    -0.000573014        -0.118162       -0.182326      0.000239018    -0.000435161         0.383869        0.892563
                        0.381988        0.893315      0.000303169    -0.000400798         0.052149        0.210009       0.00052849     0.000500074
                       0.0003732    -9.21398e-05         0.384367         0.89249      0.000462025     0.000524347        0.0523229        0.209312
281758                 -0.118187       -0.183113     -0.000178689    -0.000612164         0.382302        0.893156      0.000367376    -0.000156004
                    -0.000177441    -0.000572504        -0.118226       -0.182323      0.000238758    -0.000435574         0.384268        0.892383
                        0.382385        0.893137      0.000303485    -0.000400549        0.0522925        0.210006      0.000528787     0.000499908
                     0.000373542    -9.09482e-05         0.384761        0.892313      0.000462246     0.000524004        0.0524664        0.209309
281760                 -0.118252        -0.18311     -0.000178665    -0.000611959         0.382701        0.892977      0.000367401    -0.000156206
                    -0.000177261    -0.000571991         -0.11829        -0.18232      0.000238499    -0.000435987         0.384667        0.892203
                        0.382783        0.892959      0.000303799    -0.000400289        0.0524361        0.210003      0.000529085     0.000499742
                     0.000373883    -8.97496e-05         0.385154        0.892135      0.000462468      0.00052366        0.0526099        0.209306
281762                 -0.118317       -0.183107     -0.000178641    -0.000611749         0.383099        0.892798      0.000367426    -0.000156408
                     -0.00017708    -0.000571475        -0.118355       -0.182318       0.00023824      -0.0004364         0.385066        0.892023
                         0.38318        0.892781      0.000304112    -0.000400017        0.0525797        0.209999      0.000529382     0.000499576
