! TOUCHSTONE file generated by CST MICROWAVE STUDIO
! Date and time: Tue Oct 14 07:31:21 2025
! Project name: Teste_Macro_Metasurface_Nanopilar.cst
! Parameters = {H=600; L_x=170; L_y=195; Lambda=1064; Max_L=200; Min_L=70; PathPara=1; Phi=0; Step_L=10; Theta=0; p=520; phaseX=180; phaseY=0}
! Header version: 2018
! Port assignment regex: !\s*Touchstone port\s*([0-9]+)\s*=\s*(CST MWS port|CST DS port)\s*([0-9]+|Zmin|Zmax)\s*\(\"(.*)\"\)(\s*mode\s*([0-9]+))?.*
! Touchstone port assignment:
! Touchstone port 1 = CST MWS port Zmax ("") mode 1
! Touchstone port 2 = CST MWS port Zmax ("") mode 2
! Touchstone port 3 = CST MWS port Zmin ("") mode 1
! Touchstone port 4 = CST MWS port Zmin ("") mode 2
! S-Parameters are not renormalized. Each port impedance will be approximated by the real part at minimum frequency. The values are described via the [Reference] keyword.
! Default impedance is overridden by [Reference]
[Version] 2.0
# GHz S RI R 376.73
[Number of Ports] 4
[Reference]
376.73 376.73 259.814 259.814 
[Number of Frequencies] 51
[Network Data]
281700                 -0.251631      -0.0954341     -0.000632813     0.000317697         0.958871      0.00971885     -0.000382932      0.00016467
                    -0.000559333     0.000225499        -0.267769       -0.144723     -1.73282e-05     7.34325e-05         0.879722        0.356608
                        0.958968      0.00980041     -9.25929e-05     0.000100653         0.251505       -0.089744      0.000561695     0.000587084
                    -0.000246159    -1.31153e-05         0.879632        0.356451      0.000359556     0.000655691           0.2917       0.0817507
281702                 -0.251649      -0.0953818     -0.000632832     0.000317759         0.958875      0.00930964     -0.000384161     0.000163896
                     -0.00056451     0.000224333        -0.267815       -0.144646     -1.74224e-05     7.39049e-05         0.879868        0.356247
                         0.95897      0.00936839     -9.24683e-05     0.000100895         0.251453      -0.0898866      0.000561818     0.000586148
                    -0.000235898     -1.3829e-05         0.879775        0.356092      0.000360016     0.000655899         0.291746       0.0815998
281704                 -0.251644      -0.0952987     -0.000632885     0.000317777         0.958878       0.0089005       -0.0003854     0.000163099
                    -0.000567777     0.000222839        -0.267862       -0.144569     -1.74805e-05     7.43732e-05         0.880014        0.355887
                         0.95897      0.00893885     -9.23445e-05     0.000101144         0.251402      -0.0900293       0.00056196     0.000585191
                    -0.000201062     2.06898e-05         0.879919        0.355733      0.000360499     0.000656063         0.291793       0.0814489
281706                 -0.251678      -0.0952087     -0.000632985     0.000317731         0.958882      0.00849142     -0.000386652     0.000162276
                    -0.000569834     0.000221485        -0.267908       -0.144493     -1.74976e-05     7.48324e-05          0.88016        0.355527
                        0.958969      0.00851172     -9.22228e-05     0.000101401         0.251351      -0.0901719      0.000562124     0.000584209
                    -0.000275754     2.43306e-05         0.880062        0.355375      0.000360999      0.00065618         0.291839        0.081298
281708                 -0.251712      -0.0951344     -0.000633158     0.000317591         0.958886       0.0080824     -0.000387917     0.000161424
                    -0.000571133     0.000220389        -0.267955       -0.144416     -1.74687e-05     7.52759e-05         0.880306        0.355167
                        0.958966      0.00808685     -9.21056e-05     0.000101672         0.251299      -0.0903145      0.000562311       0.0005832
                    -0.000270848     5.04283e-06         0.880205        0.355016      0.000361514     0.000656247         0.291885       0.0811471
281710                 -0.251742      -0.0950631      -0.00063345     0.000317307         0.958889      0.00767342     -0.000389197     0.000160543
                    -0.000571948     0.000219549        -0.268002       -0.144339     -1.73894e-05      7.5695e-05         0.880451        0.354806
                        0.958963      0.00766401     -9.19978e-05     0.000101961         0.251247      -0.0904571      0.000562524      0.00058216
                    -0.000267406     3.73649e-08         0.880349        0.354656      0.000362037     0.000656263         0.291932       0.0809962
281712                 -0.251771      -0.0949924     -0.000633957     0.000316777         0.958892      0.00726449     -0.000390493      0.00015963
                    -0.000572444     0.000218932        -0.268048       -0.144262      -1.7256e-05      7.6079e-05         0.880596        0.354445
                        0.958959      0.00724296     -9.19106e-05     0.000102282         0.251196      -0.0905997      0.000562764     0.000581083
                    -0.000265522    -2.08626e-06         0.880492        0.354297      0.000362566     0.000656226         0.291978       0.0808453
281714                 -0.251799      -0.0949219     -0.000634908     0.000315784         0.958895      0.00685559     -0.000391808     0.000158682
                    -0.000572723     0.000218501        -0.268095       -0.144185     -1.70665e-05     7.64145e-05         0.880741        0.354085
                        0.958954      0.00682345     -9.18732e-05     0.000102649         0.251144      -0.0907423      0.000563035     0.000579964
                    -0.000264378    -3.21768e-06         0.880635        0.353938      0.000363093     0.000656135         0.292024       0.0806944
281716                 -0.251826      -0.0948515     -0.000637034      0.00031376         0.958898      0.00644673     -0.000393145     0.000157697
                    -0.000572852     0.000218223        -0.268141       -0.144108     -1.68217e-05     7.66859e-05         0.880885        0.353724
                        0.958949      0.00640523     -9.19707e-05     0.000103078         0.251092      -0.0908848      0.000563339     0.000578797
                    -0.000263628    -3.89909e-06         0.880779        0.353578      0.000363614     0.000655992          0.29207       0.0805434
281718                 -0.251853       -0.094781     -0.000644157     0.000308856         0.958901      0.00603791     -0.000394507     0.000156672
                    -0.000572871      0.00021807        -0.268188       -0.144031     -1.65263e-05     7.68752e-05          0.88103        0.353363
                        0.958943      0.00598808     -9.24341e-05     0.000103442          0.25104      -0.0910274      0.000563678     0.000577573
                    -0.000263111    -4.34021e-06         0.880922        0.353218      0.000364124     0.000655796         0.292116       0.0803925
281720                  -0.25188      -0.0947104     -0.000694899     0.000343684         0.958904       0.0056291     -0.000395898     0.000155603
                    -0.000572811      0.00021802        -0.268234       -0.143954     -1.61901e-05     7.69635e-05         0.881174        0.353002
                        0.958937      0.00557182     -9.31275e-05     0.000102931         0.250987      -0.0911699      0.000564054     0.000576283
                    -0.000262741    -4.63844e-06         0.881065        0.352858      0.000364616     0.000655551         0.292162       0.0802415
281722                 -0.251907      -0.0946399     -0.000625643     0.000342308         0.958906      0.00522032     -0.000397324     0.000154486
                     -0.00057269     0.000218055         -0.26828       -0.143876     -1.58299e-05     7.69323e-05         0.881317         0.35264
                        0.958928      0.00515645     -9.25455e-05     0.000102128         0.250935      -0.0913124       0.00056447     0.000574916
                    -0.000262472    -4.84493e-06         0.881208        0.352498      0.000365085     0.000655258         0.292208       0.0800905
281724                 -0.251934      -0.0945693     -0.000626448      0.00033196         0.958909      0.00481156     -0.000398792     0.000153319
                    -0.000572523     0.000218162        -0.268327       -0.143799     -1.54695e-05     7.67663e-05         0.881461        0.352279
                        0.958916      0.00474247     -9.17936e-05      0.00010223         0.250883      -0.0914549      0.000564925     0.000573458
                    -0.000262273    -4.98904e-06         0.881351        0.352138      0.000365528     0.000654921         0.292254       0.0799396
281726                  -0.25196      -0.0944987     -0.000627351     0.000328812         0.958911      0.00440281      -0.00040031     0.000152097
                     -0.00057232     0.000218328        -0.268373       -0.143722     -1.51396e-05     7.64564e-05         0.881604        0.351917
                        0.958898      0.00433207     -9.13554e-05     0.000102548          0.25083      -0.0915974      0.000565418     0.000571894
                    -0.000262126    -5.08879e-06         0.881494        0.351778      0.000365938     0.000654546           0.2923       0.0797885
281728                 -0.251987      -0.0944281      -0.00062787     0.000327411         0.958913      0.00399408     -0.000401892     0.000150818
                    -0.000572087     0.000218544         -0.26842       -0.143645     -1.48759e-05     7.60033e-05         0.881747        0.351556
                        0.958872      0.00393321     -9.10688e-05     0.000102863         0.250777      -0.0917398      0.000565943     0.000570205
                    -0.000262019    -5.15584e-06         0.881637        0.351418      0.000366314     0.000654137         0.292346       0.0796375
281730                 -0.252013      -0.0943575     -0.000628174     0.000326684         0.958915      0.00358535     -0.000403552     0.000149478
                    -0.000571829     0.000218805        -0.268466       -0.143567     -1.47153e-05     7.54198e-05          0.88189        0.351194
                        0.958849      0.00356445     -9.08484e-05     0.000103154         0.250724      -0.0918823      0.000566491     0.000568374
                    -0.000261943    -5.19804e-06          0.88178        0.351058      0.000366651     0.000653702         0.292392       0.0794865
281732                  -0.25204      -0.0942868     -0.000628354     0.000326284         0.958917      0.00317663     -0.000405314     0.000148077
                    -0.000571552     0.000219102        -0.268513        -0.14349     -1.46907e-05     7.47317e-05         0.882032        0.350832
                        0.958878      0.00320951     -9.06598e-05     0.000103425         0.250672      -0.0920247      0.000567042     0.000566381
                    -0.000261891    -5.22087e-06         0.881923        0.350697      0.000366948     0.000653246         0.292437       0.0793354
281734                 -0.252066      -0.0942161     -0.000628459     0.000326068         0.958918      0.00276791     -0.000407206      0.00014662
                    -0.000571257     0.000219433        -0.268559       -0.143413     -1.48259e-05     7.39759e-05         0.882175         0.35047
                        0.958929      0.00280418     -9.04881e-05     0.000103681         0.250619      -0.0921671      0.000567565     0.000564213
                     -0.00026186    -5.22822e-06         0.882066        0.350337      0.000367204     0.000652779         0.292483       0.0791843
281736                 -0.252092      -0.0941454     -0.000628512     0.000325963          0.95892      0.00235919      -0.00040927     0.000145118
                    -0.000570947     0.000219792        -0.268606       -0.143335     -1.51313e-05     7.31965e-05         0.882317        0.350108
                        0.958954      0.00237583     -9.03261e-05     0.000103926         0.250566      -0.0923095       0.00056801     0.000561871
                    -0.000261846    -5.22296e-06         0.882209        0.349977      0.000367418     0.000652309         0.292529       0.0790332
281738                 -0.252118      -0.0940746     -0.000628532     0.000325931         0.958921      0.00195048     -0.000411565       0.0001436
                    -0.000570623     0.000220178        -0.268652       -0.143258     -1.56027e-05     7.24388e-05         0.882459        0.349745
                        0.958963      0.00195023     -9.01701e-05     0.000104163         0.250512      -0.0924519      0.000568309     0.000559386
                    -0.000261847    -5.20717e-06         0.882351        0.349616      0.000367592     0.000651845         0.292574        0.078882
281740                 -0.252144      -0.0940038     -0.000628526     0.000325947         0.958922      0.00154176     -0.000414172     0.000142125
                    -0.000570285     0.000220588        -0.268698       -0.143181     -1.62222e-05     7.17441e-05         0.882602        0.349382
                        0.958966      0.00152976      -9.0018e-05     0.000104394         0.250459      -0.0925942      0.000568369     0.000556848
                    -0.000261861    -5.18241e-06         0.882494        0.349255      0.000367728     0.000651399         0.292619       0.0787308
281742                  -0.25217       -0.093933     -0.000628502     0.000325997         0.958923      0.00113303     -0.000417199     0.000140808
                    -0.000569936      0.00022102        -0.268745       -0.143103     -1.69616e-05     7.11461e-05         0.882744        0.349019
                        0.958966      0.00111291     -8.98687e-05      0.00010462         0.250406      -0.0927366      0.000568098     0.000554445
                    -0.000261886    -5.14979e-06         0.882636        0.348895      0.000367829     0.000650982         0.292665       0.0785796
281744                 -0.252196      -0.0938622     -0.000628463      0.00032607         0.958923     0.000724307     -0.000420782     0.000139881
                    -0.000569573     0.000221475        -0.268791       -0.143026     -1.77869e-05     7.06692e-05         0.882887        0.348655
                        0.958966     0.000698418     -8.97215e-05     0.000104841         0.250352      -0.0928789      0.000567435     0.000552506
                    -0.000261923    -5.11007e-06         0.882778        0.348534        0.0003679     0.000650609          0.29271       0.0784283
281746                 -0.252222      -0.0937913     -0.000628414     0.000326159         0.958924     0.000315576     -0.000425034     0.000139788
                    -0.000569199     0.000221953        -0.268838       -0.142948     -1.86615e-05     7.03298e-05         0.883031        0.348291
                        0.958966     0.000285481      -8.9576e-05      0.00010506         0.250299      -0.0930212      0.000566419     0.000551517
                    -0.000261971    -5.06371e-06          0.88292        0.348173      0.000367946     0.000650296         0.292755       0.0782769
281748                 -0.252248      -0.0937204     -0.000628356     0.000326256         0.958924    -9.31609e-05     -0.000429877     0.000141336
                     -0.00056881     0.000222457        -0.268884       -0.142871     -1.95494e-05     7.01394e-05         0.883177        0.347925
                        0.958965    -0.000126393     -8.94321e-05     0.000105274         0.250245      -0.0931635      0.000565222     0.000552062
                     -0.00026203    -5.01082e-06         0.883062        0.347813      0.000367974     0.000650067           0.2928       0.0781254
281750                 -0.252274      -0.0936495     -0.000628291     0.000326358         0.958924    -0.000501905     -0.000434534     0.000145741
                    -0.000568408      0.00022299        -0.268931       -0.142794     -2.04154e-05     7.01085e-05         0.883327        0.347556
                        0.958964    -0.000537518     -8.92899e-05     0.000105486         0.250192      -0.0933057      0.000564063     0.000554673
                    -0.000262101    -4.95116e-06         0.883204        0.347452      0.000367993      0.00064995         0.292845       0.0779736
281752                   -0.2523      -0.0935785      -0.00062822     0.000326459         0.958923     -0.00091066     -0.000436696     0.000153891
                    -0.000567993     0.000223562        -0.268977       -0.142716     -2.12239e-05     7.02533e-05         0.883489        0.347182
                        0.958963    -0.000948098     -8.91496e-05     0.000105694         0.250138       -0.093448      0.000562914     0.000559593
                    -0.000262184    -4.88396e-06         0.883346        0.347091      0.000368009     0.000649988          0.29289       0.0778214
281754                 -0.252325      -0.0935075     -0.000628145     0.000326552         0.958923     -0.00131944     -0.000432959     0.000164055
                    -0.000567569     0.000224187        -0.269023       -0.142639     -2.19364e-05     7.06045e-05         0.883703        0.346785
                        0.958962     -0.00135827     -8.90118e-05     0.000105898         0.250084      -0.0935902      0.000561223     0.000566483
                    -0.000262283    -4.80771e-06         0.883488         0.34673      0.000368031     0.000650242         0.292935       0.0776686
281756                 -0.252351      -0.0934364     -0.000628066     0.000326631         0.958921     -0.00172826     -0.000422959       0.0001713
                    -0.000567149     0.000224888         -0.26907       -0.142562     -2.25049e-05     7.12241e-05         0.883508        0.347758
                        0.958961     -0.00176814     -8.88771e-05     0.000106098         0.250031      -0.0937323      0.000558138     0.000574119
                    -0.000262399    -4.71971e-06         0.883631        0.346368      0.000368055     0.000650812         0.292982       0.0775153
281758                 -0.252377      -0.0933653     -0.000627986     0.000326687          0.95892     -0.00213717     -0.000411194     0.000173005
                    -0.000566773     0.000225695        -0.269116       -0.142485     -2.28638e-05     7.22408e-05         0.883727        0.346218
                         0.95896     -0.00217777     -8.87469e-05     0.000106292         0.249977      -0.0938744      0.000553434     0.000580624
                    -0.000262539    -4.61509e-06         0.883775        0.346006      0.000368056     0.000651865         0.293031       0.0773646
281760                 -0.252402      -0.0932941     -0.000627906     0.000326704         0.958917     -0.00254628     -0.000401563     0.000171315
                    -0.000566534     0.000226625        -0.269161       -0.142408     -2.29194e-05      7.3943e-05         0.883916        0.345813
                        0.958959     -0.00258722      -8.8623e-05     0.000106479         0.249923      -0.0940163       0.00054805     0.000584624
                    -0.000262708    -4.48498e-06         0.883929        0.345633      0.000367926     0.000653696         0.293077       0.0772159
281762                 -0.252428      -0.0932229      -0.00062783     0.000326659         0.958914     -0.00295582     -0.000394883     0.000169122
                    -0.000566587     0.000227578        -0.269207        -0.14233     -2.25774e-05      7.7062e-05         0.884071        0.345437
                        0.958958     -0.00299652     -8.85086e-05     0.000106654          0.24987      -0.0941576      0.000543261     0.000586089
