! TOUCHSTONE file generated by CST MICROWAVE STUDIO
! Date and time: Tue Oct 14 07:26:31 2025
! Project name: Teste_Macro_Metasurface_Nanopilar.cst
! Parameters = {H=600; L_x=95; L_y=150; Lambda=1064; Max_L=200; Min_L=70; PathPara=1; Phi=0; Step_L=10; Theta=0; p=520; phaseX=180; phaseY=0}
! Header version: 2018
! Port assignment regex: !\s*Touchstone port\s*([0-9]+)\s*=\s*(CST MWS port|CST DS port)\s*([0-9]+|Zmin|Zmax)\s*\(\"(.*)\"\)(\s*mode\s*([0-9]+))?.*
! Touchstone port assignment:
! Touchstone port 1 = CST MWS port Zmax ("") mode 1
! Touchstone port 2 = CST MWS port Zmax ("") mode 2
! Touchstone port 3 = CST MWS port Zmin ("") mode 1
! Touchstone port 4 = CST MWS port Zmin ("") mode 2
! S-Parameters are not renormalized. Each port impedance will be approximated by the real part at minimum frequency. The values are described via the [Reference] keyword.
! Default impedance is overridden by [Reference]
[Version] 2.0
# GHz S RI R 376.73
[Number of Ports] 4
[Reference]
376.73 376.73 259.814 259.814 
[Number of Frequencies] 51
[Network Data]
281700                -0.0196331        -0.12305      -0.00139021    -0.000143199        -0.279996        0.945161      0.000387307     0.000503585
                     -0.00141274    -9.06233e-05      -0.00464666      -0.0872431     -0.000655498    -2.52662e-06         0.438063       -0.890487
                       -0.279588        0.944834     -0.000682025     1.68017e-05       -0.0825719       0.0939067       0.00119189      0.00096028
                     0.000352954     0.000533448         0.437803       -0.890381       0.00116892     0.000941856       -0.0711868       0.0506202
281702                -0.0196837       -0.123066      -0.00139047    -0.000142633         -0.27955         0.94529      0.000387587      0.00050347
                     -0.00141302    -9.00062e-05      -0.00467744        -0.08726     -0.000655527     -2.2609e-06         0.437677       -0.890675
                       -0.279141        0.944963     -0.000682076     1.70777e-05       -0.0825348       0.0939701        0.0011926     0.000959792
                     0.000353168     0.000533276         0.437417       -0.890568       0.00116952     0.000941422       -0.0711755       0.0506679
281704                -0.0197343       -0.123081      -0.00139073    -0.000142067        -0.279104        0.945419      0.000387867     0.000503355
                     -0.00141331     -8.9389e-05      -0.00470824      -0.0872769     -0.000655557    -1.99521e-06         0.437292       -0.890862
                       -0.278695        0.945092     -0.000682128     1.73539e-05       -0.0824977       0.0940335       0.00119331     0.000959303
                     0.000353382     0.000533104         0.437031       -0.890755       0.00117012     0.000940987       -0.0711642       0.0507157
281706                -0.0197849       -0.123097      -0.00139099      -0.0001415        -0.278658        0.945548      0.000388147     0.000503239
                      -0.0014136    -8.87718e-05      -0.00473905      -0.0872938     -0.000655586    -1.72954e-06         0.436906       -0.891049
                       -0.278249         0.94522     -0.000682179       1.763e-05       -0.0824606       0.0940968       0.00119401     0.000958813
                     0.000353596     0.000532933         0.436645       -0.890942       0.00117072     0.000940551       -0.0711529       0.0507634
281708                -0.0198355       -0.123113      -0.00139125    -0.000140934        -0.278211        0.945677      0.000388427     0.000503124
                     -0.00141389    -8.81545e-05      -0.00476987      -0.0873106     -0.000655615    -1.46391e-06          0.43652       -0.891236
                       -0.277802        0.945349     -0.000682231     1.79063e-05       -0.0824234       0.0941602       0.00119472     0.000958323
                      0.00035381     0.000532761         0.436259       -0.891129       0.00117132     0.000940115       -0.0711415       0.0508112
281710                -0.0198861       -0.123128      -0.00139151    -0.000140367        -0.277765        0.945805      0.000388706     0.000503008
                     -0.00141418    -8.75371e-05      -0.00480071      -0.0873275     -0.000655643    -1.19833e-06         0.436134       -0.891423
                       -0.277356        0.945477     -0.000682282     1.81826e-05       -0.0823862       0.0942235       0.00119542     0.000957833
                     0.000354024     0.000532589         0.435873       -0.891315       0.00117192     0.000939678       -0.0711301        0.050859
281712                -0.0199367       -0.123144      -0.00139177      -0.0001398        -0.277319        0.945934      0.000388986     0.000502892
                     -0.00141446    -8.69196e-05      -0.00483156      -0.0873443     -0.000655672     -9.3282e-07         0.435747       -0.891609
                       -0.276909        0.945605     -0.000682334      1.8459e-05       -0.0823489       0.0942869       0.00119613     0.000957342
                     0.000354238     0.000532418         0.435487       -0.891502       0.00117252      0.00093924       -0.0711187       0.0509068
281714                -0.0199874       -0.123159      -0.00139203    -0.000139233        -0.276873        0.946062      0.000389265     0.000502776
                     -0.00141475     -8.6302e-05      -0.00486242      -0.0873612       -0.0006557    -6.67392e-07         0.435361       -0.891796
                       -0.276463        0.945732     -0.000682385     1.87354e-05       -0.0823115       0.0943502       0.00119683      0.00095685
                     0.000354452     0.000532246           0.4351       -0.891688       0.00117312     0.000938802       -0.0711072       0.0509545
281716                -0.0200381       -0.123175      -0.00139229    -0.000138666        -0.276426        0.946189      0.000389544     0.000502659
                     -0.00141504    -8.56844e-05       -0.0048933       -0.087378     -0.000655727    -4.02063e-07         0.434975       -0.891982
                       -0.276016         0.94586     -0.000682436     1.90119e-05       -0.0822742       0.0944135       0.00119754     0.000956359
                     0.000354666     0.000532074         0.434714       -0.891874       0.00117372     0.000938363       -0.0710957       0.0510023
281718                -0.0200887        -0.12319      -0.00139255    -0.000138098         -0.27598        0.946317      0.000389823     0.000502543
                     -0.00141532    -8.50667e-05      -0.00492419      -0.0873948     -0.000655754     -1.3685e-07         0.434588       -0.892168
                        -0.27557        0.945987     -0.000682487     1.92885e-05       -0.0822367       0.0944768       0.00119824     0.000955866
                      0.00035488     0.000531903         0.434327        -0.89206       0.00117432     0.000937924       -0.0710842       0.0510501
281720                -0.0201394       -0.123206      -0.00139281    -0.000137531        -0.275533        0.946444      0.000390102     0.000502426
                     -0.00141561    -8.44489e-05      -0.00495509      -0.0874116     -0.000655781      1.2823e-07         0.434202       -0.892354
                       -0.275123        0.946114     -0.000682538     1.95651e-05       -0.0821992         0.09454       0.00119895     0.000955373
                     0.000355094     0.000531731         0.433941       -0.892246       0.00117492     0.000937484       -0.0710726       0.0510979
281722                -0.0201901       -0.123221      -0.00139307    -0.000136963        -0.275087        0.946572      0.000390381      0.00050231
                      -0.0014159     -8.3831e-05        -0.004986      -0.0874284     -0.000655808     3.93158e-07         0.433815        -0.89254
                       -0.274676        0.946241      -0.00068259     1.98418e-05       -0.0821617       0.0946033       0.00119965      0.00095488
                     0.000355308      0.00053156         0.433554       -0.892432       0.00117552     0.000937043        -0.071061       0.0511457
281724                -0.0202408       -0.123237      -0.00139332    -0.000136394         -0.27464        0.946699       0.00039066     0.000502193
                     -0.00141618     -8.3213e-05      -0.00501693      -0.0874451     -0.000655834     6.57918e-07         0.433428       -0.892726
                       -0.274229        0.946367     -0.000682641     2.01186e-05       -0.0821241       0.0946666       0.00120035     0.000954387
                     0.000355523     0.000531388         0.433167       -0.892617       0.00117612     0.000936602       -0.0710494       0.0511934
281726                -0.0202915       -0.123252      -0.00139358    -0.000135826        -0.274194        0.946825      0.000390939     0.000502076
                     -0.00141647     -8.2595e-05      -0.00504787      -0.0874619      -0.00065586     9.22495e-07         0.433042       -0.892911
                       -0.273783        0.946494     -0.000682691     2.03954e-05       -0.0820865       0.0947298       0.00120106     0.000953892
                     0.000355737     0.000531217          0.43278       -0.892802       0.00117672      0.00093616       -0.0710378       0.0512412
281728                -0.0203422       -0.123268      -0.00139384    -0.000135257        -0.273747        0.946952      0.000391218     0.000501959
                     -0.00141675    -8.19768e-05      -0.00507882      -0.0874786     -0.000655886     1.18688e-06         0.432655       -0.893097
                       -0.273336         0.94662     -0.000682742     2.06723e-05       -0.0820489       0.0947931       0.00120176     0.000953398
                     0.000355951     0.000531046         0.432393       -0.892987       0.00117732     0.000935717       -0.0710261        0.051289
281730                 -0.020393       -0.123283       -0.0013941    -0.000134688          -0.2733        0.947078      0.000391496     0.000501842
                     -0.00141704    -8.13586e-05      -0.00510978      -0.0874954     -0.000655912     1.45105e-06         0.432268       -0.893282
                       -0.272889        0.946746     -0.000682793     2.09493e-05       -0.0820111       0.0948563       0.00120246     0.000952903
                     0.000356166     0.000530874         0.432006       -0.893172       0.00117792     0.000935274       -0.0710144       0.0513368
281732                -0.0204437       -0.123298      -0.00139435    -0.000134119        -0.272853        0.947204      0.000391775     0.000501725
                     -0.00141732    -8.07403e-05      -0.00514076      -0.0875121     -0.000655937     1.71502e-06         0.431881       -0.893467
                       -0.272442        0.946872     -0.000682844     2.12263e-05       -0.0819734       0.0949195       0.00120317     0.000952407
                      0.00035638     0.000530703         0.431619       -0.893357       0.00117851     0.000934831       -0.0710027       0.0513846
281734                -0.0204945       -0.123314      -0.00139461     -0.00013355        -0.272406         0.94733      0.000392054     0.000501607
                     -0.00141761     -8.0122e-05      -0.00517175      -0.0875288     -0.000655963     1.97879e-06         0.431494       -0.893651
                       -0.271995        0.946997     -0.000682895     2.15034e-05       -0.0819356       0.0949827       0.00120387     0.000951911
                     0.000356595     0.000530531         0.431232       -0.893542       0.00117911     0.000934387       -0.0709909       0.0514324
281736                -0.0205452       -0.123329      -0.00139487    -0.000132981        -0.271959        0.947456      0.000392333      0.00050149
                     -0.00141789    -7.95035e-05      -0.00520275      -0.0875455     -0.000655988     2.24237e-06         0.431106       -0.893836
                       -0.271547        0.947123     -0.000682945     2.17806e-05       -0.0818977       0.0950459       0.00120457     0.000951415
                     0.000356809      0.00053036         0.430845       -0.893726       0.00117971     0.000933942       -0.0709791       0.0514802
281738                 -0.020596       -0.123344      -0.00139512    -0.000132411        -0.271513        0.947581      0.000392612     0.000501372
                     -0.00141818     -7.8885e-05      -0.00523377      -0.0875622     -0.000656014     2.50578e-06         0.430719       -0.894021
                         -0.2711        0.947248     -0.000682996     2.20578e-05       -0.0818598        0.095109       0.00120527     0.000950918
                     0.000357024     0.000530189         0.430457       -0.893911       0.00118031     0.000933497       -0.0709672        0.051528
281740                -0.0206468        -0.12336      -0.00139538    -0.000131841        -0.271066        0.947707      0.000392891     0.000501254
                     -0.00141846    -7.82664e-05       -0.0052648      -0.0875789      -0.00065604     2.76907e-06         0.430332       -0.894205
                       -0.270653        0.947373     -0.000683046     2.23351e-05       -0.0818218       0.0951722       0.00120597      0.00095042
                     0.000357238     0.000530018          0.43007       -0.894095       0.00118091     0.000933052       -0.0709554       0.0515758
281742                -0.0206976       -0.123375      -0.00139564    -0.000131271        -0.270618        0.947832       0.00039317     0.000501136
                     -0.00141874    -7.76477e-05      -0.00529584      -0.0875956     -0.000656065     3.03229e-06         0.429944       -0.894389
                       -0.270206        0.947497     -0.000683097     2.26124e-05       -0.0817838       0.0952354       0.00120667     0.000949923
                     0.000357453     0.000529846         0.429682       -0.894279       0.00118151     0.000932606       -0.0709435       0.0516236
281744                -0.0207484        -0.12339      -0.00139589    -0.000130701        -0.270171        0.947957      0.000393449     0.000501018
                     -0.00141903     -7.7029e-05       -0.0053269      -0.0876123     -0.000656091     3.29549e-06         0.429557       -0.894573
                       -0.269758        0.947622     -0.000683147     2.28898e-05       -0.0817458       0.0952985       0.00120738     0.000949424
                     0.000357668     0.000529675         0.429294       -0.894462       0.00118211      0.00093216       -0.0709316       0.0516714
281746                -0.0207992       -0.123405      -0.00139615     -0.00013013        -0.269724        0.948081      0.000393729       0.0005009
                     -0.00141931    -7.64102e-05      -0.00535796      -0.0876289     -0.000656118     3.55877e-06         0.429169       -0.894757
                       -0.269311        0.947746     -0.000683197     2.31672e-05       -0.0817077       0.0953616       0.00120808     0.000948926
                     0.000357882     0.000529504         0.428907       -0.894646       0.00118271     0.000931714       -0.0709196       0.0517192
281748                  -0.02085       -0.123421       -0.0013964    -0.000129559        -0.269277        0.948206      0.000394008     0.000500781
                     -0.00141959    -7.57913e-05      -0.00538904      -0.0876456     -0.000656144     3.82221e-06         0.428781       -0.894941
                       -0.268864         0.94787     -0.000683248     2.34448e-05       -0.0816695       0.0954247       0.00120878     0.000948427
                     0.000358097     0.000529333         0.428519       -0.894829       0.00118331     0.000931267       -0.0709076        0.051767
281750                -0.0209008       -0.123436      -0.00139666    -0.000128988         -0.26883         0.94833      0.000394287     0.000500662
                     -0.00141988    -7.51723e-05      -0.00542014      -0.0876622     -0.000656171     4.08591e-06         0.428393       -0.895124
                       -0.268416        0.947994     -0.000683298     2.37224e-05       -0.0816313       0.0954878       0.00120948     0.000947927
                     0.000358312     0.000529162         0.428131       -0.895013       0.00118391      0.00093082       -0.0708956       0.0518149
281752                -0.0209517       -0.123451      -0.00139691    -0.000128417        -0.268382        0.948454      0.000394567     0.000500543
                     -0.00142016    -7.45532e-05      -0.00545124      -0.0876788     -0.000656199     4.34998e-06         0.428006       -0.895307
                       -0.267969        0.948118     -0.000683348         2.4e-05       -0.0815931       0.0955509       0.00121018     0.000947427
                     0.000358527     0.000528991         0.427743       -0.895196       0.00118451     0.000930372       -0.0708836       0.0518627
281754                -0.0210025       -0.123466      -0.00139717    -0.000127846        -0.267935        0.948578      0.000394847     0.000500424
                     -0.00142044    -7.39342e-05      -0.00548236      -0.0876954     -0.000656227     4.61452e-06         0.427618        -0.89549
                       -0.267521        0.948241     -0.000683398     2.42777e-05       -0.0815548        0.095614       0.00121088     0.000946926
                     0.000358742      0.00052882         0.427355       -0.895379       0.00118511     0.000929925       -0.0708715       0.0519105
281756                -0.0210534       -0.123481      -0.00139742    -0.000127274        -0.267488        0.948701      0.000395127     0.000500304
                     -0.00142072    -7.33153e-05      -0.00551349       -0.087712     -0.000656256     4.87964e-06         0.427229       -0.895673
                       -0.267073        0.948364     -0.000683448     2.45546e-05       -0.0815165       0.0956771       0.00121158     0.000946425
                     0.000358957     0.000528649         0.426967       -0.895562       0.00118571     0.000929477       -0.0708594       0.0519583
281758                -0.0211043       -0.123496      -0.00139767    -0.000126703         -0.26704        0.948825      0.000395407     0.000500184
                     -0.00142101    -7.26942e-05      -0.00554464      -0.0877286     -0.000656285     5.14539e-06         0.426841       -0.895856
                       -0.266626        0.948487     -0.000683498     2.48333e-05       -0.0814781       0.0957401       0.00121227     0.000945924
                     0.000359172     0.000528475         0.426579       -0.895744       0.00118631     0.000929029       -0.0708472       0.0520061
281760                -0.0211552       -0.123511      -0.00139793    -0.000126131        -0.266593        0.948948      0.000395687     0.000500064
                     -0.00142129    -7.20757e-05      -0.00557579      -0.0877452     -0.000656315     5.41182e-06         0.426453       -0.896039
                       -0.266178         0.94861     -0.000683548     2.51112e-05       -0.0814396       0.0958032       0.00121297     0.000945422
                     0.000359387     0.000528306          0.42619       -0.895927       0.00118691     0.000928581       -0.0708351        0.052054
281762                -0.0212061       -0.123526      -0.00139818    -0.000125558        -0.266145        0.949071      0.000395968     0.000499943
                     -0.00142157    -7.14564e-05      -0.00560696      -0.0877618     -0.000656345     5.67894e-06         0.426065       -0.896221
                        -0.26573        0.948733     -0.000683598     2.53891e-05       -0.0814012       0.0958662       0.00121367      0.00094492
