! TOUCHSTONE file generated by CST MICROWAVE STUDIO
! Date and time: Tue Oct 14 07:25:41 2025
! Project name: Teste_Macro_Metasurface_Nanopilar.cst
! Parameters = {H=600; L_x=80; L_y=195; Lambda=1064; Max_L=200; Min_L=70; PathPara=1; Phi=0; Step_L=10; Theta=0; p=520; phaseX=180; phaseY=0}
! Header version: 2018
! Port assignment regex: !\s*Touchstone port\s*([0-9]+)\s*=\s*(CST MWS port|CST DS port)\s*([0-9]+|Zmin|Zmax)\s*\(\"(.*)\"\)(\s*mode\s*([0-9]+))?.*
! Touchstone port assignment:
! Touchstone port 1 = CST MWS port Zmax ("") mode 1
! Touchstone port 2 = CST MWS port Zmax ("") mode 2
! Touchstone port 3 = CST MWS port Zmin ("") mode 1
! Touchstone port 4 = CST MWS port Zmin ("") mode 2
! S-Parameters are not renormalized. Each port impedance will be approximated by the real part at minimum frequency. The values are described via the [Reference] keyword.
! Default impedance is overridden by [Reference]
[Version] 2.0
# GHz S RI R 376.73
[Number of Ports] 4
[Reference]
376.73 376.73 259.814 259.814 
[Number of Frequencies] 51
[Network Data]
281700                 -0.220478       -0.424378     -0.000263737    -0.000374362         0.600883        0.629992     -0.000387551    -0.000218241
                    -0.000244108     -0.00037349        0.0396673       0.0134891      0.000209552    -0.000113858         0.838516       -0.540414
                        0.601112        0.629379      0.000294458    -0.000309852         0.415434        0.230791        0.0001808    -0.000406926
                    -0.000329648    -0.000226267          0.83879       -0.540213      0.000103794    -0.000207815      -0.00401792       0.0423325
281702                 -0.220687       -0.424384     -0.000263856    -0.000374392         0.601179         0.62963     -0.000387781    -0.000217947
                    -0.000244227    -0.000373515        0.0396785       0.0134655      0.000209719    -0.000114287         0.838306        -0.54074
                        0.601409        0.629018      0.000294413    -0.000310147         0.415681        0.230553       0.00018052    -0.000407272
                    -0.000329855    -0.000226098          0.83858       -0.540539      0.000103765    -0.000208187      -0.00401131       0.0423361
281704                 -0.220896       -0.424389     -0.000263974    -0.000374421         0.601475        0.629268     -0.000388011    -0.000217653
                    -0.000244346    -0.000373539        0.0396896       0.0134419      0.000209885    -0.000114716         0.838095       -0.541066
                        0.601705        0.628656      0.000294369    -0.000310443         0.415928        0.230315       0.00018024    -0.000407617
                    -0.000330062     -0.00022593         0.838369       -0.540865      0.000103736    -0.000208559       -0.0040047       0.0423398
281706                 -0.221105       -0.424394     -0.000264093     -0.00037445         0.601771        0.628905     -0.000388242    -0.000217359
                    -0.000244465    -0.000373562        0.0397007       0.0134183       0.00021005    -0.000115146         0.837884       -0.541392
                        0.602002        0.628294      0.000294324    -0.000310739         0.416174        0.230077      0.000179959    -0.000407963
                    -0.000330269    -0.000225761         0.838158       -0.541191      0.000103705    -0.000208931      -0.00399809       0.0423434
281708                 -0.221314       -0.424399     -0.000264211     -0.00037448         0.602067        0.628543     -0.000388472    -0.000217065
                    -0.000244584    -0.000373586        0.0397118       0.0133947      0.000210214    -0.000115577         0.837673       -0.541717
                        0.602298        0.627932       0.00029428    -0.000311035         0.416421        0.229838      0.000179678    -0.000408308
                    -0.000330476    -0.000225592         0.837947       -0.541517      0.000103674    -0.000209304      -0.00399147        0.042347
281710                 -0.221524       -0.424404      -0.00026433    -0.000374509         0.602363         0.62818     -0.000388702     -0.00021677
                    -0.000244704     -0.00037361        0.0397229       0.0133711      0.000210378    -0.000116008         0.837462       -0.542043
                        0.602594         0.62757      0.000294235    -0.000311331         0.416667          0.2296      0.000179397    -0.000408654
                    -0.000330684    -0.000225422         0.837736       -0.541842      0.000103643    -0.000209676      -0.00398486       0.0423507
281712                 -0.221733       -0.424409     -0.000264449    -0.000374539         0.602658        0.627817     -0.000388932    -0.000216475
                    -0.000244824    -0.000373633         0.039734       0.0133475      0.000210541    -0.000116439         0.837251       -0.542369
                        0.602889        0.627208      0.000294189    -0.000311627         0.416914        0.229361      0.000179116    -0.000408999
                    -0.000330892    -0.000225253         0.837525       -0.542168      0.000103611    -0.000210049      -0.00397824       0.0423543
281714                 -0.221943       -0.424414     -0.000264567    -0.000374568         0.602954        0.627454     -0.000389161     -0.00021618
                    -0.000244944    -0.000373657        0.0397451       0.0133239      0.000210703    -0.000116871          0.83704       -0.542694
                        0.603185        0.626845      0.000294144    -0.000311923          0.41716        0.229122      0.000178834    -0.000409344
                    -0.000331099    -0.000225083         0.837314       -0.542494      0.000103579    -0.000210422      -0.00397162        0.042358
281716                 -0.222152       -0.424418     -0.000264686    -0.000374598         0.603249        0.627091     -0.000389391    -0.000215884
                    -0.000245065     -0.00037368        0.0397561       0.0133003      0.000210865    -0.000117304         0.836828        -0.54302
                         0.60348        0.626482      0.000294099    -0.000312219         0.417406        0.228882      0.000178551    -0.000409689
                    -0.000331308    -0.000224913         0.837102       -0.542819      0.000103546    -0.000210795        -0.003965       0.0423616
281718                 -0.222362       -0.424423     -0.000264805    -0.000374628         0.603543        0.626728      -0.00038962    -0.000215588
                    -0.000245186    -0.000373704        0.0397672       0.0132766      0.000211025    -0.000117736         0.836617       -0.543345
                        0.603775        0.626119      0.000294053    -0.000312515         0.417652        0.228643      0.000178269    -0.000410035
                    -0.000331516    -0.000224743         0.836891       -0.543145      0.000103512    -0.000211169      -0.00395837       0.0423653
281720                 -0.222572       -0.424428     -0.000264924    -0.000374657         0.603838        0.626364     -0.000389849    -0.000215292
                    -0.000245307    -0.000373727        0.0397782        0.013253      0.000211185     -0.00011817         0.836405        -0.54367
                         0.60407        0.625756      0.000294007    -0.000312812         0.417898        0.228403      0.000177986     -0.00041038
                    -0.000331724    -0.000224572         0.836679        -0.54347      0.000103478    -0.000211543      -0.00395174       0.0423689
281722                 -0.222782       -0.424432     -0.000265043    -0.000374687         0.604132           0.626     -0.000390078    -0.000214995
                    -0.000245429     -0.00037375        0.0397893       0.0132294      0.000211344    -0.000118604         0.836193       -0.543995
                        0.604365        0.625393      0.000293961    -0.000313108         0.418144        0.228163      0.000177703    -0.000410725
                    -0.000331933    -0.000224402         0.836467       -0.543796      0.000103443    -0.000211916      -0.00394511       0.0423726
281724                 -0.222991       -0.424436     -0.000265162    -0.000374717         0.604426        0.625636     -0.000390307    -0.000214698
                     -0.00024555    -0.000373773        0.0398003       0.0132057      0.000211503    -0.000119038         0.835981       -0.544321
                        0.604659         0.62503      0.000293915    -0.000313405         0.418389        0.227922      0.000177419     -0.00041107
                    -0.000332141    -0.000224231         0.836255       -0.544121      0.000103408    -0.000212291      -0.00393848       0.0423763
281726                 -0.223201       -0.424441     -0.000265282    -0.000374747          0.60472        0.625272     -0.000390535    -0.000214401
                    -0.000245673    -0.000373796        0.0398113       0.0131821       0.00021166    -0.000119473         0.835769       -0.544646
                        0.604953        0.624666      0.000293869    -0.000313702         0.418635        0.227682      0.000177135    -0.000411415
                     -0.00033235     -0.00022406         0.836043       -0.544446      0.000103372    -0.000212665      -0.00393185       0.0423799
281728                 -0.223411       -0.424445     -0.000265401    -0.000374777         0.605014        0.624908     -0.000390763    -0.000214104
                    -0.000245795    -0.000373818        0.0398223       0.0131584      0.000211817    -0.000119908         0.835557       -0.544971
                        0.605247        0.624302      0.000293822    -0.000313999          0.41888        0.227441      0.000176851     -0.00041176
                    -0.000332559    -0.000223888         0.835831       -0.544771      0.000103335    -0.000213039      -0.00392521       0.0423836
281730                 -0.223621       -0.424449      -0.00026552    -0.000374807         0.605307        0.624543     -0.000390991    -0.000213806
                    -0.000245918    -0.000373841        0.0398333       0.0131347      0.000211973    -0.000120344         0.835345       -0.545295
                        0.605541        0.623938      0.000293775    -0.000314296         0.419126          0.2272      0.000176566    -0.000412105
                    -0.000332769    -0.000223717         0.835619       -0.545096      0.000103298    -0.000213414      -0.00391857       0.0423873
281732                 -0.223831       -0.424453      -0.00026564    -0.000374837         0.605601        0.624179     -0.000391218    -0.000213508
                     -0.00024604    -0.000373864        0.0398442       0.0131111      0.000212129     -0.00012078         0.835132        -0.54562
                        0.605834        0.623574      0.000293728    -0.000314593         0.419371        0.226959      0.000176281     -0.00041245
                    -0.000332978    -0.000223545         0.835406       -0.545421      0.000103261    -0.000213789      -0.00391193       0.0423909
281734                 -0.224042       -0.424457     -0.000265759    -0.000374867         0.605894        0.623814     -0.000391445    -0.000213209
                    -0.000246164    -0.000373886        0.0398552       0.0130874      0.000212283    -0.000121216          0.83492       -0.545945
                        0.606128         0.62321      0.000293681     -0.00031489         0.419616        0.226718      0.000175995    -0.000412795
                    -0.000333188    -0.000223373         0.835194       -0.545746      0.000103222    -0.000214164      -0.00390528       0.0423946
281736                 -0.224252       -0.424461     -0.000265879    -0.000374897         0.606187        0.623449     -0.000391672     -0.00021291
                    -0.000246287    -0.000373909        0.0398662       0.0130637      0.000212437    -0.000121653         0.834707        -0.54627
                        0.606421        0.622845      0.000293634    -0.000315187         0.419861        0.226476      0.000175709     -0.00041314
                    -0.000333397    -0.000223201         0.834981       -0.546071      0.000103184    -0.000214539      -0.00389864       0.0423983
281738                 -0.224462       -0.424465     -0.000265998    -0.000374928         0.606479        0.623084     -0.000391898    -0.000212611
                    -0.000246411    -0.000373931        0.0398771         0.01304       0.00021259    -0.000122091         0.834494       -0.546594
                        0.606714         0.62248      0.000293587    -0.000315484         0.420106        0.226234      0.000175423    -0.000413485
                    -0.000333607    -0.000223029         0.834768       -0.546395      0.000103144    -0.000214914      -0.00389199        0.042402
281740                 -0.224673       -0.424469     -0.000266118    -0.000374958         0.606772        0.622718     -0.000392124    -0.000212312
                    -0.000246535    -0.000373953         0.039888       0.0130163      0.000212742    -0.000122529         0.834281       -0.546919
                        0.607006        0.622116      0.000293539    -0.000315782         0.420351        0.225992      0.000175137     -0.00041383
                    -0.000333817    -0.000222856         0.834555        -0.54672      0.000103104     -0.00021529      -0.00388534       0.0424057
281742                 -0.224883       -0.424472     -0.000266238    -0.000374988         0.607064        0.622353      -0.00039235    -0.000212012
                     -0.00024666    -0.000373975        0.0398989       0.0129926      0.000212894    -0.000122967         0.834068       -0.547243
                        0.607299         0.62175      0.000293492    -0.000316079         0.420596        0.225749       0.00017485    -0.000414175
                    -0.000334028    -0.000222683         0.834342       -0.547044      0.000103064    -0.000215666      -0.00387868       0.0424094
281744                 -0.225093       -0.424476     -0.000266358    -0.000375019         0.607356        0.621987     -0.000392575    -0.000211712
                    -0.000246784    -0.000373997        0.0399099       0.0129689      0.000213045    -0.000123406         0.833855       -0.547567
                        0.607591        0.621385      0.000293444    -0.000316377         0.420841        0.225507      0.000174562     -0.00041452
                    -0.000334238     -0.00022251         0.834129       -0.547369      0.000103023    -0.000216042      -0.00387203        0.042413
281746                 -0.225304       -0.424479     -0.000266478    -0.000375049         0.607648        0.621621       -0.0003928    -0.000211411
                    -0.000246909    -0.000374019        0.0399208       0.0129452      0.000213195    -0.000123846         0.833642       -0.547891
                        0.607883         0.62102      0.000293396    -0.000316675         0.421085        0.225264      0.000174274    -0.000414865
                    -0.000334449    -0.000222337         0.833916       -0.547693      0.000102981    -0.000216418      -0.00386537       0.0424167
281748                 -0.225515       -0.424483     -0.000266598     -0.00037508         0.607939        0.621255     -0.000393025     -0.00021111
                    -0.000247034    -0.000374041        0.0399316       0.0129215      0.000213345    -0.000124285         0.833428       -0.548216
                        0.608175        0.620654      0.000293348    -0.000316973          0.42133        0.225021      0.000173986     -0.00041521
                    -0.000334659    -0.000222164         0.833702       -0.548017      0.000102939    -0.000216794      -0.00385871       0.0424204
281750                 -0.225725       -0.424486     -0.000266718    -0.000375111          0.60823        0.620889     -0.000393249    -0.000210809
                     -0.00024716    -0.000374063        0.0399425       0.0128977      0.000213493    -0.000124726         0.833214        -0.54854
                        0.608466        0.620288        0.0002933    -0.000317271         0.421574        0.224778      0.000173697    -0.000415555
                     -0.00033487     -0.00022199         0.833489       -0.548342      0.000102896     -0.00021717      -0.00385204       0.0424241
281752                 -0.225936       -0.424489     -0.000266838    -0.000375141         0.608521        0.620522     -0.000393473    -0.000210507
                    -0.000247286    -0.000374084        0.0399534        0.012874      0.000213641    -0.000125166         0.833001       -0.548864
                        0.608758        0.619922      0.000293251    -0.000317569         0.421818        0.224534      0.000173408      -0.0004159
                    -0.000335081    -0.000221816         0.833275       -0.548666      0.000102853    -0.000217547      -0.00384538       0.0424278
281754                 -0.226147       -0.424493     -0.000266958    -0.000375172         0.608812        0.620155     -0.000393696    -0.000210205
                    -0.000247412    -0.000374106        0.0399642       0.0128503      0.000213789    -0.000125607         0.832787       -0.549188
                        0.609049        0.619556      0.000293202    -0.000317867         0.422062         0.22429      0.000173119    -0.000416245
                    -0.000335293    -0.000221642         0.833061        -0.54899      0.000102809    -0.000217924      -0.00383871       0.0424315
281756                 -0.226358       -0.424496     -0.000267078    -0.000375203         0.609103        0.619789     -0.000393919    -0.000209903
                    -0.000247538    -0.000374127        0.0399751       0.0128265      0.000213935    -0.000126049         0.832573       -0.549511
                         0.60934         0.61919      0.000293154    -0.000318165         0.422307        0.224046      0.000172829     -0.00041659
                    -0.000335504    -0.000221468         0.832847       -0.549314      0.000102764    -0.000218301      -0.00383204       0.0424352
281758                 -0.226569       -0.424499     -0.000267199    -0.000375234         0.609393        0.619422     -0.000394142      -0.0002096
                    -0.000247665    -0.000374149        0.0399859       0.0128028      0.000214081    -0.000126491         0.832359       -0.549835
                         0.60963        0.618824      0.000293105    -0.000318464          0.42255        0.223802      0.000172538    -0.000416936
                    -0.000335716    -0.000221293         0.832633       -0.549638      0.000102719    -0.000218678      -0.00382536        0.042439
281760                  -0.22678       -0.424501     -0.000267319    -0.000375265         0.609684        0.619054     -0.000394364    -0.000209297
                    -0.000247792     -0.00037417        0.0399967        0.012779      0.000214226    -0.000126933         0.832145       -0.550159
                        0.609921        0.618457      0.000293056    -0.000318762         0.422794        0.223558      0.000172248    -0.000417281
                    -0.000335927    -0.000221118         0.832419       -0.549961      0.000102673    -0.000219056      -0.00381869       0.0424427
281762                 -0.226991       -0.424504      -0.00026744    -0.000375296         0.609974        0.618687     -0.000394586    -0.000208994
                    -0.000247919    -0.000374191        0.0400075       0.0127553       0.00021437    -0.000127376          0.83193       -0.550482
                        0.610211         0.61809      0.000293006    -0.000319061         0.423038        0.223313      0.000171957    -0.000417626
