! TOUCHSTONE file generated by CST MICROWAVE STUDIO
! Date and time: Tue Oct 14 07:26:02 2025
! Project name: Teste_Macro_Metasurface_Nanopilar.cst
! Parameters = {H=600; L_x=90; L_y=75; Lambda=1064; Max_L=200; Min_L=70; PathPara=1; Phi=0; Step_L=10; Theta=0; p=520; phaseX=180; phaseY=0}
! Header version: 2018
! Port assignment regex: !\s*Touchstone port\s*([0-9]+)\s*=\s*(CST MWS port|CST DS port)\s*([0-9]+|Zmin|Zmax)\s*\(\"(.*)\"\)(\s*mode\s*([0-9]+))?.*
! Touchstone port assignment:
! Touchstone port 1 = CST MWS port Zmax ("") mode 1
! Touchstone port 2 = CST MWS port Zmax ("") mode 2
! Touchstone port 3 = CST MWS port Zmin ("") mode 1
! Touchstone port 4 = CST MWS port Zmin ("") mode 2
! S-Parameters are not renormalized. Each port impedance will be approximated by the real part at minimum frequency. The values are described via the [Reference] keyword.
! Default impedance is overridden by [Reference]
[Version] 2.0
# GHz S RI R 376.73
[Number of Ports] 4
[Reference]
376.73 376.73 259.814 259.814 
[Number of Frequencies] 51
[Network Data]
281700                -0.0486591        0.122981     -0.000204648    -0.000202095         0.982231        0.131888      0.000115873     -1.2257e-05
                    -0.000339188     -0.00020141       -0.0280534        0.104962     -4.22536e-05     1.47972e-05         0.993455     -0.00811733
                        0.981921        0.131935     -0.000174822     3.85504e-05        0.0144088        0.131493      0.000301141    -0.000187143
                      0.00014071     1.59542e-05         0.993709     -0.00793205       0.00023799    -9.64479e-05        0.0296549        0.104595
281702                -0.0486168        0.122995     -0.000204756    -0.000201787         0.982279        0.131534      0.000115832    -1.22828e-05
                    -0.000339173    -0.000201366       -0.0280157        0.104968     -4.22884e-05     1.48204e-05         0.993452     -0.00848041
                        0.981968        0.131581     -0.000174724     3.85984e-05        0.0144592        0.131485      0.000300936    -0.000187261
                     0.000140626      1.5976e-05         0.993707     -0.00829519      0.000237825    -9.67215e-05        0.0296937         0.10458
281704                -0.0485745        0.123008     -0.000204863    -0.000201478         0.982326         0.13118      0.000115791    -1.23085e-05
                    -0.000339158    -0.000201323        -0.027978        0.104974     -4.23233e-05     1.48438e-05         0.993449     -0.00884348
                        0.982016        0.131227     -0.000174626     3.86464e-05        0.0145096        0.131476       0.00030073     -0.00018738
                     0.000140543     1.59983e-05         0.993704     -0.00865834      0.000237659    -9.69949e-05        0.0297324        0.104565
281706                -0.0485322        0.123022      -0.00020497    -0.000201168         0.982374        0.130826      0.000115749    -1.23341e-05
                    -0.000339142     -0.00020128       -0.0279402        0.104979     -4.23581e-05     1.48674e-05         0.993447     -0.00920655
                        0.982063        0.130873     -0.000174527     3.86945e-05          0.01456        0.131468      0.000300524    -0.000187498
                     0.000140459     1.60211e-05         0.993702     -0.00902149      0.000237493     -9.7268e-05        0.0297711        0.104549
281708                -0.0484899        0.123035     -0.000205077    -0.000200858         0.982421        0.130472      0.000115708    -1.23596e-05
                    -0.000339126    -0.000201238       -0.0279025        0.104985      -4.2393e-05      1.4891e-05         0.993444     -0.00956962
                         0.98211        0.130519     -0.000174428     3.87427e-05        0.0146104        0.131459      0.000300318    -0.000187616
                     0.000140374     1.60445e-05         0.993699     -0.00938464      0.000237327    -9.75409e-05        0.0298098        0.104534
281710                -0.0484475        0.123049     -0.000205183    -0.000200547         0.982469        0.130118      0.000115667    -1.23851e-05
                    -0.000339109    -0.000201196       -0.0278647         0.10499     -4.24278e-05     1.49149e-05          0.99344     -0.00993269
                        0.982157        0.130165     -0.000174329      3.8791e-05        0.0146607        0.131451      0.000300112    -0.000187734
                     0.000140289     1.60684e-05         0.993696     -0.00974779      0.000237161    -9.78135e-05        0.0298485        0.104518
281712                -0.0484052        0.123062     -0.000205288    -0.000200236         0.982516        0.129763      0.000115625    -1.24104e-05
                    -0.000339091    -0.000201155       -0.0278269        0.104996     -4.24626e-05     1.49389e-05         0.993437      -0.0102958
                        0.982203        0.129811     -0.000174229     3.88393e-05        0.0147111        0.131442      0.000299905    -0.000187852
                     0.000140204      1.6093e-05         0.993693      -0.0101109      0.000236995    -9.80859e-05        0.0298871        0.104503
281714                -0.0483629        0.123076     -0.000205393    -0.000199924         0.982563        0.129409      0.000115584    -1.24357e-05
                    -0.000339073    -0.000201115       -0.0277892        0.105002     -4.24974e-05     1.49631e-05         0.993434      -0.0106588
                         0.98225        0.129457     -0.000174129     3.88876e-05        0.0147615        0.131433      0.000299698    -0.000187969
                     0.000140118     1.61182e-05          0.99369      -0.0104741      0.000236829     -9.8358e-05        0.0299258        0.104487
281716                -0.0483205        0.123089     -0.000205498    -0.000199612          0.98261        0.129055      0.000115543    -1.24609e-05
                    -0.000339054    -0.000201075       -0.0277514        0.105007     -4.25322e-05     1.49874e-05          0.99343      -0.0110219
                        0.982296        0.129103     -0.000174028      3.8936e-05        0.0148119        0.131425      0.000299491    -0.000188087
                     0.000140032     1.61442e-05         0.993686      -0.0108372      0.000236662    -9.86299e-05        0.0299645        0.104472
281718                -0.0482782        0.123103     -0.000205602    -0.000199299         0.982657        0.128701      0.000115501     -1.2486e-05
                    -0.000339034    -0.000201035       -0.0277137        0.105013      -4.2567e-05     1.50118e-05         0.993427       -0.011385
                        0.982342        0.128749     -0.000173928     3.89845e-05        0.0148622        0.131416      0.000299283    -0.000188204
                     0.000139946     1.61708e-05         0.993683      -0.0112004      0.000236495    -9.89015e-05        0.0300031        0.104456
281720                -0.0482358        0.123116     -0.000205705    -0.000198985         0.982704        0.128347      0.000115459     -1.2511e-05
                    -0.000339013    -0.000200997       -0.0276759        0.105018     -4.26017e-05     1.50365e-05         0.993423       -0.011748
                        0.982388        0.128395     -0.000173826     3.90331e-05        0.0149126        0.131408      0.000299075    -0.000188321
                     0.000139858     1.61983e-05         0.993679      -0.0115635      0.000236329    -9.91728e-05        0.0300418        0.104441
281722                -0.0481935         0.12313     -0.000205808    -0.000198671          0.98275        0.127992      0.000115418     -1.2536e-05
                    -0.000338991    -0.000200959       -0.0276382        0.105024     -4.26365e-05     1.50613e-05         0.993419      -0.0121111
                        0.982434        0.128041     -0.000173725     3.90817e-05         0.014963        0.131399      0.000298867    -0.000188438
                     0.000139771     1.62265e-05         0.993675      -0.0119267      0.000236162    -9.94438e-05        0.0300804        0.104425
281724                -0.0481511        0.123143     -0.000205911    -0.000198356         0.982797        0.127638      0.000115376    -1.25609e-05
                    -0.000338969    -0.000200922       -0.0276004        0.105029     -4.26712e-05     1.50862e-05         0.993415      -0.0124742
                         0.98248        0.127687     -0.000173623     3.91304e-05        0.0150133         0.13139      0.000298659    -0.000188555
                     0.000139682     1.62556e-05         0.993672      -0.0122899      0.000235994    -9.97146e-05        0.0301191        0.104409
281726                -0.0481087        0.123157     -0.000206013    -0.000198041         0.982843        0.127284      0.000115334    -1.25857e-05
                    -0.000338945    -0.000200885       -0.0275627        0.105035     -4.27059e-05     1.51113e-05         0.993411      -0.0128372
                        0.982526        0.127332     -0.000173521     3.91791e-05        0.0150636        0.131382       0.00029845    -0.000188672
                     0.000139593     1.62857e-05         0.993668       -0.012653      0.000235827    -9.99851e-05        0.0301577        0.104394
281728                -0.0480664         0.12317     -0.000206115    -0.000197725         0.982889         0.12693      0.000115293    -1.26104e-05
                    -0.000338921     -0.00020085       -0.0275249         0.10504     -4.27406e-05     1.51365e-05         0.993407      -0.0132003
                        0.982571        0.126978     -0.000173418     3.92279e-05         0.015114        0.131373      0.000298241    -0.000188789
                     0.000139504     1.63167e-05         0.993663      -0.0130162       0.00023566    -0.000100255        0.0301963        0.104378
281730                 -0.048024        0.123183     -0.000206216    -0.000197408         0.982935        0.126575      0.000115251     -1.2635e-05
                    -0.000338895    -0.000200816       -0.0274871        0.105046     -4.27753e-05     1.51619e-05         0.993402      -0.0135634
                        0.982617        0.126624     -0.000173315     3.92767e-05        0.0151643        0.131364      0.000298032    -0.000188905
                     0.000139413     1.63488e-05         0.993659      -0.0133793      0.000235492    -0.000100525        0.0302349        0.104363
281732                -0.0479816        0.123197     -0.000206317    -0.000197091         0.982981        0.126221      0.000115209    -1.26596e-05
                    -0.000338868    -0.000200782       -0.0274494        0.105051     -4.28099e-05     1.51874e-05         0.993398      -0.0139264
                        0.982662         0.12627     -0.000173212     3.93257e-05        0.0152147        0.131356      0.000297822    -0.000189021
                     0.000139322      1.6382e-05         0.993655      -0.0137425      0.000235325    -0.000100795        0.0302735        0.104347
281734                -0.0479392         0.12321     -0.000206417    -0.000196773         0.983027        0.125867      0.000115167    -1.26841e-05
                     -0.00033884    -0.000200749       -0.0274116        0.105057     -4.28445e-05     1.52131e-05         0.993393      -0.0142895
                        0.982707        0.125916     -0.000173108     3.93746e-05         0.015265        0.131347      0.000297613    -0.000189137
                      0.00013923     1.64163e-05          0.99365      -0.0141056      0.000235157    -0.000101064        0.0303121        0.104331
281736                -0.0478968        0.123223     -0.000206517    -0.000196454         0.983073        0.125512      0.000115125    -1.27085e-05
                    -0.000338811    -0.000200718       -0.0273739        0.105062     -4.28792e-05      1.5239e-05         0.993388      -0.0146526
                        0.982752        0.125561     -0.000173004     3.94237e-05        0.0153153        0.131338      0.000297402    -0.000189253
                     0.000139137     1.64518e-05         0.993646      -0.0144688      0.000234989    -0.000101333        0.0303507        0.104316
281738                -0.0478545        0.123237     -0.000206616    -0.000196135         0.983118        0.125158      0.000115083    -1.27328e-05
                     -0.00033878    -0.000200688       -0.0273361        0.105068     -4.29137e-05     1.52649e-05         0.993383      -0.0150156
                        0.982797        0.125207     -0.000172899     3.94727e-05        0.0153656        0.131329      0.000297192    -0.000189369
                     0.000139043     1.64887e-05         0.993641      -0.0148319      0.000234821    -0.000101602        0.0303893          0.1043
281740                -0.0478121         0.12325     -0.000206716    -0.000195815         0.983164        0.124803      0.000115041    -1.27571e-05
                    -0.000338748    -0.000200659       -0.0272983        0.105073     -4.29483e-05     1.52911e-05         0.993378      -0.0153787
                        0.982842        0.124853     -0.000172794     3.95219e-05        0.0154159        0.131321      0.000296981    -0.000189485
                     0.000138948      1.6527e-05         0.993636      -0.0151951      0.000234653    -0.000101871        0.0304278        0.104284
281742                -0.0477697        0.123263     -0.000206814    -0.000195495         0.983209        0.124449      0.000114999    -1.27812e-05
                    -0.000338714    -0.000200631       -0.0272606        0.105078     -4.29828e-05     1.53174e-05         0.993373      -0.0157417
                        0.982887        0.124499     -0.000172688     3.95711e-05        0.0154663        0.131312       0.00029677      -0.0001896
                     0.000138853     1.65666e-05         0.993631      -0.0155582      0.000234485    -0.000102139        0.0304664        0.104268
281744                -0.0477273        0.123277     -0.000206912    -0.000195174         0.983254        0.124095      0.000114956    -1.28054e-05
                    -0.000338679    -0.000200604       -0.0272228        0.105084     -4.30174e-05     1.53438e-05         0.993367      -0.0161048
                        0.982932        0.124144     -0.000172582     3.96203e-05        0.0155166        0.131303      0.000296559    -0.000189716
                     0.000138756     1.66079e-05         0.993626      -0.0159214      0.000234317    -0.000102407         0.030505        0.104253
281746                -0.0476849         0.12329      -0.00020701    -0.000194852         0.983299         0.12374      0.000114914    -1.28294e-05
                    -0.000338642    -0.000200579        -0.027185        0.105089     -4.30519e-05     1.53704e-05         0.993362      -0.0164678
                        0.982976         0.12379     -0.000172476     3.96696e-05        0.0155669        0.131294      0.000296348    -0.000189831
                     0.000138658     1.66507e-05          0.99362      -0.0162846      0.000234149    -0.000102674        0.0305435        0.104237
281748                -0.0476425        0.123303     -0.000207107     -0.00019453         0.983344        0.123386      0.000114872    -1.28533e-05
                    -0.000338604    -0.000200555       -0.0271473        0.105094     -4.30863e-05     1.53971e-05         0.993356      -0.0168309
                        0.983021        0.123436     -0.000172369      3.9719e-05        0.0156172        0.131285      0.000296136    -0.000189946
                     0.000138559     1.66951e-05         0.993615      -0.0166477       0.00023398    -0.000102942         0.030582        0.104221
281750                -0.0476001        0.123317     -0.000207204    -0.000194207         0.983389        0.123031      0.000114829    -1.28772e-05
                    -0.000338563    -0.000200533       -0.0271095          0.1051     -4.31208e-05      1.5424e-05          0.99335      -0.0171939
                        0.983066        0.123082     -0.000172262     3.97684e-05        0.0156674        0.131276      0.000295924    -0.000190061
                     0.000138458     1.67413e-05         0.993609      -0.0170109      0.000233812    -0.000103209        0.0306206        0.104206
281752                -0.0475577         0.12333     -0.000207301    -0.000193884         0.983434        0.122677      0.000114787     -1.2901e-05
                    -0.000338521    -0.000200513       -0.0270717        0.105105     -4.31552e-05      1.5451e-05         0.993345       -0.017557
                         0.98311        0.122727     -0.000172154     3.98178e-05        0.0157177        0.131267      0.000295711    -0.000190175
                     0.000138357     1.67892e-05         0.993603       -0.017374      0.000233643    -0.000103475        0.0306591         0.10419
281754                -0.0475153        0.123343     -0.000207397     -0.00019356         0.983478        0.122322      0.000114744    -1.29248e-05
                    -0.000338477    -0.000200493        -0.027034         0.10511     -4.31895e-05     1.54781e-05         0.993338        -0.01792
                        0.983155        0.122373     -0.000172046     3.98673e-05         0.015768        0.131258      0.000295499     -0.00019029
                     0.000138254     1.68389e-05         0.993598      -0.0177372      0.000233474    -0.000103742        0.0306976        0.104174
281756                -0.0474728        0.123356     -0.000207493    -0.000193235         0.983523        0.121968      0.000114702    -1.29484e-05
                    -0.000338432    -0.000200476       -0.0269962        0.105116     -4.32239e-05     1.55054e-05         0.993332      -0.0182831
                        0.983199        0.122019     -0.000171937     3.99169e-05        0.0158183        0.131249      0.000295286    -0.000190404
                      0.00013815     1.68903e-05         0.993592      -0.0181003      0.000233306    -0.000104008        0.0307361        0.104158
281758                -0.0474304         0.12337     -0.000207588    -0.000192909         0.983567        0.121613      0.000114659     -1.2972e-05
                    -0.000338384    -0.000200459       -0.0269584        0.105121     -4.32582e-05     1.55329e-05         0.993326      -0.0186461
                        0.983244        0.121665     -0.000171827     3.99665e-05        0.0158686         0.13124      0.000295073    -0.000190518
                     0.000138045     1.69432e-05         0.993585      -0.0184635      0.000233137    -0.000104274        0.0307746        0.104142
281760                 -0.047388        0.123383     -0.000207683    -0.000192583         0.983611        0.121259      0.000114617    -1.29955e-05
                    -0.000338336    -0.000200444       -0.0269206        0.105126     -4.32925e-05     1.55605e-05          0.99332      -0.0190092
                        0.983288        0.121311     -0.000171718     4.00161e-05        0.0159188        0.131231      0.000294859    -0.000190633
                     0.000137939     1.69976e-05         0.993579      -0.0188267      0.000232968    -0.000104539        0.0308131        0.104126
281762                -0.0473456        0.123396     -0.000207778    -0.000192256         0.983655        0.120904      0.000114574    -1.30189e-05
                    -0.000338286     -0.00020043       -0.0268829        0.105131     -4.33268e-05     1.55882e-05         0.993313      -0.0193722
                        0.983332        0.120956     -0.000171607     4.00658e-05        0.0159691        0.131222      0.000294645    -0.000190746
