! TOUCHSTONE file generated by CST MICROWAVE STUDIO
! Date and time: Tue Oct 14 07:24:54 2025
! Project name: Teste_Macro_Metasurface_Nanopilar.cst
! Parameters = {H=600; L_x=70; L_y=130; Lambda=1064; Max_L=200; Min_L=70; PathPara=1; Phi=0; Step_L=10; Theta=0; p=520; phaseX=180; phaseY=0}
! Header version: 2018
! Port assignment regex: !\s*Touchstone port\s*([0-9]+)\s*=\s*(CST MWS port|CST DS port)\s*([0-9]+|Zmin|Zmax)\s*\(\"(.*)\"\)(\s*mode\s*([0-9]+))?.*
! Touchstone port assignment:
! Touchstone port 1 = CST MWS port Zmax ("") mode 1
! Touchstone port 2 = CST MWS port Zmax ("") mode 2
! Touchstone port 3 = CST MWS port Zmin ("") mode 1
! Touchstone port 4 = CST MWS port Zmin ("") mode 2
! S-Parameters are not renormalized. Each port impedance will be approximated by the real part at minimum frequency. The values are described via the [Reference] keyword.
! Default impedance is overridden by [Reference]
[Version] 2.0
# GHz S RI R 376.73
[Number of Ports] 4
[Reference]
376.73 376.73 259.814 259.814 
[Number of Frequencies] 51
[Network Data]
281700                 -0.127955      -0.0348714     -0.000108409    -0.000107072         0.310911       -0.936498     -0.000110828     -0.00030026
                    -7.31168e-05    -0.000147984       -0.0360814        0.117437      -0.00016605    -0.000163556         0.990534       0.0557659
                         0.31091       -0.936588     -0.000237768    -6.67713e-05        -0.123303      -0.0473527      -8.8946e-05    -0.000118678
                    -0.000109909    -0.000283956         0.990532       0.0557494      -9.7606e-05    -6.10522e-05         0.022595        0.120864
281702                 -0.127975       -0.034836     -0.000108678    -0.000107139         0.310497       -0.936633     -0.000110992    -0.000300287
                    -7.32638e-05    -0.000147844       -0.0360409        0.117446     -0.000166055    -0.000163554         0.990554        0.055407
                        0.310496       -0.936723     -0.000237937    -6.64749e-05        -0.123341      -0.0472844     -8.90187e-05    -0.000118553
                    -0.000110102    -0.000283863         0.990553       0.0553906     -9.74192e-05    -6.12018e-05        0.0226413        0.120852
281704                 -0.127996      -0.0348007     -0.000108947    -0.000107207         0.310083       -0.936768     -0.000111156    -0.000300314
                    -7.34108e-05    -0.000147705       -0.0360005        0.117455      -0.00016606    -0.000163552         0.990574       0.0550481
                        0.310082       -0.936859     -0.000238106    -6.61779e-05        -0.123378      -0.0472161     -8.90899e-05    -0.000118427
                    -0.000110295    -0.000283769         0.990574       0.0550317     -9.72328e-05    -6.13515e-05        0.0226877        0.120841
281706                 -0.128016      -0.0347653     -0.000109217    -0.000107275         0.309669       -0.936903      -0.00011132    -0.000300341
                    -7.35579e-05    -0.000147565       -0.0359601        0.117464     -0.000166065     -0.00016355         0.990594       0.0546892
                        0.309668       -0.936994     -0.000238276    -6.58804e-05        -0.123415      -0.0471478     -8.91594e-05      -0.0001183
                    -0.000110488    -0.000283674         0.990594       0.0546729      -9.7047e-05    -6.15014e-05         0.022734        0.120829
281708                 -0.128037      -0.0347299     -0.000109488    -0.000107343         0.309255       -0.937038     -0.000111485    -0.000300368
                     -7.3705e-05    -0.000147425       -0.0359196        0.117473     -0.000166071    -0.000163548         0.990614       0.0543304
                        0.309255       -0.937129     -0.000238446    -6.55824e-05        -0.123453      -0.0470794     -8.92273e-05    -0.000118171
                    -0.000110681     -0.00028358         0.990615        0.054314     -9.68617e-05    -6.16515e-05        0.0227804        0.120817
281710                 -0.128057      -0.0346945     -0.000109759    -0.000107412         0.308841       -0.937172     -0.000111649    -0.000300396
                    -7.38521e-05    -0.000147285       -0.0358792        0.117482     -0.000166077    -0.000163546         0.990634       0.0539715
                        0.308841       -0.937263     -0.000238616    -6.52838e-05         -0.12349       -0.047011     -8.92935e-05    -0.000118042
                    -0.000110875    -0.000283484         0.990635       0.0539551     -9.66769e-05    -6.18018e-05        0.0228267        0.120805
281712                 -0.128077      -0.0346591      -0.00011003    -0.000107481         0.308427       -0.937307     -0.000111814    -0.000300424
                    -7.39992e-05    -0.000147144       -0.0358387        0.117491     -0.000166083    -0.000163544         0.990654       0.0536126
                        0.308427       -0.937398     -0.000238787    -6.49848e-05        -0.123527      -0.0469426     -8.93581e-05    -0.000117912
                    -0.000111068    -0.000283389         0.990655       0.0535962     -9.64925e-05    -6.19523e-05         0.022873        0.120793
281714                 -0.128098      -0.0346237     -0.000110302    -0.000107551         0.308013       -0.937441     -0.000111979    -0.000300452
                    -7.41464e-05    -0.000147004       -0.0357983          0.1175     -0.000166089    -0.000163542         0.990673       0.0532536
                        0.308013       -0.937532     -0.000238958    -6.46852e-05        -0.123564      -0.0468742      -8.9421e-05     -0.00011778
                    -0.000111262    -0.000283292         0.990675       0.0532373     -9.63087e-05     -6.2103e-05        0.0229194        0.120781
281716                 -0.128118      -0.0345883     -0.000110575    -0.000107621         0.307599       -0.937575     -0.000112144     -0.00030048
                    -7.42935e-05    -0.000146863       -0.0357578        0.117509     -0.000166096     -0.00016354         0.990693       0.0528947
                        0.307598       -0.937667     -0.000239129    -6.43852e-05        -0.123602      -0.0468057     -8.94821e-05    -0.000117648
                    -0.000111456    -0.000283196         0.990695       0.0528785     -9.61254e-05    -6.22539e-05        0.0229657        0.120769
281718                 -0.128139      -0.0345528     -0.000110847    -0.000107691         0.307184       -0.937709      -0.00011231    -0.000300509
                    -7.44408e-05    -0.000146722       -0.0357174        0.117518     -0.000166104    -0.000163538         0.990712       0.0525358
                        0.307184       -0.937801     -0.000239301    -6.40846e-05        -0.123639      -0.0467372     -8.95416e-05    -0.000117515
                     -0.00011165    -0.000283099         0.990714       0.0525195     -9.59427e-05    -6.24049e-05         0.023012        0.120757
281720                 -0.128159      -0.0345174      -0.00011112    -0.000107762          0.30677       -0.937842     -0.000112476    -0.000300538
                     -7.4588e-05     -0.00014658       -0.0356769        0.117528     -0.000166111    -0.000163536         0.990731       0.0521769
                         0.30677       -0.937935     -0.000239473    -6.37836e-05        -0.123676      -0.0466687     -8.95993e-05    -0.000117381
                    -0.000111845    -0.000283001         0.990734       0.0521606     -9.57604e-05    -6.25561e-05        0.0230583        0.120745
281722                 -0.128179      -0.0344819     -0.000111394    -0.000107834         0.306356       -0.937976     -0.000112641    -0.000300567
                    -7.47353e-05    -0.000146439       -0.0356364        0.117537     -0.000166119    -0.000163534          0.99075       0.0518179
                        0.306356       -0.938068     -0.000239645     -6.3482e-05        -0.123713      -0.0466001     -8.96552e-05    -0.000117246
                    -0.000112039    -0.000282903         0.990753       0.0518017     -9.55786e-05    -6.27076e-05        0.0231046        0.120733
281724                   -0.1282      -0.0344464     -0.000111668    -0.000107906         0.305941       -0.938109     -0.000112808    -0.000300596
                    -7.48825e-05    -0.000146297        -0.035596        0.117546     -0.000166128    -0.000163532         0.990769        0.051459
                        0.305941       -0.938202     -0.000239818      -6.318e-05         -0.12375      -0.0465315     -8.97094e-05    -0.000117111
                    -0.000112234    -0.000282805         0.990773       0.0514428     -9.53973e-05    -6.28592e-05        0.0231509        0.120721
281726                  -0.12822      -0.0344109     -0.000111943    -0.000107978         0.305527       -0.938242     -0.000112974    -0.000300626
                    -7.50299e-05    -0.000146155       -0.0355555        0.117554     -0.000166136     -0.00016353         0.990788          0.0511
                        0.305527       -0.938335     -0.000239991    -6.28774e-05        -0.123787      -0.0464629     -8.97618e-05    -0.000116974
                    -0.000112429    -0.000282706         0.990792       0.0510838     -9.52165e-05     -6.3011e-05        0.0231972        0.120709
281728                  -0.12824      -0.0343754     -0.000112218    -0.000108051         0.305112       -0.938375      -0.00011314    -0.000300656
                    -7.51772e-05    -0.000146013        -0.035515        0.117563     -0.000166145    -0.000163528         0.990807       0.0507411
                        0.305112       -0.938468     -0.000240165    -6.25744e-05        -0.123824      -0.0463943     -8.98124e-05    -0.000116837
                    -0.000112625    -0.000282607         0.990811       0.0507249     -9.50362e-05     -6.3163e-05        0.0232435        0.120697
281730                 -0.128261      -0.0343399     -0.000112493    -0.000108124         0.304697       -0.938508     -0.000113307    -0.000300686
                    -7.53246e-05     -0.00014587       -0.0354746        0.117572     -0.000166154    -0.000163526         0.990825       0.0503821
                        0.304698       -0.938601     -0.000240338    -6.22709e-05        -0.123861      -0.0463257     -8.98612e-05    -0.000116699
                     -0.00011282    -0.000282507          0.99083       0.0503659     -9.48564e-05    -6.33152e-05        0.0232897        0.120685
281732                 -0.128281      -0.0343044     -0.000112769    -0.000108198         0.304283       -0.938641     -0.000113474    -0.000300716
                    -7.54719e-05    -0.000145727       -0.0354341        0.117581     -0.000166164    -0.000163524         0.990843       0.0500231
                        0.304283       -0.938734     -0.000240512    -6.19669e-05        -0.123897       -0.046257     -8.99081e-05     -0.00011656
                    -0.000113016    -0.000282407         0.990849        0.050007     -9.46771e-05    -6.34675e-05         0.023336        0.120673
281734                 -0.128301      -0.0342688     -0.000113045    -0.000108272         0.303868       -0.938773     -0.000113641    -0.000300746
                    -7.56193e-05    -0.000145584       -0.0353936         0.11759     -0.000166174    -0.000163523         0.990862       0.0496641
                        0.303869       -0.938867     -0.000240687    -6.16625e-05        -0.123934      -0.0461883     -8.99532e-05     -0.00011642
                    -0.000113211    -0.000282307         0.990867        0.049648     -9.44983e-05    -6.36201e-05        0.0233823        0.120661
281736                 -0.128322      -0.0342333     -0.000113321    -0.000108347         0.303453       -0.938905     -0.000113808    -0.000300777
                    -7.57668e-05    -0.000145441       -0.0353532        0.117599     -0.000166184    -0.000163521          0.99088       0.0493052
                        0.303454       -0.938999     -0.000240861    -6.13576e-05        -0.123971      -0.0461195     -8.99965e-05     -0.00011628
                    -0.000113407    -0.000282205         0.990886        0.049289     -9.43199e-05    -6.37728e-05        0.0234285        0.120649
281738                 -0.128342      -0.0341977     -0.000113598    -0.000108422         0.303038       -0.939037     -0.000113975    -0.000300808
                    -7.59142e-05    -0.000145298       -0.0353127        0.117608     -0.000166194    -0.000163519         0.990898       0.0489462
                        0.303039       -0.939131     -0.000241036    -6.10524e-05        -0.124008      -0.0460508     -9.00379e-05    -0.000116138
                    -0.000113604    -0.000282104         0.990904         0.04893      -9.4142e-05    -6.39258e-05        0.0234748        0.120637
281740                 -0.128362      -0.0341622     -0.000113875    -0.000108497         0.302623       -0.939169     -0.000114143    -0.000300839
                    -7.60617e-05    -0.000145154       -0.0352722        0.117617     -0.000166205    -0.000163517         0.990916       0.0485872
                        0.302624       -0.939263     -0.000241212    -6.07467e-05        -0.124044       -0.045982     -9.00775e-05    -0.000115997
                      -0.0001138    -0.000282002         0.990923        0.048571     -9.39646e-05    -6.40789e-05         0.023521        0.120625
281742                 -0.128382      -0.0341266     -0.000114153    -0.000108573         0.302208       -0.939301     -0.000114311     -0.00030087
                    -7.62092e-05     -0.00014501       -0.0352317        0.117626     -0.000166216    -0.000163515         0.990933       0.0482281
                        0.302209       -0.939395     -0.000241387    -6.04407e-05        -0.124081      -0.0459131     -9.01154e-05    -0.000115854
                    -0.000113997    -0.000281899         0.990941        0.048212     -9.37876e-05    -6.42323e-05        0.0235672        0.120613
281744                 -0.128403       -0.034091      -0.00011443    -0.000108649         0.301793       -0.939432     -0.000114479    -0.000300902
                    -7.63567e-05    -0.000144866       -0.0351912        0.117635     -0.000166227    -0.000163513         0.990951       0.0478691
                        0.301794       -0.939527     -0.000241563    -6.01346e-05        -0.124118      -0.0458443     -9.01514e-05     -0.00011571
                    -0.000114193    -0.000281797         0.990959        0.047853     -9.36111e-05    -6.43859e-05        0.0236135        0.120601
281746                 -0.128423      -0.0340554     -0.000114706    -0.000108726         0.301378       -0.939563     -0.000114647    -0.000300933
                    -7.65043e-05    -0.000144722       -0.0351507        0.117644     -0.000166239    -0.000163512         0.990969       0.0475101
                        0.301379       -0.939658     -0.000241738    -5.98294e-05        -0.124154      -0.0457754     -9.01858e-05    -0.000115566
                     -0.00011439    -0.000281693         0.990977        0.047494     -9.34349e-05    -6.45398e-05        0.0236597        0.120588
281748                 -0.128443      -0.0340198     -0.000114966    -0.000108796         0.300963       -0.939695     -0.000114815    -0.000300965
                    -7.66519e-05    -0.000144577       -0.0351102        0.117652      -0.00016625     -0.00016351         0.990986       0.0471511
                        0.300964        -0.93979     -0.000241904    -5.95403e-05        -0.124191      -0.0457065     -9.02187e-05    -0.000115421
                    -0.000114587    -0.000281589         0.990994       0.0471351      -9.3259e-05     -6.4694e-05        0.0237059        0.120576
281750                 -0.128463      -0.0339842      -0.00011528     -0.00010888         0.300547       -0.939825     -0.000114984    -0.000300997
                    -7.67995e-05    -0.000144433       -0.0350698        0.117661     -0.000166262    -0.000163508         0.991003        0.046792
                        0.300549       -0.939921     -0.000242097    -5.92006e-05        -0.124227      -0.0456376     -9.02503e-05    -0.000115274
                    -0.000114785    -0.000281485         0.991012       0.0467759     -9.30833e-05    -6.48486e-05        0.0237521        0.120564
281752                 -0.128484      -0.0339485     -0.000115554    -0.000108959         0.300132       -0.939956     -0.000115153    -0.000301029
                    -7.69471e-05    -0.000144288       -0.0350293         0.11767     -0.000166274    -0.000163507          0.99102        0.046433
                        0.300134       -0.940052     -0.000242273    -5.88964e-05        -0.124264      -0.0455687     -9.02817e-05    -0.000115125
                    -0.000114982     -0.00028138         0.991029       0.0464168     -9.29074e-05    -6.50038e-05        0.0237984        0.120552
281754                 -0.128504      -0.0339129     -0.000115833    -0.000109037         0.299716       -0.940087     -0.000115323    -0.000301061
                    -7.70947e-05    -0.000144142       -0.0349888        0.117679     -0.000166286    -0.000163505         0.991037        0.046074
                        0.299718       -0.940183      -0.00024245    -5.85885e-05          -0.1243      -0.0454997      -9.0315e-05    -0.000114972
                     -0.00011518    -0.000281275         0.991047       0.0460578     -9.27308e-05    -6.51602e-05        0.0238446         0.12054
281756                 -0.128524      -0.0338772     -0.000116113    -0.000109116         0.299301       -0.940217     -0.000115495    -0.000301092
                    -7.72423e-05    -0.000143997       -0.0349483        0.117688     -0.000166296    -0.000163505         0.991054        0.045715
                        0.299303       -0.940313     -0.000242628    -5.82794e-05        -0.124337      -0.0454307     -9.03618e-05    -0.000114798
                    -0.000115378    -0.000281169         0.991064       0.0456987     -9.25509e-05    -6.53196e-05        0.0238908        0.120527
281758                 -0.128544      -0.0338415     -0.000116393    -0.000109195         0.298885       -0.940347     -0.000115642     -0.00030111
                    -7.73899e-05    -0.000143851       -0.0349078        0.117696     -0.000166294    -0.000163508         0.991071       0.0453549
                        0.298887       -0.940444     -0.000242806    -5.79697e-05        -0.124373      -0.0453617     -8.99245e-05    -0.000114642
                    -0.000115576    -0.000281063         0.991081       0.0453397     -9.23477e-05    -6.54967e-05        0.0239368        0.120515
281760                 -0.128565      -0.0338059     -0.000116674    -0.000109274          0.29847       -0.940477     -0.000115821    -0.000301161
                    -7.75378e-05    -0.000143706       -0.0348673        0.117705     -0.000166364    -0.000163486         0.991087       0.0449966
                        0.298472       -0.940574     -0.000242984    -5.76594e-05        -0.124409      -0.0452926     -9.03061e-05    -0.000114588
                    -0.000115774    -0.000280956         0.991098       0.0449806     -9.22884e-05    -6.55663e-05        0.0239831        0.120503
281762                 -0.128585      -0.0337702     -0.000116956    -0.000109354         0.298054       -0.940607     -0.000115993    -0.000301195
                    -7.76857e-05    -0.000143559       -0.0348268        0.117714     -0.000166356    -0.000163492         0.991104       0.0446375
                        0.298056       -0.940704     -0.000243163    -5.73486e-05        -0.124446      -0.0452235     -9.03466e-05    -0.000114427
