! TOUCHSTONE file generated by CST MICROWAVE STUDIO
! Date and time: Tue Oct 14 07:27:26 2025
! Project name: Teste_Macro_Metasurface_Nanopilar.cst
! Parameters = {H=600; L_x=110; L_y=140; Lambda=1064; Max_L=200; Min_L=70; PathPara=1; Phi=0; Step_L=10; Theta=0; p=520; phaseX=180; phaseY=0}
! Header version: 2018
! Port assignment regex: !\s*Touchstone port\s*([0-9]+)\s*=\s*(CST MWS port|CST DS port)\s*([0-9]+|Zmin|Zmax)\s*\(\"(.*)\"\)(\s*mode\s*([0-9]+))?.*
! Touchstone port assignment:
! Touchstone port 1 = CST MWS port Zmax ("") mode 1
! Touchstone port 2 = CST MWS port Zmax ("") mode 2
! Touchstone port 3 = CST MWS port Zmin ("") mode 1
! Touchstone port 4 = CST MWS port Zmin ("") mode 2
! S-Parameters are not renormalized. Each port impedance will be approximated by the real part at minimum frequency. The values are described via the [Reference] keyword.
! Default impedance is overridden by [Reference]
[Version] 2.0
# GHz S RI R 376.73
[Number of Ports] 4
[Reference]
376.73 376.73 259.814 259.814 
[Number of Frequencies] 51
[Network Data]
281700                -0.0405961       -0.109398       0.00071201    -0.000233668        -0.254505        0.953461     -0.000479056    -0.000690341
                     0.000695515    -0.000308829         -0.16674       0.0117911     -0.000149791    -0.000673136        -0.853132       -0.476034
                       -0.254285        0.953242     -0.000156691    -0.000713716       -0.0887199       0.0758814     -0.000774797     0.000379561
                    -0.000328619    -0.000724911        -0.852989       -0.475749     -0.000859303     0.000360786         0.076061        0.147452
281702                -0.0406411       -0.109403      0.000711756    -0.000234165         -0.25406        0.953578     -0.000479345    -0.000689978
                     0.000695182    -0.000309236        -0.166724       0.0118527     -0.000150022    -0.000673114        -0.853384       -0.475587
                        -0.25384        0.953358     -0.000157123    -0.000713594       -0.0886914       0.0759467     -0.000774613     0.000379722
                    -0.000329031      -0.0007247         -0.85324       -0.475302     -0.000859098     0.000360967        0.0761548         0.14739
281704                -0.0406861       -0.109409      0.000711504    -0.000234661        -0.253614        0.953694     -0.000479634    -0.000689615
                     0.000694848    -0.000309643        -0.166708       0.0119143     -0.000150253    -0.000673092        -0.853635       -0.475139
                       -0.253395        0.953474     -0.000157556    -0.000713469       -0.0886629        0.076012     -0.000774429     0.000379884
                    -0.000329441    -0.000724489        -0.853491       -0.474855     -0.000858894     0.000361148        0.0762486        0.147329
281706                -0.0407311       -0.109415      0.000711252    -0.000235158        -0.253169         0.95381     -0.000479923    -0.000689251
                     0.000694515    -0.000310049        -0.166692       0.0119758     -0.000150483    -0.000673071        -0.853885       -0.474692
                        -0.25295         0.95359     -0.000157991    -0.000713342       -0.0886343       0.0760773     -0.000774244     0.000380045
                    -0.000329852    -0.000724279        -0.853742       -0.474407      -0.00085869     0.000361329        0.0763422        0.147267
281708                -0.0407761        -0.10942      0.000711002    -0.000235655        -0.252724        0.953926      -0.00048021    -0.000688888
                     0.000694181    -0.000310455        -0.166676       0.0120374     -0.000150714    -0.000673049        -0.854136       -0.474244
                       -0.252504        0.953705     -0.000158429    -0.000713213       -0.0886056       0.0761426     -0.000774058     0.000380206
                    -0.000330263    -0.000724068        -0.853993       -0.473959     -0.000858486     0.000361509        0.0764359        0.147205
281710                -0.0408211       -0.109426      0.000710753    -0.000236152        -0.252278        0.954041     -0.000480498    -0.000688524
                     0.000693847    -0.000310859         -0.16666       0.0120989     -0.000150944    -0.000673027        -0.854387       -0.473797
                       -0.252059         0.95382     -0.000158869    -0.000713081        -0.088577       0.0762079     -0.000773872     0.000380366
                    -0.000330673    -0.000723858        -0.854243       -0.473512     -0.000858282      0.00036169        0.0765295        0.147143
281712                -0.0408661       -0.109432      0.000710505    -0.000236648        -0.251833        0.954157     -0.000480785    -0.000688161
                     0.000693512    -0.000311263        -0.166643       0.0121604     -0.000151175    -0.000673005        -0.854637       -0.473349
                       -0.251614        0.953935     -0.000159311    -0.000712947       -0.0885482       0.0762732     -0.000773686     0.000380527
                    -0.000331083    -0.000723648        -0.854493       -0.473064     -0.000858078      0.00036187         0.076623        0.147081
281714                -0.0409111       -0.109437      0.000710259    -0.000237145        -0.251387        0.954272     -0.000481072    -0.000687797
                     0.000693178    -0.000311667        -0.166627       0.0122219     -0.000151405    -0.000672982        -0.854887       -0.472901
                       -0.251169         0.95405     -0.000159756     -0.00071281       -0.0885195       0.0763385     -0.000773499     0.000380688
                    -0.000331493    -0.000723438        -0.854743       -0.472616     -0.000857874      0.00036205        0.0767165        0.147019
281716                -0.0409561       -0.109443      0.000710014    -0.000237642        -0.250941        0.954387     -0.000481359    -0.000687432
                     0.000692843    -0.000312069        -0.166611       0.0122834     -0.000151635     -0.00067296        -0.855136       -0.472453
                       -0.250723        0.954165     -0.000160202    -0.000712672       -0.0884906       0.0764038     -0.000773313     0.000380851
                    -0.000331903    -0.000723227        -0.854993       -0.472168     -0.000857671      0.00036223          0.07681        0.146957
281718                -0.0410011       -0.109448      0.000709771    -0.000238138        -0.250496        0.954502     -0.000481648    -0.000687066
                     0.000692508    -0.000312471        -0.166595       0.0123449     -0.000151865    -0.000672937        -0.855386       -0.472005
                       -0.250278        0.954279     -0.000160652    -0.000712531       -0.0884618        0.076469     -0.000773133     0.000381019
                    -0.000332313    -0.000723017        -0.855242       -0.471719     -0.000857468     0.000362409        0.0769034        0.146895
281720                -0.0410461       -0.109454      0.000709529    -0.000238634         -0.25005        0.954616      -0.00048192    -0.000686688
                     0.000692172    -0.000312872        -0.166578       0.0124064     -0.000152095    -0.000672915        -0.855635       -0.471556
                       -0.249833        0.954393     -0.000161104    -0.000712388       -0.0884328       0.0765343      -0.00077297     0.000381121
                    -0.000332722    -0.000722807        -0.855491       -0.471271     -0.000857264     0.000362589        0.0769967        0.146833
281722                -0.0410912       -0.109459      0.000709289     -0.00023913        -0.249604        0.954731     -0.000482205     -0.00068634
                     0.000691837    -0.000313273        -0.166562       0.0124678     -0.000152324    -0.000672892        -0.855884       -0.471108
                       -0.249387        0.954507     -0.000161559    -0.000712242       -0.0884039       0.0765995     -0.000772741     0.000381301
                    -0.000333131    -0.000722597         -0.85574       -0.470823     -0.000857061     0.000362768          0.07709         0.14677
281724                -0.0411362       -0.109465      0.000709051    -0.000239626        -0.249159        0.954845     -0.000482491    -0.000685977
                     0.000691501    -0.000313672        -0.166546       0.0125293     -0.000152554    -0.000672869        -0.856133       -0.470659
                       -0.248942        0.954621     -0.000162016    -0.000712095       -0.0883749       0.0766648     -0.000772549     0.000381466
                     -0.00033354    -0.000722387        -0.855989       -0.470374     -0.000856858     0.000362947        0.0771833        0.146708
281726                -0.0411812        -0.10947      0.000708814    -0.000240121        -0.248713        0.954959     -0.000482776    -0.000685613
                     0.000691164    -0.000314071        -0.166529       0.0125907     -0.000152783    -0.000672845        -0.856381        -0.47021
                       -0.248496        0.954734     -0.000162476    -0.000711946       -0.0883458         0.07673     -0.000772357     0.000381627
                    -0.000333949    -0.000722177        -0.856238       -0.469925     -0.000856656     0.000363126        0.0772765        0.146646
281728                -0.0412263       -0.109476      0.000708578    -0.000240616        -0.248267        0.955072     -0.000483059    -0.000685248
                     0.000690827    -0.000314469        -0.166513       0.0126521     -0.000153013    -0.000672822         -0.85663       -0.469761
                        -0.24805        0.954847      -0.00016294    -0.000711795       -0.0883167       0.0767952     -0.000772166     0.000381786
                    -0.000334358    -0.000721967        -0.856486       -0.469476     -0.000856453     0.000363304        0.0773696        0.146583
281730                -0.0412713       -0.109481      0.000708344    -0.000241111        -0.247821        0.955186     -0.000483342    -0.000684884
                      0.00069049    -0.000314867        -0.166496       0.0127135     -0.000153242    -0.000672799        -0.856878       -0.469312
                       -0.247605         0.95496     -0.000163406    -0.000711641       -0.0882875       0.0768604     -0.000771973     0.000381944
                    -0.000334766    -0.000721757        -0.856734       -0.469027     -0.000856251     0.000363482        0.0774627         0.14652
281732                -0.0413164       -0.109487      0.000708112    -0.000241605        -0.247375        0.955299     -0.000483624     -0.00068452
                     0.000690153    -0.000315264         -0.16648       0.0127749     -0.000153471    -0.000672775        -0.857126       -0.468863
                       -0.247159        0.955073     -0.000163875    -0.000711486       -0.0882583       0.0769256     -0.000771781     0.000382101
                    -0.000335175    -0.000721547        -0.856982       -0.468578     -0.000856048     0.000363661        0.0775558        0.146458
281734                -0.0413614       -0.109492      0.000707882    -0.000242099        -0.246929        0.955412     -0.000483906    -0.000684155
                     0.000689815     -0.00031566        -0.166463       0.0128363       -0.0001537    -0.000672751        -0.857373       -0.468414
                       -0.246713        0.955186     -0.000164347    -0.000711329        -0.088229       0.0769908     -0.000771587     0.000382258
                    -0.000335583    -0.000721336        -0.857229       -0.468129     -0.000855846     0.000363839        0.0776488        0.146395
281736                -0.0414065       -0.109498      0.000707653    -0.000242592        -0.246483        0.955525     -0.000484187     -0.00068379
                     0.000689477    -0.000316055        -0.166447       0.0128976     -0.000153929    -0.000672727        -0.857621       -0.467964
                       -0.246267        0.955298     -0.000164822     -0.00071117       -0.0881997        0.077056     -0.000771393     0.000382415
                    -0.000335991    -0.000721126        -0.857477        -0.46768     -0.000855644     0.000364016        0.0777417        0.146332
281738                -0.0414516       -0.109503      0.000707426    -0.000243084        -0.246037        0.955638     -0.000484468    -0.000683426
                     0.000689139     -0.00031645         -0.16643        0.012959     -0.000154158    -0.000672703        -0.857868       -0.467515
                       -0.245822         0.95541       -0.0001653     -0.00071101       -0.0881704       0.0771212     -0.000771198     0.000382571
                    -0.000336399    -0.000720916        -0.857724        -0.46723     -0.000855442     0.000364194        0.0778347         0.14627
281740                -0.0414967       -0.109508      0.000707201    -0.000243575        -0.245591         0.95575     -0.000484748    -0.000683061
                       0.0006888    -0.000316844        -0.166414       0.0130203     -0.000154386    -0.000672679        -0.858115       -0.467065
                       -0.245376        0.955522     -0.000165782    -0.000710847        -0.088141       0.0771864     -0.000771003     0.000382727
                    -0.000336806    -0.000720706        -0.857971       -0.466781     -0.000855241     0.000364371        0.0779275        0.146207
281742                -0.0415417       -0.109514      0.000706977    -0.000244066        -0.245144        0.955863     -0.000485028    -0.000682696
                      0.00068846    -0.000317237        -0.166397       0.0130817     -0.000154615    -0.000672654        -0.858362       -0.466615
                        -0.24493        0.955634     -0.000166267    -0.000710684       -0.0881115       0.0772515     -0.000770806     0.000382883
                    -0.000337214    -0.000720495        -0.858217       -0.466331     -0.000855039     0.000364548        0.0780203        0.146144
281744                -0.0415868       -0.109519      0.000706756    -0.000244556        -0.244698        0.955975     -0.000485307    -0.000682331
                     0.000688121    -0.000317629         -0.16638        0.013143     -0.000154843     -0.00067263        -0.858608       -0.466165
                       -0.244484        0.955746     -0.000166755    -0.000710518        -0.088082       0.0773167      -0.00077061     0.000383038
                    -0.000337621    -0.000720285        -0.858464       -0.465881     -0.000854838     0.000364725        0.0781131        0.146081
281746                -0.0416319       -0.109524      0.000706536    -0.000245045        -0.244252        0.956087     -0.000485586    -0.000681966
                     0.000687781    -0.000318021        -0.166364       0.0132043     -0.000155071    -0.000672605        -0.858854       -0.465715
                       -0.244038        0.955857     -0.000167247    -0.000710352       -0.0880525       0.0773818     -0.000770413     0.000383193
                    -0.000338028    -0.000720074         -0.85871       -0.465431     -0.000854636     0.000364902        0.0782058        0.146018
281748                 -0.041677       -0.109529      0.000706318    -0.000245533        -0.243805        0.956198     -0.000485865    -0.000681601
                     0.000687441    -0.000318412        -0.166347       0.0132656       -0.0001553     -0.00067258          -0.8591       -0.465265
                       -0.243592        0.955968     -0.000167742    -0.000710183       -0.0880229       0.0774469     -0.000770215     0.000383348
                    -0.000338435    -0.000719864        -0.858956       -0.464981     -0.000854435     0.000365078        0.0782985        0.145955
281750                -0.0417221       -0.109535      0.000706102     -0.00024602        -0.243359         0.95631     -0.000486142    -0.000681236
                       0.0006871    -0.000318803         -0.16633       0.0133268     -0.000155528    -0.000672555        -0.859346       -0.464814
                       -0.243146        0.956079     -0.000168241    -0.000710014       -0.0879932       0.0775121     -0.000770016     0.000383502
                    -0.000338842    -0.000719653        -0.859202       -0.464531     -0.000854234     0.000365254        0.0783911        0.145891
281752                -0.0417672        -0.10954      0.000705887    -0.000246506        -0.242913        0.956421      -0.00048642     -0.00068087
                     0.000686759    -0.000319192        -0.166313       0.0133881     -0.000155756     -0.00067253        -0.859592       -0.464364
                         -0.2427         0.95619     -0.000168743    -0.000709844       -0.0879635       0.0775772     -0.000769817     0.000383657
                    -0.000339248    -0.000719442        -0.859447        -0.46408     -0.000854033      0.00036543        0.0784837        0.145828
281754                -0.0418123       -0.109545      0.000705675     -0.00024699        -0.242466        0.956532     -0.000486697    -0.000680505
                     0.000686417    -0.000319581        -0.166297       0.0134493     -0.000155983    -0.000672504        -0.859837       -0.463913
                       -0.242253          0.9563     -0.000169249    -0.000709672       -0.0879338       0.0776423     -0.000769617      0.00038381
                    -0.000339654    -0.000719231        -0.859692        -0.46363     -0.000853833     0.000365606        0.0785762        0.145765
281756                -0.0418575        -0.10955      0.000705464    -0.000247474         -0.24202        0.956643     -0.000486973     -0.00068014
                     0.000686075     -0.00031997         -0.16628       0.0135106     -0.000156211    -0.000672479        -0.860082       -0.463462
                       -0.241807         0.95641     -0.000169758    -0.000709499        -0.087904       0.0777074     -0.000769417     0.000383964
                    -0.000340061     -0.00071902        -0.859938       -0.463179     -0.000853632     0.000365781        0.0786686        0.145701
281758                -0.0419026       -0.109555      0.000705255    -0.000247956        -0.241573        0.956753     -0.000487249    -0.000679774
                     0.000685733    -0.000320357        -0.166263       0.0135718     -0.000156439    -0.000672453        -0.860327       -0.463011
                       -0.241361         0.95652     -0.000170272    -0.000709326       -0.0878742       0.0777725     -0.000769216     0.000384117
                    -0.000340467    -0.000718809        -0.860182       -0.462728     -0.000853432     0.000365956        0.0787611        0.145638
281760                -0.0419477       -0.109561      0.000705048    -0.000248436        -0.241126        0.956864     -0.000487525    -0.000679409
                      0.00068539    -0.000320744        -0.166246        0.013633     -0.000156666    -0.000672428        -0.860571        -0.46256
                       -0.240915         0.95663     -0.000170789    -0.000709151       -0.0878443       0.0778376     -0.000769014      0.00038427
                    -0.000340872    -0.000718598        -0.860427       -0.462278     -0.000853232     0.000366131        0.0788534        0.145574
281762                -0.0419929       -0.109566      0.000704843    -0.000248915         -0.24068        0.956974       -0.0004878    -0.000679043
                     0.000685047    -0.000321131        -0.166229       0.0136942     -0.000156894    -0.000672402        -0.860816       -0.462109
                       -0.240468         0.95674      -0.00017131    -0.000708976       -0.0878144       0.0779027     -0.000768812     0.000384423
