! TOUCHSTONE file generated by CST MICROWAVE STUDIO
! Date and time: Tue Oct 14 07:33:07 2025
! Project name: Teste_Macro_Metasurface_Nanopilar.cst
! Parameters = {H=600; L_x=200; L_y=145; Lambda=1064; Max_L=200; Min_L=70; PathPara=1; Phi=0; Step_L=10; Theta=0; p=520; phaseX=180; phaseY=0}
! Header version: 2018
! Port assignment regex: !\s*Touchstone port\s*([0-9]+)\s*=\s*(CST MWS port|CST DS port)\s*([0-9]+|Zmin|Zmax)\s*\(\"(.*)\"\)(\s*mode\s*([0-9]+))?.*
! Touchstone port assignment:
! Touchstone port 1 = CST MWS port Zmax ("") mode 1
! Touchstone port 2 = CST MWS port Zmax ("") mode 2
! Touchstone port 3 = CST MWS port Zmin ("") mode 1
! Touchstone port 4 = CST MWS port Zmin ("") mode 2
! S-Parameters are not renormalized. Each port impedance will be approximated by the real part at minimum frequency. The values are described via the [Reference] keyword.
! Default impedance is overridden by [Reference]
[Version] 2.0
# GHz S RI R 376.73
[Number of Ports] 4
[Reference]
376.73 376.73 259.814 259.814 
[Number of Frequencies] 51
[Network Data]
281700                 -0.156293      0.00609366      0.000710957     0.000513756         0.701418        0.685953      0.000943977    -0.000645454
                     0.000721746     0.000468731        -0.239774      -0.0911146      0.000385891     -0.00102049          0.94273        0.196551
                        0.701218        0.685857      0.000427067     -0.00100719       -0.0055251        0.157147     -0.000546777    -0.000580485
                     0.000951601    -0.000919146         0.942675        0.196747     -0.000555679    -0.000637484         0.253939      0.00992753
281702                 -0.156255      0.00616466      0.000711314     0.000513305         0.701739        0.685623      0.000944184    -0.000646234
                     0.000722276     0.000468536        -0.239817       -0.091061      0.000385468     -0.00102094         0.942805         0.19616
                        0.701539        0.685528      0.000426817     -0.00100786        -0.005456        0.157124     -0.000547272    -0.000580851
                     0.000951503    -0.000919872          0.94275        0.196356     -0.000556197    -0.000637554         0.253966        0.009783
281704                 -0.156216      0.00623572      0.000711673     0.000512855         0.702061        0.685294       0.00094439    -0.000647016
                     0.000722807     0.000468342         -0.23986      -0.0910073      0.000385044     -0.00102139         0.942881        0.195768
                         0.70186        0.685198      0.000426567     -0.00100854      -0.00538702        0.157101     -0.000547768    -0.000581218
                     0.000951405    -0.000920599         0.942825        0.195965     -0.000556716    -0.000637623         0.253993      0.00963846
281706                 -0.156178      0.00630687      0.000712033     0.000512407         0.702383        0.684964      0.000944596    -0.000647801
                     0.000723338     0.000468147        -0.239903      -0.0909537      0.000384619     -0.00102184         0.942956        0.195376
                        0.702181        0.684868      0.000426316     -0.00100922      -0.00531815        0.157078     -0.000548264    -0.000581587
                     0.000951307    -0.000921327           0.9429        0.195574     -0.000557235    -0.000637692          0.25402      0.00949389
281708                 -0.156139      0.00637809      0.000712394     0.000511959         0.702704        0.684634      0.000944801    -0.000648588
                      0.00072387     0.000467953        -0.239946         -0.0909      0.000384193     -0.00102229         0.943031        0.194984
                        0.702503        0.684538      0.000426066      -0.0010099      -0.00524941        0.157055     -0.000548761    -0.000581957
                      0.00095121    -0.000922055         0.942975        0.195183     -0.000557755    -0.000637762         0.254047       0.0093493
281710                   -0.1561      0.00644938      0.000712757     0.000511513         0.703026        0.684304      0.000945006    -0.000649378
                     0.000724402     0.000467758        -0.239989      -0.0908463      0.000383767     -0.00102274         0.943106        0.194593
                        0.702823        0.684208      0.000425815     -0.00101058      -0.00518079        0.157032      -0.00054926    -0.000582328
                     0.000951112    -0.000922784         0.943049        0.194792     -0.000558276    -0.000637831         0.254074      0.00920469
281712                 -0.156061      0.00652076      0.000713121     0.000511067         0.703347        0.683974      0.000945211    -0.000650169
                     0.000724935     0.000467564        -0.240032      -0.0907926       0.00038334     -0.00102319          0.94318        0.194201
                        0.703144        0.683877      0.000425564     -0.00101127      -0.00511229        0.157009     -0.000549759    -0.000582701
                     0.000951015    -0.000923514         0.943124        0.194401     -0.000558797      -0.0006379           0.2541      0.00906005
281714                 -0.156022       0.0065922      0.000713486     0.000510623         0.703669        0.683643      0.000945415    -0.000650964
                     0.000725468     0.000467371        -0.240075      -0.0907388      0.000382913     -0.00102364         0.943255        0.193809
                        0.703465        0.683547      0.000425313     -0.00101195      -0.00504391        0.156985     -0.000550259    -0.000583076
                     0.000950918    -0.000924245         0.943198         0.19401     -0.000559319    -0.000637969         0.254127      0.00891539
281716                 -0.155983      0.00666373      0.000713853     0.000510179          0.70399        0.683312      0.000945619     -0.00065176
                     0.000726002     0.000467177        -0.240118       -0.090685      0.000382484     -0.00102409         0.943329        0.193417
                        0.703786        0.683216      0.000425061     -0.00101264      -0.00497565        0.156962      -0.00055076    -0.000583451
                     0.000950821    -0.000924976         0.943272        0.193619     -0.000559842    -0.000638038         0.254154      0.00877071
281718                 -0.155944      0.00673533      0.000714221     0.000509737         0.704311        0.682981      0.000945822    -0.000652559
                     0.000726537     0.000466983         -0.24016      -0.0906313      0.000382055     -0.00102454         0.943403        0.193025
                        0.704106        0.682884      0.000424809     -0.00101333      -0.00490751        0.156938     -0.000551262    -0.000583829
                     0.000950724    -0.000925708         0.943346        0.193228     -0.000560365    -0.000638106          0.25418      0.00862601
281720                 -0.155904        0.006807      0.000714591     0.000509295         0.704632         0.68265      0.000946024    -0.000653361
                     0.000727072      0.00046679        -0.240203      -0.0905775      0.000381625     -0.00102499         0.943477        0.192633
                        0.704427        0.682553      0.000424557     -0.00101401       -0.0048395        0.156915     -0.000551764    -0.000584208
                     0.000950627    -0.000926441         0.943419        0.192837     -0.000560889    -0.000638175         0.254207      0.00848129
281722                 -0.155865      0.00687875      0.000714962     0.000508855         0.704953        0.682318      0.000946227    -0.000654165
                     0.000727608     0.000466597        -0.240246      -0.0905236      0.000381194     -0.00102544         0.943551        0.192241
                        0.704747        0.682221      0.000424304      -0.0010147      -0.00477161        0.156891     -0.000552268    -0.000584589
                     0.000950531    -0.000927174         0.943493        0.192446     -0.000561413    -0.000638244         0.254233      0.00833654
281724                 -0.155825      0.00695058      0.000715334     0.000508416         0.705274        0.681986      0.000946428    -0.000654972
                     0.000728145     0.000466404        -0.240289      -0.0904698      0.000380763     -0.00102589         0.943625        0.191849
                        0.705067        0.681889      0.000424052      -0.0010154      -0.00470385        0.156868     -0.000552773    -0.000584971
                     0.000950434    -0.000927908         0.943566        0.192054     -0.000561938    -0.000638313         0.254259      0.00819177
281726                 -0.155786      0.00702249      0.000715708     0.000507977         0.705595        0.681654      0.000946629     -0.00065578
                     0.000728683     0.000466212        -0.240332      -0.0904159      0.000380331     -0.00102634         0.943698        0.191457
                        0.705388        0.681557      0.000423799     -0.00101609       -0.0046362        0.156844     -0.000553278    -0.000585355
                     0.000950338    -0.000928643          0.94364        0.191663     -0.000562464    -0.000638381         0.254285      0.00804698
281728                 -0.155746      0.00709447      0.000716083      0.00050754         0.705916        0.681322      0.000946829    -0.000656592
                     0.000729221     0.000466019        -0.240375       -0.090362      0.000379898     -0.00102679         0.943772        0.191065
                        0.705708        0.681225      0.000423546     -0.00101678      -0.00456869         0.15682     -0.000553785    -0.000585741
                     0.000950242    -0.000929379         0.943713        0.191272      -0.00056299     -0.00063845         0.254311      0.00790217
281730                 -0.155706      0.00716653       0.00071646     0.000507104         0.706236        0.680989      0.000947028    -0.000657406
                     0.000729761     0.000465827        -0.240417      -0.0903081      0.000379464     -0.00102724         0.943845        0.190673
                        0.706028        0.680892      0.000423292     -0.00101748       -0.0045013        0.156796     -0.000554292    -0.000586128
                     0.000950146    -0.000930116         0.943786        0.190881     -0.000563517    -0.000638518         0.254338      0.00775733
281732                 -0.155666      0.00723867      0.000716838     0.000506668         0.706557        0.680656      0.000947227    -0.000658222
                     0.000730302     0.000465635         -0.24046      -0.0902542      0.000379029      -0.0010277         0.943918        0.190281
                        0.706348        0.680559      0.000423039     -0.00101817      -0.00443403        0.156772       -0.0005548    -0.000586518
                     0.000950051    -0.000930854         0.943858        0.190489     -0.000564044    -0.000638586         0.254363      0.00761248
281734                 -0.155625      0.00731089      0.000717218     0.000506234         0.706877        0.680323      0.000947425    -0.000659041
                     0.000730845     0.000465443        -0.240503      -0.0902003      0.000378594     -0.00102815         0.943991        0.189888
                        0.706668        0.680226      0.000422785     -0.00101887      -0.00436689        0.156748      -0.00055531    -0.000586909
                     0.000949957    -0.000931594         0.943931        0.190098     -0.000564573    -0.000638655         0.254389      0.00746761
281736                 -0.155585      0.00738319        0.0007176     0.000505801         0.707198         0.67999      0.000947623    -0.000659862
                     0.000731392     0.000465251        -0.240546      -0.0901463      0.000378158      -0.0010286         0.944063        0.189496
                        0.706987        0.679893       0.00042253     -0.00101957      -0.00429987        0.156723      -0.00055582    -0.000587302
                     0.000949864    -0.000932335         0.944003        0.189707     -0.000565101    -0.000638723         0.254415      0.00732271
281738                 -0.155545      0.00745557      0.000717983     0.000505369         0.707518        0.679657      0.000947819    -0.000660686
                     0.000731948      0.00046506        -0.240589      -0.0900923      0.000377721     -0.00102905         0.944136        0.189104
                        0.707307        0.679559      0.000422276     -0.00102026      -0.00423298        0.156699     -0.000556331    -0.000587698
                     0.000949774     -0.00093308         0.944075        0.189316     -0.000565631    -0.000638791         0.254441      0.00717779
281740                 -0.155504      0.00752803      0.000718368     0.000504937         0.707838        0.679323      0.000948015    -0.000661512
                     0.000732551     0.000464871        -0.240631      -0.0900383      0.000377284     -0.00102951         0.944208        0.188712
                        0.707627        0.679225      0.000422021     -0.00102096      -0.00416622        0.156675     -0.000556844    -0.000588095
                     0.000949705    -0.000933843         0.944148        0.188924     -0.000566161    -0.000638859         0.254466      0.00703285
281742                 -0.155463      0.00760056      0.000718754     0.000504507         0.708158        0.678989      0.000948211    -0.000662341
                     0.000732714     0.000464703        -0.240674      -0.0899843      0.000376845     -0.00102996          0.94428        0.188319
                        0.707946        0.678891      0.000421766     -0.00102167      -0.00409959         0.15665     -0.000557357    -0.000588495
                     0.000949483    -0.000934435         0.944219        0.188533     -0.000566691    -0.000638927         0.254492      0.00688789
281744                 -0.155422      0.00767317      0.000719142     0.000504078         0.708478        0.678655      0.000948405    -0.000663172
                     0.000733466     0.000464488        -0.240717      -0.0899302      0.000376406     -0.00103041         0.944352        0.187927
                        0.708265        0.678557      0.000421511     -0.00102237      -0.00403308        0.156626     -0.000557872    -0.000588897
                     0.000949449    -0.000935261         0.944291        0.188141     -0.000567223    -0.000638995         0.254517      0.00674291
281746                 -0.155381      0.00774586      0.000719531      0.00050365         0.708798         0.67832      0.000948599    -0.000664006
                     0.000734035     0.000464297         -0.24076      -0.0898762      0.000375966     -0.00103087         0.944424        0.187535
                        0.708585        0.678223      0.000421255     -0.00102307       -0.0039667        0.156601     -0.000558388    -0.000589301
                     0.000949362    -0.000936014         0.944363         0.18775     -0.000567755    -0.000639063         0.254543       0.0065979
281748                  -0.15534      0.00781862      0.000719922     0.000503223         0.709118        0.677986      0.000948792    -0.000664843
                     0.000734588     0.000464106        -0.240802      -0.0898221      0.000375525     -0.00103132         0.944495        0.187142
                        0.708904        0.677888      0.000420999     -0.00102378      -0.00390045        0.156577     -0.000558906    -0.000589708
                     0.000949271     -0.00093676         0.944434        0.187358     -0.000568287     -0.00063913         0.254568      0.00645288
281750                 -0.155299      0.00789147      0.000720315     0.000502797         0.709438        0.677651      0.000948984    -0.000665682
                     0.000735137     0.000463916        -0.240845       -0.089768      0.000375083     -0.00103177         0.944567         0.18675
                        0.709223        0.677553      0.000420743     -0.00102448      -0.00383433        0.156552     -0.000559425    -0.000590116
                     0.000949178    -0.000937506         0.944506        0.186967     -0.000568821    -0.000639198         0.254593      0.00630783
281752                 -0.155258      0.00796439       0.00072071     0.000502371         0.709757        0.677316      0.000949176    -0.000666524
                     0.000735685     0.000463726        -0.240888      -0.0897139      0.000374641     -0.00103223         0.944638        0.186358
                        0.709542        0.677218      0.000420487     -0.00102519      -0.00376833        0.156527     -0.000559947    -0.000590526
                     0.000949084    -0.000938252         0.944577        0.186575     -0.000569354    -0.000639266         0.254618      0.00616277
281754                 -0.155216      0.00803739      0.000721106     0.000501947         0.710077         0.67698      0.000949367    -0.000667368
                     0.000736232     0.000463536         -0.24093      -0.0896597      0.000374198     -0.00103268         0.944709        0.185965
                        0.709861        0.676882       0.00042023     -0.00102589      -0.00370247        0.156502      -0.00056047    -0.000590936
                      0.00094899    -0.000938998         0.944648        0.186184     -0.000569889    -0.000639333         0.254643      0.00601768
281756                 -0.155175      0.00811048      0.000721504     0.000501524         0.710396        0.676645      0.000949557    -0.000668216
                     0.000736779     0.000463347        -0.240973      -0.0896056      0.000373754     -0.00103314          0.94478        0.185573
                         0.71018        0.676546      0.000419973      -0.0010266      -0.00363674        0.156477     -0.000560993    -0.000591347
                     0.000948896    -0.000939744         0.944718        0.185792     -0.000570424    -0.000639401         0.254668      0.00587257
281758                 -0.155133      0.00818364      0.000721904     0.000501102         0.710716        0.676309      0.000949746    -0.000669066
                     0.000737327     0.000463157        -0.241016      -0.0895514      0.000373309     -0.00103359         0.944851         0.18518
                        0.710499         0.67621      0.000419716     -0.00102731      -0.00357113        0.156452     -0.000561514     -0.00059176
                     0.000948802    -0.000940491         0.944789        0.185401      -0.00057096    -0.000639468         0.254693      0.00572744
281760                 -0.155091      0.00825689      0.000722305     0.000500681         0.711035        0.675973      0.000949934    -0.000669919
                     0.000737874     0.000462968        -0.241058      -0.0894972      0.000372863     -0.00103405         0.944922        0.184788
                        0.710817        0.675874      0.000419458     -0.00102802      -0.00350566        0.156427     -0.000562034    -0.000592177
                     0.000948708    -0.000941239         0.944859        0.185009     -0.000571497    -0.000639535         0.254718      0.00558229
281762                 -0.155049      0.00833021      0.000722709     0.000500261         0.711354        0.675637      0.000950122    -0.000670775
                     0.000738422     0.000462779        -0.241101      -0.0894429      0.000372417      -0.0010345         0.944992        0.184395
                        0.711136        0.675538        0.0004192     -0.00102873      -0.00344032        0.156402     -0.000562555    -0.000592598
