! TOUCHSTONE file generated by CST MICROWAVE STUDIO
! Date and time: Tue Oct 14 07:28:58 2025
! Project name: Teste_Macro_Metasurface_Nanopilar.cst
! Parameters = {H=600; L_x=135; L_y=125; Lambda=1064; Max_L=200; Min_L=70; PathPara=1; Phi=0; Step_L=10; Theta=0; p=520; phaseX=180; phaseY=0}
! Header version: 2018
! Port assignment regex: !\s*Touchstone port\s*([0-9]+)\s*=\s*(CST MWS port|CST DS port)\s*([0-9]+|Zmin|Zmax)\s*\(\"(.*)\"\)(\s*mode\s*([0-9]+))?.*
! Touchstone port assignment:
! Touchstone port 1 = CST MWS port Zmax ("") mode 1
! Touchstone port 2 = CST MWS port Zmax ("") mode 2
! Touchstone port 3 = CST MWS port Zmin ("") mode 1
! Touchstone port 4 = CST MWS port Zmin ("") mode 2
! S-Parameters are not renormalized. Each port impedance will be approximated by the real part at minimum frequency. The values are described via the [Reference] keyword.
! Default impedance is overridden by [Reference]
[Version] 2.0
# GHz S RI R 376.73
[Number of Ports] 4
[Reference]
376.73 376.73 259.814 259.814 
[Number of Frequencies] 51
[Network Data]
281700                -0.0389381       -0.060448     -0.000129862     0.000453802          -0.5016        0.854018     -0.000471719    -0.000303779
                    -1.35248e-05     0.000344438       -0.0642648       -0.115373     -0.000501679      4.7687e-05        -0.120448         0.97831
                       -0.501541        0.854001     -0.000469545     2.03986e-06       -0.0709872      -0.0024888      0.000212065    -0.000374375
                    -0.000451022    -0.000247585        -0.120351        0.978153      0.000105715    -0.000463382       -0.0891237       0.0970134
281702                -0.0389621      -0.0604594     -0.000129614     0.000453937        -0.501189        0.854259     -0.000472002    -0.000303382
                    -1.32245e-05     0.000344389        -0.064309       -0.115371     -0.000501733     4.79617e-05        -0.120001        0.978363
                       -0.501129        0.854242     -0.000469342     2.25929e-06       -0.0710118     -0.00243571      0.000212299    -0.000374388
                    -0.000451127    -0.000247438        -0.119903        0.978206      0.000105574    -0.000463312       -0.0890775       0.0970819
281704                -0.0389861      -0.0604707     -0.000129364     0.000454073        -0.500777        0.854499     -0.000472284    -0.000302981
                    -1.29244e-05     0.000344341       -0.0643532       -0.115368     -0.000501785     4.82368e-05        -0.119553        0.978415
                       -0.500717        0.854483     -0.000469138     2.47565e-06       -0.0710364     -0.00238258      0.000212533    -0.000374405
                    -0.000451231     -0.00024729        -0.119456        0.978258      0.000105433    -0.000463243       -0.0890312       0.0971504
281706                -0.0390102       -0.060482     -0.000129114     0.000454211        -0.500364        0.854739     -0.000472566    -0.000302578
                    -1.26245e-05     0.000344292       -0.0643973       -0.115366     -0.000501834     4.85124e-05        -0.119106        0.978467
                       -0.500304        0.854723     -0.000468932     2.68886e-06       -0.0710609     -0.00232943      0.000212768    -0.000374426
                    -0.000451334    -0.000247142        -0.119009         0.97831       0.00010529    -0.000463175       -0.0889849       0.0972188
281708                -0.0390343      -0.0604933     -0.000128863     0.000454351        -0.499952        0.854979     -0.000472847    -0.000302171
                     -1.2325e-05     0.000344244       -0.0644415       -0.115363     -0.000501882     4.87883e-05        -0.118659        0.978519
                       -0.499892        0.854963     -0.000468725     2.89886e-06       -0.0710854     -0.00227625      0.000213004    -0.000374451
                    -0.000451436    -0.000246994        -0.118562        0.978361      0.000105146    -0.000463107       -0.0889385       0.0972872
281710                -0.0390583      -0.0605046      -0.00012861     0.000454493         -0.49954        0.855218     -0.000473127    -0.000301761
                    -1.20262e-05     0.000344196       -0.0644857       -0.115361     -0.000501929     4.90645e-05        -0.118211        0.978571
                       -0.499479        0.855203     -0.000468515     3.10556e-06       -0.0711098     -0.00222304       0.00021324    -0.000374481
                    -0.000451537    -0.000246847        -0.118115        0.978413      0.000105002    -0.000463039       -0.0888921       0.0973556
281712                -0.0390824      -0.0605159     -0.000128356     0.000454636        -0.499127        0.855458     -0.000473407    -0.000301347
                    -1.17279e-05     0.000344148       -0.0645298       -0.115358     -0.000501973     4.93411e-05        -0.117764        0.978623
                       -0.499067        0.855442     -0.000468304     3.30895e-06       -0.0711342      -0.0021698      0.000213477    -0.000374516
                    -0.000451637    -0.000246699        -0.117668        0.978464      0.000104857    -0.000462973       -0.0888456        0.097424
281714                -0.0391065      -0.0605271     -0.000128101     0.000454782        -0.498715        0.855697     -0.000473686    -0.000300931
                    -1.14304e-05       0.0003441        -0.064574       -0.115356     -0.000502016      4.9618e-05        -0.117316        0.978674
                       -0.498654        0.855682     -0.000468091     3.50902e-06       -0.0711586     -0.00211654      0.000213714    -0.000374554
                    -0.000451737    -0.000246551        -0.117221        0.978515      0.000104711    -0.000462907       -0.0887991       0.0974924
281716                -0.0391306      -0.0605384     -0.000127844     0.000454929        -0.498302        0.855936     -0.000473964    -0.000300511
                    -1.11336e-05     0.000344051       -0.0646182       -0.115353     -0.000502057     4.98951e-05        -0.116869        0.978725
                       -0.498241        0.855921     -0.000467877     3.70576e-06       -0.0711829     -0.00206324      0.000213952    -0.000374598
                    -0.000451835    -0.000246404        -0.116773        0.978566      0.000104564    -0.000462841       -0.0887525       0.0975607
281718                -0.0391548      -0.0605496     -0.000127586     0.000455078        -0.497889        0.856175     -0.000474241    -0.000300089
                    -1.08376e-05     0.000344002       -0.0646624       -0.115351     -0.000502097     5.01725e-05        -0.116421        0.978776
                       -0.497828         0.85616     -0.000467661     3.89918e-06       -0.0712072     -0.00200992       0.00021419    -0.000374646
                    -0.000451933    -0.000246256        -0.116326        0.978617      0.000104417    -0.000462776       -0.0887058        0.097629
281720                -0.0391789      -0.0605609     -0.000127327     0.000455229        -0.497477        0.856414     -0.000474517    -0.000299663
                    -1.05422e-05     0.000343953       -0.0647065       -0.115348     -0.000502135     5.04502e-05        -0.115974        0.978826
                       -0.497415        0.856399     -0.000467443     4.08924e-06       -0.0712314     -0.00195657      0.000214428    -0.000374699
                    -0.000452029    -0.000246109        -0.115879        0.978667      0.000104268    -0.000462711       -0.0886591       0.0976973
281722                -0.0392031      -0.0605721     -0.000127065     0.000455381        -0.497064        0.856652     -0.000474792    -0.000299234
                    -1.02475e-05     0.000343903       -0.0647507       -0.115346     -0.000502172      5.0728e-05        -0.115526        0.978877
                       -0.497002        0.856638     -0.000467224     4.27587e-06       -0.0712556     -0.00190319      0.000214666    -0.000374756
                    -0.000452125    -0.000245961        -0.115432        0.978718      0.000104119    -0.000462648       -0.0886124       0.0977656
281724                -0.0392272      -0.0605833     -0.000126802     0.000455536         -0.49665         0.85689     -0.000475066    -0.000298801
                    -9.95352e-06     0.000343852       -0.0647949       -0.115343     -0.000502207     5.10061e-05        -0.115078        0.978927
                       -0.496589        0.856876     -0.000467004     4.45897e-06       -0.0712798     -0.00184978      0.000214904    -0.000374819
                    -0.000452219    -0.000245813        -0.114985        0.978768       0.00010397    -0.000462584       -0.0885655       0.0978338
281726                -0.0392514      -0.0605945     -0.000126537     0.000455693        -0.496237        0.857128     -0.000475338    -0.000298366
                    -9.66012e-06     0.000343801       -0.0648391        -0.11534     -0.000502241     5.12843e-05        -0.114631        0.978977
                       -0.496175        0.857114     -0.000466782     4.63841e-06       -0.0713039     -0.00179634      0.000215142    -0.000374886
                    -0.000452313    -0.000245666        -0.114537        0.978818       0.00010382    -0.000462521       -0.0885187       0.0979021
281728                -0.0392756      -0.0606057     -0.000126271     0.000455851        -0.495824        0.857366      -0.00047561    -0.000297928
                    -9.36732e-06      0.00034375       -0.0648833       -0.115338     -0.000502273     5.15627e-05        -0.114183        0.979027
                       -0.495762        0.857353     -0.000466559     4.81405e-06        -0.071328     -0.00174288       0.00021538    -0.000374958
                    -0.000452406    -0.000245518         -0.11409        0.978867      0.000103669    -0.000462459       -0.0884718       0.0979703
281730                -0.0392998      -0.0606169     -0.000126002     0.000456012         -0.49541        0.857604      -0.00047588    -0.000297486
                     -9.0751e-06     0.000343698       -0.0649275       -0.115335     -0.000502305     5.18413e-05        -0.113736        0.979076
                       -0.495348         0.85759     -0.000466336     4.98577e-06        -0.071352     -0.00168939      0.000215618    -0.000375035
                    -0.000452497     -0.00024537        -0.113643        0.978917      0.000103517    -0.000462397       -0.0884248       0.0980385
281732                 -0.039324      -0.0606281     -0.000125732     0.000456174        -0.494997        0.857841     -0.000476148    -0.000297041
                    -8.78343e-06     0.000343645       -0.0649717       -0.115333     -0.000502334       5.212e-05        -0.113288        0.979126
                       -0.494934        0.857828     -0.000466111     5.15344e-06        -0.071376     -0.00163587      0.000215855    -0.000375117
                    -0.000452588    -0.000245222        -0.113196        0.978966      0.000103365    -0.000462335       -0.0883778       0.0981066
281734                -0.0393483      -0.0606393     -0.000125459     0.000456338        -0.494583        0.858078     -0.000476415    -0.000296593
                    -8.49231e-06     0.000343591       -0.0650159        -0.11533     -0.000502363     5.23988e-05         -0.11284        0.979175
                       -0.494521        0.858065     -0.000465885     5.31694e-06       -0.0713999     -0.00158232      0.000216092    -0.000375205
                    -0.000452678    -0.000245074        -0.112749        0.979015      0.000103213    -0.000462274       -0.0883307       0.0981748
281736                -0.0393725      -0.0606504     -0.000125184     0.000456505        -0.494169        0.858315      -0.00047668    -0.000296143
                    -8.20171e-06     0.000343537       -0.0650601       -0.115327      -0.00050239     5.26778e-05        -0.112392        0.979224
                       -0.494107        0.858303     -0.000465659     5.47617e-06       -0.0714238     -0.00152875      0.000216328    -0.000375297
                    -0.000452766    -0.000244926        -0.112301        0.979064       0.00010306    -0.000462214       -0.0882835       0.0982429
281738                -0.0393968      -0.0606616     -0.000124907     0.000456673        -0.493756        0.858552     -0.000476943    -0.000295689
                    -7.91163e-06     0.000343483       -0.0651043       -0.115325     -0.000502416     5.29569e-05        -0.111945        0.979272
                       -0.493693         0.85854     -0.000465431     5.63103e-06       -0.0714477     -0.00147515      0.000216563    -0.000375395
                    -0.000452854    -0.000244778        -0.111854        0.979112      0.000102906    -0.000462154       -0.0882363        0.098311
281740                 -0.039421      -0.0606727     -0.000124627     0.000456843        -0.493342        0.858789     -0.000477204    -0.000295232
                    -7.62206e-06     0.000343428       -0.0651485       -0.115322     -0.000502441      5.3236e-05        -0.111497        0.979321
                       -0.493279        0.858777     -0.000465203     5.78143e-06       -0.0714715     -0.00142152      0.000216798    -0.000375499
                    -0.000452941     -0.00024463        -0.111407        0.979161      0.000102752    -0.000462094       -0.0881891       0.0983791
281742                -0.0394453      -0.0606838     -0.000124345     0.000457015        -0.492927        0.859025     -0.000477463    -0.000294772
                      -7.333e-06     0.000343372       -0.0651928       -0.115319     -0.000502465     5.35153e-05        -0.111049        0.979369
                       -0.492865        0.859013     -0.000464974     5.92726e-06       -0.0714953     -0.00136786      0.000217031    -0.000375607
                    -0.000453026    -0.000244482        -0.110959        0.979209      0.000102597    -0.000462035       -0.0881418       0.0984471
281744                -0.0394696       -0.060695     -0.000124061     0.000457189        -0.492513        0.859261      -0.00047772     -0.00029431
                    -7.04445e-06     0.000343316        -0.065237       -0.115316     -0.000502488     5.37947e-05        -0.110602        0.979417
                        -0.49245         0.85925     -0.000464745     6.06845e-06        -0.071519     -0.00131417      0.000217264    -0.000375722
                    -0.000453111    -0.000244334        -0.110512        0.979257      0.000102442    -0.000461976       -0.0880945       0.0985152
281746                -0.0394939      -0.0607061     -0.000123774     0.000457365        -0.492099        0.859497     -0.000477974    -0.000293845
                     -6.7564e-06     0.000343259       -0.0652812       -0.115314      -0.00050251     5.40741e-05        -0.110154        0.979465
                       -0.492036        0.859486     -0.000464515      6.2049e-06       -0.0715427     -0.00126046      0.000217495    -0.000375842
                    -0.000453194    -0.000244186        -0.110065        0.979305      0.000102287    -0.000461917       -0.0880471       0.0985832
281748                -0.0395182      -0.0607172     -0.000123484     0.000457543        -0.491684        0.859733     -0.000478225    -0.000293378
                    -6.46886e-06     0.000343201       -0.0653254       -0.115311      -0.00050253     5.43537e-05        -0.109706        0.979513
                       -0.491621        0.859722     -0.000464284     6.33652e-06       -0.0715663     -0.00120672      0.000217725    -0.000375969
                    -0.000453277    -0.000244037        -0.109617        0.979352      0.000102131    -0.000461859       -0.0879996       0.0986512
281750                -0.0395425      -0.0607282     -0.000123192     0.000457722         -0.49127        0.859968     -0.000478474     -0.00029291
                    -6.18183e-06     0.000343143       -0.0653697       -0.115308      -0.00050255     5.46333e-05        -0.109258         0.97956
                       -0.491207        0.859958     -0.000464054     6.46323e-06       -0.0715899     -0.00115295      0.000217953    -0.000376102
                    -0.000453358    -0.000243889         -0.10917          0.9794      0.000101974    -0.000461802       -0.0879521       0.0987192
281752                -0.0395669      -0.0607393     -0.000122897     0.000457904        -0.490855        0.860204      -0.00047872    -0.000292443
                    -5.89532e-06     0.000343084       -0.0654139       -0.115305     -0.000502568     5.49129e-05         -0.10881        0.979608
                       -0.490792        0.860193     -0.000463822     6.58494e-06       -0.0716135     -0.00109916      0.000218181    -0.000376244
                    -0.000453439     -0.00024374        -0.108723        0.979447      0.000101818    -0.000461744       -0.0879045       0.0987871
281754                -0.0395912      -0.0607504     -0.000122598     0.000458087        -0.490441        0.860439     -0.000478966    -0.000291976
                    -5.60933e-06     0.000343025       -0.0654581       -0.115303     -0.000502586     5.51927e-05        -0.108362        0.979655
                       -0.490377        0.860429     -0.000463591     6.70156e-06        -0.071637     -0.00104534      0.000218409    -0.000376395
                    -0.000453518    -0.000243591        -0.108275        0.979494       0.00010166    -0.000461688       -0.0878569       0.0988551
281756                -0.0396156      -0.0607614     -0.000122297     0.000458273        -0.490026        0.860674     -0.000479217    -0.000291509
                    -5.32387e-06     0.000342966       -0.0655024         -0.1153     -0.000502602     5.54725e-05        -0.107914        0.979701
                       -0.489963        0.860664      -0.00046336     6.81301e-06       -0.0716605    -0.000991489      0.000218642    -0.000376557
                    -0.000453596    -0.000243442        -0.107828        0.979541      0.000101503    -0.000461631       -0.0878092        0.098923
281758                  -0.03964      -0.0607725     -0.000121993      0.00045846        -0.489611        0.860909     -0.000479471    -0.000291036
                    -5.03895e-06     0.000342906       -0.0655466       -0.115297     -0.000502618     5.57523e-05        -0.107467        0.979748
                       -0.489548        0.860899     -0.000463128      6.9192e-06       -0.0716839    -0.000937614      0.000218894    -0.000376726
                    -0.000453673    -0.000243293        -0.107381        0.979587      0.000101345    -0.000461575       -0.0877615       0.0989909
281760                -0.0396643      -0.0607835     -0.000121685     0.000458648        -0.489196        0.861143     -0.000479725    -0.000290552
                    -4.75458e-06     0.000342845       -0.0655909       -0.115294     -0.000502632     5.60322e-05        -0.107019        0.979794
                       -0.489133        0.861134     -0.000462897     7.02005e-06       -0.0717073    -0.000883711      0.000219161    -0.000376867
                     -0.00045375    -0.000243144        -0.106933        0.979634      0.000101187    -0.000461519       -0.0877137       0.0990588
281762                -0.0396887      -0.0607945     -0.000121374     0.000458839         -0.48878        0.861377     -0.000479973    -0.000290062
                    -4.47077e-06     0.000342784       -0.0656351       -0.115291     -0.000502646     5.63122e-05        -0.106571         0.97984
                       -0.488717        0.861368     -0.000462666     7.11548e-06       -0.0717307    -0.000829782      0.000219393    -0.000376984
