! TOUCHSTONE file generated by CST MICROWAVE STUDIO
! Date and time: Tue Oct 14 07:27:07 2025
! Project name: Teste_Macro_Metasurface_Nanopilar.cst
! Parameters = {H=600; L_x=105; L_y=140; Lambda=1064; Max_L=200; Min_L=70; PathPara=1; Phi=0; Step_L=10; Theta=0; p=520; phaseX=180; phaseY=0}
! Header version: 2018
! Port assignment regex: !\s*Touchstone port\s*([0-9]+)\s*=\s*(CST MWS port|CST DS port)\s*([0-9]+|Zmin|Zmax)\s*\(\"(.*)\"\)(\s*mode\s*([0-9]+))?.*
! Touchstone port assignment:
! Touchstone port 1 = CST MWS port Zmax ("") mode 1
! Touchstone port 2 = CST MWS port Zmax ("") mode 2
! Touchstone port 3 = CST MWS port Zmin ("") mode 1
! Touchstone port 4 = CST MWS port Zmin ("") mode 2
! S-Parameters are not renormalized. Each port impedance will be approximated by the real part at minimum frequency. The values are described via the [Reference] keyword.
! Default impedance is overridden by [Reference]
[Version] 2.0
# GHz S RI R 376.73
[Number of Ports] 4
[Reference]
376.73 376.73 259.814 259.814 
[Number of Frequencies] 51
[Network Data]
281700                -0.0152146       -0.093335      0.000349923      -0.0012329        -0.415149          0.8972     -0.000195353     0.000647176
                     0.000386421     -0.00106806        -0.155634       -0.084485      7.69463e-05     0.000459124        -0.366559       -0.905748
                       -0.415285         0.89728     -1.66036e-05     0.000579575       -0.0803541       0.0507255     -0.000306039     -0.00124374
                    -0.000153191     0.000714136        -0.366837       -0.905766     -0.000260406     -0.00121046       -0.0520222        0.168472
281702                -0.0152556      -0.0933537      0.000349219     -0.00123302        -0.414719        0.897397     -0.000194922     0.000647581
                     0.000385867     -0.00106831        -0.155673       -0.084431      7.71985e-05     0.000459006        -0.367006       -0.905564
                       -0.414855        0.897477      -1.6162e-05     0.000579488        -0.080347       0.0507831     -0.000306603       -0.001244
                    -0.000152787     0.000714345        -0.367284       -0.905583     -0.000261087     -0.00121035       -0.0519216        0.168512
281704                -0.0152965      -0.0933724      0.000348515     -0.00123314        -0.414289        0.897593     -0.000194489     0.000647987
                     0.000385312     -0.00106855        -0.155713      -0.0843769      7.74505e-05     0.000458888        -0.367454       -0.905381
                       -0.414425        0.897674     -1.57207e-05       0.0005794       -0.0803398       0.0508407     -0.000307167     -0.00124425
                    -0.000152384     0.000714554        -0.367731       -0.905399     -0.000261769     -0.00121025       -0.0518209        0.168552
281706                -0.0153375      -0.0933911      0.000347811     -0.00123326        -0.413859        0.897789     -0.000194056     0.000648393
                     0.000384757      -0.0010688        -0.155752      -0.0843227      7.77023e-05     0.000458769        -0.367901       -0.905197
                       -0.413994         0.89787     -1.52797e-05     0.000579312       -0.0803326       0.0508984      -0.00030773      -0.0012445
                     -0.00015198     0.000714763        -0.368178       -0.905216      -0.00026245     -0.00121014       -0.0517203        0.168592
281708                -0.0153785      -0.0934097      0.000347107     -0.00123338        -0.413429        0.897985     -0.000193622     0.000648799
                     0.000384202     -0.00106904        -0.155792      -0.0842686      7.79538e-05     0.000458649        -0.368348       -0.905013
                       -0.413564        0.898066     -1.48388e-05     0.000579224       -0.0803254        0.050956     -0.000308293     -0.00124476
                    -0.000151576     0.000714971        -0.368625       -0.905032     -0.000263132     -0.00121003       -0.0516196        0.168632
281710                -0.0154196      -0.0934284      0.000346403      -0.0012335        -0.412999        0.898181     -0.000193187     0.000649205
                     0.000383647     -0.00106928        -0.155831      -0.0842144      7.82047e-05     0.000458529        -0.368796       -0.904828
                       -0.413134        0.898262     -1.43982e-05     0.000579136       -0.0803181       0.0510136     -0.000308856     -0.00124501
                    -0.000151171     0.000715178        -0.369072       -0.904848     -0.000263814     -0.00120993       -0.0515188        0.168673
281712                -0.0154606       -0.093447      0.000345699     -0.00123362        -0.412568        0.898376     -0.000192751     0.000649612
                     0.000383092     -0.00106953        -0.155871      -0.0841603      7.84552e-05     0.000458408        -0.369243       -0.904643
                       -0.412703        0.898458     -1.39577e-05     0.000579047       -0.0803108       0.0510713     -0.000309418     -0.00124526
                    -0.000150767     0.000715385        -0.369519       -0.904663     -0.000264496     -0.00120982       -0.0514181        0.168713
281714                -0.0155016      -0.0934655      0.000344994     -0.00123374        -0.412138        0.898572     -0.000192315     0.000650018
                     0.000382536     -0.00106977         -0.15591       -0.084106      7.87049e-05     0.000458285         -0.36969       -0.904459
                       -0.412273        0.898653     -1.35175e-05     0.000578958       -0.0803034        0.051129     -0.000309981     -0.00124551
                    -0.000150363     0.000715592        -0.369966       -0.904479     -0.000265178      -0.0012097       -0.0513173        0.168752
281716                -0.0155427      -0.0934841       0.00034429     -0.00123386        -0.411707        0.898767     -0.000191878     0.000650425
                     0.000381981     -0.00107001         -0.15595      -0.0840518       7.8954e-05     0.000458163        -0.370137       -0.904274
                       -0.411842        0.898849     -1.30776e-05     0.000578868        -0.080296       0.0511867     -0.000310543     -0.00124577
                    -0.000149959     0.000715798        -0.370413       -0.904294      -0.00026586     -0.00120959       -0.0512164        0.168792
281718                -0.0155838      -0.0935026      0.000343585     -0.00123398        -0.411277        0.898961     -0.000191439     0.000650831
                     0.000381425     -0.00107026        -0.155989      -0.0839976      7.92023e-05      0.00045804        -0.370584       -0.904088
                       -0.411411        0.899044     -1.26378e-05     0.000578778       -0.0802886       0.0512443     -0.000311104     -0.00124602
                    -0.000149554     0.000716004        -0.370859       -0.904109     -0.000266542     -0.00120948       -0.0511156        0.168832
281720                -0.0156248      -0.0935212      0.000342881     -0.00123409        -0.410846        0.899156        -0.000191     0.000651238
                      0.00038087      -0.0010705        -0.156029      -0.0839433      7.94498e-05     0.000457916         -0.37103       -0.903903
                       -0.410981        0.899239     -1.21983e-05     0.000578688       -0.0802811        0.051302     -0.000311665     -0.00124627
                     -0.00014915     0.000716209        -0.371306       -0.903923     -0.000267224     -0.00120936       -0.0510147        0.168872
281722                -0.0156659      -0.0935397      0.000342176     -0.00123421        -0.410415        0.899351     -0.000190561     0.000651645
                     0.000380314     -0.00107074        -0.156068       -0.083889      7.96965e-05     0.000457792        -0.371477       -0.903717
                        -0.41055        0.899433     -1.17589e-05     0.000578597       -0.0802735       0.0513597     -0.000312226     -0.00124652
                    -0.000148746     0.000716414        -0.371752       -0.903738     -0.000267905     -0.00120925       -0.0509137        0.168912
281724                 -0.015707      -0.0935582      0.000341471     -0.00123433        -0.409984        0.899545      -0.00019012     0.000652052
                     0.000379759     -0.00107098        -0.156108      -0.0838347      7.99425e-05     0.000457668        -0.371924       -0.903531
                       -0.410119        0.899628     -1.13198e-05     0.000578506        -0.080266       0.0514175     -0.000312786     -0.00124677
                    -0.000148342     0.000716619        -0.372199       -0.903552     -0.000268586     -0.00120913       -0.0508128        0.168951
281726                -0.0157482      -0.0935766      0.000340766     -0.00123444        -0.409553        0.899739     -0.000189679     0.000652459
                     0.000379203     -0.00107122        -0.156147      -0.0837804      8.01878e-05     0.000457544         -0.37237       -0.903345
                       -0.409688        0.899822     -1.08809e-05     0.000578415       -0.0802583       0.0514752     -0.000313346     -0.00124703
                    -0.000147938     0.000716823        -0.372645       -0.903366     -0.000269267     -0.00120901       -0.0507118        0.168991
281728                -0.0157893      -0.0935951      0.000340061     -0.00123456        -0.409122        0.899933     -0.000189237     0.000652866
                     0.000378647     -0.00107146        -0.156186       -0.083726      8.04325e-05      0.00045742        -0.372817       -0.903158
                       -0.409257        0.900016     -1.04423e-05     0.000578323       -0.0802507       0.0515329     -0.000313906     -0.00124728
                    -0.000147534     0.000717027        -0.373091        -0.90318     -0.000269948     -0.00120889       -0.0506108         0.16903
281730                -0.0158304      -0.0936135      0.000339356     -0.00123467        -0.408691        0.900126     -0.000188795     0.000653273
                     0.000378092      -0.0010717        -0.156225      -0.0836716      8.06766e-05     0.000457296        -0.373263       -0.902972
                       -0.408825         0.90021     -1.00038e-05     0.000578231        -0.080243       0.0515906     -0.000314465     -0.00124753
                    -0.000147129     0.000717231        -0.373537       -0.902994     -0.000270628     -0.00120877       -0.0505097         0.16907
281732                -0.0158716      -0.0936319      0.000338651     -0.00123479         -0.40826         0.90032     -0.000188351      0.00065368
                     0.000377536     -0.00107194        -0.156265      -0.0836172      8.09201e-05     0.000457171        -0.373709       -0.902785
                       -0.408394        0.900404     -9.56557e-06     0.000578139       -0.0802352       0.0516484     -0.000315023     -0.00124778
                    -0.000146725     0.000717434        -0.373983       -0.902807     -0.000271308     -0.00120865       -0.0504086        0.169109
281734                -0.0159128      -0.0936503      0.000337946      -0.0012349        -0.407828        0.900513     -0.000187907     0.000654087
                      0.00037698     -0.00107218        -0.156304      -0.0835628      8.11632e-05     0.000457047        -0.374156       -0.902598
                       -0.407963        0.900597     -9.12755e-06     0.000578047       -0.0802274       0.0517061     -0.000315581     -0.00124803
                    -0.000146321     0.000717638        -0.374429        -0.90262     -0.000271987     -0.00120853       -0.0503075        0.169148
281736                 -0.015954      -0.0936687       0.00033724     -0.00123502        -0.407397        0.900706     -0.000187463     0.000654494
                     0.000376425     -0.00107242        -0.156343      -0.0835084      8.14058e-05     0.000456923        -0.374602        -0.90241
                       -0.407531         0.90079     -8.68974e-06     0.000577954       -0.0802196       0.0517639     -0.000316139     -0.00124828
                    -0.000145917      0.00071784        -0.374875       -0.902433     -0.000272666      -0.0012084       -0.0502063        0.169188
281738                -0.0159952       -0.093687      0.000336535     -0.00123513        -0.406965        0.900898     -0.000187017     0.000654901
                     0.000375869     -0.00107265        -0.156382      -0.0834539      8.16481e-05     0.000456799        -0.375048       -0.902223
                         -0.4071        0.900983     -8.25215e-06      0.00057786       -0.0802117       0.0518217     -0.000316695     -0.00124853
                    -0.000145512     0.000718043        -0.375321       -0.902246     -0.000273344     -0.00120828       -0.0501051        0.169227
281740                -0.0160364      -0.0937053      0.000335829     -0.00123524        -0.406534        0.901091     -0.000186571     0.000655308
                     0.000375313     -0.00107289        -0.156422      -0.0833995        8.189e-05     0.000456675        -0.375494       -0.902035
                       -0.406668        0.901176     -7.81477e-06     0.000577767       -0.0802038       0.0518795     -0.000317252     -0.00124878
                    -0.000145108     0.000718245        -0.375766       -0.902058     -0.000274021     -0.00120815       -0.0500039        0.169266
281742                -0.0160776      -0.0937236      0.000335123     -0.00123535        -0.406102        0.901283     -0.000186124     0.000655715
                     0.000374757     -0.00107313        -0.156461       -0.083345      8.21317e-05     0.000456551        -0.375939       -0.901847
                       -0.406236        0.901369     -7.37761e-06     0.000577673       -0.0801958       0.0519372     -0.000317808     -0.00124904
                    -0.000144704     0.000718446        -0.376212       -0.901871     -0.000274698     -0.00120802       -0.0499027        0.169305
281744                -0.0161188      -0.0937419      0.000334417     -0.00123547         -0.40567        0.901475     -0.000185677     0.000656122
                     0.000374201     -0.00107336          -0.1565      -0.0832904       8.2373e-05     0.000456427        -0.376385       -0.901659
                       -0.405805        0.901561     -6.94066e-06     0.000577578       -0.0801878        0.051995     -0.000318363     -0.00124929
                    -0.000144299     0.000718648        -0.376657       -0.901683     -0.000275374      -0.0012079       -0.0498014        0.169344
281746                -0.0161601      -0.0937602      0.000333711     -0.00123558        -0.405238        0.901667     -0.000185229     0.000656529
                     0.000373646      -0.0010736        -0.156539      -0.0832359      8.26142e-05     0.000456302        -0.376831        -0.90147
                       -0.405373        0.901753     -6.50392e-06     0.000577484       -0.0801798       0.0520528     -0.000318917     -0.00124954
                    -0.000143895     0.000718849        -0.377103       -0.901495      -0.00027605     -0.00120777       -0.0497001        0.169383
281748                -0.0162013      -0.0937784      0.000333005     -0.00123569        -0.404807        0.901859      -0.00018478     0.000656936
                      0.00037309     -0.00107383        -0.156578      -0.0831813       8.2855e-05     0.000456178        -0.377276       -0.901282
                       -0.404941        0.901945      -6.0674e-06     0.000577389       -0.0801717       0.0521106     -0.000319471     -0.00124979
                     -0.00014349     0.000719049        -0.377548       -0.901306     -0.000276725     -0.00120764       -0.0495987        0.169422
281750                -0.0162426      -0.0937967      0.000332299      -0.0012358        -0.404375         0.90205     -0.000184331     0.000657342
                     0.000372534     -0.00107407        -0.156617      -0.0831268      8.30957e-05     0.000456054        -0.377722       -0.901093
                       -0.404509        0.902137     -5.63108e-06     0.000577293       -0.0801635       0.0521685     -0.000320024     -0.00125004
                    -0.000143086     0.000719249        -0.377993       -0.901118     -0.000277399     -0.00120751       -0.0494973         0.16946
281752                -0.0162839      -0.0938149      0.000331593     -0.00123591        -0.403942        0.902242     -0.000183881     0.000657749
                     0.000371978      -0.0010743        -0.156656      -0.0830721      8.33362e-05      0.00045593        -0.378167       -0.900904
                       -0.404076        0.902328     -5.19498e-06     0.000577198       -0.0801554       0.0522263     -0.000320577     -0.00125028
                    -0.000142682     0.000719449        -0.378438       -0.900929     -0.000278073     -0.00120738       -0.0493959        0.169499
281754                -0.0163252      -0.0938331      0.000330886     -0.00123602         -0.40351        0.902433      -0.00018343     0.000658155
                     0.000371422     -0.00107454        -0.156695      -0.0830175      8.35764e-05     0.000455805        -0.378613       -0.900714
                       -0.403644         0.90252     -4.75909e-06     0.000577102       -0.0801471       0.0522841     -0.000321129     -0.00125053
                    -0.000142277     0.000719649        -0.378883        -0.90074     -0.000278747     -0.00120725       -0.0492945        0.169538
281756                -0.0163665      -0.0938512       0.00033018     -0.00123613        -0.403078        0.902623     -0.000182979     0.000658562
                     0.000370866     -0.00107477        -0.156734      -0.0829629      8.38165e-05      0.00045568        -0.379058       -0.900525
                       -0.403212        0.902711     -4.32341e-06     0.000577005       -0.0801389        0.052342      -0.00032168     -0.00125078
                    -0.000141873     0.000719848        -0.379328        -0.90055      -0.00027942     -0.00120712        -0.049193        0.169576
281758                -0.0164078      -0.0938694      0.000329473     -0.00123624        -0.402646        0.902814     -0.000182527     0.000658968
                      0.00037031       -0.001075        -0.156773      -0.0829082      8.40564e-05     0.000455556        -0.379503       -0.900335
                        -0.40278        0.902902     -3.88794e-06     0.000576908       -0.0801306       0.0523998      -0.00032223     -0.00125103
                    -0.000141468     0.000720047        -0.379773       -0.900361     -0.000280093     -0.00120699       -0.0490915        0.169615
281760                -0.0164492      -0.0938875      0.000328766     -0.00123635        -0.402213        0.903004     -0.000182074     0.000659374
                     0.000369754     -0.00107523        -0.156812      -0.0828535       8.4296e-05     0.000455431        -0.379948       -0.900145
                       -0.402347        0.903093     -3.45268e-06     0.000576811       -0.0801222       0.0524577     -0.000322779     -0.00125128
                    -0.000141063     0.000720245        -0.380218       -0.900171     -0.000280766     -0.00120685         -0.04899        0.169653
281762                -0.0164905      -0.0939056      0.000328059     -0.00123646        -0.401781        0.903195     -0.000181621     0.000659779
                     0.000369197     -0.00107547        -0.156851      -0.0827988      8.45355e-05     0.000455306        -0.380393       -0.899955
                       -0.401914        0.903283     -3.01763e-06     0.000576714       -0.0801138       0.0525155     -0.000323328     -0.00125153
