! TOUCHSTONE file generated by CST MICROWAVE STUDIO
! Date and time: Tue Oct 14 07:26:37 2025
! Project name: Teste_Macro_Metasurface_Nanopilar.cst
! Parameters = {H=600; L_x=95; L_y=195; Lambda=1064; Max_L=200; Min_L=70; PathPara=1; Phi=0; Step_L=10; Theta=0; p=520; phaseX=180; phaseY=0}
! Header version: 2018
! Port assignment regex: !\s*Touchstone port\s*([0-9]+)\s*=\s*(CST MWS port|CST DS port)\s*([0-9]+|Zmin|Zmax)\s*\(\"(.*)\"\)(\s*mode\s*([0-9]+))?.*
! Touchstone port assignment:
! Touchstone port 1 = CST MWS port Zmax ("") mode 1
! Touchstone port 2 = CST MWS port Zmax ("") mode 2
! Touchstone port 3 = CST MWS port Zmin ("") mode 1
! Touchstone port 4 = CST MWS port Zmin ("") mode 2
! S-Parameters are not renormalized. Each port impedance will be approximated by the real part at minimum frequency. The values are described via the [Reference] keyword.
! Default impedance is overridden by [Reference]
[Version] 2.0
# GHz S RI R 376.73
[Number of Ports] 4
[Reference]
376.73 376.73 259.814 259.814 
[Number of Frequencies] 51
[Network Data]
281700                 -0.751481        0.345294      3.51079e-05     9.83872e-05        -0.165661        0.503274     -0.000143521     8.49808e-05
                    -6.62146e-05     -0.00010447        -0.125423       -0.157683      0.000103283    -0.000109289        -0.322124       -0.918075
                       -0.166161        0.503468     -1.57027e-05     0.000187003        -0.335663       -0.746691     -0.000157514    -0.000120873
                    -2.40315e-05    -2.15301e-06        -0.322193       -0.918162      7.42331e-05    -0.000104285       0.00193129        0.200908
281702                 -0.751058        0.345689      3.55387e-05     9.82537e-05        -0.165375        0.503738     -0.000143321     8.52693e-05
                    -6.62669e-05     -0.00010436        -0.125491       -0.157647      0.000103123    -0.000109361        -0.322564       -0.917917
                       -0.165874        0.503932     -1.52892e-05     0.000187381        -0.336311       -0.746161     -0.000157831    -0.000120336
                    -2.40663e-05    -2.22749e-06        -0.322632       -0.918004      7.41657e-05    -0.000104334       0.00204797        0.200921
281704                 -0.750636        0.346082      3.59704e-05     9.81187e-05        -0.165088        0.504201     -0.000143121     8.55574e-05
                    -6.63187e-05     -0.00010425         -0.12556       -0.157611      0.000102963    -0.000109433        -0.323003       -0.917759
                       -0.165587        0.504396     -1.48733e-05     0.000187759        -0.336958       -0.745629     -0.000158146    -0.000119797
                    -2.41011e-05    -2.30185e-06        -0.323072       -0.917846      7.40982e-05    -0.000104383       0.00216468        0.200934
281706                 -0.750213        0.346475       3.6403e-05     9.79822e-05          -0.1648        0.504663     -0.000142918     8.58453e-05
                    -6.63702e-05     -0.00010414        -0.125629       -0.157574      0.000102803    -0.000109504        -0.323443       -0.917601
                       -0.165299         0.50486     -1.44551e-05     0.000188137        -0.337605       -0.745098      -0.00015846    -0.000119256
                    -2.41359e-05    -2.37611e-06        -0.323511       -0.917688      7.40307e-05    -0.000104431       0.00228139        0.200947
281708                 -0.749791        0.346868      3.68366e-05     9.78441e-05        -0.164512        0.505126     -0.000142714     8.61329e-05
                    -6.64213e-05    -0.000104031        -0.125697       -0.157538      0.000102643    -0.000109575        -0.323882       -0.917442
                       -0.165011        0.505323     -1.40344e-05     0.000188515         -0.33825       -0.744565     -0.000158772    -0.000118714
                    -2.41707e-05    -2.45026e-06         -0.32395       -0.917529      7.39631e-05     -0.00010448       0.00239813         0.20096
281710                 -0.749368         0.34726      3.72711e-05     9.77043e-05        -0.164223        0.505588     -0.000142508     8.64201e-05
                     -6.6472e-05    -0.000103921        -0.125766       -0.157502      0.000102483    -0.000109645        -0.324322       -0.917283
                       -0.164722        0.505786     -1.36113e-05     0.000188893        -0.338895       -0.744033     -0.000159083    -0.000118171
                    -2.42056e-05    -2.52431e-06         -0.32439        -0.91737      7.38954e-05    -0.000104528       0.00251488        0.200973
281712                 -0.748945        0.347651      3.77064e-05     9.75631e-05        -0.163933        0.506049     -0.000142301     8.67071e-05
                    -6.65224e-05    -0.000103811        -0.125834       -0.157465      0.000102323    -0.000109716        -0.324761       -0.917125
                       -0.164432        0.506248     -1.31858e-05     0.000189272        -0.339538       -0.743499     -0.000159393    -0.000117625
                    -2.42405e-05    -2.59824e-06        -0.324829       -0.917211      7.38277e-05    -0.000104576       0.00263165        0.200986
281714                 -0.748521        0.348042      3.81426e-05     9.74202e-05        -0.163643         0.50651     -0.000142093     8.69937e-05
                    -6.65724e-05    -0.000103701        -0.125903       -0.157429      0.000102163    -0.000109786          -0.3252       -0.916966
                       -0.164141         0.50671      -1.2758e-05      0.00018965        -0.340181       -0.742965     -0.000159701    -0.000117078
                    -2.42754e-05    -2.67207e-06        -0.325268       -0.917052      7.37599e-05    -0.000104624       0.00274844        0.200998
281716                 -0.748098        0.348433      3.85797e-05     9.72757e-05        -0.163352        0.506971     -0.000141883       8.728e-05
                    -6.66221e-05     -0.00010359        -0.125971       -0.157392      0.000102003    -0.000109855        -0.325639       -0.916806
                        -0.16385        0.507172     -1.23278e-05     0.000190029        -0.340823       -0.742431     -0.000160008     -0.00011653
                    -2.43103e-05     -2.7458e-06        -0.325707       -0.916893      7.36921e-05    -0.000104672       0.00286524        0.201011
281718                 -0.747674        0.348822      3.90175e-05     9.71296e-05         -0.16306        0.507431     -0.000141671     8.75659e-05
                    -6.66714e-05     -0.00010348         -0.12604       -0.157356      0.000101843    -0.000109925        -0.326078       -0.916647
                       -0.163559        0.507633     -1.18952e-05     0.000190407        -0.341464       -0.741896     -0.000160313    -0.000115979
                    -2.43453e-05    -2.81942e-06        -0.326146       -0.916733      7.36242e-05     -0.00010472       0.00298207        0.201023
281720                 -0.747251        0.349212      3.94562e-05      9.6982e-05        -0.162768        0.507891     -0.000141458     8.78516e-05
                    -6.67203e-05     -0.00010337        -0.126108       -0.157319      0.000101683    -0.000109994        -0.326517       -0.916487
                       -0.163266        0.508094     -1.14603e-05     0.000190786        -0.342104       -0.741361     -0.000160616    -0.000115427
                    -2.43803e-05    -2.89293e-06        -0.326584       -0.916573      7.35563e-05    -0.000104768       0.00309891        0.201036
281722                 -0.746827          0.3496      3.98956e-05     9.68327e-05        -0.162475        0.508351     -0.000141243     8.81368e-05
                    -6.67689e-05     -0.00010326        -0.126177       -0.157283      0.000101523    -0.000110063        -0.326956       -0.916327
                       -0.162973        0.508554      -1.1023e-05     0.000191164        -0.342744       -0.740825     -0.000160918    -0.000114874
                    -2.44153e-05    -2.96634e-06        -0.327023       -0.916413      7.34883e-05    -0.000104816       0.00321576        0.201048
281724                 -0.746403        0.349988      4.03358e-05     9.66818e-05        -0.162181         0.50881     -0.000141026     8.84218e-05
                     -6.6817e-05     -0.00010315        -0.126245       -0.157246      0.000101363    -0.000110131        -0.327395       -0.916167
                        -0.16268        0.509014     -1.05834e-05     0.000191543        -0.343382       -0.740288     -0.000161219    -0.000114319
                    -2.44503e-05    -3.03965e-06        -0.327462       -0.916253      7.34202e-05    -0.000104864       0.00333264        0.201061
281726                 -0.745978        0.350376      4.07767e-05     9.65293e-05        -0.161887        0.509269     -0.000140809     8.87063e-05
                    -6.68649e-05     -0.00010304        -0.126313       -0.157209      0.000101204      -0.0001102        -0.327833       -0.916007
                       -0.162385        0.509474     -1.01414e-05     0.000191921         -0.34402       -0.739751     -0.000161518    -0.000113762
                    -2.44854e-05    -3.11285e-06        -0.327901       -0.916092      7.33521e-05    -0.000104912       0.00344953        0.201073
281728                 -0.745554        0.350763      4.12183e-05     9.63752e-05        -0.161592        0.509727     -0.000140589     8.89905e-05
                    -6.69123e-05    -0.000102929        -0.126382       -0.157173      0.000101044    -0.000110268        -0.328272       -0.915846
                       -0.162091        0.509933     -9.69716e-06     0.000192299        -0.344656       -0.739214     -0.000161816    -0.000113203
                    -2.45205e-05    -3.18595e-06        -0.328339       -0.915931      7.32839e-05    -0.000104959       0.00356644        0.201085
281730                 -0.745129        0.351149      4.16606e-05     9.62195e-05        -0.161297        0.510185     -0.000140368     8.92744e-05
                    -6.69594e-05    -0.000102819         -0.12645       -0.157136      0.000100884    -0.000110335        -0.328711       -0.915685
                       -0.161795        0.510392     -9.25061e-06     0.000192677        -0.345292       -0.738676     -0.000162112    -0.000112643
                    -2.45555e-05    -3.25895e-06        -0.328778        -0.91577      7.32157e-05    -0.000105007       0.00368336        0.201097
281732                 -0.744705        0.351535      4.21035e-05     9.60622e-05        -0.161001        0.510643     -0.000140146     8.95579e-05
                    -6.70062e-05    -0.000102709        -0.126519       -0.157099      0.000100725    -0.000110403        -0.329149       -0.915524
                       -0.161499         0.51085     -8.80179e-06     0.000193055        -0.345927       -0.738137     -0.000162406    -0.000112081
                    -2.45906e-05    -3.33184e-06        -0.329216       -0.915609      7.31474e-05    -0.000105054        0.0038003        0.201109
281734                  -0.74428         0.35192      4.25471e-05     9.59032e-05        -0.160704          0.5111     -0.000139922      8.9841e-05
                    -6.70526e-05    -0.000102598        -0.126587       -0.157062      0.000100565     -0.00011047        -0.329588       -0.915363
                       -0.161202        0.511308     -8.35072e-06     0.000193433        -0.346561       -0.737598       -0.0001627    -0.000111518
                    -2.46258e-05    -3.40463e-06        -0.329654       -0.915448       7.3079e-05    -0.000105101       0.00391726        0.201121
281736                 -0.743854        0.352305      4.29912e-05     9.57427e-05        -0.160407        0.511557     -0.000139696     9.01237e-05
                    -6.70986e-05    -0.000102488        -0.126656       -0.157026      0.000100406    -0.000110537        -0.330026       -0.915202
                       -0.160905        0.511766     -7.89744e-06      0.00019381        -0.347194       -0.737058     -0.000162991    -0.000110953
                    -2.46609e-05    -3.47732e-06        -0.330093       -0.915286      7.30106e-05    -0.000105148       0.00403424        0.201133
281738                 -0.743429        0.352689      4.34358e-05     9.55805e-05        -0.160109        0.512013     -0.000139469     9.04061e-05
                    -6.71443e-05    -0.000102378        -0.126724       -0.156989      0.000100246    -0.000110603        -0.330464        -0.91504
                       -0.160607        0.512223       -7.442e-06     0.000194187        -0.347827       -0.736518     -0.000163281    -0.000110387
                    -2.46961e-05    -3.54991e-06        -0.330531       -0.915124      7.29422e-05    -0.000105195       0.00415123        0.201145
281740                 -0.743004        0.353073      4.38809e-05     9.54167e-05        -0.159811        0.512469      -0.00013924     9.06881e-05
                    -6.71896e-05    -0.000102267        -0.126792       -0.156952      0.000100087    -0.000110669        -0.330903       -0.914878
                       -0.160308         0.51268     -6.98448e-06     0.000194564        -0.348458       -0.735978      -0.00016357    -0.000109819
                    -2.47312e-05    -3.62239e-06        -0.330969       -0.914962      7.28737e-05    -0.000105242       0.00426824        0.201157
281742                 -0.742578        0.353456      4.43263e-05     9.52513e-05        -0.159512        0.512924      -0.00013901     9.09696e-05
                    -6.72345e-05    -0.000102157        -0.126861       -0.156915      9.99275e-05    -0.000110735        -0.331341       -0.914716
                       -0.160009        0.513136     -6.52501e-06      0.00019494        -0.349089       -0.735436     -0.000163856    -0.000109249
                    -2.47664e-05    -3.69478e-06        -0.331407         -0.9148      7.28051e-05    -0.000105289       0.00438526        0.201168
281744                 -0.742153        0.353838       4.4772e-05     9.50843e-05        -0.159212         0.51338     -0.000138778     9.12508e-05
                    -6.72791e-05    -0.000102046        -0.126929       -0.156878      9.97683e-05    -0.000110801        -0.331779       -0.914554
                       -0.159709        0.513592     -6.06381e-06     0.000195316        -0.349719       -0.734895     -0.000164142    -0.000108677
                    -2.48016e-05    -3.76706e-06        -0.331845       -0.914638      7.27365e-05    -0.000105336        0.0045023         0.20118
281746                 -0.741727         0.35422      4.52175e-05      9.4916e-05        -0.158912        0.513834     -0.000138545     9.15316e-05
                    -6.73233e-05    -0.000101936        -0.126997       -0.156841      9.96091e-05    -0.000110866        -0.332217       -0.914391
                       -0.159409        0.514048     -5.60129e-06     0.000195691        -0.350347       -0.734353     -0.000164426    -0.000108104
                    -2.48369e-05    -3.83925e-06        -0.332283       -0.914475      7.26678e-05    -0.000105382       0.00461936        0.201192
281748                 -0.741301        0.354601      4.56622e-05     9.47467e-05        -0.158611        0.514289      -0.00013831      9.1812e-05
                    -6.73672e-05    -0.000101825        -0.127066       -0.156804      9.94501e-05    -0.000110931        -0.332655       -0.914229
                       -0.159108        0.514503     -5.13825e-06     0.000196066        -0.350975        -0.73381     -0.000164708     -0.00010753
                    -2.48721e-05    -3.91134e-06        -0.332721       -0.914312      7.25991e-05    -0.000105429       0.00473644        0.201203
281750                 -0.740874        0.354982      4.61042e-05     9.45785e-05        -0.158309        0.514743     -0.000138073      9.2092e-05
                    -6.74107e-05    -0.000101715        -0.127134       -0.156767      9.92911e-05    -0.000110996        -0.333093       -0.914066
                       -0.158806        0.514958     -4.67621e-06     0.000196442        -0.351603       -0.733267     -0.000164988    -0.000106954
                    -2.49073e-05    -3.98332e-06        -0.333159       -0.914149      7.25303e-05    -0.000105475       0.00485353        0.201214
281752                 -0.740448        0.355362      4.65438e-05     9.44287e-05        -0.158007        0.515196     -0.000137836     9.23715e-05
                    -6.74538e-05    -0.000101604        -0.127202        -0.15673      9.91322e-05    -0.000111061         -0.33353       -0.913903
                       -0.158503        0.515412     -4.21619e-06     0.000196823        -0.352229       -0.732723     -0.000165268    -0.000106376
                    -2.49426e-05    -4.05521e-06        -0.333596       -0.913986      7.24615e-05    -0.000105521       0.00497064        0.201226
281754                 -0.740022        0.355742      4.70458e-05     9.42533e-05        -0.157704        0.515649     -0.000137596     9.26507e-05
                    -6.74966e-05    -0.000101493        -0.127271       -0.156693      9.89733e-05    -0.000111125        -0.333968       -0.913739
                         -0.1582        0.515866     -3.74869e-06     0.000197217        -0.352854       -0.732179     -0.000165545    -0.000105797
                    -2.49779e-05    -4.12699e-06        -0.334034       -0.913822      7.23925e-05    -0.000105567       0.00508777        0.201237
281756                 -0.739595        0.356121      4.74875e-05     9.40533e-05          -0.1574        0.516102     -0.000137355     9.29294e-05
                     -6.7539e-05    -0.000101383        -0.127339       -0.156656      9.88146e-05    -0.000111189        -0.334406       -0.913576
                       -0.157897         0.51632     -3.25943e-06     0.000197608        -0.353479       -0.731634     -0.000165821    -0.000105216
                    -2.50132e-05    -4.19868e-06        -0.334471       -0.913659      7.23235e-05    -0.000105613       0.00520491        0.201248
281758                 -0.739168          0.3565      4.79317e-05     9.38703e-05        -0.157096        0.516554     -0.000137112     9.32077e-05
                     -6.7581e-05    -0.000101272        -0.127407       -0.156619      9.86559e-05    -0.000111252        -0.334843       -0.913412
                       -0.157593        0.516773     -2.76683e-06     0.000197983        -0.354102       -0.731089     -0.000166095    -0.000104633
                    -2.50486e-05    -4.27026e-06        -0.334909       -0.913495      7.22544e-05    -0.000105659       0.00532206        0.201259
281760                 -0.738741        0.356877      4.83792e-05     9.36885e-05        -0.156792        0.517006     -0.000136868     9.34856e-05
                    -6.76225e-05    -0.000101161        -0.127475       -0.156581      9.84972e-05    -0.000111316        -0.335281       -0.913248
                       -0.157288        0.517226     -2.27896e-06     0.000198353        -0.354725       -0.730543     -0.000166368    -0.000104049
                     -2.5084e-05    -4.34175e-06        -0.335346       -0.913331      7.21852e-05    -0.000105705       0.00543924         0.20127
281762                 -0.738314        0.357255      4.88283e-05     9.35058e-05        -0.156486        0.517458     -0.000136622      9.3763e-05
                    -6.76636e-05     -0.00010105        -0.127544       -0.156544      9.83387e-05    -0.000111379        -0.335718       -0.913084
                       -0.156982        0.517678     -1.79275e-06     0.000198723        -0.355347       -0.729997     -0.000166639    -0.000103464
