! TOUCHSTONE file generated by CST MICROWAVE STUDIO
! Date and time: Tue Oct 14 07:30:14 2025
! Project name: Teste_Macro_Metasurface_Nanopilar.cst
! Parameters = {H=600; L_x=155; L_y=125; Lambda=1064; Max_L=200; Min_L=70; PathPara=1; Phi=0; Step_L=10; Theta=0; p=520; phaseX=180; phaseY=0}
! Header version: 2018
! Port assignment regex: !\s*Touchstone port\s*([0-9]+)\s*=\s*(CST MWS port|CST DS port)\s*([0-9]+|Zmin|Zmax)\s*\(\"(.*)\"\)(\s*mode\s*([0-9]+))?.*
! Touchstone port assignment:
! Touchstone port 1 = CST MWS port Zmax ("") mode 1
! Touchstone port 2 = CST MWS port Zmax ("") mode 2
! Touchstone port 3 = CST MWS port Zmin ("") mode 1
! Touchstone port 4 = CST MWS port Zmin ("") mode 2
! S-Parameters are not renormalized. Each port impedance will be approximated by the real part at minimum frequency. The values are described via the [Reference] keyword.
! Default impedance is overridden by [Reference]
[Version] 2.0
# GHz S RI R 376.73
[Number of Ports] 4
[Reference]
376.73 376.73 259.814 259.814 
[Number of Frequencies] 51
[Network Data]
281700                -0.0775684      -0.0977385     -0.000645931    -0.000215815        -0.136925        0.977041     -0.000737438    -0.000227598
                    -0.000636221    -0.000272732        -0.230401       -0.367275     -0.000175583     0.000393097         0.668121        0.589856
                       -0.136861        0.977074     -0.000211905     0.000350752        -0.100072       0.0733411     -0.000424645     0.000866372
                    -0.000790126     -0.00021832         0.668543        0.590014     -0.000342547     0.000875569         0.393548        0.167066
281702                -0.0776047      -0.0977312     -0.000646451    -0.000215341        -0.136482        0.977102     -0.000738054    -0.000227299
                    -0.000636757    -0.000272265        -0.230624       -0.367335     -0.000175101     0.000393581         0.668408        0.589397
                       -0.136418        0.977134     -0.000211746     0.000351051        -0.100039       0.0734151     -0.000424453     0.000867146
                    -0.000790812    -0.000217982         0.668829        0.589555     -0.000342252     0.000876416         0.393845        0.166791
281704                -0.0776409       -0.097724     -0.000646972    -0.000214867        -0.136039        0.977162      -0.00073867       -0.000227
                    -0.000637293    -0.000271797        -0.230848       -0.367395      -0.00017462     0.000394065         0.668694        0.588937
                       -0.135974        0.977194     -0.000211588     0.000351351        -0.100005       0.0734892      -0.00042426      0.00086792
                    -0.000791498    -0.000217643         0.669116        0.589095     -0.000341956     0.000877266         0.394142        0.166515
281706                -0.0776771      -0.0977167     -0.000647492    -0.000214392        -0.135595        0.977221     -0.000739287    -0.000226699
                    -0.000637829    -0.000271327        -0.231071       -0.367455     -0.000174137     0.000394552         0.668979        0.588477
                       -0.135531        0.977253     -0.000211429     0.000351651       -0.0999716       0.0735632     -0.000424067     0.000868695
                    -0.000792185    -0.000217303         0.669401        0.588635      -0.00034166     0.000878117         0.394438        0.166238
281708                -0.0777134      -0.0977094     -0.000648013    -0.000213917        -0.135152        0.977281     -0.000739904    -0.000226398
                    -0.000638365    -0.000270857        -0.231295       -0.367515     -0.000173655      0.00039504         0.669265        0.588017
                       -0.135088        0.977313     -0.000211269     0.000351951        -0.099938       0.0736373     -0.000423873      0.00086947
                    -0.000792872    -0.000216962         0.669687        0.588174     -0.000341365      0.00087897         0.394735        0.165961
281710                -0.0777496      -0.0977021     -0.000648533     -0.00021344        -0.134709        0.977341     -0.000740522    -0.000226095
                    -0.000638901    -0.000270386        -0.231519       -0.367574     -0.000173172     0.000395531          0.66955        0.587556
                       -0.134644        0.977372      -0.00021111     0.000352251       -0.0999043       0.0737113     -0.000423678     0.000870245
                    -0.000793561    -0.000216621         0.669972        0.587714     -0.000341069     0.000879825         0.395031        0.165684
281712                -0.0777858      -0.0976948     -0.000649053    -0.000212963        -0.134266          0.9774     -0.000741139    -0.000225792
                    -0.000639436    -0.000269914        -0.231743       -0.367634     -0.000172687     0.000396024         0.669835        0.587095
                       -0.134201        0.977431      -0.00021095     0.000352552       -0.0998707       0.0737853     -0.000423483     0.000871021
                    -0.000794249    -0.000216278         0.670257        0.587252     -0.000340774     0.000880683         0.395328        0.165406
281714                -0.0778221      -0.0976875     -0.000649573    -0.000212486        -0.133822        0.977459     -0.000741757    -0.000225488
                    -0.000639972    -0.000269441        -0.231967       -0.367694     -0.000172199      0.00039652          0.67012        0.586634
                       -0.133757         0.97749      -0.00021079     0.000352852       -0.0998369       0.0738591     -0.000423287     0.000871797
                    -0.000794938    -0.000215934         0.670542        0.586791     -0.000340477     0.000881544         0.395624        0.165128
281716                -0.0778583      -0.0976802     -0.000650093    -0.000212007        -0.133379        0.977517     -0.000742376    -0.000225183
                    -0.000640507    -0.000268967        -0.232192       -0.367754     -0.000171706     0.000397018         0.670404        0.586172
                       -0.133314        0.977548      -0.00021063     0.000353153       -0.0998031       0.0739331     -0.000423091     0.000872573
                    -0.000795628     -0.00021559         0.670826        0.586329     -0.000340178     0.000882408         0.395921         0.16485
281718                -0.0778946      -0.0976728     -0.000650613    -0.000211528        -0.132936        0.977576     -0.000742994    -0.000224877
                    -0.000641042    -0.000268492        -0.232417       -0.367814     -0.000171207      0.00039751         0.670688        0.585711
                        -0.13287        0.977607     -0.000210469     0.000353453       -0.0997692       0.0740071     -0.000422894     0.000873349
                    -0.000796318    -0.000215244         0.671111        0.585867     -0.000339874     0.000883272         0.396217        0.164571
281720                -0.0779308      -0.0976655     -0.000651133    -0.000211048        -0.132492        0.977635     -0.000743613     -0.00022457
                    -0.000641578    -0.000268016        -0.232642       -0.367874     -0.000170709     0.000397995         0.670971        0.585248
                       -0.132426        0.977665     -0.000210308     0.000353754       -0.0997353        0.074081     -0.000422696     0.000874127
                    -0.000797009    -0.000214898         0.671394        0.585405     -0.000339569     0.000884134         0.396514        0.164291
281722                -0.0779671      -0.0976581     -0.000651653    -0.000210567        -0.132049        0.977693     -0.000744233    -0.000224262
                    -0.000642113    -0.000267539        -0.232867       -0.367933     -0.000170218     0.000398478         0.671255        0.584786
                       -0.131983        0.977723     -0.000210147     0.000354055       -0.0997014        0.074155     -0.000422498     0.000874904
                      -0.0007977     -0.00021455         0.671678        0.584942     -0.000339265     0.000884993          0.39681        0.164011
281724                -0.0780033      -0.0976507     -0.000652172    -0.000210086        -0.131605        0.977751     -0.000744852    -0.000223954
                    -0.000642648    -0.000267061        -0.233093       -0.367993     -0.000169732     0.000398965         0.671538        0.584323
                       -0.131539        0.977781     -0.000209985     0.000354356       -0.0996674       0.0742289     -0.000422299     0.000875682
                    -0.000798392    -0.000214202         0.671961        0.584479     -0.000338964     0.000885853         0.397107        0.163731
281726                -0.0780396      -0.0976433     -0.000652692    -0.000209604        -0.131162        0.977809     -0.000745472    -0.000223644
                    -0.000643183    -0.000266582        -0.233318       -0.368053     -0.000169247     0.000399455         0.671821        0.583859
                       -0.131096        0.977839     -0.000209824     0.000354657       -0.0996333       0.0743027       -0.0004221      0.00087646
                    -0.000799084    -0.000213852         0.672244        0.584015     -0.000338664     0.000886714         0.397403        0.163451
281728                -0.0780758      -0.0976359     -0.000653211    -0.000209121        -0.130718        0.977866     -0.000746092    -0.000223334
                    -0.000643717    -0.000266102        -0.233544       -0.368112     -0.000168762     0.000399948         0.672103        0.583396
                       -0.130652        0.977896     -0.000209662     0.000354958       -0.0995992       0.0743766       -0.0004219     0.000877238
                    -0.000799777    -0.000213502         0.672527        0.583551     -0.000338365     0.000887578         0.397699        0.163169
281730                -0.0781121      -0.0976285     -0.000653731    -0.000208638        -0.130275        0.977924     -0.000746713    -0.000223022
                    -0.000644252    -0.000265621        -0.233771       -0.368172     -0.000168276     0.000400444         0.672385        0.582932
                       -0.130208        0.977953     -0.000209499      0.00035526        -0.099565       0.0744504     -0.000421699     0.000878017
                     -0.00080047    -0.000213151         0.672809        0.583087     -0.000338067     0.000888443         0.397996        0.162888
281732                -0.0781483       -0.097621      -0.00065425    -0.000208154        -0.129831        0.977981     -0.000747334     -0.00022271
                    -0.000644786    -0.000265139        -0.233997       -0.368232      -0.00016779     0.000400941         0.672667        0.582467
                       -0.129765         0.97801     -0.000209337     0.000355561       -0.0995308       0.0745243     -0.000421498     0.000878796
                    -0.000801164    -0.000212799         0.673091        0.582623     -0.000337769     0.000889311         0.398292        0.162606
281734                -0.0781846      -0.0976136      -0.00065477    -0.000207669        -0.129388        0.978038     -0.000747955    -0.000222396
                    -0.000645321    -0.000264656        -0.234223       -0.368291     -0.000167303     0.000401439         0.672949        0.582003
                       -0.129321        0.978067     -0.000209174     0.000355863       -0.0994965       0.0745981     -0.000421296     0.000879576
                    -0.000801859    -0.000212446         0.673372        0.582158      -0.00033747      0.00089018         0.398588        0.162324
281736                -0.0782209      -0.0976061     -0.000655289    -0.000207183        -0.128944        0.978095     -0.000748576    -0.000222082
                    -0.000645855    -0.000264172         -0.23445       -0.368351     -0.000166816     0.000401939          0.67323        0.581538
                       -0.128877        0.978124     -0.000209011     0.000356164       -0.0994622       0.0746719     -0.000421094     0.000880356
                    -0.000802554    -0.000212091         0.673654        0.581693     -0.000337172      0.00089105         0.398885        0.162041
281738                -0.0782571      -0.0975986     -0.000655808    -0.000206697          -0.1285        0.978151     -0.000749198    -0.000221767
                     -0.00064639    -0.000263687        -0.234677        -0.36841     -0.000166329      0.00040244         0.673511        0.581073
                       -0.128434         0.97818     -0.000208847     0.000356466       -0.0994278       0.0747457      -0.00042089     0.000881136
                     -0.00080325    -0.000211736         0.673935        0.581228     -0.000336874     0.000891922         0.399181        0.161757
281740                -0.0782934      -0.0975911     -0.000656326     -0.00020621        -0.128057        0.978208      -0.00074982    -0.000221451
                    -0.000646925      -0.0002632        -0.234904        -0.36847     -0.000165841     0.000402942         0.673791        0.580607
                        -0.12799        0.978236     -0.000208683     0.000356768       -0.0993934       0.0748194     -0.000420687     0.000881917
                    -0.000803947    -0.000211379         0.674216        0.580762     -0.000336576     0.000892796         0.399477        0.161474
281742                -0.0783297      -0.0975836     -0.000656845    -0.000205722        -0.127613        0.978264     -0.000750443    -0.000221134
                    -0.000647461    -0.000262712        -0.235132       -0.368529     -0.000165353     0.000403445         0.674072        0.580141
                       -0.127546        0.978292     -0.000208519     0.000357071       -0.0993589       0.0748932     -0.000420482     0.000882698
                    -0.000804645     -0.00021102         0.674496        0.580296     -0.000336278     0.000893671         0.399774         0.16119
281744                -0.0783659      -0.0975761     -0.000657362    -0.000205233         -0.12717         0.97832     -0.000751065    -0.000220816
                       -0.000648     -0.00026222         -0.23536       -0.368589     -0.000164864      0.00040395         0.674352        0.579675
                       -0.127102        0.978348     -0.000208354     0.000357374       -0.0993243       0.0749669     -0.000420277     0.000883479
                    -0.000805348    -0.000210656         0.674776        0.579829      -0.00033598     0.000894547          0.40007        0.160905
281746                -0.0784023      -0.0975685     -0.000657875    -0.000204743        -0.126726        0.978376     -0.000751688    -0.000220497
                    -0.000648561    -0.000261708        -0.235587       -0.368648     -0.000164376     0.000404455         0.674631        0.579208
                       -0.126659        0.978404     -0.000208186     0.000357678       -0.0992897       0.0750406     -0.000420072     0.000884261
                    -0.000806065    -0.000210269         0.675056        0.579363     -0.000335682     0.000895425         0.400366         0.16062
281748                -0.0784384       -0.097561     -0.000658354    -0.000204212        -0.126282        0.978431     -0.000752312    -0.000220177
                    -0.000648997    -0.000261286        -0.235815       -0.368707     -0.000163887     0.000404961         0.674911        0.578741
                       -0.126214        0.978459     -0.000207978     0.000358013       -0.0992551       0.0751143     -0.000419865     0.000885043
                    -0.000806616    -0.000210004         0.675336        0.578895     -0.000335384     0.000896304         0.400662        0.160335
281750                -0.0784747      -0.0975534     -0.000658945    -0.000203761        -0.125839        0.978487     -0.000752935    -0.000219856
                    -0.000649565    -0.000260775        -0.236044       -0.368767     -0.000163399     0.000405469          0.67519        0.578274
                       -0.125771        0.978514     -0.000207876     0.000358268       -0.0992204        0.075188     -0.000419659     0.000885826
                    -0.000807397    -0.000209615         0.675615        0.578428     -0.000335086     0.000897185         0.400958        0.160049
281752                 -0.078511      -0.0975458     -0.000659455    -0.000203272        -0.125395        0.978542     -0.000753559    -0.000219535
                    -0.000650104    -0.000260279        -0.236272       -0.368826      -0.00016291     0.000405977         0.675469        0.577806
                       -0.125327        0.978569     -0.000207705     0.000358575       -0.0991856       0.0752617     -0.000419451     0.000886609
                    -0.000808106    -0.000209247         0.675894         0.57796     -0.000334788     0.000898066         0.401255        0.159763
281754                -0.0785473      -0.0975382     -0.000659971     -0.00020278        -0.124951        0.978597     -0.000754184    -0.000219212
                    -0.000650639    -0.000259785        -0.236501       -0.368885     -0.000162422     0.000406486         0.675747        0.577339
                       -0.124883        0.978624     -0.000207538     0.000358879       -0.0991508       0.0753353     -0.000419243     0.000887392
                    -0.000808808    -0.000208883         0.676172        0.577492     -0.000334491     0.000898949         0.401551        0.159476
281756                -0.0785836      -0.0975306     -0.000660489    -0.000202287        -0.124507        0.978652     -0.000754808    -0.000218889
                    -0.000651172    -0.000259291         -0.23673       -0.368944     -0.000161933     0.000406996         0.676025         0.57687
                       -0.124439        0.978678     -0.000207372     0.000359182        -0.099116        0.075409     -0.000419034     0.000888176
                    -0.000809509    -0.000208519          0.67645        0.577024     -0.000334193     0.000899834         0.401847        0.159189
281758                -0.0786198       -0.097523     -0.000661008    -0.000201794        -0.124064        0.978706     -0.000755436    -0.000218568
                    -0.000651704    -0.000258796        -0.236959       -0.369003     -0.000161444     0.000407508         0.676303        0.576402
                       -0.123995        0.978733     -0.000207206     0.000359484       -0.0990811       0.0754826      -0.00041882     0.000888966
                    -0.000810209    -0.000208155         0.676728        0.576555     -0.000333896     0.000900719         0.402143        0.158901
281760                -0.0786561      -0.0975153     -0.000661527    -0.000201299         -0.12362        0.978761     -0.000756059    -0.000218239
                    -0.000652236    -0.000258301        -0.237189       -0.369063     -0.000160956      0.00040802          0.67658        0.575933
                       -0.123551        0.978787      -0.00020704     0.000359787       -0.0990461       0.0755562     -0.000418614     0.000889745
                    -0.000810909     -0.00020779         0.677006        0.576086     -0.000333598     0.000901606         0.402439        0.158613
281762                -0.0786924      -0.0975077     -0.000662046    -0.000200804        -0.123176        0.978815     -0.000756685    -0.000217912
                    -0.000652768    -0.000257805        -0.237418       -0.369122     -0.000160468     0.000408533         0.676858        0.575464
                       -0.123107        0.978841     -0.000206874      0.00036009       -0.0990111       0.0756298     -0.000418403      0.00089053
