! TOUCHSTONE file generated by CST MICROWAVE STUDIO
! Date and time: Tue Oct 14 07:29:24 2025
! Project name: Teste_Macro_Metasurface_Nanopilar.cst
! Parameters = {H=600; L_x=140; L_y=175; Lambda=1064; Max_L=200; Min_L=70; PathPara=1; Phi=0; Step_L=10; Theta=0; p=520; phaseX=180; phaseY=0}
! Header version: 2018
! Port assignment regex: !\s*Touchstone port\s*([0-9]+)\s*=\s*(CST MWS port|CST DS port)\s*([0-9]+|Zmin|Zmax)\s*\(\"(.*)\"\)(\s*mode\s*([0-9]+))?.*
! Touchstone port assignment:
! Touchstone port 1 = CST MWS port Zmax ("") mode 1
! Touchstone port 2 = CST MWS port Zmax ("") mode 2
! Touchstone port 3 = CST MWS port Zmin ("") mode 1
! Touchstone port 4 = CST MWS port Zmin ("") mode 2
! S-Parameters are not renormalized. Each port impedance will be approximated by the real part at minimum frequency. The values are described via the [Reference] keyword.
! Default impedance is overridden by [Reference]
[Version] 2.0
# GHz S RI R 376.73
[Number of Ports] 4
[Reference]
376.73 376.73 259.814 259.814 
[Number of Frequencies] 51
[Network Data]
281700                 -0.170282       0.0124263     -0.000903198     0.000635827         0.744111        0.639746      -0.00150143    -4.72151e-05
                    -0.000884868     0.000533315        -0.533645         0.25327      -0.00131365     0.000465921       -0.0640265        0.759616
                        0.743707        0.639933      -0.00137685     0.000304923         0.012745         0.16574      -0.00116819     -0.00127343
                     -0.00138135    -0.000179625       -0.0635536        0.759106      -0.00126556    -0.000971357        -0.400931       -0.398261
281702                 -0.170278       0.0124462     -0.000900987     0.000636314         0.744382        0.639431      -0.00149999    -4.50937e-05
                    -0.000882802     0.000533641        -0.532853        0.253433      -0.00131126     0.000466869       -0.0631594        0.760272
                        0.743978        0.639619      -0.00137483     0.000306555        0.0128667        0.165729      -0.00116811     -0.00127026
                     -0.00138014    -0.000177288        -0.062688        0.759763      -0.00126447    -0.000968115        -0.401239       -0.397066
281704                 -0.170274       0.0124661      -0.00089878     0.000636795         0.744653        0.639116      -0.00149855      -4.298e-05
                    -0.000880739     0.000533962        -0.532064        0.253594      -0.00130887     0.000467813       -0.0622917        0.760925
                         0.74425        0.639305      -0.00137282     0.000308179        0.0129884        0.165718      -0.00116802     -0.00126709
                     -0.00137892    -0.000174958        -0.061822        0.760418      -0.00126338    -0.000964885        -0.401544       -0.395874
281706                  -0.17027        0.012486     -0.000896577     0.000637269         0.744924        0.638801      -0.00149711    -4.08741e-05
                     -0.00087868     0.000534279        -0.531275        0.253753      -0.00130649     0.000468752       -0.0614235        0.761575
                        0.744521         0.63899      -0.00137081     0.000309794        0.0131101        0.165707      -0.00116792     -0.00126392
                     -0.00137771    -0.000172635       -0.0609554        0.761069       -0.0012623    -0.000961667        -0.401845       -0.394683
281708                 -0.170266       0.0125059     -0.000894379     0.000637738         0.745195        0.638486      -0.00149566    -3.87759e-05
                    -0.000876624      0.00053459        -0.530488        0.253911      -0.00130411     0.000469687       -0.0605549        0.762222
                        0.744792        0.638675       -0.0013688     0.000311402        0.0132318        0.165696      -0.00116782     -0.00126076
                     -0.00137649    -0.000170319       -0.0600884        0.761717      -0.00126121    -0.000958459        -0.402143       -0.393493
281710                 -0.170263       0.0125258     -0.000892184       0.0006382         0.745466        0.638171      -0.00149422    -3.66855e-05
                    -0.000874572     0.000534896        -0.529703        0.254067      -0.00130174     0.000470616       -0.0596857        0.762866
                        0.745063         0.63836      -0.00136678     0.000313001        0.0133534        0.165684      -0.00116771     -0.00125761
                     -0.00137527     -0.00016801        -0.059221        0.762362      -0.00126013    -0.000955264        -0.402438       -0.392305
281712                 -0.170259       0.0125457     -0.000889994     0.000638656         0.745736        0.637856      -0.00149277    -3.46028e-05
                    -0.000872524     0.000535197        -0.528919        0.254221      -0.00129937      0.00047154        -0.058816        0.763507
                        0.745334        0.638046      -0.00136477     0.000314592         0.013475        0.165673      -0.00116759     -0.00125446
                     -0.00137404    -0.000165709        -0.058353        0.763004      -0.00125904     -0.00095208         -0.40273       -0.391119
281714                 -0.170255       0.0125656     -0.000887808     0.000639107         0.746007         0.63754      -0.00149131    -3.25277e-05
                    -0.000870479     0.000535493        -0.528136        0.254373      -0.00129702     0.000472458       -0.0579459        0.764145
                        0.745605        0.637731      -0.00136276     0.000316175        0.0135966        0.165662      -0.00116747     -0.00125131
                     -0.00137282    -0.000163414       -0.0574847        0.763643      -0.00125795    -0.000948907        -0.403019       -0.389935
281716                 -0.170251       0.0125855     -0.000885626     0.000639552         0.746277        0.637225      -0.00148986    -3.04602e-05
                    -0.000868438     0.000535784        -0.527355        0.254524      -0.00129466      0.00047337       -0.0570753         0.76478
                        0.745875        0.637415      -0.00136075      0.00031775        0.0137182         0.16565      -0.00116734     -0.00124817
                     -0.00137159    -0.000161127       -0.0566159         0.76428      -0.00125687    -0.000945746        -0.403304       -0.388752
281718                 -0.170247       0.0126054     -0.000883448     0.000639991         0.746547        0.636909       -0.0014884    -2.84003e-05
                    -0.000866401      0.00053607        -0.526575        0.254673      -0.00129232     0.000474276       -0.0562042        0.765412
                        0.746146          0.6371      -0.00135875     0.000319318        0.0138398        0.165638       -0.0011672     -0.00124503
                     -0.00137036    -0.000158847       -0.0557467        0.764913      -0.00125578    -0.000942596        -0.403587       -0.387571
281720                 -0.170244       0.0126253     -0.000881275     0.000640425         0.746817        0.636594      -0.00148694    -2.63481e-05
                    -0.000864367     0.000536351        -0.525797         0.25482      -0.00128998     0.000475175       -0.0553327        0.766042
                        0.746416        0.636785      -0.00135674     0.000320878        0.0139614        0.165627      -0.00116705      -0.0012419
                     -0.00136912    -0.000156575        -0.054877        0.765543      -0.00125469    -0.000939458        -0.403866       -0.386392
281722                  -0.17024       0.0126452     -0.000879105     0.000640854         0.747087        0.636278      -0.00148548    -2.43033e-05
                    -0.000862337     0.000536628        -0.525021        0.254965      -0.00128765     0.000476067       -0.0544608        0.766668
                        0.746686        0.636469      -0.00135473     0.000322431        0.0140829        0.165615       -0.0011669     -0.00123877
                     -0.00136789    -0.000154309       -0.0540069        0.766171       -0.0012536    -0.000936332        -0.404143       -0.385215
281724                 -0.170236       0.0126652     -0.000876939     0.000641278         0.747356        0.635962      -0.00148402     -2.2266e-05
                    -0.000860311     0.000536899        -0.524245        0.255109      -0.00128532     0.000476952       -0.0535884        0.767292
                        0.746956        0.636154      -0.00135273     0.000323976        0.0142044        0.165603      -0.00116675     -0.00123565
                     -0.00136665     -0.00015205       -0.0531364        0.766795       -0.0012525    -0.000933217        -0.404416       -0.384039
281726                 -0.170232       0.0126851     -0.000874776     0.000641697         0.747626        0.635646      -0.00148255    -2.02363e-05
                    -0.000858288     0.000537166        -0.523471        0.255251        -0.001283     0.000477831       -0.0527156        0.767913
                        0.747226        0.635838      -0.00135072     0.000325514        0.0143259        0.165591      -0.00116658     -0.00123253
                     -0.00136541    -0.000149799       -0.0522654        0.767417      -0.00125141    -0.000930114        -0.404686       -0.382865
281728                 -0.170229        0.012705     -0.000872618     0.000642111         0.747895         0.63533      -0.00148108    -1.82139e-05
                    -0.000856269     0.000537428        -0.522699        0.255391      -0.00128068     0.000478702       -0.0518424        0.768531
                        0.747496        0.635522      -0.00134872     0.000327045        0.0144474        0.165579      -0.00116641     -0.00122942
                     -0.00136417    -0.000147554        -0.051394        0.768036      -0.00125031    -0.000927022        -0.404954       -0.381692
281730                 -0.170225        0.012725     -0.000870463     0.000642521         0.748164        0.635013      -0.00147961     -1.6199e-05
                    -0.000854253     0.000537685        -0.521928         0.25553      -0.00127837     0.000479567       -0.0509688        0.769146
                        0.747766        0.635206      -0.00134671     0.000328569        0.0145689        0.165567      -0.00116623     -0.00122631
                     -0.00136292    -0.000145317       -0.0505223        0.768652      -0.00124921    -0.000923942        -0.405218       -0.380522
281732                 -0.170221       0.0127449     -0.000868312     0.000642926         0.748433        0.634697      -0.00147813    -1.41914e-05
                    -0.000852241     0.000537937        -0.521159        0.255667      -0.00127607     0.000480424       -0.0500948        0.769758
                        0.748035         0.63489      -0.00134471     0.000330086        0.0146903        0.165555      -0.00116605     -0.00122321
                     -0.00136167    -0.000143086       -0.0496501        0.769265      -0.00124811    -0.000920874        -0.405479       -0.379353
281734                 -0.170217       0.0127649     -0.000866165     0.000643327         0.748702         0.63438      -0.00147666    -1.21911e-05
                    -0.000850233     0.000538185        -0.520391        0.255802      -0.00127377     0.000481274       -0.0492204        0.770367
                        0.748304        0.634574      -0.00134271     0.000331596        0.0148118        0.165543      -0.00116586     -0.00122012
                     -0.00136042    -0.000140863       -0.0487775        0.769875      -0.00124701    -0.000917817        -0.405738       -0.378185
281736                 -0.170214       0.0127848     -0.000864021     0.000643725         0.748971        0.634064      -0.00147518    -1.01982e-05
                    -0.000848228     0.000538427        -0.519624        0.255935      -0.00127148     0.000482116       -0.0483457        0.770974
                        0.748574        0.634258      -0.00134071       0.0003331        0.0149332         0.16553      -0.00116566     -0.00121703
                     -0.00135917    -0.000138647       -0.0479045        0.770483      -0.00124591    -0.000914772        -0.405993        -0.37702
281738                  -0.17021       0.0128048     -0.000861881     0.000644118          0.74924        0.633747       -0.0014737    -8.21248e-06
                    -0.000846227     0.000538666        -0.518859        0.256067      -0.00126919     0.000482952       -0.0474706        0.771577
                        0.748843        0.633942      -0.00133872     0.000334598        0.0150546        0.165518      -0.00116546     -0.00121394
                     -0.00135792    -0.000136438       -0.0470311        0.771088       -0.0012448    -0.000911739        -0.406245       -0.375856
281740                 -0.170206       0.0128247     -0.000859743     0.000644508         0.749508         0.63343      -0.00147222    -6.23399e-06
                     -0.00084423     0.000538899        -0.518095        0.256197      -0.00126691      0.00048378       -0.0465951        0.772178
                        0.749111        0.633625      -0.00133672     0.000336089         0.015176        0.165505      -0.00116525     -0.00121086
                     -0.00135666    -0.000134235       -0.0461573         0.77169      -0.00124369    -0.000908717        -0.406495       -0.374694
281742                 -0.170203       0.0128447      -0.00085761     0.000644895         0.749777        0.633113      -0.00147073    -4.26266e-06
                    -0.000842237     0.000539128        -0.517333        0.256326      -0.00126464     0.000484601       -0.0457193        0.772776
                         0.74938        0.633309      -0.00133473     0.000337575        0.0152973        0.165493      -0.00116504     -0.00120778
                      -0.0013554     -0.00013204       -0.0452832        0.772289      -0.00124258    -0.000905707        -0.406741       -0.373534
281744                 -0.170199       0.0128647     -0.000855479     0.000645278         0.750045        0.632796      -0.00146924    -2.29847e-06
                    -0.000840247     0.000539352        -0.516572        0.256453      -0.00126237     0.000485414       -0.0448432        0.773371
                        0.749649        0.632992      -0.00133273     0.000339054        0.0154187         0.16548      -0.00116482     -0.00120471
                     -0.00135414    -0.000129852       -0.0444086        0.772885      -0.00124147    -0.000902709        -0.406985       -0.372375
281746                 -0.170195       0.0128847     -0.000853351     0.000645659         0.750313        0.632479      -0.00146776    -3.41366e-07
                     -0.00083826     0.000539572        -0.515813        0.256578       -0.0012601     0.000486221       -0.0439667        0.773964
                        0.749917        0.632675      -0.00133074     0.000340528          0.01554        0.165468      -0.00116459     -0.00120165
                     -0.00135288     -0.00012767       -0.0435337        0.773479      -0.00124035    -0.000899723        -0.407226       -0.371218
281748                 -0.170191       0.0129047     -0.000851226     0.000646037         0.750581        0.632162      -0.00146626      1.6087e-06
                    -0.000836278     0.000539787        -0.515055        0.256702      -0.00125785      0.00048702       -0.0430899        0.774553
                        0.750186        0.632358      -0.00132875     0.000341996        0.0156613        0.165455      -0.00116436     -0.00119859
                     -0.00135161    -0.000125496       -0.0426584         0.77407      -0.00123924    -0.000896747        -0.407464       -0.370063
281750                 -0.170188       0.0129246     -0.000849104     0.000646412         0.750849        0.631845      -0.00146477     3.55177e-06
                    -0.000834299     0.000539997        -0.514299        0.256824      -0.00125559     0.000487812       -0.0422128         0.77514
                        0.750454        0.632041      -0.00132676     0.000343459        0.0157826        0.165442      -0.00116412     -0.00119553
                     -0.00135035    -0.000123328       -0.0417828        0.774658      -0.00123812    -0.000893784        -0.407698        -0.36891
281752                 -0.170184       0.0129446     -0.000846985     0.000646784         0.751116        0.631527      -0.00146328     5.48788e-06
                    -0.000832323     0.000540203        -0.513544        0.256945      -0.00125335     0.000488596       -0.0413354        0.775724
                        0.750722        0.631724      -0.00132478     0.000344916        0.0159039        0.165429      -0.00116387     -0.00119248
                     -0.00134908    -0.000121167       -0.0409068        0.775243        -0.001237    -0.000890832        -0.407931       -0.367758
281754                  -0.17018       0.0129646     -0.000844869     0.000647154         0.751384         0.63121      -0.00146178      7.4171e-06
                    -0.000830352     0.000540404         -0.51279        0.257064      -0.00125111     0.000489374       -0.0404577        0.776305
                         0.75099        0.631407      -0.00132279     0.000346369        0.0160251        0.165416      -0.00116362     -0.00118944
                     -0.00134781    -0.000119014       -0.0400305        0.775826      -0.00123587    -0.000887892         -0.40816       -0.366608
281756                 -0.170177       0.0129846     -0.000842756     0.000647521         0.751651        0.630892      -0.00146028     9.33948e-06
                    -0.000828384     0.000540601        -0.512038        0.257181      -0.00124887     0.000490145       -0.0395797        0.776884
                        0.751258         0.63109      -0.00132081     0.000347815        0.0161464        0.165403      -0.00116336      -0.0011864
                     -0.00134653    -0.000116867       -0.0391539        0.776406      -0.00123475    -0.000884963        -0.408386        -0.36546
281758                 -0.170173       0.0130046     -0.000840645     0.000647885         0.751918        0.630574      -0.00145878     1.12551e-05
                     -0.00082642     0.000540794        -0.511288        0.257297      -0.00124664     0.000490908       -0.0387014        0.777459
                        0.751525        0.630772      -0.00131883     0.000349257        0.0162676        0.165389       -0.0011631     -0.00118337
                     -0.00134526    -0.000114727       -0.0382769        0.776983      -0.00123362    -0.000882046         -0.40861       -0.364314
281760                 -0.170169       0.0130247     -0.000838538     0.000648246         0.752186        0.630256      -0.00145727     1.31639e-05
                    -0.000824459     0.000540982        -0.510538        0.257411      -0.00124441     0.000491665       -0.0378229        0.778032
                        0.751793        0.630455      -0.00131685     0.000350692        0.0163888        0.165376      -0.00116283     -0.00118034
                     -0.00134398    -0.000112594       -0.0373997        0.777558      -0.00123249     -0.00087914        -0.408831       -0.363169
281762                 -0.170166       0.0130447     -0.000836434     0.000648602         0.752453        0.629938      -0.00145577     1.50661e-05
                    -0.000822502     0.000541165        -0.509791        0.257524      -0.00124219     0.000492414       -0.0369441        0.778603
                         0.75206        0.630137      -0.00131487     0.000352121          0.01651        0.165363      -0.00116256     -0.00117732
