! TOUCHSTONE file generated by CST MICROWAVE STUDIO
! Date and time: Tue Oct 14 07:30:09 2025
! Project name: Teste_Macro_Metasurface_Nanopilar.cst
! Parameters = {H=600; L_x=155; L_y=85; Lambda=1064; Max_L=200; Min_L=70; PathPara=1; Phi=0; Step_L=10; Theta=0; p=520; phaseX=180; phaseY=0}
! Header version: 2018
! Port assignment regex: !\s*Touchstone port\s*([0-9]+)\s*=\s*(CST MWS port|CST DS port)\s*([0-9]+|Zmin|Zmax)\s*\(\"(.*)\"\)(\s*mode\s*([0-9]+))?.*
! Touchstone port assignment:
! Touchstone port 1 = CST MWS port Zmax ("") mode 1
! Touchstone port 2 = CST MWS port Zmax ("") mode 2
! Touchstone port 3 = CST MWS port Zmin ("") mode 1
! Touchstone port 4 = CST MWS port Zmin ("") mode 2
! S-Parameters are not renormalized. Each port impedance will be approximated by the real part at minimum frequency. The values are described via the [Reference] keyword.
! Default impedance is overridden by [Reference]
[Version] 2.0
# GHz S RI R 376.73
[Number of Ports] 4
[Reference]
376.73 376.73 259.814 259.814 
[Number of Frequencies] 51
[Network Data]
281700                 0.0265477       0.0215673     -0.000368303     0.000268135         0.862175       -0.502233      0.000114756    -0.000355465
                    -0.000402305     0.000336539         0.021874      -0.0958173      0.000319974    -5.66751e-05        -0.490936        0.857242
                        0.862554       -0.502271       0.00042806    -0.000144972       0.00563021       0.0343419     -2.17285e-05     0.000357749
                     4.90418e-05    -0.000363272        -0.490517        0.857515     -0.000249389     0.000360707       -0.0713153       0.0695286
281702                 0.0265616        0.021548     -0.000368231     0.000268069         0.861979       -0.502569      0.000114583    -0.000355563
                    -0.000402034     0.000336612        0.0218314      -0.0958531      0.000319908    -5.68243e-05        -0.490518        0.857479
                        0.862359       -0.502607      0.000427888    -0.000145134       0.00563313       0.0343401      -2.1577e-05     0.000357743
                     4.89304e-05    -0.000363324        -0.490099        0.857752     -0.000249213     0.000360925       -0.0713008       0.0695791
281704                 0.0265755       0.0215287      -0.00036816     0.000268003         0.861783       -0.502905       0.00011441    -0.000355662
                    -0.000401764     0.000336685        0.0217887      -0.0958888       0.00031984    -5.69733e-05          -0.4901        0.857715
                        0.862163       -0.502943      0.000427716    -0.000145295       0.00563605       0.0343384     -2.14369e-05     0.000357727
                     4.88191e-05    -0.000363377         -0.48968        0.857989     -0.000249042     0.000361143       -0.0712863       0.0696296
281706                 0.0265893       0.0215093     -0.000368089     0.000267936         0.861587       -0.503241      0.000114237     -0.00035576
                    -0.000401493     0.000336758         0.021746      -0.0959245       0.00031977    -5.71226e-05        -0.489682        0.857951
                        0.861967       -0.503279      0.000427543    -0.000145456       0.00563896       0.0343366     -2.13059e-05     0.000357709
                      4.8708e-05     -0.00036343        -0.489261        0.858225     -0.000248874     0.000361362       -0.0712717       0.0696801
281708                 0.0266032         0.02149     -0.000368018     0.000267869         0.861391       -0.503576      0.000114065    -0.000355859
                    -0.000401222     0.000336831        0.0217033      -0.0959601      0.000319698    -5.72726e-05        -0.489264        0.858188
                        0.861772       -0.503614       0.00042737    -0.000145616       0.00564188       0.0343349     -2.11809e-05     0.000357693
                      4.8597e-05    -0.000363483        -0.488842        0.858462     -0.000248709     0.000361579       -0.0712571       0.0697307
281710                  0.026617       0.0214707     -0.000367947     0.000267802         0.861194       -0.503912      0.000113892    -0.000355957
                    -0.000400951     0.000336903        0.0216605      -0.0959958      0.000319626    -5.74237e-05        -0.488846        0.858423
                        0.861576        -0.50395      0.000427196    -0.000145775       0.00564479       0.0343332     -2.10595e-05     0.000357678
                     4.84862e-05    -0.000363536        -0.488423        0.858698     -0.000248546     0.000361797       -0.0712424       0.0697812
281712                 0.0266308       0.0214513     -0.000367877     0.000267734         0.860998       -0.504247      0.000113721    -0.000356056
                     -0.00040068     0.000336975        0.0216178      -0.0960314      0.000319552     -5.7576e-05        -0.488427        0.858659
                         0.86138       -0.504286      0.000427022    -0.000145933        0.0056477       0.0343315     -2.09404e-05     0.000357664
                     4.83756e-05    -0.000363589        -0.488003        0.858934     -0.000248385     0.000362014       -0.0712278       0.0698317
281714                 0.0266446        0.021432     -0.000367807     0.000267666         0.860801       -0.504583      0.000113551    -0.000356154
                    -0.000400409     0.000337047         0.021575       -0.096067      0.000319479    -5.77296e-05        -0.488008        0.858895
                        0.861184       -0.504621      0.000426847    -0.000146091       0.00565062       0.0343297     -2.08226e-05     0.000357652
                     4.82651e-05    -0.000363642        -0.487584        0.859169     -0.000248225     0.000362231        -0.071213       0.0698823
281716                 0.0266585       0.0214126     -0.000367737     0.000267597         0.860604       -0.504918      0.000113382    -0.000356253
                    -0.000400138     0.000337118        0.0215322      -0.0961026      0.000319405    -5.78844e-05         -0.48759         0.85913
                        0.860987       -0.504957      0.000426672    -0.000146248       0.00565353        0.034328     -2.07057e-05     0.000357641
                     4.81548e-05    -0.000363695        -0.487164        0.859405     -0.000248066     0.000362448       -0.0711983       0.0699328
281718                 0.0266723       0.0213932     -0.000367667     0.000267528         0.860407       -0.505253      0.000113217    -0.000356353
                    -0.000399867     0.000337189        0.0214894      -0.0961382      0.000319331    -5.80403e-05        -0.487171        0.859365
                        0.860791       -0.505292      0.000426497    -0.000146404       0.00565644       0.0343263     -2.05894e-05     0.000357631
                     4.80447e-05    -0.000363749        -0.486745         0.85964     -0.000247908     0.000362664       -0.0711835       0.0699834
281720                  0.026686       0.0213739     -0.000367598     0.000267459          0.86021       -0.505588      0.000113058    -0.000356453
                    -0.000399596      0.00033726        0.0214465      -0.0961737      0.000319257     -5.8197e-05        -0.486752          0.8596
                        0.860595       -0.505628      0.000426321    -0.000146559       0.00565935       0.0343246     -2.04734e-05     0.000357621
                     4.79347e-05    -0.000363802        -0.486325        0.859875     -0.000247751      0.00036288       -0.0711687       0.0700339
281722                 0.0266998       0.0213545     -0.000367529     0.000267389         0.860013       -0.505924      0.000112914    -0.000356557
                    -0.000399324     0.000337331        0.0214037      -0.0962093      0.000319184    -5.83543e-05        -0.486333        0.859834
                        0.860398       -0.505963      0.000426144    -0.000146714       0.00566226       0.0343229     -2.03577e-05     0.000357612
                     4.78249e-05    -0.000363856        -0.485905         0.86011     -0.000247594     0.000363096       -0.0711538       0.0700845
281724                 0.0267136       0.0213351      -0.00036746      0.00026732         0.859815       -0.506259      0.000112824    -0.000356667
                    -0.000399053     0.000337401        0.0213608      -0.0962448      0.000319112     -5.8512e-05        -0.485914        0.860069
                        0.860201       -0.506298      0.000425967    -0.000146868       0.00566516       0.0343212     -2.02422e-05     0.000357603
                     4.77152e-05     -0.00036391        -0.485485        0.860344     -0.000247437     0.000363311       -0.0711389       0.0701351
281726                 0.0267274       0.0213157     -0.000367392     0.000267249         0.859618       -0.506594      0.000113458    -0.000356617
                    -0.000398781     0.000337472        0.0213179      -0.0962803       0.00031904    -5.86699e-05        -0.485495        0.860303
                        0.860004       -0.506633       0.00042579    -0.000147021       0.00566807       0.0343195     -2.01268e-05     0.000357595
                     4.76058e-05    -0.000363964        -0.485065        0.860579     -0.000247281     0.000363527        -0.071124       0.0701857
281728                 0.0267411       0.0212963     -0.000367323     0.000267179          0.85942       -0.506929      0.000112002    -0.000356712
                    -0.000398509     0.000337542         0.021275      -0.0963157      0.000318968    -5.88279e-05        -0.485075        0.860537
                        0.859807       -0.506968      0.000425612    -0.000147174       0.00567098       0.0343179     -2.00115e-05     0.000357587
                     4.74964e-05    -0.000364018        -0.484645        0.860813     -0.000247126     0.000363742        -0.071109       0.0702363
281730                 0.0267549       0.0212769     -0.000367255     0.000267108         0.859223       -0.507263      0.000111979    -0.000356877
                    -0.000398237     0.000337611         0.021232      -0.0963512      0.000318897     -5.8986e-05        -0.484656        0.860771
                         0.85961       -0.507303      0.000425433    -0.000147325       0.00567388       0.0343162     -1.98962e-05     0.000357579
                     4.73873e-05    -0.000364072        -0.484225        0.861047      -0.00024697     0.000363956        -0.071094       0.0702869
281732                 0.0267686       0.0212575     -0.000367187     0.000267037         0.859025       -0.507598      0.000111847    -0.000356989
                    -0.000397965     0.000337681         0.021189      -0.0963866      0.000318826    -5.91439e-05        -0.484236        0.861005
                        0.859413       -0.507638      0.000425255    -0.000147477       0.00567679       0.0343145      -1.9781e-05     0.000357571
                     4.72783e-05    -0.000364126        -0.483805        0.861281     -0.000246814     0.000364171       -0.0710789       0.0703375
281734                 0.0267823       0.0212381      -0.00036712     0.000266965         0.858827       -0.507933      0.000111692    -0.000357092
                    -0.000397693      0.00033775        0.0211461       -0.096422      0.000318755    -5.93017e-05        -0.483817        0.861238
                        0.859215       -0.507973      0.000425076    -0.000147627       0.00567969       0.0343128     -1.96658e-05     0.000357563
                     4.71695e-05     -0.00036418        -0.483384        0.861514     -0.000246659     0.000364385       -0.0710638       0.0703881
281736                  0.026796       0.0212186     -0.000367053     0.000266894         0.858629       -0.508267      0.000111527    -0.000357191
                    -0.000397421     0.000337819        0.0211031      -0.0964574      0.000318685    -5.94594e-05        -0.483397        0.861471
                        0.859018       -0.508308      0.000424896    -0.000147777       0.00568259       0.0343111     -1.95507e-05     0.000357556
                     4.70608e-05    -0.000364234        -0.482964        0.861748     -0.000246504     0.000364599       -0.0710487       0.0704387
281738                 0.0268097       0.0211992     -0.000366986     0.000266822          0.85843       -0.508602      0.000111358    -0.000357289
                    -0.000397149     0.000337888          0.02106      -0.0964927      0.000318615    -5.96169e-05        -0.482977        0.861704
                         0.85882       -0.508643      0.000424716    -0.000147926       0.00568549       0.0343095     -1.94356e-05     0.000357548
                     4.69523e-05    -0.000364289        -0.482543        0.861981     -0.000246348     0.000364813       -0.0710335       0.0704894
281740                 0.0268234       0.0211797     -0.000366919      0.00026675         0.858232       -0.508936      0.000111187    -0.000357386
                    -0.000396877     0.000337956         0.021017      -0.0965281      0.000318545    -5.97742e-05        -0.482557        0.861937
                        0.858622       -0.508977      0.000424536    -0.000148075       0.00568839       0.0343078     -1.93205e-05     0.000357541
                      4.6844e-05    -0.000364344        -0.482122        0.862214     -0.000246193     0.000365027       -0.0710183         0.07054
281742                 0.0268371       0.0211603     -0.000366852     0.000266677         0.858033       -0.509271      0.000111014    -0.000357482
                    -0.000396604     0.000338024        0.0209739      -0.0965634      0.000318475    -5.99313e-05        -0.482137        0.862169
                        0.858424       -0.509312      0.000424355    -0.000148222       0.00569129       0.0343062     -1.92054e-05     0.000357533
                     4.67358e-05    -0.000364398        -0.481701        0.862446     -0.000246037     0.000365241       -0.0710031       0.0705907
281744                 0.0268508       0.0211408     -0.000366786     0.000266605         0.857835       -0.509605       0.00011084    -0.000357578
                    -0.000396332     0.000338092        0.0209308      -0.0965987      0.000318405    -6.00881e-05        -0.481717        0.862402
                        0.858226       -0.509646      0.000424174     -0.00014837       0.00569419       0.0343045     -1.90903e-05     0.000357526
                     4.66278e-05    -0.000364453         -0.48128        0.862679     -0.000245882     0.000365454       -0.0709878       0.0706413
281746                 0.0268644       0.0211214      -0.00036672     0.000266532         0.857636       -0.509939      0.000110665    -0.000357674
                    -0.000396059      0.00033816        0.0208877       -0.096634      0.000318335    -6.02448e-05        -0.481296        0.862634
                        0.858028       -0.509981      0.000423992    -0.000148516       0.00569709       0.0343029     -1.89752e-05     0.000357518
                       4.652e-05    -0.000364508        -0.480859        0.862911     -0.000245726     0.000365667       -0.0709725        0.070692
281748                 0.0268781       0.0211019     -0.000366654     0.000266459         0.857437       -0.510273      0.000110489    -0.000357769
                    -0.000395787     0.000338227        0.0208446      -0.0966692      0.000318265    -6.04012e-05        -0.480876        0.862866
                        0.857829       -0.510315       0.00042381    -0.000148662       0.00569999       0.0343012     -1.88602e-05     0.000357511
                     4.64123e-05    -0.000364563        -0.480438        0.863143      -0.00024557      0.00036588       -0.0709571       0.0707426
281750                 0.0268918       0.0210824     -0.000366589     0.000266385         0.857238       -0.510607      0.000110313    -0.000357864
                    -0.000395514     0.000338295        0.0208014      -0.0967045      0.000318195    -6.05574e-05        -0.480456        0.863098
                        0.857631       -0.510649      0.000423627    -0.000148807       0.00570288       0.0342996     -1.87452e-05     0.000357504
                     4.63048e-05    -0.000364618        -0.480017        0.863375     -0.000245414     0.000366093       -0.0709418       0.0707933
281752                 0.0269054       0.0210629     -0.000366524     0.000266312         0.857039       -0.510941      0.000110137    -0.000357958
                    -0.000395242     0.000338362        0.0207583      -0.0967397      0.000318125    -6.07134e-05        -0.480035        0.863329
                        0.857432       -0.510984      0.000423445    -0.000148952       0.00570578        0.034298     -1.86301e-05     0.000357496
                     4.61974e-05    -0.000364673        -0.479595        0.863607     -0.000245258     0.000366306       -0.0709263        0.070844
281754                  0.026919       0.0210434     -0.000366459     0.000266238         0.856839       -0.511275       0.00010996    -0.000358053
                     -0.00039497     0.000338429        0.0207151      -0.0967749      0.000318055    -6.08692e-05        -0.479614         0.86356
                        0.857234       -0.511318      0.000423262    -0.000149096       0.00570868       0.0342963     -1.85151e-05     0.000357489
                     4.60902e-05    -0.000364729        -0.479174        0.863838     -0.000245102     0.000366519       -0.0709109       0.0708947
281756                 0.0269326       0.0210239     -0.000366394     0.000266164          0.85664       -0.511609      0.000109783    -0.000358147
                    -0.000394699     0.000338497        0.0206719      -0.0968101      0.000317985    -6.10248e-05        -0.479193        0.863791
                        0.857035       -0.511652      0.000423078    -0.000149239       0.00571157       0.0342947     -1.84002e-05     0.000357481
                     4.59831e-05    -0.000364785        -0.478752        0.864069     -0.000244945     0.000366731       -0.0708954       0.0709454
281758                 0.0269463       0.0210044     -0.000366329      0.00026609          0.85644       -0.511943      0.000109605    -0.000358241
                    -0.000394432     0.000338568        0.0206286      -0.0968452      0.000317915    -6.11802e-05        -0.478772        0.864022
                        0.856836       -0.511986      0.000422894    -0.000149382       0.00571446       0.0342931     -1.82852e-05     0.000357474
                     4.58761e-05    -0.000364841         -0.47833          0.8643     -0.000244789     0.000366944       -0.0708798       0.0709961
281760                 0.0269599       0.0209849     -0.000366265     0.000266016         0.856241       -0.512277      0.000109428    -0.000358335
                    -0.000394171     0.000338669        0.0205854      -0.0968803      0.000317845    -6.13354e-05        -0.478351        0.864253
                        0.856636        -0.51232       0.00042271    -0.000149524       0.00571735       0.0342915     -1.81703e-05     0.000357466
                     4.57683e-05      -0.0003649        -0.477909        0.864531     -0.000244632     0.000367156       -0.0708643       0.0710468
281762                 0.0269734       0.0209654     -0.000366201     0.000265942         0.856041        -0.51261       0.00010925    -0.000358429
                    -0.000393831     0.000338696        0.0205421      -0.0969155      0.000317776    -6.14903e-05         -0.47793        0.864484
                        0.856438       -0.512653      0.000422525    -0.000149665       0.00572025       0.0342899     -1.80553e-05     0.000357458
