! TOUCHSTONE file generated by CST MICROWAVE STUDIO
! Date and time: Tue Oct 14 07:25:02 2025
! Project name: Teste_Macro_Metasurface_Nanopilar.cst
! Parameters = {H=600; L_x=70; L_y=190; Lambda=1064; Max_L=200; Min_L=70; PathPara=1; Phi=0; Step_L=10; Theta=0; p=520; phaseX=180; phaseY=0}
! Header version: 2018
! Port assignment regex: !\s*Touchstone port\s*([0-9]+)\s*=\s*(CST MWS port|CST DS port)\s*([0-9]+|Zmin|Zmax)\s*\(\"(.*)\"\)(\s*mode\s*([0-9]+))?.*
! Touchstone port assignment:
! Touchstone port 1 = CST MWS port Zmax ("") mode 1
! Touchstone port 2 = CST MWS port Zmax ("") mode 2
! Touchstone port 3 = CST MWS port Zmin ("") mode 1
! Touchstone port 4 = CST MWS port Zmin ("") mode 2
! S-Parameters are not renormalized. Each port impedance will be approximated by the real part at minimum frequency. The values are described via the [Reference] keyword.
! Default impedance is overridden by [Reference]
[Version] 2.0
# GHz S RI R 376.73
[Number of Ports] 4
[Reference]
376.73 376.73 259.814 259.814 
[Number of Frequencies] 51
[Network Data]
281700                0.00153453       -0.205784      0.000107287     0.000119658        -0.081855        0.968392      1.57586e-05     0.000285354
                      5.2022e-06     3.84153e-05      -0.00443195       0.0931711     -0.000346103    -3.55532e-05          0.98152       -0.162784
                      -0.0818527        0.968271     -0.000305075     8.92345e-05       -0.0308357        0.203408      -0.00012649     7.29695e-05
                    -3.12194e-05     0.000279202         0.981767       -0.162575     -0.000109718    -0.000127756        0.0341812       0.0869699
281702                0.00145683       -0.205821       0.00010731     0.000119794       -0.0813858        0.968424      1.58737e-05     0.000285412
                      5.2501e-06     3.85281e-05      -0.00439672       0.0931685     -0.000346198    -3.53628e-05         0.981461       -0.163146
                      -0.0813836        0.968303     -0.000305029     8.95785e-05       -0.0307216        0.203462     -0.000126493     7.31264e-05
                    -3.09873e-05     0.000279419         0.981708       -0.162938     -0.000109836    -0.000127638         0.034211       0.0869535
281704                 0.0013791       -0.205859      0.000107332      0.00011993       -0.0809165        0.968455      1.59888e-05     0.000285469
                      5.2982e-06     3.86409e-05       -0.0043615       0.0931659     -0.000346294    -3.51724e-05         0.981401       -0.163508
                      -0.0809145        0.968335     -0.000304983     8.99227e-05       -0.0306075        0.203517     -0.000126496     7.32832e-05
                    -3.07552e-05     0.000279637         0.981648         -0.1633     -0.000109955    -0.000127519        0.0342408       0.0869372
281706                0.00130136       -0.205897      0.000107355     0.000120066       -0.0804473        0.968487      1.61042e-05     0.000285527
                      5.3465e-06     3.87537e-05      -0.00432627       0.0931632     -0.000346389    -3.49821e-05         0.981341        -0.16387
                      -0.0804453        0.968366     -0.000304937     9.02674e-05       -0.0304933        0.203571     -0.000126499     7.34399e-05
                     -3.0523e-05     0.000279855         0.981588       -0.163662     -0.000110074      -0.0001274        0.0342707       0.0869209
281708                0.00122358       -0.205934      0.000107378     0.000120203        -0.079978        0.968518      1.62196e-05     0.000285584
                       5.395e-06     3.88666e-05      -0.00429105       0.0931606     -0.000346485    -3.47917e-05         0.981281       -0.164232
                      -0.0799761        0.968398     -0.000304891     9.06123e-05        -0.030379        0.203625     -0.000126502     7.35966e-05
                    -3.02906e-05     0.000280073         0.981528       -0.164024     -0.000110193    -0.000127281        0.0343005       0.0869045
281710                0.00114579       -0.205972        0.0001074     0.000120339       -0.0795088        0.968548      1.63352e-05     0.000285641
                     5.44369e-06     3.89796e-05      -0.00425583       0.0931579     -0.000346581    -3.46013e-05         0.981221       -0.164593
                       -0.079507        0.968429     -0.000304846     9.09576e-05       -0.0302647        0.203679     -0.000126504     7.37532e-05
                    -3.00582e-05     0.000280291         0.981468       -0.164386     -0.000110312    -0.000127162        0.0343303       0.0868881
281712                0.00106796       -0.206009      0.000107423     0.000120476       -0.0790395        0.968579       1.6451e-05     0.000285698
                     5.49258e-06     3.90927e-05      -0.00422061       0.0931552     -0.000346677    -3.44109e-05         0.981161       -0.164955
                      -0.0790378         0.96846     -0.000304801     9.13032e-05       -0.0301503        0.203733     -0.000126506     7.39097e-05
                    -2.98256e-05     0.000280509         0.981408       -0.164748     -0.000110431    -0.000127043        0.0343601       0.0868717
281714                0.00099012       -0.206047      0.000107445     0.000120614       -0.0785702        0.968609       1.6567e-05     0.000285755
                     5.54166e-06     3.92058e-05      -0.00418539       0.0931525     -0.000346773    -3.42206e-05           0.9811       -0.165317
                      -0.0785686        0.968491     -0.000304756     9.16491e-05       -0.0300359        0.203787     -0.000126508     7.40662e-05
                     -2.9593e-05     0.000280728         0.981348        -0.16511      -0.00011055    -0.000126924        0.0343899       0.0868554
281716               0.000912251       -0.206084      0.000107468     0.000120751       -0.0781009        0.968639      1.66833e-05     0.000285812
                     5.59094e-06      3.9319e-05      -0.00415018       0.0931498     -0.000346869    -3.40302e-05          0.98104       -0.165679
                      -0.0780994        0.968521     -0.000304712     9.19954e-05       -0.0299214        0.203841      -0.00012651     7.42227e-05
                    -2.93602e-05     0.000280946         0.981287       -0.165472     -0.000110669    -0.000126804        0.0344196        0.086839
281718               0.000834358       -0.206122       0.00010749     0.000120888       -0.0776316        0.968669      1.68001e-05     0.000285869
                     5.64042e-06     3.94322e-05      -0.00411497       0.0931471     -0.000346965    -3.38398e-05         0.980979        -0.16604
                      -0.0776301        0.968552     -0.000304667     9.23419e-05       -0.0298068        0.203895     -0.000126511     7.43792e-05
                    -2.91273e-05     0.000281165         0.981227       -0.165834     -0.000110788    -0.000126684        0.0344494       0.0868226
281720                0.00075644       -0.206159      0.000107512     0.000121026       -0.0771622        0.968698      1.69173e-05     0.000285926
                     5.69009e-06     3.95455e-05      -0.00407975       0.0931444     -0.000347061    -3.36494e-05         0.980918       -0.166402
                      -0.0771609        0.968582     -0.000304623     9.26888e-05       -0.0296922        0.203948     -0.000126513     7.45357e-05
                    -2.88943e-05     0.000281383         0.981166       -0.166196     -0.000110908    -0.000126564        0.0344792       0.0868061
281722               0.000678499       -0.206196      0.000107535     0.000121164       -0.0766929        0.968728      1.70353e-05     0.000285984
                     5.73995e-06     3.96589e-05      -0.00404454       0.0931417     -0.000347157     -3.3459e-05         0.980857       -0.166764
                      -0.0766917        0.968612     -0.000304579      9.3036e-05       -0.0295776        0.204002     -0.000126513     7.46921e-05
                    -2.86613e-05     0.000281602         0.981105       -0.166558     -0.000111027    -0.000126444        0.0345089       0.0867897
281724               0.000600534       -0.206234      0.000107557     0.000121302       -0.0762236        0.968757      1.71535e-05     0.000286044
                     5.79001e-06     3.97723e-05      -0.00400934       0.0931389     -0.000347253    -3.32686e-05         0.980796       -0.167125
                      -0.0762224        0.968641     -0.000304536     9.33834e-05       -0.0294629        0.204056     -0.000126513     7.48485e-05
                    -2.84281e-05     0.000281821         0.981044        -0.16692     -0.000111146    -0.000126324        0.0345387       0.0867733
281726               0.000522544       -0.206271      0.000107579      0.00012144       -0.0757542        0.968786      1.72701e-05     0.000286106
                     5.84027e-06     3.98857e-05      -0.00397413       0.0931361     -0.000347349    -3.30782e-05         0.980735       -0.167487
                      -0.0757532        0.968671     -0.000304492     9.37312e-05       -0.0293481        0.204109     -0.000126512     7.50047e-05
                    -2.81948e-05      0.00028204         0.980983       -0.167282     -0.000111265    -0.000126203        0.0345684       0.0867568
281728               0.000444531       -0.206308      0.000107601     0.000121579       -0.0752849        0.968814      1.73821e-05     0.000286167
                     5.89072e-06     3.99993e-05      -0.00393893       0.0931333     -0.000347446    -3.28878e-05         0.980674       -0.167848
                      -0.0752839          0.9687     -0.000304449     9.40793e-05       -0.0292333        0.204163     -0.000126511     7.51603e-05
                    -2.79614e-05     0.000282259         0.980922       -0.167644     -0.000111385    -0.000126083        0.0345982       0.0867404
281730               0.000366493       -0.206346      0.000107623     0.000121718       -0.0748155        0.968843      1.74924e-05     0.000286225
                     5.94137e-06     4.01129e-05      -0.00390372       0.0931306     -0.000347542    -3.26974e-05         0.980612        -0.16821
                      -0.0748146        0.968729     -0.000304406     9.44277e-05       -0.0291184        0.204216     -0.000126507     7.53142e-05
                    -2.77278e-05     0.000282479          0.98086       -0.168006     -0.000111504    -0.000125962        0.0346279       0.0867239
281732               0.000288432       -0.206383      0.000107645     0.000121856       -0.0743461        0.968871      1.76049e-05     0.000286279
                     5.99221e-06     4.02265e-05      -0.00386852       0.0931277     -0.000347639    -3.25071e-05          0.98055       -0.168571
                      -0.0743453        0.968758     -0.000304364     9.47764e-05       -0.0290034         0.20427     -0.000126504     7.54649e-05
                    -2.74942e-05     0.000282698         0.980799       -0.168368     -0.000111623    -0.000125841        0.0346576       0.0867074
281734               0.000210346        -0.20642      0.000107666     0.000121995       -0.0738767        0.968899      1.77194e-05     0.000286333
                     6.04324e-06     4.03402e-05      -0.00383332       0.0931249     -0.000347735    -3.23168e-05         0.980489       -0.168933
                       -0.073876        0.968786     -0.000304321     9.51253e-05       -0.0288884        0.204323     -0.000126503     7.56118e-05
                    -2.72605e-05     0.000282918         0.980737       -0.168729     -0.000111743     -0.00012572        0.0346873       0.0866909
281736               0.000132236       -0.206457      0.000107688     0.000122135       -0.0734073        0.968927       1.7835e-05     0.000286388
                     6.09447e-06     4.04539e-05      -0.00379813       0.0931221     -0.000347832    -3.21266e-05         0.980427       -0.169294
                      -0.0734067        0.968814     -0.000304279     9.54746e-05       -0.0287734        0.204376     -0.000126508     7.57585e-05
                    -2.70267e-05     0.000283137         0.980675       -0.169091     -0.000111862    -0.000125599         0.034717       0.0866744
281738               5.41025e-05       -0.206494       0.00010771     0.000122274       -0.0729379        0.968954       1.7951e-05     0.000286443
                     6.14589e-06     4.05677e-05      -0.00376293       0.0931192     -0.000347928    -3.19367e-05         0.980365       -0.169656
                      -0.0729374        0.968842     -0.000304237     9.58241e-05       -0.0286583        0.204429     -0.000126516     7.59093e-05
                    -2.67927e-05     0.000283357         0.980613       -0.169453     -0.000111982    -0.000125478        0.0347467       0.0866579
281740              -2.40552e-05       -0.206532      0.000107731     0.000122414       -0.0724685        0.968982      1.80673e-05     0.000286498
                      6.1975e-06     4.06816e-05      -0.00372774       0.0931164     -0.000348025    -3.17473e-05         0.980303       -0.170017
                       -0.072468         0.96887     -0.000304196     9.61739e-05       -0.0285431        0.204483     -0.000126524     7.60641e-05
                    -2.65587e-05     0.000283577         0.980551       -0.169815     -0.000112101    -0.000125358        0.0347764       0.0866414
281742              -0.000102237       -0.206569      0.000107753     0.000122554       -0.0719991        0.969009      1.81838e-05     0.000286553
                     6.24931e-06     4.07955e-05      -0.00369255       0.0931135      -0.00034812    -3.15598e-05          0.98024       -0.170379
                      -0.0719987        0.968898     -0.000304155      9.6524e-05       -0.0284279        0.204536      -0.00012653     7.62206e-05
                    -2.63245e-05     0.000283797         0.980489       -0.170177      -0.00011222    -0.000125239         0.034806       0.0866249
281744              -0.000180443       -0.206606      0.000107774     0.000122693       -0.0715297        0.969035      1.83004e-05     0.000286608
                     6.30131e-06     4.09094e-05      -0.00365736       0.0931106     -0.000348201    -3.13822e-05         0.980178        -0.17074
                      -0.0715293        0.968925     -0.000304114     9.68744e-05       -0.0283126        0.204589     -0.000126534     7.63776e-05
                    -2.60903e-05     0.000284017         0.980426       -0.170538     -0.000112331    -0.000125128        0.0348357       0.0866084
281746              -0.000258672       -0.206643      0.000107796     0.000122834       -0.0710601        0.969062       1.8417e-05     0.000286663
                      6.3535e-06     4.10234e-05      -0.00362217       0.0931077     -0.000348318    -3.11502e-05         0.980115       -0.171102
                        -0.07106        0.968952     -0.000304073     9.72251e-05       -0.0281973        0.204642     -0.000126537     7.65345e-05
                    -2.58559e-05     0.000284237         0.980364         -0.1709     -0.000112439    -0.000124966        0.0348654       0.0865918
281748              -0.000336926        -0.20668      0.000107817     0.000122974       -0.0705907        0.969088      1.85338e-05     0.000286718
                     6.40589e-06     4.11374e-05      -0.00358698       0.0931048     -0.000348417    -3.09716e-05         0.980053       -0.171463
                      -0.0705906        0.968979     -0.000304033     9.75762e-05       -0.0280819        0.204695      -0.00012654     7.66913e-05
                    -2.56214e-05     0.000284458         0.980301       -0.171262     -0.000112575    -0.000124852         0.034895       0.0865753
281750              -0.000415204       -0.206717      0.000107839     0.000123114       -0.0701212        0.969115      1.86506e-05     0.000286773
                     6.45846e-06     4.12515e-05       -0.0035518       0.0931019     -0.000348514    -3.07835e-05          0.97999       -0.171824
                      -0.0701212        0.969006     -0.000303992     9.79285e-05       -0.0279665        0.204747     -0.000126542      7.6848e-05
                    -2.53868e-05     0.000284678         0.980239       -0.171623     -0.000112697    -0.000124732        0.0349247       0.0865587
281752              -0.000493506       -0.206754       0.00010786     0.000123255       -0.0696518         0.96914      1.87675e-05     0.000286829
                     6.51123e-06     4.13657e-05      -0.00351662        0.093099     -0.000348611    -3.05938e-05         0.979927       -0.172186
                      -0.0696519        0.969032     -0.000303952     9.82762e-05       -0.0278509          0.2048     -0.000126545     7.70045e-05
                    -2.51521e-05     0.000284899         0.980176       -0.171985     -0.000112817    -0.000124611        0.0349543       0.0865421
281754              -0.000571831       -0.206791      0.000107881     0.000123395       -0.0691823        0.969166      1.88844e-05     0.000286883
                     6.56419e-06     4.14798e-05      -0.00348144        0.093096     -0.000348708    -3.04035e-05         0.979864       -0.172547
                      -0.0691825        0.969058     -0.000303913     9.86289e-05       -0.0277354        0.204853     -0.000126547      7.7161e-05
                    -2.49173e-05     0.000285119         0.980113       -0.172346     -0.000112937    -0.000124488        0.0349839       0.0865255
281756              -0.000650181       -0.206828      0.000107902     0.000123536       -0.0687128        0.969192      1.90015e-05     0.000286938
                     6.61734e-06     4.15941e-05      -0.00344626        0.093093     -0.000348805    -3.02129e-05           0.9798       -0.172908
                      -0.0687131        0.969084     -0.000303874      9.8981e-05       -0.0276198        0.204906     -0.000126549     7.73174e-05
                    -2.46824e-05      0.00028534         0.980049       -0.172708     -0.000113057    -0.000124365        0.0350136        0.086509
281758              -0.000728554       -0.206865      0.000107922     0.000123678       -0.0682433        0.969217      1.91186e-05     0.000286993
                     6.67068e-06     4.17084e-05      -0.00341108       0.0930901     -0.000348903     -3.0022e-05         0.979737       -0.173269
                      -0.0682437         0.96911     -0.000303835     9.93332e-05       -0.0275041        0.204958     -0.000126551     7.74739e-05
                    -2.44474e-05     0.000285561         0.979986        -0.17307     -0.000113177    -0.000124241        0.0350432       0.0864924
281760              -0.000806952       -0.206902      0.000107943     0.000123819       -0.0677738        0.969242      1.92358e-05     0.000287048
                     6.72421e-06     4.18227e-05      -0.00337591       0.0930871     -0.000349001    -2.98311e-05         0.979674       -0.173631
                      -0.0677742        0.969136     -0.000303796     9.96855e-05       -0.0273884        0.205011     -0.000126553     7.76304e-05
                    -2.42123e-05     0.000285782         0.979923       -0.173431     -0.000113297    -0.000124117        0.0350728       0.0864757
281762              -0.000885373       -0.206939      0.000107964     0.000123961       -0.0673043        0.969266      1.93531e-05     0.000287102
                     6.77792e-06      4.1937e-05      -0.00334073       0.0930841     -0.000349098      -2.964e-05          0.97961       -0.173992
                      -0.0673048        0.969161     -0.000303758     0.000100038       -0.0272726        0.205063     -0.000126555      7.7787e-05
