! TOUCHSTONE file generated by CST MICROWAVE STUDIO
! Date and time: Tue Oct 14 07:25:27 2025
! Project name: Teste_Macro_Metasurface_Nanopilar.cst
! Parameters = {H=600; L_x=80; L_y=95; Lambda=1064; Max_L=200; Min_L=70; PathPara=1; Phi=0; Step_L=10; Theta=0; p=520; phaseX=180; phaseY=0}
! Header version: 2018
! Port assignment regex: !\s*Touchstone port\s*([0-9]+)\s*=\s*(CST MWS port|CST DS port)\s*([0-9]+|Zmin|Zmax)\s*\(\"(.*)\"\)(\s*mode\s*([0-9]+))?.*
! Touchstone port assignment:
! Touchstone port 1 = CST MWS port Zmax ("") mode 1
! Touchstone port 2 = CST MWS port Zmax ("") mode 2
! Touchstone port 3 = CST MWS port Zmin ("") mode 1
! Touchstone port 4 = CST MWS port Zmin ("") mode 2
! S-Parameters are not renormalized. Each port impedance will be approximated by the real part at minimum frequency. The values are described via the [Reference] keyword.
! Default impedance is overridden by [Reference]
[Version] 2.0
# GHz S RI R 376.73
[Number of Ports] 4
[Reference]
376.73 376.73 259.814 259.814 
[Number of Frequencies] 51
[Network Data]
281700                -0.0125091       0.0836043      2.70623e-05      8.2672e-05         0.983776       -0.153657      8.98746e-05     0.000185734
                     -3.2837e-05      7.4987e-05       -0.0325901        0.113012     -7.45099e-05     0.000170652         0.992093       0.0314365
                        0.983685       -0.153411      3.10797e-05      0.00027146        0.0372228       0.0759829      0.000140664     0.000111543
                     2.81216e-05     0.000194536         0.992221       0.0314382     -1.31421e-05     5.17054e-05         0.025273        0.114918
281702                -0.0124777       0.0836034      2.71049e-05     8.26677e-05         0.983719       -0.154023      8.98981e-05     0.000185679
                    -3.27735e-05     7.50732e-05       -0.0325504         0.11302     -7.44174e-05     0.000170737         0.992104       0.0310756
                        0.983629       -0.153776      3.12199e-05     0.000271451        0.0372489       0.0759639      0.000140716     0.000111512
                     2.82276e-05     0.000194606         0.992232       0.0310772     -1.30944e-05     5.17786e-05        0.0253165        0.114904
281704                -0.0124463       0.0836023      2.71476e-05     8.26635e-05         0.983662       -0.154389      8.99212e-05     0.000185625
                    -3.27099e-05     7.51594e-05       -0.0325106        0.113027     -7.43248e-05     0.000170822         0.992116       0.0307147
                        0.983572       -0.154142        3.136e-05     0.000271441        0.0372751       0.0759448      0.000140768     0.000111481
                     2.83337e-05     0.000194676         0.992244       0.0307161     -1.30464e-05     5.18517e-05          0.02536        0.114891
281706                -0.0124149       0.0836013      2.71901e-05     8.26592e-05         0.983605       -0.154755       8.9944e-05      0.00018557
                    -3.26461e-05     7.52454e-05       -0.0324709        0.113035     -7.42321e-05     0.000170906         0.992128       0.0303538
                        0.983515       -0.154508      3.15001e-05     0.000271432        0.0373013       0.0759257      0.000140819     0.000111449
                     2.84399e-05     0.000194746         0.992255       0.0303551     -1.29983e-05     5.19248e-05        0.0254034        0.114877
281708                -0.0123835       0.0836003      2.72327e-05     8.26549e-05         0.983548        -0.15512      8.99664e-05     0.000185515
                    -3.25822e-05     7.53315e-05       -0.0324311        0.113042     -7.41391e-05     0.000170991         0.992139       0.0299928
                        0.983458       -0.154873        3.164e-05     0.000271422        0.0373275       0.0759066      0.000140871     0.000111418
                     2.85463e-05     0.000194816         0.992267        0.029994       -1.295e-05     5.19979e-05        0.0254469        0.114864
281710                -0.0123521       0.0835993      2.72752e-05     8.26506e-05         0.983491       -0.155486      8.99884e-05     0.000185461
                    -3.25181e-05     7.54175e-05       -0.0323914        0.113049      -7.4046e-05     0.000171076          0.99215       0.0296319
                        0.983401       -0.155239      3.17799e-05     0.000271412        0.0373536       0.0758875      0.000140922     0.000111387
                     2.86527e-05     0.000194886         0.992278        0.029633     -1.29015e-05      5.2071e-05        0.0254903         0.11485
281712                -0.0123207       0.0835982      2.73177e-05     8.26463e-05         0.983433       -0.155851        9.001e-05     0.000185406
                    -3.24539e-05     7.55034e-05       -0.0323516        0.113057     -7.39528e-05      0.00017116         0.992161       0.0292709
                        0.983344       -0.155604      3.19196e-05     0.000271402        0.0373797       0.0758683      0.000140972     0.000111356
                     2.87591e-05     0.000194956         0.992289       0.0292719     -1.28529e-05      5.2144e-05        0.0255338        0.114837
281714                -0.0122893       0.0835971      2.73601e-05     8.26419e-05         0.983376       -0.156217      9.00312e-05     0.000185351
                    -3.23895e-05     7.55893e-05       -0.0323119        0.113064     -7.38593e-05     0.000171245         0.992172         0.02891
                        0.983286        -0.15597      3.20593e-05     0.000271392        0.0374059       0.0758492      0.000141022     0.000111325
                     2.88657e-05     0.000195025           0.9923       0.0289109      -1.2804e-05      5.2217e-05        0.0255772        0.114823
281716                -0.0122579       0.0835961      2.74025e-05     8.26375e-05         0.983318       -0.156583      9.00519e-05     0.000185297
                     -3.2325e-05     7.56751e-05       -0.0322721        0.113072     -7.37657e-05     0.000171329         0.992183       0.0285491
                        0.983229       -0.156335       3.2199e-05     0.000271381         0.037432       0.0758301      0.000141072     0.000111294
                     2.89724e-05     0.000195095         0.992311       0.0285498      -1.2755e-05     5.22899e-05        0.0256206        0.114809
281718                -0.0122265        0.083595      2.74449e-05     8.26332e-05          0.98326       -0.156948      9.00723e-05     0.000185243
                    -3.22603e-05     7.57609e-05       -0.0322324        0.113079     -7.36719e-05     0.000171414         0.992194       0.0281881
                        0.983171       -0.156701      3.23385e-05     0.000271371        0.0374581       0.0758109      0.000141122     0.000111263
                     2.90792e-05     0.000195164         0.992321       0.0281887     -1.27058e-05     5.23629e-05         0.025664        0.114796
281720                -0.0121951       0.0835939      2.74872e-05     8.26287e-05         0.983202       -0.157314      9.00924e-05     0.000185189
                    -3.21955e-05     7.58466e-05       -0.0321926        0.113087      -7.3578e-05     0.000171498         0.992205       0.0278271
                        0.983114       -0.157066      3.24779e-05     0.000271361        0.0374842       0.0757918      0.000141171     0.000111233
                      2.9186e-05     0.000195234         0.992332       0.0278276     -1.26564e-05     5.24358e-05        0.0257074        0.114782
281722                -0.0121637       0.0835928      2.75295e-05     8.26243e-05         0.983144       -0.157679      9.01122e-05     0.000185136
                    -3.21305e-05     7.59323e-05       -0.0321529        0.113094     -7.34839e-05     0.000171582         0.992215       0.0274662
                        0.983056       -0.157432      3.26173e-05      0.00027135        0.0375103       0.0757726       0.00014122     0.000111202
                     2.92929e-05     0.000195303         0.992342       0.0274666     -1.26068e-05     5.25086e-05        0.0257509        0.114769
281724                -0.0121323       0.0835916      2.75718e-05     8.26199e-05         0.983086       -0.158045       9.0132e-05     0.000185084
                    -3.20654e-05     7.60179e-05       -0.0321131        0.113101     -7.33896e-05     0.000171667         0.992225       0.0271052
                        0.982998       -0.157797      3.27566e-05     0.000271339        0.0375364       0.0757534      0.000141268     0.000111171
                     2.93999e-05     0.000195372         0.992352       0.0271055     -1.25571e-05     5.25814e-05        0.0257942        0.114755
281726                -0.0121009       0.0835905       2.7614e-05     8.26154e-05         0.983028        -0.15841      9.01517e-05     0.000185031
                    -3.20001e-05     7.61035e-05       -0.0320734        0.113109     -7.32951e-05     0.000171751         0.992236       0.0267442
                        0.982939       -0.158163      3.28958e-05     0.000271328        0.0375624       0.0757342      0.000141317     0.000111141
                      2.9507e-05     0.000195442         0.992363       0.0267444     -1.25071e-05     5.26542e-05        0.0258376        0.114741
281728                -0.0120695       0.0835894      2.76561e-05     8.26109e-05         0.982969       -0.158776      9.01715e-05     0.000184979
                    -3.19347e-05      7.6189e-05       -0.0320336        0.113116     -7.32005e-05     0.000171835         0.992246       0.0263833
                        0.982881       -0.158528      3.30349e-05     0.000271317        0.0375885       0.0757151      0.000141365      0.00011111
                     2.96142e-05     0.000195511         0.992373       0.0263833     -1.24569e-05      5.2727e-05         0.025881        0.114728
281730                -0.0120382       0.0835882      2.76983e-05     8.26064e-05         0.982911       -0.159141      9.01914e-05     0.000184928
                    -3.18691e-05     7.62744e-05       -0.0319938        0.113123     -7.31056e-05     0.000171919         0.992256       0.0260223
                        0.982823       -0.158894      3.31739e-05     0.000271306        0.0376146       0.0756959      0.000141412      0.00011108
                     2.97215e-05      0.00019558         0.992382       0.0260222     -1.24066e-05     5.27997e-05        0.0259244        0.114714
281732                -0.0120068        0.083587      2.77404e-05     8.26019e-05         0.982852       -0.159507      9.02115e-05     0.000184877
                    -3.18034e-05     7.63598e-05       -0.0319541        0.113131     -7.30107e-05     0.000172003         0.992266       0.0256613
                        0.982764       -0.159259      3.33128e-05     0.000271294        0.0376406       0.0756766       0.00014146     0.000111049
                     2.98288e-05     0.000195649         0.992392       0.0256611     -1.23561e-05     5.28723e-05        0.0259678          0.1147
281734                -0.0119754       0.0835858      2.77824e-05     8.25973e-05         0.982793       -0.159872      9.02318e-05     0.000184826
                    -3.17376e-05     7.64452e-05       -0.0319143        0.113138     -7.29155e-05     0.000172087         0.992275       0.0253003
                        0.982705       -0.159624      3.34516e-05     0.000271283        0.0376666       0.0756574      0.000141507     0.000111019
                     2.99362e-05     0.000195718         0.992402          0.0253     -1.23054e-05      5.2945e-05        0.0260111        0.114687
281736                 -0.011944       0.0835846      2.78244e-05     8.25927e-05         0.982734       -0.160238      9.02524e-05     0.000184775
                    -3.16716e-05     7.65305e-05       -0.0318745        0.113145     -7.28202e-05     0.000172171         0.992285       0.0249393
                        0.982646        -0.15999      3.35904e-05     0.000271271        0.0376927       0.0756382      0.000141554     0.000110989
                     3.00437e-05     0.000195787         0.992411       0.0249389     -1.22545e-05     5.30176e-05        0.0260545        0.114673
281738                -0.0119126       0.0835834      2.78663e-05     8.25881e-05         0.982675       -0.160603      9.02732e-05     0.000184724
                    -3.16055e-05     7.66157e-05       -0.0318348        0.113152     -7.27247e-05     0.000172254         0.992294       0.0245783
                        0.982587       -0.160355       3.3729e-05      0.00027126        0.0377187        0.075619        0.0001416     0.000110959
                     3.01513e-05     0.000195855         0.992421       0.0245777     -1.22034e-05     5.30901e-05        0.0260978        0.114659
281740                -0.0118813       0.0835822      2.79082e-05     8.25835e-05         0.982616       -0.160968      9.02943e-05     0.000184674
                    -3.15392e-05     7.67009e-05        -0.031795         0.11316      -7.2629e-05     0.000172338         0.992304       0.0242173
                        0.982528        -0.16072      3.38675e-05     0.000271248        0.0377447       0.0755997      0.000141647     0.000110929
                      3.0259e-05     0.000195924          0.99243       0.0242166     -1.21522e-05     5.31626e-05        0.0261412        0.114645
281742                -0.0118499        0.083581        2.795e-05     8.25789e-05         0.982556       -0.161334      9.03157e-05     0.000184623
                    -3.14728e-05      7.6786e-05       -0.0317552        0.113167     -7.25332e-05     0.000172422         0.992313       0.0238563
                        0.982469       -0.161086      3.40059e-05     0.000271236        0.0377707       0.0755805      0.000141693     0.000110899
                     3.03667e-05     0.000195993         0.992439       0.0238555     -1.21008e-05     5.32351e-05        0.0261845        0.114632
281744                -0.0118185       0.0835798      2.79918e-05     8.25743e-05         0.982497       -0.161699      9.03375e-05     0.000184573
                    -3.14062e-05     7.68711e-05       -0.0317154        0.113174     -7.24372e-05     0.000172505         0.992322       0.0234953
                         0.98241       -0.161451      3.41443e-05     0.000271224        0.0377967       0.0755612      0.000141739     0.000110869
                     3.04745e-05     0.000196061         0.992448       0.0234944     -1.20493e-05     5.33076e-05        0.0262278        0.114618
281746                -0.0117871       0.0835785      2.80335e-05     8.25696e-05         0.982437       -0.162064      9.03597e-05     0.000184523
                    -3.13395e-05     7.69561e-05       -0.0316757        0.113181     -7.23411e-05     0.000172589         0.992331       0.0231343
                         0.98235       -0.161816      3.42824e-05     0.000271212        0.0378226        0.075542      0.000141785     0.000110839
                     3.05824e-05      0.00019613         0.992457       0.0231332     -1.19977e-05     5.33801e-05        0.0262712        0.114604
281748                -0.0117558       0.0835772      2.80752e-05     8.25649e-05         0.982377       -0.162429      9.03825e-05     0.000184473
                    -3.12727e-05      7.7041e-05       -0.0316359        0.113189      -7.2245e-05     0.000172673         0.992339       0.0227733
                         0.98229       -0.162181      3.44205e-05     0.000271199        0.0378486       0.0755227       0.00014183      0.00011081
                     3.06904e-05     0.000196198         0.992465       0.0227721     -1.19463e-05     5.34527e-05        0.0263145         0.11459
281750                -0.0117244        0.083576      2.81167e-05     8.25603e-05         0.982317       -0.162795      9.04063e-05     0.000184423
                    -3.12058e-05     7.71259e-05       -0.0315961        0.113196     -7.21492e-05     0.000172757         0.992348       0.0224123
                         0.98223       -0.162547      3.45584e-05     0.000271187        0.0378746       0.0755034      0.000141875     0.000110781
                     3.07984e-05     0.000196267         0.992474        0.022411     -1.18964e-05     5.35261e-05        0.0263578        0.114576
281752                 -0.011693       0.0835747      2.81581e-05     8.25556e-05         0.982257        -0.16316      9.04296e-05     0.000184378
                    -3.11387e-05     7.72107e-05       -0.0315563        0.113203     -7.20127e-05     0.000172833         0.992357       0.0220512
                        0.982171       -0.162912       3.4696e-05     0.000271174        0.0379005       0.0754841      0.000141919     0.000110751
                     3.09065e-05     0.000196335         0.992482       0.0220498     -1.17935e-05     5.35714e-05        0.0264011        0.114563
281754                -0.0116617       0.0835734      2.81991e-05     8.25511e-05         0.982197       -0.163525      9.04458e-05     0.000184332
                    -3.10714e-05     7.72955e-05       -0.0315166         0.11321      -7.1952e-05     0.000172919         0.992365       0.0216902
                         0.98211       -0.163277      3.48329e-05     0.000271162        0.0379264       0.0754648      0.000141961     0.000110721
                     3.10147e-05     0.000196403         0.992491       0.0216887     -1.17824e-05     5.36661e-05        0.0264444        0.114549
281756                -0.0116303       0.0835721      2.82379e-05     8.25468e-05         0.982137        -0.16389      9.04632e-05     0.000184279
                    -3.10041e-05     7.73802e-05       -0.0314768        0.113217     -7.18558e-05     0.000173003         0.992373       0.0213292
                         0.98205       -0.163642      3.49663e-05     0.000271151        0.0379524       0.0754455      0.000142017     0.000110681
                      3.1123e-05     0.000196472         0.992499       0.0213275     -1.17313e-05     5.37391e-05        0.0264876        0.114535
281758                -0.0115989       0.0835707      2.82872e-05     8.25363e-05         0.982076       -0.164256      9.04845e-05     0.000184226
                    -3.09366e-05     7.74648e-05        -0.031437        0.113224     -7.17588e-05     0.000173086         0.992381       0.0209681
                         0.98199       -0.164007      3.51191e-05      0.00027113        0.0379783       0.0754262      0.000142061     0.000110661
                     3.12313e-05      0.00019654         0.992507       0.0209664     -1.16788e-05     5.38114e-05        0.0265309        0.114521
281760                -0.0115676       0.0835694      2.83264e-05     8.25348e-05         0.982015       -0.164621      9.05066e-05     0.000184174
                     -3.0869e-05     7.75494e-05       -0.0313972        0.113231     -7.16614e-05     0.000173169         0.992389       0.0206071
                        0.981929       -0.164372      3.52511e-05      0.00027112        0.0380042       0.0754068      0.000142104     0.000110634
                     3.13398e-05     0.000196608         0.992515       0.0206052     -1.16257e-05     5.38834e-05        0.0265742        0.114507
281762                -0.0115362       0.0835681      2.83672e-05     8.25305e-05         0.981955       -0.164986      9.05288e-05     0.000184122
                    -3.08012e-05     7.76339e-05       -0.0313574        0.113238     -7.15638e-05     0.000173252         0.992397       0.0202461
                        0.981869       -0.164737      3.53875e-05     0.000271108        0.0380301       0.0753875      0.000142148     0.000110605
