! TOUCHSTONE file generated by CST MICROWAVE STUDIO
! Date and time: Tue Oct 14 07:28:28 2025
! Project name: Teste_Macro_Metasurface_Nanopilar.cst
! Parameters = {H=600; L_x=125; L_y=180; Lambda=1064; Max_L=200; Min_L=70; PathPara=1; Phi=0; Step_L=10; Theta=0; p=520; phaseX=180; phaseY=0}
! Header version: 2018
! Port assignment regex: !\s*Touchstone port\s*([0-9]+)\s*=\s*(CST MWS port|CST DS port)\s*([0-9]+|Zmin|Zmax)\s*\(\"(.*)\"\)(\s*mode\s*([0-9]+))?.*
! Touchstone port assignment:
! Touchstone port 1 = CST MWS port Zmax ("") mode 1
! Touchstone port 2 = CST MWS port Zmax ("") mode 2
! Touchstone port 3 = CST MWS port Zmin ("") mode 1
! Touchstone port 4 = CST MWS port Zmin ("") mode 2
! S-Parameters are not renormalized. Each port impedance will be approximated by the real part at minimum frequency. The values are described via the [Reference] keyword.
! Default impedance is overridden by [Reference]
[Version] 2.0
# GHz S RI R 376.73
[Number of Ports] 4
[Reference]
376.73 376.73 259.814 259.814 
[Number of Frequencies] 51
[Network Data]
281700                 -0.167102       0.0888913      0.000526348    -0.000805064         0.640006        0.737056      -4.2147e-05     4.58839e-05
                     0.000482243    -0.000806932       -0.0971258       -0.133735      -6.4381e-05     0.000200207         0.182243        0.964687
                        0.639932        0.737823      -0.00014918      0.00024611        -0.110464        0.145778      0.000997345     0.000270257
                    -0.000151089     7.88321e-05         0.182386        0.964499      0.000911523     7.56399e-05       -0.0402548        0.159304
281702                 -0.167066       0.0888881      0.000525958    -0.000805808         0.640344        0.736773     -4.21739e-05     4.56829e-05
                      0.00048182    -0.000807302       -0.0971711       -0.133727     -6.44645e-05     0.000200392          0.18267        0.964604
                         0.64027         0.73754     -0.000148867     0.000245997        -0.110322        0.145845      0.000997735     0.000269609
                     -0.00015112      7.8851e-05         0.182811        0.964415      0.000911775     7.53963e-05       -0.0401592        0.159348
281704                  -0.16703       0.0888849      0.000525567    -0.000806552         0.640682         0.73649     -4.22017e-05     4.54828e-05
                     0.000481397    -0.000807673       -0.0972163       -0.133718     -6.45469e-05     0.000200576         0.183097         0.96452
                        0.640607        0.737256     -0.000148552     0.000245883         -0.11018        0.145911      0.000998124     0.000268961
                    -0.000151151     7.88699e-05         0.183236        0.964332      0.000912026     7.51524e-05       -0.0400636        0.159392
281706                 -0.166994       0.0888816      0.000525177    -0.000807298         0.641019        0.736207     -4.22302e-05     4.52835e-05
                     0.000480974    -0.000808043       -0.0972616       -0.133709     -6.46283e-05     0.000200761         0.183523        0.964435
                        0.640945        0.736972     -0.000148236     0.000245769        -0.110038        0.145978      0.000998511     0.000268312
                    -0.000151182     7.88888e-05         0.183661        0.964248      0.000912276     7.49083e-05       -0.0399679        0.159436
281708                 -0.166959       0.0888784      0.000524786    -0.000808045         0.641357        0.735923     -4.22595e-05     4.50851e-05
                     0.000480552    -0.000808414       -0.0973069         -0.1337     -6.47086e-05     0.000200946          0.18395        0.964351
                        0.641282        0.736688     -0.000147919     0.000245655        -0.109896        0.146045      0.000998897     0.000267664
                    -0.000151213     7.89077e-05         0.184086        0.964165      0.000912526      7.4664e-05       -0.0398722         0.15948
281710                 -0.166923       0.0888752      0.000524395    -0.000808794         0.641695        0.735639     -4.22896e-05     4.48875e-05
                      0.00048013    -0.000808784       -0.0973521       -0.133691     -6.47878e-05      0.00020113         0.184377        0.964267
                        0.641619        0.736404     -0.000147601     0.000245541        -0.109753        0.146111      0.000999281     0.000267016
                    -0.000151244     7.89266e-05         0.184511        0.964081      0.000912775     7.44194e-05       -0.0397764        0.159524
281712                 -0.166887       0.0888719      0.000524005    -0.000809544         0.642032        0.735356     -4.23205e-05     4.46906e-05
                     0.000479708    -0.000809154       -0.0973974       -0.133683     -6.48661e-05     0.000201315         0.184803        0.964182
                        0.641956        0.736119     -0.000147282     0.000245426        -0.109611        0.146177      0.000999663     0.000266367
                    -0.000151276     7.89454e-05         0.184936        0.963996      0.000913024     7.41746e-05       -0.0396806        0.159568
281714                 -0.166851       0.0888687      0.000523614    -0.000810294         0.642369        0.735072     -4.23522e-05     4.44946e-05
                     0.000479286    -0.000809523       -0.0974427       -0.133674     -6.49433e-05     0.000201499          0.18523        0.964097
                        0.642293        0.735835     -0.000146962     0.000245311        -0.109469        0.146243       0.00100004     0.000265719
                    -0.000151307     7.89642e-05         0.185361        0.963912      0.000913272     7.39295e-05       -0.0395848        0.159611
281716                 -0.166815       0.0888655      0.000523223    -0.000811046         0.642706        0.734787     -4.23846e-05     4.42994e-05
                     0.000478865    -0.000809893        -0.097488       -0.133665     -6.50195e-05     0.000201684         0.185656        0.964012
                        0.642629         0.73555     -0.000146642     0.000245196        -0.109327        0.146309       0.00100042     0.000265071
                    -0.000151339      7.8983e-05         0.185786        0.963828      0.000913519     7.36842e-05       -0.0394889        0.159655
281718                 -0.166779       0.0888622      0.000522832      -0.0008118         0.643043        0.734503     -4.24178e-05     4.41049e-05
                     0.000478443    -0.000810262       -0.0975333       -0.133656     -6.50948e-05     0.000201868         0.186083        0.963926
                        0.642966        0.735266      -0.00014632     0.000245081        -0.109184        0.146375        0.0010008     0.000264422
                    -0.000151371     7.90018e-05         0.186211        0.963743      0.000913765     7.34387e-05        -0.039393        0.159699
281720                 -0.166744        0.088859      0.000522441    -0.000812554          0.64338        0.734219     -4.24518e-05     4.39113e-05
                     0.000478022    -0.000810631       -0.0975785       -0.133647     -6.51691e-05     0.000202051         0.186509        0.963841
                        0.643302        0.734981     -0.000145997     0.000244966        -0.109042        0.146441       0.00100118     0.000263774
                    -0.000151403     7.90205e-05         0.186636        0.963658      0.000914011      7.3193e-05        -0.039297        0.159743
281722                 -0.166708       0.0888558       0.00052205    -0.000813309         0.643717        0.733934     -4.24865e-05     4.37184e-05
                     0.000477602       -0.000811       -0.0976238       -0.133638     -6.52424e-05     0.000202235         0.186935        0.963755
                        0.643638        0.734696     -0.000145673      0.00024485          -0.1089        0.146507       0.00100155     0.000263126
                    -0.000151435     7.90393e-05         0.187061        0.963573      0.000914256      7.2947e-05        -0.039201        0.159786
281724                 -0.166672       0.0888526      0.000521659    -0.000814065         0.644053        0.733649     -4.25219e-05     4.35263e-05
                     0.000477181    -0.000811368       -0.0976691        -0.13363     -6.53149e-05     0.000202418         0.187362        0.963669
                        0.643974         0.73441     -0.000145349     0.000244734        -0.108757        0.146572       0.00100193     0.000262478
                    -0.000151467      7.9058e-05         0.187485        0.963487      0.000914501     7.27009e-05        -0.039105         0.15983
281726                 -0.166637       0.0888493      0.000521267    -0.000814822          0.64439        0.733365      -4.2558e-05      4.3335e-05
                     0.000476761    -0.000811737       -0.0977144       -0.133621     -6.53864e-05     0.000202601         0.187788        0.963583
                         0.64431        0.734125     -0.000145024     0.000244618        -0.108615        0.146638        0.0010023     0.000261829
                      -0.0001515     7.90767e-05          0.18791        0.963402      0.000914745     7.24545e-05       -0.0390089        0.159873
281728                 -0.166601       0.0888461      0.000520876    -0.000815581         0.644726         0.73308     -4.25949e-05     4.31444e-05
                      0.00047634    -0.000812104       -0.0977597       -0.133612      -6.5457e-05     0.000202784         0.188214        0.963497
                        0.644646         0.73384     -0.000144698     0.000244502        -0.108473        0.146703       0.00100267     0.000261181
                    -0.000151532     7.90954e-05         0.188335        0.963316      0.000914988     7.22079e-05       -0.0389128        0.159917
281730                 -0.166565       0.0888429      0.000520485     -0.00081634         0.645062        0.732794     -4.26325e-05     4.29546e-05
                      0.00047592    -0.000812472        -0.097805       -0.133603     -6.55268e-05     0.000202966          0.18864         0.96341
                        0.644982        0.733554     -0.000144371     0.000244385         -0.10833        0.146769       0.00100304     0.000260533
                    -0.000151565     7.91141e-05         0.188759         0.96323      0.000915231     7.19612e-05       -0.0388166         0.15996
281732                  -0.16653       0.0888397      0.000520094      -0.0008171         0.645398        0.732509     -4.26708e-05     4.27655e-05
                       0.0004755    -0.000812839       -0.0978503       -0.133594     -6.55957e-05     0.000203148         0.189066        0.963323
                        0.645317        0.733268     -0.000144043     0.000244269        -0.108188        0.146834       0.00100341     0.000259885
                    -0.000151598     7.91328e-05         0.189184        0.963144      0.000915473     7.17142e-05       -0.0387204        0.160003
281734                 -0.166494       0.0888365      0.000519703    -0.000817861         0.645734        0.732224     -4.27098e-05     4.25771e-05
                     0.000475081    -0.000813206       -0.0978956       -0.133585     -6.56639e-05      0.00020333         0.189493        0.963237
                        0.645652        0.732982     -0.000143715     0.000244152        -0.108045        0.146899       0.00100377     0.000259237
                    -0.000151631     7.91515e-05         0.189609        0.963058      0.000915715      7.1467e-05       -0.0386242        0.160047
281736                 -0.166459       0.0888332      0.000519312    -0.000818622         0.646069        0.731938     -4.27495e-05     4.23895e-05
                     0.000474661    -0.000813573       -0.0979409       -0.133576     -6.57312e-05     0.000203511         0.189919         0.96315
                        0.645988        0.732696     -0.000143386     0.000244035        -0.107903        0.146964       0.00100414     0.000258589
                    -0.000151664     7.91703e-05         0.190033        0.962972      0.000915956     7.12196e-05       -0.0385279         0.16009
281738                 -0.166423         0.08883      0.000518921    -0.000819385         0.646405        0.731652     -4.27898e-05     4.22027e-05
                     0.000474242    -0.000813939       -0.0979862       -0.133567     -6.57978e-05     0.000203692         0.190345        0.963062
                        0.646323         0.73241     -0.000143056     0.000243918        -0.107761        0.147028        0.0010045     0.000257941
                    -0.000151697     7.91891e-05         0.190457        0.962885      0.000916196     7.09721e-05       -0.0384316        0.160133
281740                 -0.166388       0.0888268      0.000518529    -0.000820148          0.64674        0.731367     -4.28308e-05     4.20165e-05
                     0.000473822    -0.000814305       -0.0980316       -0.133558     -6.58636e-05     0.000203872         0.190771        0.962975
                        0.646658        0.732124     -0.000142726     0.000243801        -0.107618        0.147093       0.00100486     0.000257293
                     -0.00015173     7.92082e-05         0.190882        0.962798      0.000916436     7.07243e-05       -0.0383352        0.160176
281742                 -0.166352       0.0888236      0.000518138    -0.000820913         0.647075        0.731081     -4.28725e-05     4.18311e-05
                     0.000473403    -0.000814671       -0.0980769       -0.133549     -6.59287e-05     0.000204051         0.191197        0.962887
                        0.646992        0.731837     -0.000142395     0.000243683        -0.107476        0.147158       0.00100522     0.000256645
                    -0.000151763     7.92276e-05         0.191306        0.962711      0.000916675     7.04764e-05       -0.0382389        0.160219
281744                 -0.166317       0.0888204      0.000517747    -0.000821678          0.64741        0.730794     -4.29149e-05     4.16463e-05
                     0.000472984    -0.000815036       -0.0981222        -0.13354     -6.59932e-05      0.00020423         0.191622        0.962799
                        0.647327         0.73155     -0.000142063     0.000243566        -0.107333        0.147222       0.00100558     0.000255997
                    -0.000151796     7.92474e-05         0.191731        0.962624      0.000916914     7.02282e-05       -0.0381424        0.160262
281746                 -0.166282       0.0888172      0.000517357    -0.000822444         0.647745        0.730508     -4.29579e-05     4.14623e-05
                     0.000472565    -0.000815401       -0.0981675       -0.133531     -6.60569e-05     0.000204409         0.192048        0.962711
                        0.647661        0.731264     -0.000141731     0.000243448        -0.107191        0.147286       0.00100594     0.000255349
                    -0.000151829     7.92681e-05         0.192155        0.962537      0.000917152     6.99799e-05       -0.0380459        0.160305
281748                 -0.166246        0.088814      0.000516966     -0.00082321          0.64808        0.730222     -4.30016e-05      4.1279e-05
                     0.000472147    -0.000815766       -0.0982128       -0.133522       -6.612e-05     0.000204587         0.192474        0.962623
                        0.647996        0.730977     -0.000141398     0.000243331        -0.107048         0.14735        0.0010063     0.000254701
                    -0.000151863     7.92901e-05         0.192579        0.962449      0.000917389     6.97313e-05       -0.0379494        0.160348
281750                 -0.166211       0.0888108      0.000516575    -0.000823978         0.648415        0.729935     -4.30458e-05     4.10963e-05
                     0.000471729    -0.000816131       -0.0982582       -0.133513     -6.61825e-05     0.000204764           0.1929        0.962535
                         0.64833        0.730689     -0.000141064     0.000243213        -0.106905        0.147415       0.00100665     0.000254053
                    -0.000151899     7.93135e-05         0.193003        0.962361      0.000917626     6.94826e-05       -0.0378529        0.160391
281752                 -0.166176       0.0888076      0.000516185    -0.000824746         0.648749        0.729648     -4.30907e-05     4.09143e-05
                     0.000471312    -0.000816496       -0.0983035       -0.133504     -6.62444e-05     0.000204941         0.193325        0.962446
                        0.648664        0.730402     -0.000140729     0.000243095        -0.106763        0.147479       0.00100701     0.000253405
                    -0.000151938     7.93373e-05         0.193428        0.962273      0.000917863     6.92336e-05       -0.0377563        0.160433
281754                  -0.16614       0.0888044      0.000515796    -0.000825516         0.649084        0.729361     -4.31362e-05      4.0733e-05
                     0.000470896    -0.000816862       -0.0983488       -0.133495     -6.63058e-05     0.000205117         0.193751        0.962357
                        0.648998        0.730115     -0.000140393     0.000242978         -0.10662        0.147542       0.00100736     0.000252757
                     -0.00015198     7.93589e-05         0.193852        0.962185      0.000918098     6.89844e-05       -0.0376597        0.160476
281756                 -0.166105       0.0888011      0.000515408    -0.000826287         0.649418        0.729074     -4.31823e-05     4.05524e-05
                     0.000470484    -0.000817231       -0.0983942       -0.133486     -6.63666e-05     0.000205292         0.194177        0.962268
                        0.649331        0.729827     -0.000140055     0.000242861        -0.106478        0.147606       0.00100771     0.000252109
                    -0.000152023     7.93766e-05         0.194276        0.962097      0.000918333      6.8735e-05        -0.037563        0.160519
281758                  -0.16607       0.0887978      0.000515024    -0.000827064         0.649752        0.728787     -4.32289e-05     4.03724e-05
                     0.000470092    -0.000817616       -0.0984395       -0.133477     -6.64269e-05     0.000205466         0.194602        0.962179
                        0.649665         0.72954     -0.000139713     0.000242745        -0.106335         0.14767       0.00100806     0.000251461
                    -0.000152064     7.93918e-05           0.1947        0.962008      0.000918568     6.84852e-05       -0.0374663        0.160561
281760                 -0.166035       0.0887946      0.000514661     -0.00082786         0.650086          0.7285      -4.3276e-05     4.01931e-05
                     0.000469517    -0.000817707       -0.0984849       -0.133468     -6.64868e-05      0.00020564         0.195028         0.96209
                        0.649998        0.729252     -0.000139358     0.000242634        -0.106192        0.147733       0.00100841     0.000250814
                    -0.000152103     7.94066e-05         0.195124         0.96192      0.000918802     6.82352e-05       -0.0373695        0.160604
281762                 -0.165999       0.0887915      0.000514096    -0.000828471         0.650419        0.728212     -4.33236e-05     4.00144e-05
                     0.000469178    -0.000818262       -0.0985302       -0.133459     -6.65463e-05     0.000205812         0.195453           0.962
                        0.650332        0.728964     -0.000138797     0.000242485         -0.10605        0.147797       0.00100875     0.000250166
