! TOUCHSTONE file generated by CST MICROWAVE STUDIO
! Date and time: Tue Oct 14 07:32:23 2025
! Project name: Teste_Macro_Metasurface_Nanopilar.cst
! Parameters = {H=600; L_x=190; L_y=100; Lambda=1064; Max_L=200; Min_L=70; PathPara=1; Phi=0; Step_L=10; Theta=0; p=520; phaseX=180; phaseY=0}
! Header version: 2018
! Port assignment regex: !\s*Touchstone port\s*([0-9]+)\s*=\s*(CST MWS port|CST DS port)\s*([0-9]+|Zmin|Zmax)\s*\(\"(.*)\"\)(\s*mode\s*([0-9]+))?.*
! Touchstone port assignment:
! Touchstone port 1 = CST MWS port Zmax ("") mode 1
! Touchstone port 2 = CST MWS port Zmax ("") mode 2
! Touchstone port 3 = CST MWS port Zmin ("") mode 1
! Touchstone port 4 = CST MWS port Zmin ("") mode 2
! S-Parameters are not renormalized. Each port impedance will be approximated by the real part at minimum frequency. The values are described via the [Reference] keyword.
! Default impedance is overridden by [Reference]
[Version] 2.0
# GHz S RI R 376.73
[Number of Ports] 4
[Reference]
376.73 376.73 259.814 259.814 
[Number of Frequencies] 51
[Network Data]
281700                 -0.198571      -0.0736309     -0.000234787     0.000519413        -0.794924       -0.554221     -0.000237145     2.35293e-05
                     0.000200475     0.000359495        -0.585742        0.389847      0.000563792    -0.000420339       -0.0725227        0.683435
                       -0.795409       -0.554569      0.000391296      3.8494e-05         0.136821        0.160036      0.000524309     0.000497675
                     -0.00014621     0.000310098       -0.0725213        0.683527       0.00116082     0.000355229        -0.450263       -0.529291
281702                 -0.198596      -0.0735541     -0.000234456     0.000519508        -0.795207       -0.553815     -0.000236373     2.45382e-05
                     0.000201275     0.000359032        -0.585314        0.390045      0.000561871    -0.000421304       -0.0720381        0.683749
                       -0.795694       -0.554164        0.0003912     3.80734e-05         0.136921        0.159947      0.000524761     0.000496517
                    -0.000145373     0.000309885        -0.072039         0.68384        0.0011605     0.000352105        -0.450609       -0.528674
281704                 -0.198622      -0.0734773     -0.000234125     0.000519602        -0.795489        -0.55341       -0.0002356     2.55441e-05
                     0.000202073     0.000358572        -0.584886        0.390243      0.000559951    -0.000422257       -0.0715531        0.684063
                       -0.795978       -0.553759      0.000391103     3.76532e-05         0.137021        0.159858      0.000525212     0.000495364
                    -0.000144538     0.000309671       -0.0715565        0.684153       0.00116016      0.00034899        -0.450955       -0.528058
281706                 -0.198647      -0.0734005     -0.000233794     0.000519696        -0.795772       -0.553004     -0.000234825      2.6547e-05
                      0.00020287     0.000358114        -0.584459        0.390441      0.000558032    -0.000423196       -0.0710679        0.684376
                       -0.796262       -0.553353      0.000391006     3.72333e-05          0.13712        0.159768       0.00052566     0.000494215
                    -0.000143705     0.000309456       -0.0710736        0.684466        0.0011598     0.000345884        -0.451299       -0.527441
281708                 -0.198673      -0.0733237     -0.000233462     0.000519789        -0.796055       -0.552598     -0.000234049     2.75472e-05
                     0.000203664     0.000357659        -0.584031        0.390638      0.000556115    -0.000424123       -0.0705823        0.684689
                       -0.796545       -0.552948      0.000390908     3.68138e-05          0.13722        0.159679      0.000526107     0.000493071
                    -0.000142874      0.00030924       -0.0705903        0.684777       0.00115942     0.000342786        -0.451643       -0.526825
281710                 -0.198698      -0.0732469      -0.00023313     0.000519883        -0.796337       -0.552191     -0.000233272     2.85445e-05
                     0.000204457     0.000357206        -0.583604        0.390834        0.0005542    -0.000425038       -0.0700964           0.685
                       -0.796829       -0.552542       0.00039081     3.63947e-05          0.13732         0.15959      0.000526551     0.000491932
                    -0.000142046     0.000309023       -0.0701068        0.685088       0.00115902     0.000339698        -0.451986       -0.526208
281712                 -0.198724        -0.07317     -0.000232798     0.000519975        -0.796619       -0.551785     -0.000232493     2.95392e-05
                     0.000205248     0.000356755        -0.583177         0.39103      0.000552286     -0.00042594       -0.0696103        0.685312
                       -0.797112       -0.552136      0.000390711     3.59759e-05          0.13742        0.159501      0.000526994     0.000490796
                     -0.00014122     0.000308805       -0.0696229        0.685399        0.0011586      0.00033662        -0.452328       -0.525592
281714                 -0.198749      -0.0730932     -0.000232466     0.000520067        -0.796901       -0.551379     -0.000231713     3.05312e-05
                     0.000206037     0.000356307         -0.58275        0.391226      0.000550374     -0.00042683       -0.0691238        0.685623
                       -0.797395        -0.55173      0.000390612     3.55575e-05         0.137519        0.159412      0.000527434     0.000489665
                    -0.000140396     0.000308586       -0.0691387        0.685709       0.00115817     0.000333552        -0.452669       -0.524975
281716                 -0.198775      -0.0730164     -0.000232133     0.000520159        -0.797182       -0.550972     -0.000230932     3.15207e-05
                     0.000206824     0.000355862        -0.582323        0.391421      0.000548465    -0.000427708        -0.068637        0.685933
                       -0.797678       -0.551324      0.000390512     3.51395e-05         0.137619        0.159322      0.000527873     0.000488538
                    -0.000139574     0.000308366       -0.0686542        0.686018       0.00115771     0.000330495        -0.453009       -0.524358
281718                   -0.1988      -0.0729395       -0.0002318      0.00052025        -0.797464       -0.550565     -0.000230149     3.25077e-05
                     0.000207609     0.000355419        -0.581896        0.391616      0.000546557    -0.000428575       -0.0681499        0.686242
                       -0.797961       -0.550917      0.000390411     3.47219e-05         0.137718        0.159233      0.000528309     0.000487415
                    -0.000138755     0.000308145       -0.0681694        0.686327       0.00115723     0.000327447        -0.453349       -0.523742
281720                 -0.198825      -0.0728626     -0.000231467     0.000520341        -0.797745       -0.550158     -0.000229365     3.34922e-05
                     0.000208393      0.00035498        -0.581469         0.39181      0.000544651     -0.00042943       -0.0676625        0.686551
                       -0.798244       -0.550511       0.00039031     3.43046e-05         0.137817        0.159143      0.000528744     0.000486296
                    -0.000137938     0.000307923       -0.0676842        0.686635       0.00115674     0.000324411        -0.453687       -0.523125
281722                  -0.19885      -0.0727857     -0.000231134     0.000520431        -0.798026       -0.549751      -0.00022858     3.44745e-05
                     0.000209175     0.000354546        -0.581042        0.392004      0.000542748    -0.000430274       -0.0671748         0.68686
                       -0.798526       -0.550104      0.000390209     3.38877e-05         0.137917        0.159053      0.000529177      0.00048518
                    -0.000137123       0.0003077       -0.0671988        0.686943       0.00115623     0.000321386        -0.454025       -0.522508
281724                 -0.198876      -0.0727089     -0.000230801     0.000520521        -0.798307       -0.549344     -0.000227794     3.54545e-05
                      0.00020996     0.000354117        -0.580615        0.392197      0.000540847    -0.000431106       -0.0666868        0.687167
                       -0.798808       -0.549697      0.000390107     3.34711e-05         0.138016        0.158964      0.000529608     0.000484067
                    -0.000136311     0.000307476        -0.066713         0.68725        0.0011557     0.000318371        -0.454362       -0.521891
281726                 -0.198901       -0.072632     -0.000230467      0.00052061        -0.798587       -0.548936     -0.000227007     3.64324e-05
                     0.000210755     0.000353691        -0.580189         0.39239      0.000538948    -0.000431927       -0.0661985        0.687475
                        -0.79909        -0.54929      0.000390004      3.3055e-05         0.138115        0.158874      0.000530037     0.000482958
                    -0.000135501     0.000307251       -0.0662269        0.687556       0.00115515     0.000315368        -0.454698       -0.521274
281728                 -0.198926       -0.072555     -0.000230133     0.000520699        -0.798868       -0.548529     -0.000226219     3.74081e-05
                      0.00021156     0.000353246        -0.579762        0.392582      0.000537052    -0.000432738       -0.0657099        0.687781
                       -0.799372       -0.548883      0.000389901     3.26392e-05         0.138214        0.158784      0.000530465     0.000481852
                    -0.000134694     0.000307024       -0.0657405        0.687862       0.00115459     0.000312377        -0.455034       -0.520657
281730                 -0.198951      -0.0724781     -0.000229799     0.000520788        -0.799148       -0.548121     -0.000225429     3.83818e-05
                     0.000212342     0.000352783        -0.579336        0.392774      0.000535159    -0.000433538        -0.065221        0.688087
                       -0.799654       -0.548476      0.000389798     3.22237e-05         0.138314        0.158694       0.00053089     0.000480748
                     -0.00013389     0.000306795       -0.0652538        0.688167       0.00115402     0.000309397        -0.455368        -0.52004
281732                 -0.198976      -0.0724011     -0.000229464     0.000520876        -0.799428       -0.547713     -0.000224639     3.93536e-05
                     0.000213102     0.000352333        -0.578909        0.392965      0.000533268    -0.000434327       -0.0647318        0.688393
                       -0.799935       -0.548069      0.000389693     3.18086e-05         0.138413        0.158604      0.000531315     0.000479648
                    -0.000133089     0.000306563       -0.0647667        0.688472       0.00115343     0.000306429        -0.455702       -0.519423
281734                 -0.199001      -0.0723241      -0.00022913     0.000520964        -0.799707       -0.547305     -0.000223847     4.03235e-05
                      0.00021386     0.000351895        -0.578483        0.393156      0.000531379    -0.000435106       -0.0642422        0.688697
                       -0.800216       -0.547661      0.000389589     3.13939e-05         0.138512        0.158514      0.000531738     0.000478551
                     -0.00013229     0.000306325       -0.0642794        0.688776       0.00115282     0.000303473        -0.456035       -0.518806
281736                 -0.199026      -0.0722473     -0.000228795     0.000521051        -0.799987       -0.546897     -0.000223054     4.12915e-05
                     0.000214618     0.000351464        -0.578057        0.393347      0.000529494    -0.000435875       -0.0637524        0.689002
                       -0.800498       -0.547252      0.000389483     3.09795e-05          0.13861        0.158424       0.00053216     0.000477456
                    -0.000131487     0.000306082       -0.0637917        0.689079        0.0011522     0.000300528        -0.456367       -0.518189
281738                 -0.199051      -0.0721704      -0.00022846     0.000521137        -0.800266       -0.546489      -0.00022226     4.22579e-05
                     0.000215376     0.000351036        -0.577631        0.393537      0.000527611    -0.000436634       -0.0632623        0.689305
                       -0.800776       -0.546847      0.000389378     3.05655e-05         0.138709        0.158334      0.000532581     0.000476365
                    -0.000130677     0.000305839       -0.0633037        0.689382       0.00115157     0.000297596        -0.456698       -0.517571
281740                 -0.199076      -0.0720935     -0.000228124     0.000521224        -0.800546        -0.54608     -0.000221465     4.32225e-05
                     0.000216133      0.00035061        -0.577205        0.393726      0.000525731    -0.000437383       -0.0627718        0.689608
                       -0.801058       -0.546439      0.000389271     3.01519e-05         0.138808        0.158244      0.000533001     0.000475277
                    -0.000129864     0.000305604       -0.0628155        0.689684       0.00115093     0.000294676        -0.457028       -0.516954
281742                 -0.199101      -0.0720165     -0.000227788     0.000521309        -0.800824       -0.545672     -0.000220669     4.41856e-05
                     0.000216889     0.000350186        -0.576779        0.393916      0.000523854    -0.000438122       -0.0622811        0.689911
                       -0.801338        -0.54603      0.000389165     2.97386e-05         0.138907        0.158153      0.000533418     0.000474193
                    -0.000129056     0.000305375       -0.0623269        0.689986       0.00115027     0.000291768        -0.457358       -0.516337
281744                 -0.199126      -0.0719395     -0.000227453     0.000521395        -0.801103       -0.545263     -0.000219872     4.51471e-05
                     0.000217642     0.000349763        -0.576354        0.394104      0.000521979    -0.000438851       -0.0617901        0.690213
                       -0.801619       -0.545622      0.000389057     2.93257e-05         0.139006        0.158063      0.000533834     0.000473112
                    -0.000128256     0.000305147        -0.061838        0.690287       0.00114959     0.000288872        -0.457687        -0.51572
281746                 -0.199151      -0.0718625     -0.000227116      0.00052148        -0.801382       -0.544854     -0.000219074     4.61071e-05
                     0.000218393     0.000349342        -0.575928        0.394292      0.000520108    -0.000439571       -0.0612987        0.690514
                       -0.801899       -0.545214      0.000388949     2.89132e-05         0.139104        0.157973      0.000534248     0.000472034
                    -0.000127459     0.000304917       -0.0613488        0.690587       0.00114891     0.000285989        -0.458015       -0.515102
281748                 -0.199176      -0.0717855      -0.00022678     0.000521564         -0.80166       -0.544445     -0.000218275     4.70656e-05
                     0.000219142     0.000348923        -0.575503         0.39448       0.00051824    -0.000440281       -0.0608071        0.690814
                       -0.802178       -0.544805      0.000388841      2.8501e-05         0.139203        0.157882      0.000534659     0.000470959
                    -0.000126667     0.000304685       -0.0608593        0.690887       0.00114822     0.000283118        -0.458342       -0.514485
281750                   -0.1992      -0.0717085     -0.000226443     0.000521648        -0.801938       -0.544036     -0.000217474     4.80228e-05
                     0.000219889     0.000348505        -0.575077        0.394668      0.000516375    -0.000440982       -0.0603151        0.691114
                       -0.802458       -0.544397      0.000388732     2.80892e-05         0.139301        0.157791      0.000535068     0.000469887
                    -0.000125876     0.000304452       -0.0603695        0.691186       0.00114751      0.00028026        -0.458668       -0.513867
281752                 -0.199225      -0.0716315     -0.000226106     0.000521731        -0.802216       -0.543627     -0.000216672     4.89786e-05
                     0.000220633     0.000348088        -0.574652        0.394854      0.000514513    -0.000441674       -0.0598229        0.691414
                       -0.802737       -0.543988      0.000388622     2.76779e-05           0.1394        0.157701      0.000535474     0.000468817
                    -0.000125088     0.000304216       -0.0598793        0.691485       0.00114679     0.000277415        -0.458993        -0.51325
281754                  -0.19925      -0.0715544     -0.000225793     0.000521845        -0.802494       -0.543217     -0.000215869     4.99335e-05
                     0.000221374     0.000347672        -0.574227        0.395041      0.000512654    -0.000442357       -0.0593303        0.691713
                       -0.803016       -0.543579      0.000388506      2.7274e-05         0.139498         0.15761      0.000535879     0.000467748
                    -0.000124301      0.00030398       -0.0593889        0.691783       0.00114606     0.000274582        -0.459318       -0.512632
281756                 -0.199275      -0.0714774     -0.000225435     0.000521898        -0.802771       -0.542808     -0.000215064     5.08874e-05
                     0.000222113     0.000347258        -0.573802        0.395227      0.000510798    -0.000443031       -0.0588375        0.692011
                       -0.803295        -0.54317      0.000388404     2.68549e-05         0.139596        0.157519      0.000536281     0.000466682
                    -0.000123517     0.000303742       -0.0588982        0.692081       0.00114532     0.000271762        -0.459642       -0.512015
281758                 -0.199299      -0.0714003     -0.000225096      0.00052198        -0.803049       -0.542398     -0.000214258     5.18409e-05
                     0.000222849     0.000346845        -0.573377        0.395412      0.000508945    -0.000443697       -0.0583443        0.692309
                       -0.803574       -0.542761      0.000388292     2.64447e-05         0.139695        0.157428      0.000536681     0.000465617
                    -0.000122734     0.000303503       -0.0584072        0.692378       0.00114457     0.000268954        -0.459965       -0.511397
281760                 -0.199324      -0.0713233     -0.000224758     0.000522062        -0.803326       -0.541988      -0.00021345     5.27941e-05
                     0.000223583     0.000346433        -0.572952        0.395597      0.000507096    -0.000444353       -0.0578509        0.692606
                       -0.803853       -0.542351      0.000388181     2.60346e-05         0.139793        0.157338      0.000537079     0.000464554
                    -0.000121953     0.000303262       -0.0579158        0.692674       0.00114381      0.00026616        -0.460287        -0.51078
281762                 -0.199348      -0.0712462      -0.00022442     0.000522143        -0.803603       -0.541578     -0.000212641     5.37473e-05
                     0.000224313     0.000346022        -0.572527        0.395782       0.00050525    -0.000445001       -0.0573572        0.692902
                       -0.804131       -0.541942      0.000388069     2.56249e-05         0.139891        0.157247      0.000537475     0.000463493
