! TOUCHSTONE file generated by CST MICROWAVE STUDIO
! Date and time: Tue Oct 14 07:25:47 2025
! Project name: Teste_Macro_Metasurface_Nanopilar.cst
! Parameters = {H=600; L_x=85; L_y=100; Lambda=1064; Max_L=200; Min_L=70; PathPara=1; Phi=0; Step_L=10; Theta=0; p=520; phaseX=180; phaseY=0}
! Header version: 2018
! Port assignment regex: !\s*Touchstone port\s*([0-9]+)\s*=\s*(CST MWS port|CST DS port)\s*([0-9]+|Zmin|Zmax)\s*\(\"(.*)\"\)(\s*mode\s*([0-9]+))?.*
! Touchstone port assignment:
! Touchstone port 1 = CST MWS port Zmax ("") mode 1
! Touchstone port 2 = CST MWS port Zmax ("") mode 2
! Touchstone port 3 = CST MWS port Zmin ("") mode 1
! Touchstone port 4 = CST MWS port Zmin ("") mode 2
! S-Parameters are not renormalized. Each port impedance will be approximated by the real part at minimum frequency. The values are described via the [Reference] keyword.
! Default impedance is overridden by [Reference]
[Version] 2.0
# GHz S RI R 376.73
[Number of Ports] 4
[Reference]
376.73 376.73 259.814 259.814 
[Number of Frequencies] 51
[Network Data]
281700                0.00122636       0.0498075     -0.000460811     3.96845e-05         0.937225       -0.340423      2.07395e-05    -1.00862e-05
                    -7.71726e-05    -2.74897e-05        -0.014912       0.0961671      0.000384659     0.000265127         0.989995      -0.0977837
                         0.93758       -0.340772      0.000249463      0.00022655        0.0307811       0.0393238      0.000166415    -1.61294e-05
                    -9.85785e-05     0.000218075          0.98969      -0.0974866      7.07745e-05     8.17984e-05        0.0332647       0.0915314
281702                0.00124773        0.049799     -0.000460518     4.00105e-05         0.937095       -0.340781      2.06104e-05    -9.91648e-06
                    -7.70851e-05    -2.73405e-05       -0.0148764       0.0961678      0.000384902      0.00026514         0.989959      -0.0981491
                         0.93745        -0.34113      0.000249498     0.000226382        0.0307892       0.0393075      0.000166331    -1.60724e-05
                    -9.84742e-05     0.000218139         0.989654      -0.0978518      7.08918e-05     8.18883e-05        0.0332975       0.0915143
281704                 0.0012691       0.0497905     -0.000460221     4.03359e-05         0.936965       -0.341139      2.04812e-05    -9.74706e-06
                    -7.69975e-05    -2.71914e-05       -0.0148408       0.0961684      0.000385146     0.000265153         0.989923      -0.0985145
                         0.93732       -0.341488      0.000249532     0.000226215        0.0307973       0.0392912      0.000166247    -1.60155e-05
                    -9.83698e-05     0.000218203         0.989618      -0.0982169      7.10093e-05     8.19781e-05        0.0333303       0.0914973
281706                0.00129046        0.049782     -0.000459919     4.06605e-05         0.936835       -0.341497      2.03521e-05    -9.57792e-06
                    -7.69097e-05    -2.70424e-05       -0.0148052       0.0961691      0.000385389     0.000265166         0.989887      -0.0988798
                         0.93719       -0.341846      0.000249567     0.000226048        0.0308053       0.0392749      0.000166162    -1.59586e-05
                    -9.82653e-05     0.000218267         0.989582      -0.0985821      7.11269e-05     8.20678e-05         0.033363       0.0914802
281708                0.00131182       0.0497735     -0.000459612     4.09844e-05         0.936705       -0.341854       2.0223e-05    -9.40902e-06
                    -7.68219e-05    -2.68935e-05       -0.0147696       0.0961697      0.000385633     0.000265179         0.989851      -0.0992451
                         0.93706       -0.342203        0.0002496     0.000225881        0.0308134       0.0392586      0.000166078    -1.59018e-05
                    -9.81608e-05      0.00021833         0.989546      -0.0989472      7.12447e-05     8.21573e-05        0.0333958       0.0914631
281710                0.00133317        0.049765     -0.000459301     4.13076e-05         0.936575       -0.342212      2.00938e-05    -9.24036e-06
                    -7.67339e-05    -2.67447e-05        -0.014734       0.0961703      0.000385877     0.000265191         0.989815      -0.0996104
                         0.93693       -0.342561      0.000249634     0.000225714        0.0308215       0.0392423      0.000165994     -1.5845e-05
                    -9.80562e-05     0.000218394         0.989509      -0.0993123      7.13627e-05     8.22467e-05        0.0334285        0.091446
281712                0.00135452       0.0497565     -0.000458986       4.163e-05         0.936444        -0.34257      1.99647e-05    -9.07191e-06
                    -7.66459e-05     -2.6596e-05       -0.0146985       0.0961709       0.00038612     0.000265204         0.989779      -0.0999757
                        0.936799       -0.342919      0.000249667     0.000225547        0.0308295        0.039226       0.00016591    -1.57883e-05
                    -9.79515e-05     0.000218458         0.989473      -0.0996774      7.14807e-05     8.23359e-05        0.0334612       0.0914289
281714                0.00137586        0.049748     -0.000458665     4.19517e-05         0.936313       -0.342927      1.98356e-05    -8.90367e-06
                    -7.65577e-05    -2.64473e-05       -0.0146629       0.0961715      0.000386364     0.000265216         0.989742       -0.100341
                        0.936669       -0.343276        0.0002497      0.00022538        0.0308375       0.0392097      0.000165826    -1.57316e-05
                    -9.78467e-05     0.000218521         0.989436       -0.100043       7.1599e-05     8.24249e-05        0.0334939       0.0914118
281716                 0.0013972       0.0497395      -0.00045834     4.22727e-05         0.936182       -0.343285      1.97065e-05     -8.7356e-06
                    -7.64695e-05    -2.62988e-05       -0.0146273       0.0961721      0.000386608     0.000265228         0.989706       -0.100706
                        0.936538       -0.343634      0.000249733     0.000225213        0.0308456       0.0391934      0.000165741    -1.56749e-05
                    -9.77419e-05     0.000218584         0.989399       -0.100408      7.17173e-05     8.25138e-05        0.0335266       0.0913947
281718                0.00141853       0.0497309     -0.000458011      4.2593e-05         0.936051       -0.343642      1.95774e-05    -8.56771e-06
                    -7.63811e-05    -2.61503e-05       -0.0145917       0.0961727      0.000386852      0.00026524         0.989669       -0.101072
                        0.936407       -0.343991      0.000249765     0.000225046        0.0308536       0.0391771      0.000165657    -1.56182e-05
                    -9.76369e-05     0.000218648         0.989362       -0.100773      7.18359e-05     8.26026e-05        0.0335593       0.0913775
281720                0.00143985       0.0497224     -0.000457677     4.29125e-05          0.93592          -0.344      1.94484e-05    -8.39997e-06
                    -7.62927e-05    -2.60019e-05       -0.0145561       0.0961732      0.000387096     0.000265252         0.989632       -0.101437
                        0.936276       -0.344349      0.000249797      0.00022488        0.0308616       0.0391608      0.000165573    -1.55616e-05
                    -9.75319e-05     0.000218711         0.989325       -0.101138      7.19545e-05     8.26912e-05         0.033592       0.0913604
281722                0.00146117       0.0497138     -0.000457338     4.32314e-05         0.935789       -0.344357      1.93193e-05    -8.23236e-06
                    -7.62041e-05    -2.58536e-05       -0.0145205       0.0961738       0.00038734     0.000265263         0.989595       -0.101802
                        0.936145       -0.344706      0.000249829     0.000224713        0.0308696       0.0391445      0.000165489     -1.5505e-05
                    -9.74268e-05     0.000218774         0.989288       -0.101503      7.20733e-05     8.27797e-05        0.0336247       0.0913432
281724                0.00148249       0.0497052     -0.000456995     4.35495e-05         0.935658       -0.344714      1.91903e-05    -8.06487e-06
                    -7.61154e-05    -2.57054e-05       -0.0144849       0.0961743      0.000387584     0.000265275         0.989558       -0.102167
                        0.936013       -0.345064      0.000249861     0.000224547        0.0308776       0.0391282      0.000165404    -1.54484e-05
                    -9.73216e-05     0.000218836          0.98925       -0.101868      7.21923e-05      8.2868e-05        0.0336574        0.091326
281726                 0.0015038       0.0496967     -0.000456648     4.38669e-05         0.935526       -0.345071      1.90613e-05    -7.89749e-06
                    -7.60266e-05    -2.55572e-05       -0.0144493       0.0961748      0.000387828     0.000265286         0.989521       -0.102533
                        0.935882       -0.345421      0.000249892     0.000224381        0.0308856       0.0391119       0.00016532    -1.53919e-05
                    -9.72162e-05     0.000218899         0.989213       -0.102233      7.23114e-05     8.29561e-05          0.03369       0.0913089
281728                 0.0015251       0.0496881     -0.000456296     4.41837e-05         0.935394       -0.345429      1.89323e-05    -7.73019e-06
                    -7.59377e-05     -2.5409e-05       -0.0144137       0.0961753      0.000388072     0.000265297         0.989483       -0.102898
                         0.93575       -0.345778      0.000249922     0.000224214        0.0308935       0.0390956      0.000165235    -1.53353e-05
                    -9.71106e-05     0.000218961         0.989175       -0.102598      7.24307e-05     8.30441e-05        0.0337227       0.0912917
281730                 0.0015464       0.0496795     -0.000455939     4.44998e-05         0.935263       -0.345786      1.88033e-05    -7.56296e-06
                    -7.58485e-05    -2.52605e-05       -0.0143781       0.0961758      0.000388316     0.000265308         0.989446       -0.103263
                        0.935618       -0.346136      0.000249953     0.000224048        0.0309015       0.0390793      0.000165151    -1.52788e-05
                    -9.70044e-05     0.000219024         0.989137       -0.102963      7.25501e-05     8.31319e-05        0.0337553       0.0912745
281732                0.00156769       0.0496709     -0.000455578     4.48152e-05         0.935131       -0.346143      1.86744e-05    -7.39578e-06
                    -7.57583e-05    -2.51103e-05       -0.0143425       0.0961763       0.00038856     0.000265318         0.989408       -0.103628
                        0.935486       -0.346493      0.000249983     0.000223883        0.0309095        0.039063      0.000165067    -1.52223e-05
                     -9.6896e-05     0.000219085         0.989099       -0.103328      7.26696e-05     8.32196e-05         0.033788       0.0912572
281734                0.00158899       0.0496622     -0.000455212       4.513e-05         0.934999         -0.3465      1.85455e-05    -7.22865e-06
                    -7.56781e-05    -2.49775e-05       -0.0143069       0.0961768      0.000388804     0.000265329          0.98937       -0.103993
                        0.935354        -0.34685      0.000250013     0.000223717        0.0309174       0.0390468      0.000164982    -1.51658e-05
                    -9.68195e-05     0.000219154         0.989061       -0.103693      7.27893e-05     8.33072e-05        0.0338206         0.09124
281736                0.00161027       0.0496536     -0.000454842     4.54441e-05         0.934866       -0.346857      1.84166e-05    -7.06154e-06
                    -7.55834e-05    -2.48217e-05       -0.0142713       0.0961772      0.000389048     0.000265339         0.989332       -0.104358
                        0.935222       -0.347207      0.000250042     0.000223551        0.0309254       0.0390305      0.000164898    -1.51093e-05
                    -9.66944e-05     0.000219212         0.989023       -0.104058      7.29092e-05     8.33945e-05        0.0338532       0.0912228
281738                0.00163155        0.049645     -0.000454468     4.57577e-05         0.934734       -0.347214      1.82877e-05    -6.89444e-06
                    -7.54935e-05    -2.46733e-05       -0.0142358       0.0961776      0.000389293     0.000265349         0.989294       -0.104724
                         0.93509       -0.347564      0.000250072     0.000223386        0.0309333       0.0390142      0.000164813    -1.50528e-05
                    -9.65871e-05     0.000219273         0.988984       -0.104423      7.30292e-05     8.34817e-05        0.0338859       0.0912055
281740                0.00165282       0.0496364     -0.000454089     4.60708e-05         0.934602       -0.347571      1.81588e-05    -6.72734e-06
                    -7.54039e-05    -2.45255e-05       -0.0142002       0.0961781      0.000389537     0.000265359         0.989256       -0.105089
                        0.934958       -0.347921      0.000250101      0.00022322        0.0309412       0.0389979      0.000164729    -1.49963e-05
                    -9.64809e-05     0.000219335         0.988946       -0.104787      7.31494e-05     8.35688e-05        0.0339185       0.0911883
281742                0.00167409       0.0496277     -0.000453706     4.63834e-05         0.934469       -0.347928        1.803e-05    -6.56024e-06
                    -7.53143e-05    -2.43781e-05       -0.0141646       0.0961785      0.000389781     0.000265369         0.989217       -0.105454
                        0.934825       -0.348278      0.000250129     0.000223055        0.0309492       0.0389816      0.000164644    -1.49398e-05
                    -9.63749e-05     0.000219397         0.988907       -0.105152      7.32697e-05     8.36556e-05        0.0339511        0.091171
281744                0.00169535       0.0496191     -0.000453318     4.66957e-05         0.934336       -0.348285      1.79012e-05    -6.39314e-06
                    -7.52247e-05    -2.42308e-05        -0.014129       0.0961789      0.000390025     0.000265379         0.989179       -0.105819
                        0.934692       -0.348635      0.000250157      0.00022289        0.0309571       0.0389653      0.000164559    -1.48834e-05
                    -9.62689e-05     0.000219458         0.988869       -0.105517      7.33902e-05     8.37423e-05        0.0339836       0.0911537
281746                0.00171661       0.0496104     -0.000452926     4.70078e-05         0.934203       -0.348641      1.77724e-05     -6.2261e-06
                     -7.5135e-05    -2.40837e-05       -0.0140934       0.0961793      0.000390268     0.000265388          0.98914       -0.106184
                        0.934559       -0.348992      0.000250185     0.000222726         0.030965        0.038949      0.000164475    -1.48269e-05
                     -9.6163e-05      0.00021952          0.98883       -0.105882      7.35109e-05     8.38285e-05        0.0340162       0.0911364
281748                0.00173786       0.0496017     -0.000452529     4.73202e-05          0.93407       -0.348998      1.76437e-05    -6.05927e-06
                    -7.50452e-05    -2.39367e-05       -0.0140578       0.0961796      0.000390508     0.000265395         0.989101       -0.106549
                        0.934426       -0.349349      0.000250212     0.000222561        0.0309729       0.0389327       0.00016439    -1.47706e-05
                     -9.6057e-05     0.000219581         0.988791       -0.106247      7.36323e-05     8.39138e-05        0.0340488       0.0911191
281750                0.00175911        0.049593     -0.000452128     4.76335e-05         0.933937       -0.349355      1.75149e-05    -5.89373e-06
                    -7.49554e-05    -2.37899e-05       -0.0140223         0.09618      0.000390785     0.000265417         0.989063       -0.106914
                        0.934293       -0.349705      0.000250239     0.000222396        0.0309807       0.0389164      0.000164305    -1.47148e-05
                     -9.5951e-05     0.000219642         0.988751       -0.106612      7.37489e-05     8.40091e-05        0.0340814       0.0911018
281752                0.00178035       0.0495843     -0.000451722     4.79493e-05         0.933804       -0.349711      1.73892e-05    -5.69764e-06
                    -7.48654e-05    -2.36431e-05       -0.0139867       0.0961803       0.00039101     0.000265418         0.989024       -0.107279
                         0.93416       -0.350062      0.000250265     0.000222232        0.0309886       0.0389001      0.000164221    -1.46508e-05
                    -9.58449e-05     0.000219703         0.988712       -0.106977      7.38724e-05     8.40898e-05        0.0341139       0.0910844
281754                0.00180158       0.0495756     -0.000451312     4.82716e-05          0.93367       -0.350068      1.72581e-05    -5.55167e-06
                    -7.47754e-05    -2.34964e-05       -0.0139511       0.0961807      0.000391253     0.000265426         0.988984       -0.107644
                        0.934027       -0.350419      0.000250289     0.000222068        0.0309965       0.0388839      0.000164136    -1.45991e-05
                    -9.57388e-05     0.000219764         0.988673       -0.107341      7.39939e-05     8.41753e-05        0.0341465       0.0910671
281756                0.00182281       0.0495669     -0.000450896     4.86185e-05         0.933537       -0.350425      1.71294e-05    -5.38506e-06
                    -7.46853e-05    -2.33499e-05       -0.0139155        0.096181      0.000391497     0.000265435         0.988945       -0.108009
                        0.933893       -0.350775       0.00025031     0.000221904        0.0310043       0.0388676      0.000164051    -1.45428e-05
                    -9.56326e-05     0.000219825         0.988633       -0.107706      7.41153e-05     8.42609e-05         0.034179       0.0910497
281758                0.00184404       0.0495582     -0.000450434     4.93054e-05         0.933403       -0.350781      1.70009e-05     -5.2174e-06
                    -7.45951e-05    -2.32035e-05       -0.0138799       0.0961812      0.000391741     0.000265443         0.988906       -0.108374
                        0.933759       -0.351132       0.00025031      0.00022174        0.0310122       0.0388513      0.000163966    -1.44863e-05
                    -9.55264e-05     0.000219886         0.988593        -0.10807      7.42368e-05     8.43465e-05        0.0342115       0.0910324
281760                0.00186526       0.0495495     -0.000450058     4.89879e-05         0.933269       -0.351138      1.68724e-05    -5.04931e-06
                    -7.45048e-05    -2.30571e-05       -0.0138444       0.0961816      0.000391986     0.000265451         0.988866       -0.108739
                        0.933626       -0.351488      0.000250426     0.000221572          0.03102        0.038835      0.000163882    -1.44296e-05
                    -9.54201e-05     0.000219946         0.988553       -0.108436      7.43584e-05      8.4432e-05         0.034244        0.091015
281762                0.00188647       0.0495407     -0.000449632     4.93762e-05         0.933135       -0.351494      1.67439e-05    -4.88091e-06
                    -7.44144e-05    -2.29109e-05       -0.0138088       0.0961819      0.000392231     0.000265459         0.988826       -0.109104
                        0.933492       -0.351845      0.000250419     0.000221412        0.0310279       0.0388187      0.000163797    -1.43728e-05
