! TOUCHSTONE file generated by CST MICROWAVE STUDIO
! Date and time: Tue Oct 14 07:28:06 2025
! Project name: Teste_Macro_Metasurface_Nanopilar.cst
! Parameters = {H=600; L_x=120; L_y=155; Lambda=1064; Max_L=200; Min_L=70; PathPara=1; Phi=0; Step_L=10; Theta=0; p=520; phaseX=180; phaseY=0}
! Header version: 2018
! Port assignment regex: !\s*Touchstone port\s*([0-9]+)\s*=\s*(CST MWS port|CST DS port)\s*([0-9]+|Zmin|Zmax)\s*\(\"(.*)\"\)(\s*mode\s*([0-9]+))?.*
! Touchstone port assignment:
! Touchstone port 1 = CST MWS port Zmax ("") mode 1
! Touchstone port 2 = CST MWS port Zmax ("") mode 2
! Touchstone port 3 = CST MWS port Zmin ("") mode 1
! Touchstone port 4 = CST MWS port Zmin ("") mode 2
! S-Parameters are not renormalized. Each port impedance will be approximated by the real part at minimum frequency. The values are described via the [Reference] keyword.
! Default impedance is overridden by [Reference]
[Version] 2.0
# GHz S RI R 376.73
[Number of Ports] 4
[Reference]
376.73 376.73 259.814 259.814 
[Number of Frequencies] 51
[Network Data]
281700                 -0.167192       -0.290394      0.000127458    -0.000384463         0.585083        0.730539     -0.000535547     0.000151852
                     0.000170805    -0.000352032        -0.055986        -0.05996     -0.000498055    -0.000199418        -0.468746        0.871983
                        0.584588          0.7309     -0.000618415    -0.000181634         0.247895        0.220026     -3.42129e-05     0.000367807
                    -0.000627612     0.000143127        -0.468571         0.87191         -0.00012     0.000286258       -0.0798334      -0.0117133
281702                  -0.16732       -0.290422      0.000127376    -0.000384615         0.585434        0.730216     -0.000535379     0.000151884
                      0.00017073    -0.000352274       -0.0560087      -0.0599633     -0.000498221    -0.000199146         -0.46833        0.872206
                        0.584938        0.730577     -0.000618475    -0.000181425         0.248121          0.2199     -3.39593e-05     0.000367955
                    -0.000627503     0.000143367        -0.468155        0.872132     -0.000119644     0.000286509       -0.0798605      -0.0116542
281704                 -0.167448        -0.29045      0.000127293    -0.000384767         0.585784        0.729893     -0.000535211     0.000151917
                     0.000170655    -0.000352516       -0.0560314      -0.0599665     -0.000498386    -0.000198874        -0.467914        0.872428
                        0.585288        0.730254     -0.000618535    -0.000181215         0.248348        0.219774     -3.37053e-05     0.000368102
                    -0.000627395     0.000143607        -0.467739        0.872354     -0.000119288     0.000286758       -0.0798875      -0.0115952
281706                 -0.167576       -0.290478      0.000127211    -0.000384919         0.586134        0.729569     -0.000535044      0.00015195
                     0.000170579    -0.000352759       -0.0560541      -0.0599698     -0.000498551    -0.000198601        -0.467499         0.87265
                        0.585638         0.72993     -0.000618595    -0.000181005         0.248575        0.219648     -3.34509e-05     0.000368249
                    -0.000627286     0.000143847        -0.467323        0.872576     -0.000118932     0.000287007       -0.0799146      -0.0115361
281708                 -0.167704       -0.290505      0.000127128    -0.000385071         0.586484        0.729245     -0.000534876     0.000151984
                     0.000170502    -0.000353001       -0.0560768       -0.059973     -0.000498716    -0.000198328        -0.467083        0.872872
                        0.585988        0.729606     -0.000618655    -0.000180796         0.248801        0.219522     -3.31961e-05     0.000368397
                    -0.000627177     0.000144088        -0.466907        0.872798     -0.000118576     0.000287256       -0.0799415       -0.011477
281710                 -0.167833       -0.290533      0.000127045    -0.000385223         0.586834        0.728921     -0.000534708     0.000152017
                     0.000170426    -0.000353244       -0.0560995      -0.0599762     -0.000498881    -0.000198054        -0.466667        0.873093
                        0.586338        0.729283     -0.000618715    -0.000180586         0.249028        0.219396     -3.29409e-05     0.000368543
                    -0.000627068     0.000144328        -0.466491        0.873019      -0.00011822     0.000287503       -0.0799685      -0.0114179
281712                 -0.167961       -0.290561      0.000126962    -0.000385375         0.587184        0.728597      -0.00053454      0.00015205
                     0.000170349    -0.000353487       -0.0561222      -0.0599794     -0.000499045    -0.000197779        -0.466251        0.873315
                        0.586687        0.728958     -0.000618775    -0.000180376         0.249254        0.219269     -3.26852e-05      0.00036869
                    -0.000626959     0.000144569        -0.466075         0.87324     -0.000117863      0.00028775       -0.0799953      -0.0113588
281714                 -0.168089       -0.290589      0.000126879    -0.000385526         0.587534        0.728272     -0.000534372     0.000152084
                     0.000170271    -0.000353729       -0.0561449      -0.0599826      -0.00049921    -0.000197504        -0.465835        0.873536
                        0.587037        0.728634     -0.000618835    -0.000180166         0.249481        0.219142     -3.24292e-05     0.000368836
                    -0.000626849      0.00014481        -0.465658        0.873461     -0.000117506     0.000287997       -0.0800222      -0.0112996
281716                 -0.168218       -0.290616      0.000126795    -0.000385678         0.587883        0.727948     -0.000534204     0.000152117
                     0.000170193    -0.000353972       -0.0561677      -0.0599858     -0.000499374    -0.000197229        -0.465418        0.873757
                        0.587386         0.72831     -0.000618895    -0.000179956         0.249708        0.219015     -3.21728e-05     0.000368983
                    -0.000626739     0.000145051        -0.465242        0.873682     -0.000117148     0.000288243        -0.080049      -0.0112404
281718                 -0.168346       -0.290644      0.000126712    -0.000385829         0.588233        0.727623     -0.000534036     0.000152151
                     0.000170115    -0.000354214       -0.0561904       -0.059989     -0.000499538    -0.000196952        -0.465002        0.873978
                        0.587735        0.727985     -0.000618955    -0.000179746         0.249934        0.218888      -3.1916e-05     0.000369128
                    -0.000626629     0.000145292        -0.464825        0.873903     -0.000116791     0.000288488       -0.0800757      -0.0111812
281720                 -0.168475       -0.290672      0.000126628     -0.00038598         0.588582        0.727297     -0.000533868     0.000152185
                     0.000170037    -0.000354457       -0.0562132      -0.0599921     -0.000499702    -0.000196676        -0.464586        0.874198
                        0.588084         0.72766     -0.000619015    -0.000179535         0.250161        0.218761     -3.16587e-05     0.000369274
                    -0.000626518     0.000145533        -0.464409        0.874123     -0.000116433     0.000288732       -0.0801024      -0.0111219
281722                 -0.168604       -0.290699      0.000126544    -0.000386132         0.588931        0.726972       -0.0005337     0.000152219
                     0.000169958      -0.0003547       -0.0562359      -0.0599953     -0.000499866    -0.000196399        -0.464169        0.874418
                        0.588433        0.727334     -0.000619075    -0.000179325         0.250387        0.218633     -3.14011e-05      0.00036942
                    -0.000626407     0.000145774        -0.463992        0.874343     -0.000116074     0.000288976       -0.0801291      -0.0110627
281724                 -0.168732       -0.290727       0.00012646    -0.000386283          0.58928        0.726646     -0.000533532     0.000152253
                     0.000169878    -0.000354942       -0.0562587      -0.0599984      -0.00050003    -0.000196121        -0.463752        0.874639
                        0.588781        0.727009     -0.000619135    -0.000179114         0.250614        0.218505      -3.1143e-05     0.000369565
                    -0.000626296     0.000146015        -0.463575        0.874563     -0.000115716     0.000289219       -0.0801557      -0.0110033
281726                 -0.168861       -0.290755      0.000126375    -0.000386434         0.589629        0.726321     -0.000533364     0.000152288
                     0.000169798    -0.000355185       -0.0562815      -0.0600016     -0.000500193    -0.000195843        -0.463336        0.874859
                         0.58913        0.726683     -0.000619195    -0.000178904         0.250841        0.218377     -3.08846e-05      0.00036971
                    -0.000626185     0.000146257        -0.463158        0.874783     -0.000115357     0.000289462       -0.0801822       -0.010944
281728                  -0.16899       -0.290783      0.000126291    -0.000386585         0.589977        0.725994     -0.000533196     0.000152322
                     0.000169718    -0.000355428       -0.0563043      -0.0600047     -0.000500357    -0.000195564        -0.462919        0.875078
                        0.589478        0.726357     -0.000619254    -0.000178693         0.251067        0.218249     -3.06257e-05     0.000369854
                    -0.000626074     0.000146499        -0.462741        0.875002     -0.000114998     0.000289703       -0.0802088      -0.0108847
281730                 -0.169119        -0.29081      0.000126206    -0.000386736         0.590326        0.725668     -0.000533028     0.000152357
                     0.000169638    -0.000355671       -0.0563271      -0.0600078      -0.00050052    -0.000195284        -0.462502        0.875298
                        0.589826        0.726031     -0.000619314    -0.000178482         0.251294         0.21812     -3.03664e-05     0.000369999
                    -0.000625962      0.00014674        -0.462324        0.875222     -0.000114639     0.000289945       -0.0802353      -0.0108253
281732                 -0.169248       -0.290838      0.000126121    -0.000386886         0.590674        0.725342      -0.00053286     0.000152392
                     0.000169557    -0.000355913       -0.0563499      -0.0600109     -0.000500683    -0.000195005        -0.462085        0.875517
                        0.590174        0.725705     -0.000619374    -0.000178271         0.251521        0.217992     -3.01067e-05     0.000370143
                     -0.00062585     0.000146982        -0.461907        0.875441     -0.000114279     0.000290185       -0.0802617      -0.0107659
281734                 -0.169377       -0.290866      0.000126036    -0.000387037         0.591022        0.725015     -0.000532692     0.000152427
                     0.000169476    -0.000356156       -0.0563727       -0.060014     -0.000500846    -0.000194724        -0.461668        0.875736
                        0.590522        0.725378     -0.000619434     -0.00017806         0.251747        0.217863     -2.98466e-05     0.000370287
                    -0.000625738     0.000147224        -0.461489         0.87566      -0.00011392     0.000290425       -0.0802881      -0.0107064
281736                 -0.169506       -0.290893       0.00012595    -0.000387187          0.59137        0.724688     -0.000532524     0.000152462
                     0.000169394    -0.000356399       -0.0563955       -0.060017     -0.000501009    -0.000194443         -0.46125        0.875955
                         0.59087        0.725051     -0.000619494    -0.000177849         0.251974        0.217734     -2.95861e-05      0.00037043
                    -0.000625625     0.000147467        -0.461072        0.875879      -0.00011356     0.000290665       -0.0803144       -0.010647
281738                 -0.169636       -0.290921      0.000125865    -0.000387338         0.591718        0.724361     -0.000532356     0.000152498
                     0.000169312    -0.000356642       -0.0564183      -0.0600201     -0.000501172    -0.000194162        -0.460833        0.876174
                        0.591217        0.724724     -0.000619553    -0.000177637         0.252201        0.217605     -2.93252e-05     0.000370574
                    -0.000625512     0.000147709        -0.460654        0.876097     -0.000113199     0.000290904       -0.0803407      -0.0105875
281740                 -0.169765       -0.290948      0.000125779    -0.000387488         0.592066        0.724033     -0.000532188     0.000152533
                     0.000169229    -0.000356885       -0.0564412      -0.0600232     -0.000501335     -0.00019388        -0.460416        0.876392
                        0.591565        0.724397     -0.000619613    -0.000177426         0.252428        0.217475     -2.90639e-05     0.000370717
                    -0.000625399     0.000147951        -0.460237        0.876316     -0.000112839     0.000291142        -0.080367       -0.010528
281742                 -0.169894       -0.290976      0.000125693    -0.000387639         0.592413        0.723705      -0.00053202     0.000152569
                     0.000169147    -0.000357128        -0.056464      -0.0600262     -0.000501497    -0.000193597        -0.459998        0.876611
                        0.591912        0.724069     -0.000619673    -0.000177214         0.252654        0.217346     -2.88021e-05      0.00037086
                    -0.000625286     0.000148194        -0.459819        0.876534     -0.000112478     0.000291379       -0.0803932      -0.0104685
281744                 -0.170024       -0.291004      0.000125607    -0.000387789          0.59276        0.723377     -0.000531851     0.000152605
                     0.000169063    -0.000357371       -0.0564869      -0.0600292      -0.00050166    -0.000193314        -0.459581        0.876829
                        0.592259        0.723742     -0.000619732    -0.000177002         0.252881        0.217216     -2.85399e-05     0.000371002
                    -0.000625172     0.000148437        -0.459401        0.876752     -0.000112117     0.000291616       -0.0804194      -0.0104089
281746                 -0.170153       -0.291031      0.000125521    -0.000387939         0.593108        0.723049     -0.000531683     0.000152641
                      0.00016898    -0.000357614       -0.0565097      -0.0600323     -0.000501822    -0.000193031        -0.459163        0.877047
                        0.592606        0.723414     -0.000619792     -0.00017679         0.253108        0.217086     -2.82773e-05     0.000371145
                    -0.000625059     0.000148679        -0.458983        0.876969     -0.000111755     0.000291853       -0.0804455      -0.0103493
281748                 -0.170283       -0.291059      0.000125435    -0.000388089         0.593455        0.722721     -0.000531515     0.000152678
                     0.000168895    -0.000357857       -0.0565326      -0.0600353     -0.000501984    -0.000192747        -0.458745        0.877265
                        0.592953        0.723085     -0.000619852    -0.000176578         0.253335        0.216955     -2.80143e-05     0.000371287
                    -0.000624945     0.000148922        -0.458565        0.877187     -0.000111394     0.000292089       -0.0804716      -0.0102897
281750                 -0.170413       -0.291086      0.000125348    -0.000388239         0.593801        0.722392     -0.000531347     0.000152715
                     0.000168811    -0.000358099       -0.0565555      -0.0600383     -0.000502146    -0.000192462        -0.458327        0.877482
                        0.593299        0.722757     -0.000619911    -0.000176366         0.253561        0.216825     -2.77509e-05     0.000371429
                     -0.00062483     0.000149165        -0.458147        0.877404     -0.000111032     0.000292324       -0.0804976      -0.0102301
281752                 -0.170542       -0.291114      0.000125261    -0.000388388         0.594148        0.722064     -0.000531179     0.000152751
                     0.000168726    -0.000358342       -0.0565784      -0.0600413     -0.000502308    -0.000192177        -0.457909        0.877699
                        0.593646        0.722428     -0.000619971    -0.000176154         0.253788        0.216694     -2.74871e-05      0.00037157
                    -0.000624716     0.000149408        -0.457729        0.877621      -0.00011067     0.000292558       -0.0805236      -0.0101704
281754                 -0.170672       -0.291142      0.000125174    -0.000388538         0.594495        0.721734     -0.000531011     0.000152789
                      0.00016864    -0.000358585       -0.0566013      -0.0600443      -0.00050247    -0.000191891        -0.457491        0.877916
                        0.593992        0.722099      -0.00062003    -0.000175941         0.254015        0.216563     -2.72228e-05     0.000371712
                    -0.000624602     0.000149651        -0.457311        0.877838     -0.000110308     0.000292792       -0.0805495      -0.0101107
281756                 -0.170802       -0.291169      0.000125087    -0.000388688         0.594841        0.721405     -0.000530842     0.000152826
                     0.000168554    -0.000358828       -0.0566242      -0.0600472     -0.000502632    -0.000191605        -0.457073        0.878133
                        0.594338         0.72177      -0.00062009    -0.000175729         0.254242        0.216432     -2.69581e-05     0.000371853
                    -0.000624488     0.000149895        -0.456892        0.878055     -0.000109945     0.000293026       -0.0805754       -0.010051
281758                 -0.170932       -0.291197         0.000125    -0.000388837         0.595187        0.721076     -0.000530674     0.000152864
                     0.000168467    -0.000359072       -0.0566471      -0.0600502     -0.000502793    -0.000191319        -0.456655         0.87835
                        0.594684        0.721441     -0.000620149    -0.000175516         0.254468        0.216301     -2.66931e-05     0.000371994
                    -0.000624375     0.000150141        -0.456474        0.878272     -0.000109582     0.000293259       -0.0806013     -0.00999125
281760                 -0.171062       -0.291224      0.000124912    -0.000388987         0.595534        0.720746     -0.000530506     0.000152902
                     0.000168379    -0.000359316         -0.05667      -0.0600531     -0.000502955    -0.000191032        -0.456236        0.878567
                         0.59503        0.721111     -0.000620209    -0.000175304         0.254695         0.21617     -2.64277e-05     0.000372134
                    -0.000624259     0.000150387        -0.456055        0.878488     -0.000109219     0.000293491       -0.0806271     -0.00993148
281762                 -0.171192       -0.291252      0.000124825    -0.000389136         0.595879        0.720416     -0.000530338      0.00015294
                     0.000168292     -0.00035956        -0.056693      -0.0600561     -0.000503116    -0.000190744        -0.455818        0.878783
                        0.595376        0.720781     -0.000620268    -0.000175091         0.254922        0.216038     -2.61618e-05     0.000372274
