! TOUCHSTONE file generated by CST MICROWAVE STUDIO
! Date and time: Tue Oct 14 07:29:00 2025
! Project name: Teste_Macro_Metasurface_Nanopilar.cst
! Parameters = {H=600; L_x=135; L_y=140; Lambda=1064; Max_L=200; Min_L=70; PathPara=1; Phi=0; Step_L=10; Theta=0; p=520; phaseX=180; phaseY=0}
! Header version: 2018
! Port assignment regex: !\s*Touchstone port\s*([0-9]+)\s*=\s*(CST MWS port|CST DS port)\s*([0-9]+|Zmin|Zmax)\s*\(\"(.*)\"\)(\s*mode\s*([0-9]+))?.*
! Touchstone port assignment:
! Touchstone port 1 = CST MWS port Zmax ("") mode 1
! Touchstone port 2 = CST MWS port Zmax ("") mode 2
! Touchstone port 3 = CST MWS port Zmin ("") mode 1
! Touchstone port 4 = CST MWS port Zmin ("") mode 2
! S-Parameters are not renormalized. Each port impedance will be approximated by the real part at minimum frequency. The values are described via the [Reference] keyword.
! Default impedance is overridden by [Reference]
[Version] 2.0
# GHz S RI R 376.73
[Number of Ports] 4
[Reference]
376.73 376.73 259.814 259.814 
[Number of Frequencies] 51
[Network Data]
281700                 -0.105978       -0.168555      4.67902e-05    -0.000814167         0.295974        0.929366      0.000928454     -0.00049678
                     0.000208277     -0.00075919       -0.0942756        -0.14165       0.00101288    -0.000145331         0.160023        0.967739
                        0.296282        0.929466       0.00106872    -0.000242049        0.0123696        0.197619        0.0009087     0.000505123
                        0.001151    -0.000525317         0.159806        0.966846      0.000913054     0.000563725       -0.0425058        0.164045
281702                 -0.106036       -0.168548      4.66546e-05    -0.000814597         0.296387        0.929229       0.00092831     -0.00049728
                      0.00020805    -0.000759502       -0.0943252        -0.14164       0.00101284    -0.000146005         0.160451        0.967665
                        0.296695        0.929329       0.00106897    -0.000242622        0.0124947        0.197636      0.000909126     0.000504731
                      0.00115122    -0.000525963         0.160233        0.966772      0.000913414      0.00056334       -0.0424102        0.164089
281704                 -0.106095       -0.168541      4.65164e-05    -0.000815021         0.296799        0.929092      0.000928166     -0.00049778
                     0.000207823    -0.000759815       -0.0943749       -0.141631       0.00101279    -0.000146679          0.16088         0.96759
                        0.297108        0.929191       0.00106922    -0.000243196        0.0126199        0.197653      0.000909552     0.000504338
                      0.00115144     -0.00052661         0.160661        0.966698      0.000913774     0.000562954       -0.0423146        0.164134
281706                 -0.106153       -0.168534      4.63759e-05     -0.00081544         0.297211        0.928955      0.000928021     -0.00049828
                     0.000207595    -0.000760128       -0.0944245       -0.141621       0.00101274    -0.000147352         0.161309        0.967516
                        0.297521        0.929054       0.00106947    -0.000243771        0.0127451         0.19767      0.000909977     0.000503945
                      0.00115165    -0.000527257         0.161089        0.966623      0.000914135     0.000562568       -0.0422189        0.164179
281708                 -0.106212       -0.168527      4.62333e-05    -0.000815854         0.297623        0.928818      0.000927877     -0.00049878
                     0.000207366     -0.00076044       -0.0944741       -0.141612       0.00101269    -0.000148024         0.161737        0.967441
                        0.297934        0.928916       0.00106972    -0.000244347        0.0128703        0.197687      0.000910403     0.000503553
                      0.00115186    -0.000527906         0.161517        0.966548      0.000914494     0.000562181       -0.0421232        0.164223
281710                  -0.10627        -0.16852      4.60887e-05    -0.000816263         0.298035         0.92868      0.000927733     -0.00049928
                     0.000207137    -0.000760752       -0.0945238       -0.141602       0.00101265    -0.000148697         0.162166        0.967366
                        0.298346        0.928779       0.00106996    -0.000244924        0.0129956        0.197704      0.000910828      0.00050316
                      0.00115206    -0.000528555         0.161945        0.966474      0.000914854     0.000561794       -0.0420275        0.164268
281712                 -0.106328       -0.168513      4.59423e-05    -0.000816668         0.298447        0.928542      0.000927588    -0.000499779
                     0.000206907    -0.000761064       -0.0945734       -0.141592        0.0010126    -0.000149369         0.162594         0.96729
                        0.298759        0.928641        0.0010702    -0.000245502        0.0131208        0.197721      0.000911254     0.000502767
                      0.00115226    -0.000529206         0.162372        0.966398      0.000915213     0.000561407       -0.0419317        0.164312
281714                 -0.106387       -0.168506      4.57941e-05    -0.000817067         0.298859        0.928404      0.000927444    -0.000500278
                     0.000206677    -0.000761376       -0.0946231       -0.141583       0.00101255    -0.000150041         0.163023        0.967215
                        0.299171        0.928502       0.00107043     -0.00024608        0.0132462        0.197737      0.000911679     0.000502373
                      0.00115245    -0.000529858           0.1628        0.966323      0.000915572     0.000561019       -0.0418359        0.164356
281716                 -0.106445       -0.168499      4.56445e-05    -0.000817462         0.299271        0.928266        0.0009273    -0.000500777
                     0.000206446    -0.000761687       -0.0946727       -0.141573        0.0010125    -0.000150714         0.163451        0.967139
                        0.299584        0.928364       0.00107066    -0.000246658        0.0133715        0.197754      0.000912103      0.00050198
                      0.00115264    -0.000530511         0.163228        0.966248      0.000915931     0.000560631         -0.04174        0.164401
281718                 -0.106504       -0.168492      4.54935e-05    -0.000817852         0.299683        0.928128      0.000927155    -0.000501276
                     0.000206214    -0.000761999       -0.0947224       -0.141563       0.00101244    -0.000151387          0.16388        0.967063
                        0.299996        0.928225       0.00107089    -0.000247237        0.0134969         0.19777      0.000912528     0.000501587
                      0.00115283    -0.000531165         0.163655        0.966172      0.000916289     0.000560244       -0.0416441        0.164445
281720                 -0.106562       -0.168485      4.53412e-05    -0.000818237         0.300095        0.927989      0.000927011    -0.000501775
                     0.000205982     -0.00076231        -0.094772       -0.141553       0.00101239     -0.00015206         0.164308        0.966987
                        0.300409        0.928087       0.00107112    -0.000247817        0.0136223        0.197787      0.000912953     0.000501193
                      0.00115301     -0.00053182         0.164083        0.966096      0.000916647     0.000559855       -0.0415482        0.164489
281722                  -0.10662       -0.168478      4.51878e-05    -0.000818618         0.300506        0.927851      0.000926867    -0.000502273
                     0.000205749    -0.000762621       -0.0948217       -0.141544       0.00101233    -0.000152731         0.164737        0.966911
                        0.300821        0.927948       0.00107134    -0.000248397        0.0137478        0.197803      0.000913377       0.0005008
                      0.00115318    -0.000532477          0.16451         0.96602      0.000917005     0.000559467       -0.0414522        0.164533
281724                 -0.106679        -0.16847      4.50334e-05    -0.000818994         0.300918        0.927712      0.000926722    -0.000502772
                     0.000205515    -0.000762932       -0.0948714       -0.141534       0.00101227    -0.000153399         0.165165        0.966835
                        0.301233        0.927809       0.00107156    -0.000248977        0.0138732        0.197819      0.000913801     0.000500406
                      0.00115336    -0.000533134         0.164938        0.965944      0.000917363     0.000559079       -0.0413561        0.164577
281726                 -0.106737       -0.168463      4.48781e-05    -0.000819365          0.30133        0.927573      0.000926578     -0.00050327
                     0.000205281    -0.000763244        -0.094921       -0.141524       0.00101221    -0.000154065         0.165593        0.966758
                        0.301645        0.927669       0.00107177    -0.000249558        0.0139987        0.197835      0.000914225     0.000500012
                      0.00115352    -0.000533793         0.165365        0.965868       0.00091772     0.000558691       -0.0412601        0.164621
281728                 -0.106796       -0.168456      4.47221e-05    -0.000819733         0.301741        0.927433      0.000926434    -0.000503768
                     0.000205047    -0.000763555       -0.0949707       -0.141514       0.00101215    -0.000154729         0.166022        0.966681
                        0.302057         0.92753       0.00107199    -0.000250139        0.0141243        0.197851      0.000914649     0.000499618
                      0.00115369    -0.000534453         0.165792        0.965791      0.000918077     0.000558303        -0.041164        0.164665
281730                 -0.106854       -0.168449      4.45654e-05    -0.000820095         0.302153        0.927294       0.00092629    -0.000504265
                     0.000204812    -0.000763866       -0.0950204       -0.141504       0.00101209    -0.000155392          0.16645        0.966604
                        0.302469         0.92739        0.0010722     -0.00025072        0.0142498        0.197867      0.000915073     0.000499224
                      0.00115385    -0.000535115          0.16622        0.965714      0.000918434     0.000557915       -0.0410679        0.164709
281732                 -0.106913       -0.168442      4.44082e-05    -0.000820454         0.302564        0.927154      0.000926146    -0.000504763
                     0.000204577    -0.000764178         -0.09507       -0.141495       0.00101203    -0.000156055         0.166878        0.966527
                        0.302881         0.92725       0.00107241    -0.000251302        0.0143754        0.197883      0.000915496      0.00049883
                        0.001154    -0.000535777         0.166647        0.965637      0.000918791     0.000557528       -0.0409717        0.164753
281734                 -0.106971       -0.168434      4.42505e-05    -0.000820809         0.302975        0.927014      0.000926002     -0.00050526
                     0.000204342     -0.00076449       -0.0951197       -0.141485       0.00101197    -0.000156717         0.167306         0.96645
                        0.303293         0.92711       0.00107262    -0.000251884         0.014501        0.197899      0.000915919     0.000498435
                      0.00115415    -0.000536441         0.167074         0.96556      0.000919149      0.00055714       -0.0408755        0.164797
281736                  -0.10703       -0.168427      4.40924e-05    -0.000821159         0.303387        0.926874      0.000925858    -0.000505757
                     0.000204108    -0.000764804       -0.0951694       -0.141475       0.00101191    -0.000157379         0.167734        0.966372
                        0.303705         0.92697       0.00107282    -0.000252465        0.0146267        0.197915      0.000916342     0.000498041
                      0.00115431    -0.000537106         0.167502        0.965483      0.000919507     0.000556753       -0.0407792        0.164841
281738                 -0.107088        -0.16842       4.3934e-05    -0.000821505         0.303798        0.926734      0.000925714    -0.000506255
                     0.000203877    -0.000765119       -0.0952191       -0.141465       0.00101185     -0.00015804         0.168162        0.966294
                        0.304117         0.92683       0.00107302    -0.000253047        0.0147524        0.197931      0.000916765     0.000497646
                      0.00115446    -0.000537772         0.167929        0.965405      0.000919866     0.000556365       -0.0406829        0.164884
281740                 -0.107147       -0.168413      4.37755e-05    -0.000821847         0.304209        0.926594       0.00092557    -0.000506751
                     0.000203655    -0.000765434       -0.0952688       -0.141455       0.00101178    -0.000158701          0.16859        0.966216
                        0.304529        0.926689       0.00107322    -0.000253629        0.0148781        0.197947      0.000917188     0.000497251
                      0.00115462    -0.000538435         0.168356        0.965328      0.000920224     0.000555976       -0.0405866        0.164928
281742                 -0.107205       -0.168405      4.36168e-05    -0.000822186          0.30462        0.926453      0.000925426    -0.000507248
                     0.000203455    -0.000765735       -0.0953185       -0.141445       0.00101172     -0.00015936         0.169018        0.966138
                         0.30494        0.926548       0.00107342    -0.000254212        0.0150038        0.197962       0.00091761     0.000496857
                       0.0011548    -0.000539087         0.168783         0.96525      0.000920583     0.000555587       -0.0404902        0.164972
281744                 -0.107264       -0.168398       4.3458e-05     -0.00082252         0.305031        0.926312      0.000925282    -0.000507745
                     0.000203236    -0.000765971       -0.0953682       -0.141435       0.00101165    -0.000160019         0.169446         0.96606
                        0.305352        0.926407       0.00107361    -0.000254794        0.0151296        0.197978      0.000918032     0.000496462
                      0.00115507    -0.000539645          0.16921        0.965172      0.000920942     0.000555197       -0.0403938        0.165015
281746                 -0.107322       -0.168391      4.32992e-05    -0.000822851         0.305442        0.926171      0.000925138    -0.000508241
                     0.000202934    -0.000766244       -0.0954179       -0.141425       0.00101159    -0.000160678         0.169874        0.965982
                        0.305764        0.926266       0.00107381    -0.000255376        0.0152553        0.197993      0.000918454     0.000496066
                      0.00115472    -0.000539809         0.169637        0.965094      0.000921301     0.000554807       -0.0402974        0.165059
281748                 -0.107381       -0.168383      4.31405e-05    -0.000823178         0.305853         0.92603      0.000924994    -0.000508738
                     0.000202659    -0.000766566       -0.0954676       -0.141415       0.00101152    -0.000161335         0.170302        0.965903
                        0.306175        0.926125         0.001074    -0.000255959        0.0153812        0.198008      0.000918876     0.000495671
                      0.00115474    -0.000540996         0.170064        0.965015      0.000921659     0.000554417       -0.0402009        0.165102
281750                 -0.107439       -0.168376      4.29819e-05    -0.000823502         0.306264        0.925889       0.00092485    -0.000509234
                     0.000202404    -0.000766886       -0.0955173       -0.141406       0.00101146    -0.000161992          0.17073        0.965824
                        0.306586        0.925983       0.00107419    -0.000256541         0.015507        0.198024      0.000919298     0.000495276
                      0.00115493    -0.000541752         0.170491        0.964936      0.000922017     0.000554026       -0.0401044        0.165145
281752                 -0.107498       -0.168369      4.28235e-05    -0.000823822         0.306675        0.925748      0.000924706     -0.00050973
                     0.000202155    -0.000767201        -0.095567       -0.141396       0.00101139    -0.000162648         0.171158        0.965745
                        0.306998        0.925842       0.00107437    -0.000257124        0.0156329        0.198039      0.000919719      0.00049488
                      0.00115507    -0.000542452         0.170918        0.964858      0.000922375     0.000553634       -0.0400078        0.165189
281754                 -0.107556       -0.168362      4.26653e-05    -0.000824138         0.307085        0.925606      0.000924563    -0.000510226
                     0.000201907    -0.000767514       -0.0956167       -0.141386       0.00101132    -0.000163303         0.171586        0.965666
                        0.307409          0.9257       0.00107456    -0.000257706        0.0157588        0.198054       0.00092014     0.000494485
                      0.00115519    -0.000543142         0.171345        0.964779      0.000922733     0.000553243       -0.0399112        0.165232
281756                 -0.107615       -0.168354      4.25073e-05    -0.000824451         0.307496        0.925464      0.000924419    -0.000510721
                     0.000201659    -0.000767824       -0.0956665       -0.141376       0.00101125    -0.000163957         0.172013        0.965586
                         0.30782        0.925558       0.00107474    -0.000258289        0.0158847        0.198069      0.000920561     0.000494089
                      0.00115529    -0.000543828         0.171772        0.964699       0.00092309     0.000552852       -0.0398146        0.165275
281758                 -0.107673       -0.168347      4.23495e-05    -0.000824761         0.307907        0.925322      0.000924275    -0.000511217
                      0.00020141    -0.000768133       -0.0957162       -0.141366       0.00101118     -0.00016461         0.172441        0.965506
                        0.308231        0.925415       0.00107492    -0.000258872        0.0160107        0.198084      0.000920981     0.000493693
                      0.00115539    -0.000544514         0.172199         0.96462      0.000923447      0.00055246       -0.0397179        0.165318
281760                 -0.107732       -0.168339      4.21921e-05    -0.000825067         0.308317         0.92518      0.000924132    -0.000511712
                     0.000201161    -0.000768441       -0.0957659       -0.141356       0.00101111    -0.000165263         0.172869        0.965427
                        0.308642        0.925273        0.0010751    -0.000259454        0.0161367        0.198099      0.000921402     0.000493298
                      0.00115547    -0.000545201         0.172626         0.96454      0.000923804     0.000552068       -0.0396212        0.165361
281762                 -0.107791       -0.168332      4.20349e-05     -0.00082537         0.308728        0.925037      0.000923988    -0.000512207
                     0.000200911    -0.000768748       -0.0958156       -0.141345       0.00101103    -0.000165914         0.173296        0.965347
                        0.309053         0.92513       0.00107528    -0.000260037        0.0162627        0.198114      0.000921822     0.000492902
