! TOUCHSTONE file generated by CST MICROWAVE STUDIO
! Date and time: Tue Oct 14 07:32:12 2025
! Project name: Teste_Macro_Metasurface_Nanopilar.cst
! Parameters = {H=600; L_x=185; L_y=155; Lambda=1064; Max_L=200; Min_L=70; PathPara=1; Phi=0; Step_L=10; Theta=0; p=520; phaseX=180; phaseY=0}
! Header version: 2018
! Port assignment regex: !\s*Touchstone port\s*([0-9]+)\s*=\s*(CST MWS port|CST DS port)\s*([0-9]+|Zmin|Zmax)\s*\(\"(.*)\"\)(\s*mode\s*([0-9]+))?.*
! Touchstone port assignment:
! Touchstone port 1 = CST MWS port Zmax ("") mode 1
! Touchstone port 2 = CST MWS port Zmax ("") mode 2
! Touchstone port 3 = CST MWS port Zmin ("") mode 1
! Touchstone port 4 = CST MWS port Zmin ("") mode 2
! S-Parameters are not renormalized. Each port impedance will be approximated by the real part at minimum frequency. The values are described via the [Reference] keyword.
! Default impedance is overridden by [Reference]
[Version] 2.0
# GHz S RI R 376.73
[Number of Ports] 4
[Reference]
376.73 376.73 259.814 259.814 
[Number of Frequencies] 51
[Network Data]
281700                 -0.171802      -0.0352879     -0.000296042     3.68249e-05         0.772224        0.604612     -2.92602e-05     0.000182935
                    -0.000196036     0.000148843        -0.208559       -0.079142     -9.82404e-05     0.000102865          0.91188        0.334814
                        0.772029        0.604628     -0.000170353     9.58649e-05        0.0745881        0.155998     -1.55652e-08     0.000285334
                    -6.24348e-05     0.000227374          0.91179        0.334755     -9.20982e-05     0.000319427         0.208611        0.072083
281702                 -0.171812      -0.0352511     -0.000296154     3.68702e-05         0.772475         0.60429     -2.88935e-05     0.000183235
                    -0.000195872     0.000148813        -0.208593      -0.0790973     -9.81787e-05     0.000102893         0.912014        0.334437
                         0.77228        0.604306     -0.000170407     9.59917e-05        0.0746851        0.155954      3.19927e-07     0.000285228
                    -6.22889e-05     0.000227462         0.911924        0.334379     -9.18675e-05     0.000319474         0.208668       0.0719675
281704                 -0.171822      -0.0352142     -0.000296269     3.69195e-05         0.772726        0.603969     -2.85277e-05     0.000183534
                    -0.000195708     0.000148783        -0.208627      -0.0790527     -9.81171e-05     0.000102921         0.912148        0.334061
                        0.772532        0.603985     -0.000170461     9.61201e-05         0.074782        0.155911      6.55502e-07     0.000285122
                    -6.21431e-05     0.000227551         0.912058        0.334003     -9.16365e-05     0.000319522         0.208725        0.071852
281706                 -0.171832      -0.0351773     -0.000296386      3.6973e-05         0.772977        0.603647     -2.81628e-05     0.000183832
                    -0.000195544     0.000148753        -0.208661       -0.079008     -9.80555e-05      0.00010295         0.912282        0.333684
                        0.772783        0.603663     -0.000170514     9.62505e-05        0.0748788        0.155868      9.91161e-07     0.000285016
                    -6.19973e-05      0.00022764         0.912193        0.333627     -9.14052e-05     0.000319569         0.208782       0.0717365
281708                 -0.171841      -0.0351404     -0.000296506     3.70308e-05         0.773227        0.603325     -2.77989e-05     0.000184128
                    -0.000195379     0.000148723        -0.208695      -0.0789634      -9.7994e-05     0.000102979         0.912415        0.333307
                        0.773034        0.603342     -0.000170565      9.6383e-05        0.0749757        0.155824      1.32691e-06     0.000284911
                    -6.18516e-05     0.000227728         0.912327        0.333251     -9.11736e-05     0.000319616         0.208839       0.0716209
281710                 -0.171851      -0.0351035     -0.000296627     3.70929e-05         0.773478        0.603003     -2.74358e-05     0.000184423
                    -0.000195215     0.000148694        -0.208729      -0.0789187     -9.79325e-05     0.000103008         0.912549        0.332931
                        0.773285         0.60302     -0.000170614     9.65175e-05        0.0750725        0.155781      1.66274e-06     0.000284806
                    -6.17059e-05     0.000227817          0.91246        0.332875     -9.09418e-05     0.000319663         0.208896       0.0715053
281712                 -0.171861      -0.0350666     -0.000296751     3.71596e-05         0.773728        0.602681     -2.70736e-05     0.000184716
                     -0.00019505     0.000148664        -0.208763       -0.078874     -9.78711e-05     0.000103038         0.912682        0.332554
                        0.773535        0.602698     -0.000170661     9.66541e-05        0.0751692        0.155737      1.99865e-06     0.000284701
                    -6.15603e-05     0.000227905         0.912594        0.332499     -9.07096e-05      0.00031971         0.208953       0.0713897
281714                  -0.17187      -0.0350297     -0.000296876     3.72308e-05         0.773978        0.602359     -2.67123e-05     0.000185008
                    -0.000194885     0.000148635        -0.208797      -0.0788293     -9.78097e-05     0.000103068         0.912815        0.332177
                        0.773786        0.602376     -0.000170706     9.67927e-05         0.075266        0.155693      2.33466e-06     0.000284596
                    -6.14147e-05     0.000227994         0.912728        0.332123     -9.04772e-05     0.000319757          0.20901        0.071274
281716                  -0.17188      -0.0349928     -0.000297004     3.73068e-05         0.774228        0.602037     -2.63519e-05     0.000185299
                     -0.00019472     0.000148606        -0.208831      -0.0787845     -9.77483e-05     0.000103098         0.912948          0.3318
                        0.774036        0.602054     -0.000170749     9.69334e-05        0.0753627        0.155649      2.67076e-06     0.000284492
                    -6.12693e-05     0.000228083         0.912861        0.331747     -9.02445e-05     0.000319804         0.209067       0.0711583
281718                  -0.17189      -0.0349559     -0.000297134     3.73874e-05         0.774478        0.601715     -2.59924e-05     0.000185588
                    -0.000194555     0.000148577        -0.208866      -0.0787398      -9.7687e-05     0.000103129         0.913081        0.331423
                        0.774287        0.601732     -0.000170789     9.70761e-05        0.0754594        0.155606      3.00695e-06     0.000284388
                    -6.11238e-05     0.000228172         0.912994        0.331371     -9.00115e-05     0.000319851         0.209123       0.0710425
281720                 -0.171899      -0.0349189     -0.000297265      3.7473e-05         0.774728        0.601393     -2.56338e-05     0.000185877
                     -0.00019439     0.000148548          -0.2089       -0.078695     -9.76256e-05      0.00010316         0.913213        0.331046
                        0.774537        0.601409     -0.000170827     9.72207e-05         0.075556        0.155562      3.34323e-06     0.000284284
                    -6.09785e-05      0.00022826         0.913127        0.330995     -8.97783e-05     0.000319897          0.20918       0.0709267
281722                 -0.171909       -0.034882     -0.000297398     3.75634e-05         0.774978         0.60107     -2.52761e-05     0.000186163
                    -0.000194224      0.00014852        -0.208934      -0.0786502     -9.75644e-05     0.000103191         0.913346        0.330669
                        0.774787        0.601087     -0.000170862     9.73675e-05        0.0756526        0.155518      3.67962e-06     0.000284181
                    -6.08333e-05     0.000228349          0.91326        0.330618     -8.95447e-05     0.000319944         0.209236       0.0708109
281724                 -0.171918       -0.034845     -0.000297533     3.76589e-05         0.775227        0.600748     -2.49194e-05     0.000186449
                    -0.000194059     0.000148492        -0.208968      -0.0786054     -9.75031e-05     0.000103223         0.913478        0.330292
                        0.775037        0.600765     -0.000170896     9.75162e-05        0.0757492        0.155474       4.0161e-06     0.000284078
                    -6.06882e-05     0.000228438         0.913393        0.330242     -8.93109e-05      0.00031999         0.209293        0.070695
281726                 -0.171928      -0.0348081      -0.00029767     3.77594e-05         0.775477        0.600425     -2.45635e-05     0.000186733
                    -0.000193893     0.000148464        -0.209002      -0.0785606     -9.74419e-05     0.000103255          0.91361        0.329915
                        0.775287        0.600442     -0.000170926     9.76669e-05        0.0758458         0.15543      4.35268e-06     0.000283975
                    -6.05432e-05     0.000228527         0.913526        0.329866     -8.90767e-05     0.000320037         0.209349       0.0705791
281728                 -0.171938      -0.0347711     -0.000297808      3.7865e-05         0.775726        0.600102     -2.42085e-05     0.000187015
                    -0.000193727     0.000148437        -0.209036      -0.0785158     -9.73807e-05     0.000103288         0.913742        0.329537
                        0.775536        0.600119     -0.000170955     9.78197e-05        0.0759423        0.155386      4.68938e-06     0.000283873
                    -6.03985e-05     0.000228617         0.913658        0.329489     -8.88423e-05     0.000320083         0.209406       0.0704632
281730                 -0.171947      -0.0347341     -0.000297948     3.79757e-05         0.775975         0.59978     -2.38544e-05     0.000187297
                     -0.00019356      0.00014841         -0.20907       -0.078471     -9.73195e-05     0.000103321         0.913874         0.32916
                        0.775786        0.599797      -0.00017098     9.79745e-05        0.0760387        0.155342      5.02618e-06      0.00028377
                    -6.02541e-05     0.000228707          0.91379        0.329113     -8.86076e-05      0.00032013         0.209462       0.0703472
281732                 -0.171957      -0.0346971      -0.00029809     3.80917e-05         0.776224        0.599457     -2.35012e-05     0.000187577
                    -0.000193393     0.000148385        -0.209104      -0.0784261     -9.72584e-05     0.000103354         0.914006        0.328783
                        0.776035        0.599474     -0.000171004     9.81314e-05        0.0761352        0.155297      5.36311e-06     0.000283668
                    -6.01102e-05     0.000228798         0.913922        0.328736     -8.83727e-05     0.000320176         0.209518       0.0702312
281734                 -0.171966      -0.0346601     -0.000298233      3.8213e-05         0.776473        0.599134      -2.3149e-05     0.000187855
                    -0.000193225     0.000148363        -0.209138      -0.0783813     -9.71974e-05     0.000103388         0.914137        0.328405
                        0.776285        0.599151     -0.000171025     9.82903e-05        0.0762316        0.155253      5.70017e-06     0.000283567
                    -5.99672e-05     0.000228891         0.914054         0.32836     -8.81375e-05     0.000320222         0.209574       0.0701151
281736                 -0.171976      -0.0346231     -0.000298378     3.83397e-05         0.776722         0.59881     -2.27978e-05     0.000188133
                    -0.000193054     0.000148348        -0.209172      -0.0783364     -9.71364e-05     0.000103422         0.914269        0.328028
                        0.776534        0.598827     -0.000171043     9.84512e-05         0.076328        0.155209      6.03739e-06     0.000283465
                    -5.98262e-05     0.000228988         0.914186        0.327983      -8.7902e-05     0.000320269          0.20963        0.069999
281738                 -0.171986      -0.0345861     -0.000298524     3.84717e-05          0.77697        0.598487     -2.24475e-05     0.000188409
                    -0.000192881     0.000148368        -0.209206      -0.0782915     -9.70756e-05     0.000103456           0.9144         0.32765
                        0.776783        0.598504     -0.000171059     9.86142e-05        0.0764243        0.155164      6.37481e-06     0.000283364
                    -5.96909e-05     0.000229102         0.914318        0.327606     -8.76664e-05     0.000320315         0.209686       0.0698829
281740                 -0.171995       -0.034549     -0.000298672     3.86092e-05         0.777219        0.598164     -2.20984e-05     0.000188684
                    -0.000193089     0.000148263         -0.20924      -0.0782466     -9.70151e-05     0.000103491         0.914531        0.327273
                        0.777033        0.598181     -0.000171072     9.87793e-05        0.0765207         0.15512      6.71251e-06     0.000283263
                    -5.95315e-05     0.000229433         0.914449         0.32723     -8.74308e-05     0.000320361         0.209742       0.0697668
281742                 -0.172005       -0.034512     -0.000298822     3.87522e-05         0.777467         0.59784     -2.17508e-05     0.000188957
                    -0.000192624     0.000148163        -0.209274      -0.0782017     -9.69552e-05     0.000103527         0.914662        0.326895
                         0.77728        0.597858     -0.000171083     9.89464e-05        0.0766169        0.155075       7.0507e-06     0.000283162
                    -5.93152e-05     0.000229145         0.914581        0.326853     -8.71955e-05     0.000320408         0.209798       0.0696506
281744                 -0.172014       -0.034475     -0.000298973     3.89008e-05         0.777715        0.597517     -2.14057e-05     0.000189228
                    -0.000192433     0.000148158        -0.209308      -0.0781567     -9.68978e-05     0.000103566         0.914793        0.326518
                        0.777529        0.597534     -0.000171091     9.91156e-05        0.0767132        0.155031      7.39008e-06     0.000283061
                    -5.92062e-05     0.000229272         0.914712        0.326476     -8.69623e-05     0.000320457         0.209854       0.0695343
281746                 -0.172024      -0.0344379     -0.000299125     3.90549e-05         0.777963        0.597193     -2.10699e-05     0.000189493
                    -0.000192259     0.000148139        -0.209342      -0.0781118     -9.68811e-05     0.000103645         0.914923         0.32614
                        0.777777         0.59721     -0.000171096     9.92868e-05        0.0768094        0.154986      7.73582e-06      0.00028296
                    -5.90699e-05     0.000229372         0.914843        0.326099     -8.67849e-05     0.000320538          0.20991       0.0694181
281748                 -0.172033      -0.0344009     -0.000299279     3.92148e-05         0.778211        0.596869     -2.06602e-05     0.000189787
                     -0.00019209     0.000148115        -0.209376      -0.0780668     -9.67542e-05     0.000103622         0.915054        0.325762
                        0.778026        0.596887     -0.000171098     9.94601e-05        0.0769056        0.154942      8.03616e-06     0.000282868
                    -5.89287e-05     0.000229465         0.914974        0.325722     -8.64693e-05     0.000320531         0.209966       0.0693017
281750                 -0.172043      -0.0343638     -0.000299434     3.93803e-05         0.778459        0.596546     -2.03479e-05     0.000190046
                    -0.000191922     0.000148089         -0.20941      -0.0780218     -9.66996e-05     0.000103663         0.915184        0.325385
                        0.778274        0.596563     -0.000171098     9.96355e-05        0.0770018        0.154897      8.39129e-06     0.000282765
                    -5.87857e-05     0.000229556         0.915105        0.325345     -8.62368e-05     0.000320582         0.210021       0.0691854
281752                 -0.172052      -0.0343267     -0.000299591     3.95516e-05         0.778707        0.596222     -2.00078e-05     0.000190312
                    -0.000191754     0.000148062        -0.209444      -0.0779768     -9.66402e-05     0.000103701         0.915314        0.325007
                        0.778522        0.596239     -0.000171095     9.98129e-05        0.0770979        0.154852      8.73177e-06     0.000282665
                    -5.86419e-05     0.000229645         0.915235        0.324968     -8.60003e-05     0.000320628         0.210077        0.069069
281754                 -0.172062      -0.0342896     -0.000299749     3.97287e-05         0.778954        0.595898     -1.96657e-05     0.000190578
                    -0.000191587     0.000148035        -0.209478      -0.0779318     -9.65798e-05     0.000103739         0.915444        0.324629
                         0.77877        0.595915      -0.00017109     9.99925e-05         0.077194        0.154807      9.07076e-06     0.000282566
                    -5.84978e-05     0.000229733         0.915365        0.324591     -8.57626e-05     0.000320674         0.210132       0.0689526
281756                 -0.172071      -0.0342525     -0.000299908     3.99117e-05         0.779202        0.595573     -1.93237e-05     0.000190843
                    -0.000191421     0.000148007        -0.209512      -0.0778868     -9.65189e-05     0.000103777         0.915574        0.324251
                        0.779018        0.595591     -0.000171081     0.000100174          0.07729        0.154762      9.40936e-06     0.000282467
                    -5.83533e-05     0.000229821         0.915496        0.324214     -8.55242e-05      0.00032072         0.210188       0.0688361
281758                 -0.172081      -0.0342154     -0.000300069     4.01006e-05         0.779449        0.595249     -1.89821e-05     0.000191107
                    -0.000191255     0.000147978        -0.209546      -0.0778417     -9.64577e-05     0.000103815         0.915704        0.323873
                        0.779265        0.595267      -0.00017107     0.000100358         0.077386        0.154717      9.74786e-06     0.000282369
                    -5.82087e-05     0.000229909         0.915626        0.323837     -8.52854e-05     0.000320765         0.210243       0.0687197
281760                  -0.17209      -0.0341783     -0.000300231     4.02954e-05         0.779696        0.594925     -1.86413e-05      0.00019137
                    -0.000191088      0.00014795         -0.20958      -0.0777967     -9.63965e-05     0.000103853         0.915833        0.323495
                        0.779513        0.594942     -0.000171056     0.000100544         0.077482        0.154672      1.00863e-05     0.000282271
                     -5.8064e-05     0.000229996         0.915756        0.323459     -8.50461e-05      0.00032081         0.210298       0.0686031
281762                   -0.1721      -0.0341412     -0.000300394     4.04963e-05         0.779943          0.5946     -1.83011e-05     0.000191631
                    -0.000190922     0.000147921        -0.209613      -0.0777516     -9.63351e-05     0.000103892         0.915963        0.323117
                         0.77976        0.594618     -0.000171039     0.000100731         0.077578        0.154627      1.04249e-05     0.000282173
