! TOUCHSTONE file generated by CST MICROWAVE STUDIO
! Date and time: Tue Oct 14 07:25:14 2025
! Project name: Teste_Macro_Metasurface_Nanopilar.cst
! Parameters = {H=600; L_x=75; L_y=140; Lambda=1064; Max_L=200; Min_L=70; PathPara=1; Phi=0; Step_L=10; Theta=0; p=520; phaseX=180; phaseY=0}
! Header version: 2018
! Port assignment regex: !\s*Touchstone port\s*([0-9]+)\s*=\s*(CST MWS port|CST DS port)\s*([0-9]+|Zmin|Zmax)\s*\(\"(.*)\"\)(\s*mode\s*([0-9]+))?.*
! Touchstone port assignment:
! Touchstone port 1 = CST MWS port Zmax ("") mode 1
! Touchstone port 2 = CST MWS port Zmax ("") mode 2
! Touchstone port 3 = CST MWS port Zmin ("") mode 1
! Touchstone port 4 = CST MWS port Zmin ("") mode 2
! S-Parameters are not renormalized. Each port impedance will be approximated by the real part at minimum frequency. The values are described via the [Reference] keyword.
! Default impedance is overridden by [Reference]
[Version] 2.0
# GHz S RI R 376.73
[Number of Ports] 4
[Reference]
376.73 376.73 259.814 259.814 
[Number of Frequencies] 51
[Network Data]
281700                 -0.154424        0.129737      2.03191e-05     0.000226245        -0.659877       -0.712263     -0.000537923     0.000164049
                     3.10646e-05     0.000270317       -0.0132279       0.0981342     -0.000279975    -0.000631238         0.990355      -0.0893244
                       -0.659766       -0.712633     -0.000203791    -0.000376201        -0.141641        0.143289      0.000254844    -0.000156256
                     -0.00040944     0.000102281         0.990313      -0.0889248      0.000296748    -0.000263554        0.0303955       0.0943609
281702                  -0.15436        0.129797      2.02608e-05     0.000226343        -0.660241       -0.711928     -0.000537902     0.000164323
                     3.11281e-05     0.000270406       -0.0131921       0.0981342     -0.000280305    -0.000631117         0.990323      -0.0896884
                        -0.66013       -0.712298     -0.000203971    -0.000376145         -0.14155        0.143364      0.000254736    -0.000156473
                    -0.000409338     0.000102589          0.99028      -0.0892887      0.000296536    -0.000263697        0.0304296       0.0943449
281704                 -0.154297        0.129856      2.02023e-05     0.000226443        -0.660604       -0.711593      -0.00053788     0.000164596
                     3.11915e-05     0.000270494       -0.0131564       0.0981342     -0.000280697    -0.000630977          0.99029      -0.0900524
                       -0.660494       -0.711963     -0.000204152    -0.000376087        -0.141459         0.14344      0.000254628    -0.000156691
                    -0.000409236     0.000102897         0.990248      -0.0896526      0.000296293    -0.000263848        0.0304637       0.0943289
281706                 -0.154233        0.129916      2.01438e-05     0.000226543        -0.660968       -0.711258     -0.000537858     0.000164868
                      3.1255e-05     0.000270581       -0.0131206       0.0981341     -0.000281151    -0.000630819         0.990257      -0.0904163
                       -0.660858       -0.711628     -0.000204332     -0.00037603        -0.141368        0.143515       0.00025452    -0.000156908
                    -0.000409134     0.000103206         0.990215      -0.0900164      0.000296017    -0.000264008        0.0304978       0.0943129
281708                 -0.154169        0.129976      2.00855e-05     0.000226644        -0.661331       -0.710922     -0.000537836      0.00016514
                     3.13186e-05     0.000270669       -0.0130848        0.098134     -0.000281665    -0.000630641         0.990224      -0.0907803
                       -0.661222       -0.711293     -0.000204512    -0.000375973        -0.141277         0.14359      0.000254411    -0.000157124
                    -0.000409033     0.000103515         0.990182      -0.0903803      0.000295708    -0.000264175        0.0305319       0.0942968
281710                 -0.154105        0.130035      2.00275e-05     0.000226746        -0.661694       -0.710587     -0.000537813     0.000165411
                     3.13823e-05     0.000270757       -0.0130491        0.098134     -0.000282237    -0.000630444         0.990191      -0.0911442
                       -0.661585       -0.710957     -0.000204692    -0.000375915        -0.141186        0.143665      0.000254302    -0.000157341
                    -0.000408931     0.000103825         0.990149      -0.0907441      0.000295369    -0.000264351        0.0305659       0.0942807
281712                  -0.15404        0.130095      1.99699e-05     0.000226849        -0.662057       -0.710252      -0.00053779     0.000165681
                      3.1446e-05     0.000270844       -0.0130133       0.0981339     -0.000282857    -0.000630231         0.990158      -0.0915082
                       -0.661948       -0.710622     -0.000204872    -0.000375858        -0.141094        0.143741      0.000254193    -0.000157558
                    -0.000408829     0.000104135         0.990115       -0.091108      0.000295004    -0.000264532           0.0306       0.0942647
281714                 -0.153976        0.130155      1.99125e-05     0.000226952         -0.66242       -0.709916     -0.000537767     0.000165951
                     3.15099e-05     0.000270931       -0.0129775       0.0981338     -0.000283512    -0.000630005         0.990124      -0.0918721
                       -0.662311       -0.710286     -0.000205053      -0.0003758        -0.141003        0.143816      0.000254084    -0.000157774
                    -0.000408727     0.000104445         0.990082      -0.0914718       0.00029462    -0.000264717        0.0306341       0.0942486
281716                 -0.153912        0.130214      1.98555e-05     0.000227055        -0.662783        -0.70958     -0.000537744     0.000166221
                     3.15738e-05     0.000271019       -0.0129418       0.0981336     -0.000284178    -0.000629774         0.990091       -0.092236
                       -0.662674        -0.70995     -0.000205233    -0.000375742        -0.140912        0.143891      0.000253975     -0.00015799
                    -0.000408625     0.000104756         0.990048      -0.0918356      0.000294229    -0.000264902        0.0306681       0.0942325
281718                 -0.153848        0.130274      1.97986e-05     0.000227158        -0.663145       -0.709244      -0.00053772      0.00016649
                      3.1638e-05     0.000271105        -0.012906       0.0981335     -0.000284819    -0.000629548         0.990057      -0.0925999
                       -0.663037       -0.709613     -0.000205414    -0.000375684         -0.14082        0.143966      0.000253866    -0.000158206
                    -0.000408522     0.000105066         0.990015      -0.0921994      0.000293851    -0.000265082        0.0307022       0.0942164
281720                 -0.153784        0.130333      1.97421e-05     0.000227261        -0.663507       -0.708908     -0.000537697     0.000166759
                     3.17024e-05     0.000271192       -0.0128703       0.0981334     -0.000285377    -0.000629349         0.990023      -0.0929638
                       -0.663399       -0.709277     -0.000205594    -0.000375626        -0.140729        0.144041      0.000253756    -0.000158422
                    -0.000408417     0.000105376         0.989981      -0.0925632      0.000293517    -0.000265251        0.0307362       0.0942002
281722                  -0.15372        0.130393      1.96857e-05     0.000227364         -0.66387       -0.708571     -0.000537673     0.000167028
                     3.17672e-05     0.000271279       -0.0128345       0.0981332     -0.000285768    -0.000629206         0.989989      -0.0933277
                       -0.663762        -0.70894     -0.000205774    -0.000375568        -0.140637        0.144116      0.000253647    -0.000158638
                    -0.000408311     0.000105683         0.989947       -0.092927      0.000293274    -0.000265397        0.0307702       0.0941841
281724                 -0.153655        0.130452      1.96294e-05     0.000227467        -0.664231       -0.708234     -0.000537649     0.000167297
                     3.18325e-05     0.000271365       -0.0127988        0.098133     -0.000285864    -0.000629163         0.989955      -0.0936915
                       -0.664124       -0.708603     -0.000205955     -0.00037551        -0.140546         0.14419      0.000253537    -0.000158854
                    -0.000408208     0.000105986         0.989913      -0.0932908      0.000293188    -0.000265505        0.0308043        0.094168
281726                 -0.153591        0.130512      1.95734e-05     0.000227571        -0.664593       -0.707896     -0.000537625     0.000167565
                     3.18985e-05      0.00027145        -0.012763       0.0981329     -0.000285481    -0.000629283         0.989921      -0.0940554
                       -0.664486       -0.708266     -0.000206135    -0.000375451        -0.140454        0.144265      0.000253427     -0.00015907
                     -0.00040811     0.000106289         0.989878      -0.0936545      0.000293361    -0.000265552        0.0308383       0.0941518
281728                 -0.153527        0.130571      1.95174e-05     0.000227674        -0.664954       -0.707557     -0.000537601     0.000167833
                     3.19655e-05     0.000271534       -0.0127273       0.0981327      -0.00028436    -0.000629647         0.989887      -0.0944192
                       -0.664848       -0.707929     -0.000206315    -0.000375393        -0.140363        0.144339      0.000253317    -0.000159286
                    -0.000408014     0.000106595         0.989844      -0.0940182       0.00029393    -0.000265502        0.0308723       0.0941356
281730                 -0.153463         0.13063      1.94616e-05     0.000227777        -0.665314       -0.707216     -0.000537577     0.000168101
                     3.20328e-05     0.000271615       -0.0126915       0.0981325     -0.000282145    -0.000630349         0.989852       -0.094783
                        -0.66521       -0.707592     -0.000206495    -0.000375335        -0.140271        0.144413      0.000253207    -0.000159501
                    -0.000407918     0.000106905          0.98981       -0.094382      0.000295082    -0.000265298        0.0309063       0.0941194
281732                 -0.153398         0.13069       1.9406e-05      0.00022788        -0.665673       -0.706873     -0.000537552     0.000168369
                      3.2096e-05     0.000271692       -0.0126558       0.0981322     -0.000278383    -0.000631473         0.989818      -0.0951469
                       -0.665571       -0.707254     -0.000206675    -0.000375277         -0.14018        0.144487      0.000253097    -0.000159717
                     -0.00040782     0.000107215         0.989775      -0.0947457       0.00029705    -0.000264856        0.0309403       0.0941032
281734                 -0.153334        0.130749      1.93504e-05     0.000227984        -0.666031       -0.706524     -0.000537528     0.000168637
                      3.2152e-05     0.000271772         -0.01262        0.098132     -0.000272551    -0.000633038         0.989783      -0.0955107
                       -0.665932       -0.706916     -0.000206855    -0.000375218        -0.140089        0.144559      0.000252987    -0.000159932
                     -0.00040772     0.000107526          0.98974      -0.0951094      0.000300083    -0.000264042        0.0309743        0.094087
281736                 -0.153269        0.130808      1.92949e-05     0.000228087        -0.666384       -0.706163     -0.000537503     0.000168904
                     3.22095e-05     0.000271859       -0.0125843       0.0981318     -0.000264172     -0.00063492         0.989748      -0.0958744
                       -0.666294       -0.706578     -0.000207035     -0.00037516        -0.139998         0.14463      0.000252877    -0.000160148
                     -0.00040762     0.000107836         0.989705      -0.0954731      0.000304386    -0.000262671        0.0310083       0.0940708
281738                 -0.153205        0.130867      1.92396e-05      0.00022819        -0.666725       -0.705743     -0.000537478     0.000169172
                     3.22712e-05     0.000271948       -0.0125485       0.0981315     -0.000253035    -0.000636772         0.989713      -0.0962382
                       -0.666655        -0.70624     -0.000207215    -0.000375101        -0.139912        0.144694      0.000252766    -0.000160363
                     -0.00040752     0.000108145          0.98967      -0.0958368      0.000309997    -0.000260529        0.0310422       0.0940546
281740                 -0.153141        0.130927      1.91843e-05     0.000228293        -0.668185       -0.705896     -0.000537454     0.000169439
                     3.23349e-05     0.000272035       -0.0125128       0.0981312     -0.000239494    -0.000638062         0.989678       -0.096602
                       -0.667016       -0.705902     -0.000207394    -0.000375043        -0.139899        0.144776      0.000252656    -0.000160578
                    -0.000407419     0.000108455         0.989635      -0.0962004       0.00031665     -0.00025746        0.0310762       0.0940383
281742                 -0.153076        0.130986      1.91292e-05     0.000228396        -0.667561       -0.705347     -0.000537429     0.000169707
                     3.23995e-05     0.000272121       -0.0124771       0.0981309     -0.000224639    -0.000638298         0.989643      -0.0969657
                       -0.667376       -0.705563     -0.000207574    -0.000374984        -0.139727        0.144896      0.000252545    -0.000160794
                    -0.000407318     0.000108764           0.9896      -0.0965641      0.000323738    -0.000253516        0.0311101       0.0940221
281744                 -0.153011        0.131045      1.90742e-05     0.000228499        -0.667888       -0.704954     -0.000537403     0.000169974
                     3.24645e-05     0.000272206       -0.0124413       0.0981306     -0.000210082     -0.00063735         0.989607      -0.0973295
                       -0.667737       -0.705225     -0.000207753    -0.000374925        -0.139629        0.144957      0.000252434    -0.000161009
                    -0.000407216     0.000109073         0.989564      -0.0969277      0.000330469    -0.000249056        0.0311441       0.0940058
281746                 -0.152947        0.131104      1.90193e-05     0.000228602        -0.668238       -0.704596     -0.000537378     0.000170242
                     3.25297e-05     0.000272291       -0.0124056       0.0981303      -0.00019736    -0.000635571         0.989572      -0.0976932
                       -0.668097       -0.704886     -0.000207933    -0.000374867        -0.139536        0.145026      0.000252324    -0.000161224
                    -0.000407114     0.000109382         0.989529      -0.0972914      0.000336173    -0.000244669         0.031178       0.0939895
281748                 -0.152882        0.131163      1.89646e-05     0.000228705        -0.668593       -0.704248     -0.000537353     0.000170509
                     3.25951e-05     0.000272376       -0.0123699         0.09813      -0.00018739    -0.000633564         0.989536      -0.0980569
                       -0.668458       -0.704546     -0.000208112    -0.000374808        -0.139443        0.145098      0.000252213    -0.000161439
                    -0.000407012      0.00010969         0.989493       -0.097655      0.000340526    -0.000240917        0.0312119       0.0939732
281750                 -0.152818        0.131222        1.891e-05     0.000228808        -0.668951       -0.703904     -0.000537327     0.000170776
                     3.26606e-05      0.00027246       -0.0123341       0.0981297     -0.000180345    -0.000631837           0.9895      -0.0984206
                       -0.668818       -0.704207     -0.000208291    -0.000374749        -0.139351        0.145171      0.000252102    -0.000161654
                     -0.00040691     0.000109999         0.989457      -0.0980186      0.000343545     -0.00023812        0.0312459       0.0939569
281752                 -0.152753        0.131281      1.88555e-05     0.000228911        -0.669309       -0.703562     -0.000537302     0.000171043
                     3.27263e-05     0.000272543       -0.0122984       0.0981293     -0.000175875    -0.000630639         0.989464      -0.0987843
                       -0.669178       -0.703868     -0.000208471     -0.00037469        -0.139259        0.145244      0.000251991    -0.000161869
                    -0.000406808     0.000110307         0.989421      -0.0983822      0.000345445    -0.000236322        0.0312798       0.0939406
281754                 -0.152688         0.13134      1.88012e-05     0.000229015        -0.669668       -0.703221     -0.000537276      0.00017131
                     3.27922e-05     0.000272627       -0.0122627       0.0981289      -0.00017342     -0.00062999         0.989428       -0.099148
                       -0.669537       -0.703528      -0.00020865    -0.000374631        -0.139167        0.145318       0.00025188    -0.000162084
                    -0.000406705     0.000110614         0.989385      -0.0987457      0.000346497    -0.000235383        0.0313137       0.0939243
281756                 -0.152624        0.131399      1.87471e-05     0.000229118        -0.670027        -0.70288     -0.000537251     0.000171577
                     3.28582e-05      0.00027271       -0.0122269       0.0981286     -0.000172416    -0.000629786         0.989392      -0.0995117
                       -0.669897       -0.703188     -0.000208829    -0.000374572        -0.139074        0.145391      0.000251768    -0.000162299
                    -0.000406602     0.000110922         0.989349      -0.0991093      0.000346951    -0.000235094        0.0313476        0.093908
281758                 -0.152559        0.131458      1.86931e-05     0.000229221        -0.670386        -0.70254     -0.000537225     0.000171845
                     3.29244e-05     0.000272793       -0.0121912       0.0981282     -0.000172391    -0.000629896         0.989356      -0.0998753
                       -0.670256       -0.702848     -0.000209008    -0.000374513        -0.138982        0.145465      0.000251657    -0.000162514
                    -0.000406499     0.000111229         0.989313      -0.0994729      0.000347001     -0.00023525        0.0313815       0.0938916
281760                 -0.152494        0.131517      1.86394e-05     0.000229324        -0.670745         -0.7022     -0.000537199     0.000172112
                     3.29909e-05     0.000272875       -0.0121555       0.0981278     -0.000172988      -0.0006302         0.989319       -0.100239
                       -0.670616       -0.702508     -0.000209187    -0.000374454         -0.13889        0.145539      0.000251546    -0.000162729
                    -0.000406395     0.000111536         0.989276      -0.0998364      0.000346795    -0.000235687        0.0314154       0.0938752
281762                 -0.152429        0.131575      1.85858e-05     0.000229427        -0.671104        -0.70186     -0.000537173     0.000172379
                     3.30575e-05     0.000272958       -0.0121198       0.0981274      -0.00017395     -0.00063061         0.989283       -0.100603
                       -0.670975       -0.702167     -0.000209366    -0.000374394        -0.138797        0.145612      0.000251434    -0.000162944
