! TOUCHSTONE file generated by CST MICROWAVE STUDIO
! Date and time: Tue Oct 14 07:28:04 2025
! Project name: Teste_Macro_Metasurface_Nanopilar.cst
! Parameters = {H=600; L_x=120; L_y=140; Lambda=1064; Max_L=200; Min_L=70; PathPara=1; Phi=0; Step_L=10; Theta=0; p=520; phaseX=180; phaseY=0}
! Header version: 2018
! Port assignment regex: !\s*Touchstone port\s*([0-9]+)\s*=\s*(CST MWS port|CST DS port)\s*([0-9]+|Zmin|Zmax)\s*\(\"(.*)\"\)(\s*mode\s*([0-9]+))?.*
! Touchstone port assignment:
! Touchstone port 1 = CST MWS port Zmax ("") mode 1
! Touchstone port 2 = CST MWS port Zmax ("") mode 2
! Touchstone port 3 = CST MWS port Zmin ("") mode 1
! Touchstone port 4 = CST MWS port Zmin ("") mode 2
! S-Parameters are not renormalized. Each port impedance will be approximated by the real part at minimum frequency. The values are described via the [Reference] keyword.
! Default impedance is overridden by [Reference]
[Version] 2.0
# GHz S RI R 376.73
[Number of Ports] 4
[Reference]
376.73 376.73 259.814 259.814 
[Number of Frequencies] 51
[Network Data]
281700                 -0.075204       -0.132914     -6.12607e-05     3.99001e-05        0.0135969        0.982737     -0.000573541    -0.000238286
                      5.9326e-05     0.000281024       -0.0373007      -0.0186543     -0.000608995    -0.000361445        -0.736591        0.663624
                       0.0135117        0.983035      -0.00059517    -0.000319716       -0.0702799         0.13508     -0.000170253    -0.000158626
                    -0.000593101    -0.000289841        -0.736738        0.662834     -0.000183999    -5.67023e-05       -0.0148478      -0.0363357
281702                 -0.075253       -0.132906     -6.12174e-05      3.9729e-05        0.0140419        0.982729     -0.000573687     -0.00023803
                     6.02393e-05     0.000280473       -0.0373041      -0.0186682     -0.000609216    -0.000360977        -0.736259        0.663994
                       0.0139555        0.983027     -0.000595411    -0.000319402       -0.0702072        0.135138     -0.000170472    -0.000158494
                    -0.000593324    -0.000289535        -0.736406        0.663203     -0.000184009     -5.6696e-05       -0.0148986      -0.0363257
281704                 -0.075302       -0.132899     -6.11752e-05     3.95576e-05        0.0144869         0.98272     -0.000573832    -0.000237775
                     6.11065e-05     0.000279925       -0.0373075      -0.0186821     -0.000609432    -0.000360508        -0.735927        0.664363
                       0.0143994        0.983018     -0.000595653    -0.000319087       -0.0701344        0.135196      -0.00017069    -0.000158361
                    -0.000593536    -0.000289226        -0.736074        0.663571     -0.000184019    -5.66886e-05       -0.0149495      -0.0363157
281706                 -0.075351       -0.132892     -6.11342e-05      3.9386e-05        0.0149318         0.98271     -0.000573977    -0.000237521
                     6.19295e-05     0.000279379       -0.0373109      -0.0186961     -0.000609644    -0.000360038        -0.735594        0.664732
                       0.0148432        0.983009     -0.000595893    -0.000318772       -0.0700616        0.135254     -0.000170909    -0.000158228
                    -0.000593739    -0.000288916        -0.735742         0.66394     -0.000184029    -5.66802e-05       -0.0150003      -0.0363057
281708                   -0.0754       -0.132885     -6.10945e-05     3.92141e-05        0.0153767        0.982701     -0.000574121     -0.00023727
                     6.27099e-05     0.000278837       -0.0373143        -0.01871     -0.000609852    -0.000359568        -0.735261        0.665101
                        0.015287           0.983     -0.000596134    -0.000318458       -0.0699888        0.135312     -0.000171126    -0.000158094
                    -0.000593932    -0.000288604        -0.735409        0.664308      -0.00018404    -5.66706e-05       -0.0150511      -0.0362956
281710                 -0.075449       -0.132878      -6.1056e-05     3.90421e-05        0.0158216        0.982692     -0.000574266     -0.00023702
                     6.34495e-05     0.000278299       -0.0373177      -0.0187239     -0.000610056    -0.000359096        -0.734928        0.665469
                       0.0157308        0.982991     -0.000596374    -0.000318143       -0.0699159        0.135369     -0.000171344     -0.00015796
                    -0.000594117    -0.000288291        -0.735076        0.664676     -0.000184051      -5.666e-05       -0.0151019      -0.0362855
281712                 -0.075498       -0.132871     -6.10187e-05       3.887e-05        0.0162665        0.982682      -0.00057441    -0.000236771
                     6.41499e-05     0.000277765       -0.0373211      -0.0187379     -0.000610256    -0.000358625        -0.734595        0.665838
                       0.0161746        0.982981     -0.000596614    -0.000317827        -0.069843        0.135427     -0.000171561    -0.000157826
                    -0.000594294    -0.000287977        -0.734743        0.665044     -0.000184062    -5.66484e-05       -0.0151526      -0.0362753
281714                 -0.075547       -0.132864     -6.09827e-05     3.86978e-05        0.0167114        0.982672     -0.000574554    -0.000236525
                     6.48127e-05     0.000277236       -0.0373246      -0.0187518     -0.000610452    -0.000358152        -0.734262        0.666206
                       0.0166183        0.982971     -0.000596854    -0.000317512         -0.06977        0.135485     -0.000171777    -0.000157691
                    -0.000594464    -0.000287662         -0.73441        0.665412     -0.000184074    -5.66358e-05       -0.0152034      -0.0362651
281716                 -0.075596       -0.132856      -6.0948e-05     3.85256e-05        0.0171563        0.982662     -0.000574698     -0.00023628
                     6.54394e-05     0.000276712       -0.0373281      -0.0187657     -0.000610645    -0.000357679        -0.733928        0.666574
                       0.0170621        0.982961     -0.000597093    -0.000317197        -0.069697        0.135542     -0.000171993    -0.000157555
                    -0.000594627    -0.000287346        -0.734077         0.66578     -0.000184086    -5.66222e-05       -0.0152542      -0.0362548
281718                 -0.075645       -0.132849     -6.09146e-05     3.83536e-05        0.0176011        0.982651     -0.000574841    -0.000236037
                     6.60313e-05     0.000276193       -0.0373316      -0.0187796     -0.000610833    -0.000357206        -0.733595        0.666942
                       0.0175058        0.982951     -0.000597332    -0.000316881        -0.069624          0.1356     -0.000172208    -0.000157419
                    -0.000594783    -0.000287029        -0.733743        0.666147     -0.000184098    -5.66077e-05       -0.0153049      -0.0362445
281720                 -0.075694       -0.132842     -6.08825e-05     3.81816e-05        0.0180459        0.982641     -0.000574985    -0.000235796
                     6.65899e-05      0.00027568       -0.0373351      -0.0187936     -0.000611018    -0.000356732        -0.733261         0.66731
                       0.0179496        0.982941     -0.000597571    -0.000316566       -0.0695509        0.135657     -0.000172424    -0.000157282
                    -0.000594933    -0.000286712         -0.73341        0.666514      -0.00018411    -5.65922e-05       -0.0153557      -0.0362341
281722                 -0.075743       -0.132835     -6.08517e-05     3.80098e-05        0.0184907         0.98263     -0.000575128    -0.000235556
                     6.71165e-05     0.000275173       -0.0373386      -0.0188075     -0.000611199    -0.000356258        -0.732927        0.667678
                       0.0183933         0.98293     -0.000597809     -0.00031625       -0.0694777        0.135715     -0.000172638    -0.000157145
                    -0.000595077    -0.000286394        -0.733076        0.666882     -0.000184122    -5.65757e-05       -0.0154064      -0.0362237
281724                 -0.075792       -0.132828     -6.08222e-05     3.78383e-05        0.0189355        0.982619     -0.000575271    -0.000235319
                     6.76123e-05     0.000274672       -0.0373421      -0.0188214     -0.000611377    -0.000355783        -0.732593        0.668045
                        0.018837         0.98292     -0.000598047    -0.000315934       -0.0694045        0.135772     -0.000172852    -0.000157007
                    -0.000595215    -0.000286076        -0.732742        0.667248     -0.000184135    -5.65584e-05       -0.0154571      -0.0362132
281726                 -0.075841        -0.13282     -6.07939e-05      3.7667e-05        0.0193803        0.982608     -0.000575414    -0.000235083
                     6.80786e-05     0.000274178       -0.0373457      -0.0188353     -0.000611551    -0.000355308        -0.732259        0.668412
                       0.0192807        0.982909     -0.000598285    -0.000315618       -0.0693313         0.13583     -0.000173066    -0.000156869
                    -0.000595349    -0.000285757        -0.732408        0.667615     -0.000184148    -5.65403e-05       -0.0155079      -0.0362027
281728                  -0.07589       -0.132813      -6.0767e-05     3.74961e-05        0.0198251        0.982597     -0.000575557    -0.000234849
                     6.85165e-05     0.000273689       -0.0373493      -0.0188492     -0.000611722    -0.000354833        -0.731924         0.66878
                       0.0197243        0.982898     -0.000598522    -0.000315302        -0.069258        0.135887     -0.000173279     -0.00015673
                    -0.000595477    -0.000285438        -0.732073        0.667982      -0.00018416    -5.65213e-05       -0.0155586      -0.0361921
281730                 -0.075939       -0.132806     -6.07414e-05     3.73256e-05        0.0202698        0.982585     -0.000575699    -0.000234617
                     6.89271e-05     0.000273207       -0.0373528      -0.0188631      -0.00061189    -0.000354358        -0.731589        0.669146
                        0.020168        0.982886     -0.000598759    -0.000314986       -0.0691847        0.135944     -0.000173492    -0.000156591
                    -0.000595601    -0.000285119        -0.731739        0.668348     -0.000184173    -5.65014e-05       -0.0156093      -0.0361815
281732                -0.0759879       -0.132798      -6.0717e-05     3.71556e-05        0.0207145        0.982573     -0.000575842    -0.000234387
                     6.93115e-05     0.000272731       -0.0373564       -0.018877     -0.000612054    -0.000353882        -0.731255        0.669513
                       0.0206116        0.982875     -0.000598996     -0.00031467       -0.0691113        0.136002     -0.000173704    -0.000156451
                    -0.000595721      -0.0002848        -0.731404        0.668714     -0.000184186    -5.64808e-05       -0.0156599      -0.0361708
281734                -0.0760369       -0.132791     -6.06939e-05     3.69861e-05        0.0211592        0.982561     -0.000575985     -0.00023416
                     6.96707e-05     0.000272261       -0.0373601      -0.0188909     -0.000612214    -0.000353406         -0.73092         0.66988
                       0.0210553        0.982863     -0.000599232    -0.000314354       -0.0690379        0.136059     -0.000173916     -0.00015631
                    -0.000595836     -0.00028448        -0.731069        0.669081     -0.000184199    -5.64595e-05       -0.0157106      -0.0361601
281736                -0.0760859       -0.132784     -6.06721e-05     3.68172e-05        0.0216039        0.982549     -0.000576127    -0.000233934
                     7.00058e-05     0.000271798       -0.0373637      -0.0189048     -0.000612372     -0.00035293        -0.730585        0.670246
                       0.0214989        0.982851     -0.000599468    -0.000314038       -0.0689644        0.136116     -0.000174127    -0.000156169
                    -0.000595947     -0.00028416        -0.730734        0.669446     -0.000184212    -5.64373e-05       -0.0157613      -0.0361494
281738                -0.0761349       -0.132776     -6.06514e-05     3.66488e-05        0.0220485        0.982537     -0.000576269     -0.00023371
                     7.03176e-05     0.000271341       -0.0373674      -0.0189187     -0.000612527    -0.000352454        -0.730249        0.670612
                       0.0219425        0.982839     -0.000599703    -0.000313721       -0.0688909        0.136173     -0.000174337    -0.000156027
                    -0.000596055    -0.000283841        -0.730398        0.669812     -0.000184225    -5.64146e-05       -0.0158119      -0.0361386
281740                -0.0761839       -0.132769      -6.0632e-05     3.64812e-05        0.0224932        0.982524     -0.000576412    -0.000233488
                     7.06071e-05      0.00027089        -0.037371      -0.0189327     -0.000612678    -0.000351977        -0.729914        0.670978
                       0.0223861        0.982826     -0.000599939    -0.000313405       -0.0688174         0.13623     -0.000174548    -0.000155885
                    -0.000596159    -0.000283521        -0.730063        0.670178     -0.000184238    -5.63911e-05       -0.0158626      -0.0361277
281742                -0.0762329       -0.132762     -6.06137e-05     3.63143e-05        0.0229378        0.982511     -0.000576554    -0.000233268
                     7.08751e-05     0.000270446       -0.0373747      -0.0189466     -0.000612827    -0.000351501        -0.729578        0.671344
                       0.0228296        0.982814     -0.000600173    -0.000313088       -0.0687438        0.136288     -0.000174757    -0.000155743
                     -0.00059626    -0.000283201        -0.729727        0.670543     -0.000184251    -5.63671e-05       -0.0159132      -0.0361168
281744                -0.0762819       -0.132754     -6.05966e-05     3.61481e-05        0.0233824        0.982498     -0.000576697     -0.00023305
                     7.11225e-05     0.000270008       -0.0373784      -0.0189604     -0.000612973    -0.000351025        -0.729242         0.67171
                       0.0232732        0.982801     -0.000600408    -0.000312771       -0.0686701        0.136345     -0.000174966    -0.000155599
                    -0.000596358    -0.000282881        -0.729391        0.670908     -0.000184264    -5.63427e-05       -0.0159638      -0.0361058
281746                -0.0763308       -0.132747     -6.05807e-05     3.59828e-05         0.023827        0.982485     -0.000576839    -0.000232835
                     7.13501e-05     0.000269576       -0.0373822      -0.0189743     -0.000613117    -0.000350548        -0.728906        0.672076
                       0.0237167        0.982788     -0.000600641    -0.000312455       -0.0685965        0.136402     -0.000175175    -0.000155455
                    -0.000596452    -0.000282561        -0.729055        0.671273     -0.000184276    -5.63179e-05       -0.0160145      -0.0360949
281748                -0.0763798       -0.132739     -6.05658e-05     3.58184e-05        0.0242716        0.982472     -0.000576982    -0.000232621
                     7.15587e-05      0.00026915       -0.0373859      -0.0189882     -0.000613259    -0.000350072         -0.72857        0.672441
                       0.0241603        0.982775     -0.000600875    -0.000312138       -0.0685227        0.136459     -0.000175383    -0.000155311
                    -0.000596544     -0.00028224        -0.728719        0.671638     -0.000184289    -5.62929e-05       -0.0160651      -0.0360838
281750                -0.0764288       -0.132732     -6.05519e-05     3.56549e-05        0.0247161        0.982458     -0.000577126    -0.000232408
                      7.1749e-05      0.00026873       -0.0373897      -0.0190021       -0.0006134    -0.000349595        -0.728234        0.672806
                       0.0246038        0.982761     -0.000601108    -0.000311821        -0.068449        0.136516     -0.000175591    -0.000155165
                    -0.000596633     -0.00028192        -0.728383        0.672003     -0.000184303    -5.62679e-05       -0.0161157      -0.0360727
281752                -0.0764778       -0.132724     -6.05391e-05     3.54923e-05        0.0251607        0.982445     -0.000577273      -0.0002322
                     7.19218e-05     0.000268316       -0.0373934       -0.019016      -0.00061354    -0.000349115        -0.727897        0.673171
                       0.0250473        0.982748      -0.00060134    -0.000311504       -0.0683751        0.136572     -0.000175798     -0.00015502
                    -0.000596719      -0.0002816        -0.728046        0.672367     -0.000184317    -5.62428e-05       -0.0161662      -0.0360616
281754                -0.0765268       -0.132717     -6.05272e-05     3.53308e-05        0.0256052        0.982431     -0.000577414       -0.000232
                     7.20778e-05     0.000267907       -0.0373972      -0.0190299     -0.000613677     -0.00034863         -0.72756        0.673536
                       0.0254907        0.982734     -0.000601572    -0.000311187       -0.0683013        0.136629     -0.000176005    -0.000154873
                    -0.000596803     -0.00028128         -0.72771        0.672732     -0.000184333    -5.62171e-05       -0.0162168      -0.0360504
281756                -0.0765758       -0.132709     -6.05162e-05     3.51703e-05        0.0260497        0.982417     -0.000577554    -0.000231796
                     7.22176e-05     0.000267505        -0.037401      -0.0190438     -0.000613806    -0.000348139        -0.727224          0.6739
                       0.0259342         0.98272     -0.000601804     -0.00031087       -0.0682274        0.136686     -0.000176211    -0.000154726
                    -0.000596885    -0.000280961        -0.727373        0.673096     -0.000184351    -5.61893e-05       -0.0162674      -0.0360392
281758                -0.0766247       -0.132702      -6.0506e-05     3.50109e-05        0.0264941        0.982402     -0.000577696    -0.000231593
                     7.23419e-05     0.000267108       -0.0374049      -0.0190577     -0.000613924    -0.000347651        -0.726887        0.674265
                       0.0263777        0.982705     -0.000602035    -0.000310553       -0.0681534        0.136743     -0.000176416    -0.000154579
                    -0.000596964    -0.000280641        -0.727036         0.67346     -0.000184369    -5.61583e-05        -0.016318      -0.0360279
281760                -0.0766737       -0.132694     -6.04966e-05     3.48526e-05        0.0269386        0.982388     -0.000577839    -0.000231393
                     7.24514e-05     0.000266717       -0.0374087      -0.0190716     -0.000614036    -0.000347169        -0.726549        0.674629
                       0.0268211        0.982691     -0.000602266    -0.000310236       -0.0680794          0.1368     -0.000176621     -0.00015443
                    -0.000597042    -0.000280321        -0.726698        0.673824     -0.000184385    -5.61252e-05       -0.0163685      -0.0360165
281762                -0.0767227       -0.132687      -6.0488e-05     3.46956e-05         0.027383        0.982373     -0.000577982    -0.000231195
                     7.25465e-05     0.000266331       -0.0374126      -0.0190854     -0.000614148    -0.000346692        -0.726212        0.674993
                       0.0272645        0.982676     -0.000602496    -0.000309919       -0.0680054        0.136856     -0.000176826    -0.000154281
