! TOUCHSTONE file generated by CST MICROWAVE STUDIO
! Date and time: Tue Oct 14 07:25:18 2025
! Project name: Teste_Macro_Metasurface_Nanopilar.cst
! Parameters = {H=600; L_x=75; L_y=165; Lambda=1064; Max_L=200; Min_L=70; PathPara=1; Phi=0; Step_L=10; Theta=0; p=520; phaseX=180; phaseY=0}
! Header version: 2018
! Port assignment regex: !\s*Touchstone port\s*([0-9]+)\s*=\s*(CST MWS port|CST DS port)\s*([0-9]+|Zmin|Zmax)\s*\(\"(.*)\"\)(\s*mode\s*([0-9]+))?.*
! Touchstone port assignment:
! Touchstone port 1 = CST MWS port Zmax ("") mode 1
! Touchstone port 2 = CST MWS port Zmax ("") mode 2
! Touchstone port 3 = CST MWS port Zmin ("") mode 1
! Touchstone port 4 = CST MWS port Zmin ("") mode 2
! S-Parameters are not renormalized. Each port impedance will be approximated by the real part at minimum frequency. The values are described via the [Reference] keyword.
! Default impedance is overridden by [Reference]
[Version] 2.0
# GHz S RI R 376.73
[Number of Ports] 4
[Reference]
376.73 376.73 259.814 259.814 
[Number of Frequencies] 51
[Network Data]
281700                 0.0602407      -0.0748251      0.000129484     -0.00018261        -0.612367        0.774816      2.73073e-06    -0.000162237
                     5.25658e-05    -0.000186398       0.00307216       0.0839639      0.000124331    -2.90061e-05         0.974458       -0.206127
                       -0.612355        0.774794      0.000119954     5.70962e-05       -0.0592244       0.0784151      0.000157946    -0.000122128
                     2.89403e-05    -8.99346e-05         0.974215       -0.205701      0.000172868    -5.14581e-05        0.0310431       0.0783002
281702                 0.0602062      -0.0748798      0.000129331    -0.000182738        -0.611982        0.775118      2.73302e-06    -0.000162201
                     5.25982e-05    -0.000186432       0.00310496       0.0839579      0.000124331    -2.91251e-05         0.974382       -0.206489
                        -0.61197        0.775096      0.000119956     5.70181e-05       -0.0592087       0.0784524      0.000158006    -0.000122126
                     2.88182e-05    -9.00023e-05         0.974138       -0.206063      0.000173019    -5.14197e-05        0.0310688       0.0782849
281704                 0.0601716      -0.0749345      0.000129177    -0.000182865        -0.611597        0.775419       2.7355e-06    -0.000162166
                      5.2631e-05    -0.000186467       0.00313776       0.0839519       0.00012433    -2.92441e-05         0.974305       -0.206851
                       -0.611585        0.775397      0.000119957     5.69399e-05       -0.0591929       0.0784898      0.000158066    -0.000122123
                     2.86959e-05    -9.00702e-05         0.974062       -0.206425      0.000173169    -5.13812e-05        0.0310945       0.0782696
281706                  0.060137      -0.0749892      0.000129024    -0.000182993        -0.611211        0.775721      2.73816e-06     -0.00016213
                     5.26643e-05    -0.000186501       0.00317056       0.0839459      0.000124329    -2.93629e-05         0.974228       -0.207213
                       -0.611199        0.775699      0.000119959     5.68618e-05       -0.0591772       0.0785271      0.000158125    -0.000122121
                     2.85732e-05    -9.01382e-05         0.973986       -0.206788       0.00017332    -5.13429e-05        0.0311201       0.0782543
281708                 0.0601024      -0.0750438      0.000128871     -0.00018312        -0.610826        0.776022      2.74101e-06    -0.000162095
                     5.26981e-05    -0.000186535       0.00320336       0.0839399      0.000124328    -2.94817e-05         0.974152       -0.207576
                       -0.610814           0.776       0.00011996     5.67836e-05       -0.0591613       0.0785645      0.000158185     -0.00012212
                     2.84503e-05    -9.02063e-05         0.973909        -0.20715      0.000173471    -5.13046e-05        0.0311458        0.078239
281710                 0.0600678      -0.0750984      0.000128717    -0.000183247         -0.61044        0.776323      2.74404e-06     -0.00016206
                     5.27323e-05    -0.000186569       0.00323615       0.0839338      0.000124328    -2.96003e-05         0.974075       -0.207938
                       -0.610428        0.776302      0.000119962     5.67053e-05       -0.0591455       0.0786018      0.000158246    -0.000122119
                      2.8327e-05    -9.02746e-05         0.973833       -0.207512      0.000173622    -5.12665e-05        0.0311714       0.0782237
281712                 0.0600331      -0.0751531      0.000128564    -0.000183374        -0.610054        0.776624      2.74725e-06    -0.000162025
                      5.2767e-05    -0.000186603       0.00326894       0.0839278      0.000124327    -2.97188e-05         0.973998         -0.2083
                       -0.610042        0.776603      0.000119963     5.66271e-05       -0.0591297       0.0786392      0.000158306    -0.000122118
                     2.82034e-05    -9.03429e-05         0.973756       -0.207874      0.000173773    -5.12284e-05         0.031197       0.0782083
281714                 0.0599984      -0.0752076       0.00012841    -0.000183501        -0.609668        0.776924      2.75064e-06     -0.00016199
                     5.28022e-05    -0.000186637       0.00330172       0.0839217      0.000124327    -2.98373e-05         0.973921       -0.208662
                       -0.609657        0.776904      0.000119964     5.65488e-05       -0.0591138       0.0786766      0.000158366    -0.000122117
                     2.80796e-05    -9.04114e-05         0.973679       -0.208236      0.000173924    -5.11904e-05        0.0312226        0.078193
281716                 0.0599637      -0.0752622      0.000128256    -0.000183628        -0.609282        0.777225      2.75421e-06    -0.000161955
                     5.28378e-05    -0.000186671       0.00333451       0.0839156      0.000124326    -2.99556e-05         0.973843       -0.209024
                        -0.60927        0.777204      0.000119965     5.64705e-05       -0.0590979        0.078714      0.000158426    -0.000122117
                     2.79554e-05    -9.04801e-05         0.973602       -0.208598      0.000174075    -5.11524e-05        0.0312483       0.0781777
281718                 0.0599289      -0.0753168      0.000128102    -0.000183754        -0.608895        0.777525      2.75796e-06     -0.00016192
                     5.28739e-05    -0.000186705       0.00336729       0.0839095      0.000124326    -3.00738e-05         0.973766       -0.209386
                       -0.608884        0.777505      0.000119966     5.63921e-05       -0.0590819       0.0787514      0.000158487    -0.000122117
                     2.78309e-05    -9.05489e-05         0.973525        -0.20896      0.000174227    -5.11146e-05        0.0312739       0.0781623
281720                 0.0598941      -0.0753713      0.000127948    -0.000183881        -0.608509        0.777825      2.76188e-06    -0.000161885
                     5.29105e-05    -0.000186739       0.00340006       0.0839034      0.000124326    -3.01919e-05         0.973688       -0.209748
                       -0.608498        0.777805      0.000119967     5.63137e-05        -0.059066       0.0787889      0.000158547    -0.000122118
                     2.77062e-05    -9.06178e-05         0.973447       -0.209322      0.000174378    -5.10768e-05        0.0312995       0.0781469
281722                 0.0598593      -0.0754258      0.000127794    -0.000184007        -0.608122        0.778125      2.76597e-06     -0.00016185
                     5.29475e-05    -0.000186772       0.00343283       0.0838973      0.000124326      -3.031e-05         0.973611        -0.21011
                       -0.608111        0.778105      0.000119968     5.62353e-05         -0.05905       0.0788263      0.000158608    -0.000122118
                     2.75811e-05    -9.06868e-05          0.97337       -0.209684       0.00017453    -5.10392e-05        0.0313251       0.0781316
281724                 0.0598244      -0.0754803       0.00012764    -0.000184133        -0.607736        0.778424      2.77024e-06    -0.000161816
                      5.2985e-05    -0.000186806        0.0034656       0.0838912      0.000124326    -3.04279e-05         0.973533       -0.210472
                       -0.607725        0.778405      0.000119969     5.61568e-05        -0.059034       0.0788637      0.000158669     -0.00012212
                     2.74557e-05     -9.0756e-05         0.973292       -0.210045      0.000174682    -5.10017e-05        0.0313506       0.0781162
281726                 0.0597895      -0.0755348      0.000127486    -0.000184259        -0.607349        0.778724      2.77468e-06    -0.000161781
                      5.3023e-05    -0.000186839       0.00349837       0.0838851      0.000124326    -3.05457e-05         0.973455       -0.210834
                       -0.607338        0.778704       0.00011997     5.60784e-05       -0.0590179       0.0789012       0.00015873    -0.000122121
                       2.733e-05    -9.08253e-05         0.973215       -0.210407      0.000174833    -5.09642e-05        0.0313762       0.0781008
281728                 0.0597546      -0.0755893      0.000127332    -0.000184385        -0.606962        0.779023       2.7793e-06    -0.000161747
                     5.30615e-05    -0.000186873       0.00353113       0.0838789      0.000124326    -3.06634e-05         0.973377       -0.211196
                       -0.606951        0.779004       0.00011997     5.59998e-05       -0.0590019       0.0789387       0.00015879    -0.000122123
                      2.7204e-05    -9.08948e-05         0.973137       -0.210769      0.000174985    -5.09269e-05        0.0314018       0.0780854
281730                 0.0597197      -0.0756438      0.000127177     -0.00018451        -0.606574        0.779322      2.78408e-06    -0.000161713
                     5.31005e-05    -0.000186906       0.00356389       0.0838728      0.000124326    -3.07811e-05         0.973298       -0.211558
                       -0.606564        0.779303      0.000119971     5.59213e-05       -0.0589858       0.0789761      0.000158851    -0.000122125
                     2.70777e-05    -9.09644e-05         0.973059       -0.211131      0.000175137    -5.08896e-05        0.0314274         0.07807
281732                 0.0596847      -0.0756982      0.000127022    -0.000184636        -0.606187        0.779621      2.78902e-06    -0.000161678
                     5.31399e-05    -0.000186939       0.00359664       0.0838666      0.000124326    -3.08986e-05          0.97322       -0.211919
                       -0.606177        0.779602      0.000119972     5.58427e-05       -0.0589697       0.0790136      0.000158912    -0.000122128
                     2.69511e-05    -9.10341e-05         0.972981       -0.211493      0.000175289    -5.08525e-05        0.0314529       0.0780546
281734                 0.0596497      -0.0757526      0.000126868    -0.000184761          -0.6058        0.779919      2.79414e-06    -0.000161644
                     5.31799e-05    -0.000186972        0.0036294       0.0838604      0.000124327    -3.10161e-05         0.973142       -0.212281
                       -0.605789        0.779901      0.000119972      5.5764e-05       -0.0589535       0.0790511      0.000158973     -0.00012213
                     2.68242e-05    -9.11039e-05         0.972902       -0.211854      0.000175442    -5.08155e-05        0.0314785       0.0780392
281736                 0.0596147       -0.075807      0.000126713    -0.000184886        -0.605412        0.780218      2.79942e-06     -0.00016161
                     5.32203e-05    -0.000187005       0.00366214       0.0838542      0.000124327    -3.11334e-05         0.973063       -0.212643
                       -0.605402          0.7802      0.000119972     5.56853e-05       -0.0589374       0.0790886      0.000159034    -0.000122133
                      2.6697e-05    -9.11738e-05         0.972824       -0.212216      0.000175594    -5.07786e-05         0.031504       0.0780238
281738                 0.0595796      -0.0758614      0.000126557    -0.000185011        -0.605024        0.780516      2.80487e-06    -0.000161576
                     5.32612e-05    -0.000187039       0.00369489        0.083848      0.000124328    -3.12507e-05         0.972984       -0.213005
                       -0.605014        0.780498      0.000119973     5.56066e-05       -0.0589212       0.0791261      0.000159096    -0.000122137
                     2.65694e-05    -9.12438e-05         0.972745       -0.212578      0.000175746    -5.07418e-05        0.0315295       0.0780084
281740                 0.0595445      -0.0759157      0.000126402    -0.000185135        -0.604636        0.780814      2.81048e-06    -0.000161542
                     5.33026e-05    -0.000187072       0.00372763       0.0838418      0.000124328    -3.13678e-05         0.972905       -0.213366
                       -0.604626        0.780796      0.000119973     5.55278e-05        -0.058905       0.0791637      0.000159157    -0.000122141
                     2.64414e-05    -9.13138e-05         0.972667        -0.21294      0.000175899    -5.07052e-05         0.031555       0.0779929
281742                 0.0595093      -0.0759701      0.000126247     -0.00018526        -0.604248        0.781112      2.81626e-06    -0.000161509
                     5.33446e-05    -0.000187106       0.00376037       0.0838355      0.000124329    -3.14849e-05         0.972826       -0.213728
                       -0.604239        0.781094      0.000119973     5.54489e-05       -0.0588887       0.0792012      0.000159218    -0.000122145
                      2.6313e-05    -9.13836e-05         0.972588       -0.213301      0.000176051    -5.06687e-05        0.0315806       0.0779775
281744                 0.0594742      -0.0760244      0.000126091    -0.000185384         -0.60386         0.78141      2.82221e-06    -0.000161475
                     5.33873e-05    -0.000187142        0.0037931       0.0838293       0.00012433    -3.16019e-05         0.972747        -0.21409
                        -0.60385        0.781392      0.000119973       5.537e-05       -0.0588725       0.0792387      0.000159279    -0.000122149
                     2.61838e-05    -9.14527e-05         0.972509       -0.213663      0.000176204    -5.06323e-05        0.0316061        0.077962
281746                  0.059439      -0.0760787      0.000125934    -0.000185507        -0.603472        0.781707      2.82832e-06    -0.000161442
                     5.34322e-05     -0.00018719       0.00382583        0.083823      0.000124331    -3.17188e-05         0.972668       -0.214451
                       -0.603462         0.78169      0.000119973     5.52909e-05       -0.0588562       0.0792763      0.000159341    -0.000122154
                     2.60527e-05    -9.15169e-05          0.97243       -0.214024      0.000176356     -5.0596e-05        0.0316316       0.0779466
281748                 0.0594038       -0.076133      0.000125776     -0.00018563        -0.603083        0.782004      2.83461e-06    -0.000161408
                     5.34749e-05     -0.00018716       0.00385856       0.0838167      0.000124332    -3.18357e-05         0.972588       -0.214813
                       -0.603074        0.781987      0.000119973     5.52116e-05       -0.0588399       0.0793139      0.000159402    -0.000122159
                     2.59514e-05    -9.16167e-05         0.972351       -0.214386      0.000176509    -5.05599e-05        0.0316571       0.0779311
281750                 0.0593685      -0.0761872      0.000125615    -0.000185752        -0.602695        0.782301      2.84107e-06    -0.000161375
                     5.35166e-05    -0.000187218       0.00389128       0.0838104      0.000124333    -3.19524e-05         0.972509       -0.215175
                       -0.602685        0.782285      0.000119974     5.51316e-05       -0.0588235       0.0793514      0.000159463    -0.000122165
                     2.58037e-05    -9.16757e-05         0.972271       -0.214747      0.000176662    -5.05239e-05        0.0316826       0.0779156
281752                 0.0593332      -0.0762415      0.000125429     -0.00018586        -0.602306        0.782598      2.84773e-06    -0.000161342
                     5.35609e-05    -0.000187254       0.00392399       0.0838041      0.000124334    -3.20691e-05         0.972429       -0.215536
                       -0.602297        0.782582      0.000119976     5.50467e-05       -0.0588071        0.079389      0.000159525    -0.000122171
                     2.56724e-05    -9.17448e-05         0.972192       -0.215109      0.000176815    -5.04881e-05         0.031708       0.0779001
281754                 0.0592979      -0.0762957      0.000125348    -0.000186024        -0.601917        0.782895      2.85458e-06    -0.000161308
                     5.36057e-05    -0.000187288       0.00395675       0.0837978      0.000124335    -3.21859e-05         0.972349       -0.215898
                       -0.601908        0.782879      0.000119968     5.49837e-05       -0.0587908       0.0794266      0.000159587    -0.000122177
                      2.5542e-05    -9.18154e-05         0.972112        -0.21547      0.000176968    -5.04525e-05        0.0317335       0.0778847
281756                 0.0592626      -0.0763499      0.000125172    -0.000186136        -0.601528        0.783191      2.86167e-06    -0.000161275
                     5.36511e-05    -0.000187321       0.00398945       0.0837915      0.000124336    -3.23028e-05         0.972269       -0.216259
                       -0.601519        0.783175       0.00011997        5.49e-05       -0.0587743       0.0794642      0.000159648    -0.000122183
                     2.54116e-05    -9.18866e-05         0.972032       -0.215832      0.000177122    -5.04171e-05         0.031759       0.0778692
281758                 0.0592272      -0.0764041      0.000125012    -0.000186256        -0.601139        0.783488      2.86904e-06    -0.000161242
                     5.36969e-05    -0.000187353       0.00402216       0.0837852      0.000124337    -3.24151e-05         0.972189       -0.216621
                        -0.60113        0.783472       0.00011997     5.48199e-05       -0.0587579       0.0795019       0.00015971     -0.00012219
                      2.5281e-05    -9.19582e-05         0.971952       -0.216193      0.000177282    -5.03698e-05        0.0317844       0.0778536
281760                 0.0591918      -0.0764583      0.000124854    -0.000186378         -0.60075        0.783784      2.87683e-06    -0.000161209
                     5.37433e-05    -0.000187385       0.00405486       0.0837788       0.00012434    -3.25336e-05         0.972109       -0.216982
                       -0.600741        0.783768       0.00011997     5.47404e-05       -0.0587414       0.0795395      0.000159773    -0.000122197
                     2.51503e-05      -9.203e-05         0.971872       -0.216555      0.000177424    -5.03444e-05        0.0318099       0.0778381
281762                 0.0591564      -0.0765125      0.000124696    -0.000186501         -0.60036        0.784079      2.88532e-06    -0.000161176
                     5.37902e-05    -0.000187416       0.00408757       0.0837725      0.000124342    -3.26502e-05         0.972028       -0.217344
                       -0.600351        0.784064      0.000119969      5.4661e-05       -0.0587249       0.0795771      0.000159836    -0.000122205
