! TOUCHSTONE file generated by CST MICROWAVE STUDIO
! Date and time: Tue Oct 14 07:33:11 2025
! Project name: Teste_Macro_Metasurface_Nanopilar.cst
! Parameters = {H=600; L_x=200; L_y=180; Lambda=1064; Max_L=200; Min_L=70; PathPara=1; Phi=0; Step_L=10; Theta=0; p=520; phaseX=180; phaseY=0}
! Header version: 2018
! Port assignment regex: !\s*Touchstone port\s*([0-9]+)\s*=\s*(CST MWS port|CST DS port)\s*([0-9]+|Zmin|Zmax)\s*\(\"(.*)\"\)(\s*mode\s*([0-9]+))?.*
! Touchstone port assignment:
! Touchstone port 1 = CST MWS port Zmax ("") mode 1
! Touchstone port 2 = CST MWS port Zmax ("") mode 2
! Touchstone port 3 = CST MWS port Zmin ("") mode 1
! Touchstone port 4 = CST MWS port Zmin ("") mode 2
! S-Parameters are not renormalized. Each port impedance will be approximated by the real part at minimum frequency. The values are described via the [Reference] keyword.
! Default impedance is overridden by [Reference]
[Version] 2.0
# GHz S RI R 376.73
[Number of Ports] 4
[Reference]
376.73 376.73 259.814 259.814 
[Number of Frequencies] 51
[Network Data]
281700                 -0.310834       -0.145141     -0.000682238    -0.000271557         0.922722         0.15848      0.000125264    -0.000850738
                     -0.00063829    -0.000212528        -0.507074       -0.258782     -0.000432853    -0.000872033         0.805567         0.10988
                        0.922825        0.158374     -0.000449812    -0.000897487         0.339875      -0.0341556      0.000578126    -0.000691262
                     0.000103839    -0.000901322         0.805163        0.110198      0.000444657    -0.000773992          0.55687       -0.102931
281702                 -0.310887       -0.145054     -0.000685246    -0.000268174         0.922783        0.158107      0.000122645    -0.000848709
                    -0.000638647    -0.000212028        -0.507118       -0.258545     -0.000436123    -0.000870571         0.805675         0.10948
                        0.922884        0.158003     -0.000455556    -0.000895687         0.339869      -0.0343299      0.000576542    -0.000692676
                     0.000102943     -0.00090114         0.805278        0.109784      0.000437008    -0.000775563         0.556739       -0.103268
281704                  -0.31094       -0.144967     -0.000688346    -0.000264738         0.922845        0.157734      0.000120631    -0.000846165
                    -0.000639011    -0.000211526        -0.507161       -0.258309     -0.000439427    -0.000869213         0.805783         0.10908
                        0.922943        0.157631     -0.000461506    -0.000893702         0.339864      -0.0345042      0.000575018    -0.000694104
                     0.000102045     -0.00090096          0.80539        0.109371      0.000429775    -0.000777319         0.556607       -0.103606
281706                 -0.310993        -0.14488     -0.000691556     -0.00026125         0.922906        0.157361      0.000119547    -0.000843316
                     -0.00063938    -0.000211021        -0.507205       -0.258072     -0.000442765    -0.000867974         0.805891         0.10868
                        0.923002         0.15726     -0.000467695    -0.000891491         0.339858      -0.0346785      0.000573553    -0.000695549
                     0.000101144    -0.000900782         0.805501        0.108959      0.000422979    -0.000779252         0.556475       -0.103943
281708                 -0.311046       -0.144792     -0.000694899    -0.000257708         0.922967        0.156988       0.00011961    -0.000840612
                    -0.000639757    -0.000210511        -0.507248       -0.257836     -0.000446132    -0.000866869         0.805999         0.10828
                         0.92306        0.156888     -0.000474161    -0.000888995         0.339852      -0.0348527      0.000572151    -0.000697016
                     0.000100238    -0.000900607          0.80561        0.108548      0.000416646    -0.000781354         0.556342       -0.104281
281710                 -0.311099       -0.144705     -0.000698403    -0.000254115         0.923027        0.156615      0.000120726    -0.000838643
                    -0.000640142    -0.000209997        -0.507291       -0.257599     -0.000449526    -0.000865917         0.806106        0.107879
                        0.923119        0.156516      -0.00048095    -0.000886131         0.339846      -0.0350268      0.000570812     -0.00069851
                     9.93284e-05    -0.000900435         0.805717        0.108138      0.000410799    -0.000783613         0.556209       -0.104619
281712                 -0.311152       -0.144618     -0.000702106    -0.000250475         0.923087        0.156242      0.000122421    -0.000837858
                    -0.000640537    -0.000209476        -0.507334       -0.257363     -0.000452939    -0.000865142         0.806214        0.107478
                        0.923178        0.156145     -0.000488113    -0.000882787          0.33984       -0.035201      0.000569538    -0.000700035
                     9.84127e-05    -0.000900267         0.805823         0.10773      0.000405468    -0.000786012         0.556076       -0.104958
281714                 -0.311205       -0.144531     -0.000706051    -0.000246794         0.923147        0.155869      0.000124054    -0.000838321
                    -0.000640944    -0.000208947        -0.507377       -0.257126     -0.000456361    -0.000864566         0.806321        0.107078
                        0.923237        0.155773     -0.000495703    -0.000878798         0.339834      -0.0353751      0.000568331    -0.000701598
                     9.74899e-05    -0.000900103         0.805928        0.107324       0.00040068     -0.00078853         0.555943       -0.105297
281716                 -0.311258       -0.144444     -0.000710298    -0.000243086         0.923206        0.155496      0.000125138    -0.000839735
                    -0.000641363    -0.000208409         -0.50742       -0.256889     -0.000459776    -0.000864219         0.806429        0.106677
                        0.923296        0.155401     -0.000503769    -0.000873923         0.339827      -0.0355491      0.000567191    -0.000703205
                     9.65582e-05    -0.000899946         0.806032        0.106919      0.000396468    -0.000791142          0.55581       -0.105635
281718                 -0.311311       -0.144357     -0.000714924    -0.000239374         0.923265        0.155123      0.000125477    -0.000841678
                    -0.000641796    -0.000207859        -0.507463       -0.256653     -0.000463164    -0.000864132         0.806536        0.106276
                        0.923354        0.155029      -0.00051233    -0.000867809          0.33982      -0.0357231       0.00056612    -0.000704861
                     9.56156e-05    -0.000899795         0.806136        0.106516      0.000392861    -0.000793815         0.555677       -0.105975
281720                 -0.311364       -0.144269     -0.000720026    -0.000235697         0.923324        0.154751      0.000125107    -0.000843798
                    -0.000642246    -0.000207293        -0.507506       -0.256416     -0.000466495    -0.000864341         0.806643        0.105875
                        0.923413        0.154657     -0.000521322    -0.000859924         0.339814      -0.0358971      0.000565117    -0.000706575
                     9.46592e-05    -0.000899653         0.806241        0.106114      0.000389893     -0.00079651         0.555543       -0.106314
281722                 -0.311417       -0.144182     -0.000725739    -0.000232123         0.923382        0.154378      0.000124164    -0.000845873
                    -0.000642716    -0.000206705        -0.507548        -0.25618     -0.000469728    -0.000864883          0.80675        0.105474
                        0.923472        0.154285     -0.000530471    -0.000849478         0.339807      -0.0360711      0.000564183    -0.000708354
                     9.36852e-05     -0.00089952         0.806345        0.105713      0.000387596    -0.000799181          0.55541       -0.106653
281724                  -0.31147       -0.144095     -0.000732237    -0.000228767          0.92344        0.154005      0.000122799    -0.000847796
                    -0.000643206    -0.000206091        -0.507591       -0.255944     -0.000472807    -0.000865798         0.806858        0.105073
                         0.92353        0.153913     -0.000539002    -0.000835361         0.339799       -0.036245      0.000563317    -0.000710205
                     9.26883e-05      -0.0008994          0.80645        0.105314      0.000386003    -0.000801773         0.555276       -0.106992
281726                 -0.311523       -0.144008     -0.000739753    -0.000225832         0.923498        0.153633      0.000121141    -0.000849527
                    -0.000643718     -0.00020544        -0.507633       -0.255707     -0.000475657    -0.000867126         0.806964        0.104672
                        0.923588        0.153541      -0.00054505    -0.000816257         0.339792      -0.0364189      0.000562519    -0.000712138
                     9.16613e-05    -0.000899293         0.806555        0.104916      0.000385145    -0.000804221         0.555142       -0.107332
281728                 -0.311576        -0.14392     -0.000748584    -0.000223684         0.923555        0.153261      0.000119283    -0.000851064
                    -0.000644253     -0.00020474        -0.507676       -0.255471     -0.000478177    -0.000868902         0.807071        0.104271
                        0.923646        0.153169     -0.000544706    -0.000791565         0.339785      -0.0365927      0.000561785    -0.000714161
                     9.05938e-05    -0.000899205         0.806661        0.104518      0.000385051    -0.000806446         0.555009       -0.107671
281730                 -0.311629       -0.143833     -0.000759073     -0.00022298         0.923612        0.152888      0.000117293    -0.000852424
                    -0.000644809    -0.000203976        -0.507719       -0.255234     -0.000480233    -0.000871144         0.807178         0.10387
                        0.923705        0.152797     -0.000531818     -0.00076427         0.339777      -0.0367665      0.000561114    -0.000716283
                     8.94703e-05    -0.000899136         0.806768         0.10412      0.000385746    -0.000808361         0.554875       -0.108011
281732                 -0.311682       -0.143746     -0.000771484    -0.000224927         0.923669        0.152516      0.000115219    -0.000853625
                    -0.000645376    -0.000203124        -0.507761       -0.254998     -0.000481655    -0.000873849         0.807284        0.103469
                        0.923762        0.152424     -0.000502663    -0.000744851          0.33977      -0.0369403      0.000560502    -0.000718516
                     8.82674e-05     -0.00089909         0.806875        0.103723      0.000387252    -0.000809861         0.554741        -0.10835
281734                 -0.311735       -0.143658     -0.000785543    -0.000231653         0.923726        0.152144      0.000113089     -0.00085469
                    -0.000645938    -0.000202159        -0.507803       -0.254762     -0.000482228    -0.000876961         0.807391        0.103068
                         0.92382        0.152052     -0.000466056    -0.000746206         0.339762      -0.0371141      0.000559945    -0.000720869
                     8.69481e-05    -0.000899064         0.806982        0.103327      0.000389583    -0.000810821         0.554607        -0.10869
281736                 -0.311787       -0.143571      -0.00079909    -0.000246398         0.923782        0.151772      0.000110927    -0.000855637
                    -0.000646456    -0.000201052        -0.507846       -0.254525     -0.000481698     -0.00088035         0.807497        0.102668
                        0.923878         0.15168     -0.000439531    -0.000767141         0.339754      -0.0372879      0.000559435    -0.000723354
                     8.54518e-05     -0.00089905          0.80709         0.10293      0.000392745      -0.0008111         0.554473       -0.109029
281738                  -0.31184       -0.143484     -0.000805447    -0.000271682         0.923838        0.151401      0.000108746    -0.000856482
                    -0.000646869    -0.000199782        -0.507888       -0.254289     -0.000479789    -0.000883761         0.807603        0.102268
                        0.923935        0.151308     -0.000429996    -0.000793902         0.339746      -0.0374616      0.000558966    -0.000725982
                     8.36766e-05    -0.000899007         0.807199        0.102533       0.00039673    -0.000810526          0.55434       -0.109368
281740                 -0.311893       -0.143396     -0.000793544    -0.000302007         0.923893        0.151029      0.000106555    -0.000857239
                    -0.000647083    -0.000198358         -0.50793       -0.254053     -0.000476253    -0.000886775         0.807709        0.101867
                        0.923993        0.150936     -0.000432546    -0.000816836         0.339737      -0.0376354      0.000558527    -0.000728763
                     8.14544e-05    -0.000898809         0.807308        0.102135      0.000401514    -0.000808899         0.554206       -0.109707
281742                 -0.311946       -0.143309     -0.000761671    -0.000319271         0.923948        0.150658      0.000104361    -0.000857918
                    -0.000646991    -0.000196852        -0.507972       -0.253817     -0.000470962    -0.000888769         0.807814        0.101467
                         0.92405        0.150563     -0.000440907    -0.000833815         0.339729      -0.0378091      0.000558108     -0.00073171
                     7.85602e-05    -0.000898072         0.807416        0.101738      0.000407048    -0.000805975         0.554072       -0.110046
281744                 -0.311998       -0.143221     -0.000727591    -0.000312931         0.924003        0.150287      0.000102168    -0.000858528
                    -0.000646523    -0.000195422        -0.508015       -0.253581     -0.000464049    -0.000888933         0.807919        0.101067
                        0.924107        0.150191     -0.000451384    -0.000845895          0.33972      -0.0379829      0.000557693    -0.000734834
                     7.50707e-05    -0.000895775         0.807525         0.10134      0.000413243    -0.000801456         0.553938       -0.110385
281746                 -0.312051       -0.143134     -0.000705918     -0.00029263         0.924058        0.149916      9.99799e-05    -0.000859077
                    -0.000645729    -0.000194272        -0.508057       -0.253345     -0.000456077    -0.000886394         0.808024        0.100668
                        0.924164        0.149819     -0.000462315    -0.000854611         0.339712      -0.0381567      0.000557266    -0.000738145
                     7.29819e-05    -0.000890656         0.807634        0.100942      0.000419953    -0.000794977         0.553804       -0.110723
281748                 -0.312104       -0.143046     -0.000696627    -0.000269878         0.924112        0.149546      9.77985e-05    -0.000859569
                    -0.000644793    -0.000193541        -0.508099        -0.25311     -0.000448129    -0.000880485         0.808128        0.100268
                         0.92422        0.149446     -0.000473067    -0.000861215         0.339703      -0.0383305      0.000556806    -0.000741652
                     7.55455e-05    -0.000885649         0.807743        0.100543      0.000426937    -0.000786075          0.55367       -0.111062
281750                 -0.312156       -0.142959     -0.000695105    -0.000249157         0.924166        0.149176      9.56259e-05    -0.000860009
                    -0.000643941    -0.000193218        -0.508141       -0.252874     -0.000441702    -0.000871088         0.808232       0.0998687
                        0.924277        0.149074     -0.000483445    -0.000866639         0.339694      -0.0385043      0.000556288    -0.000745363
                     7.94197e-05     -0.00088493         0.807852        0.100145      0.000433792    -0.000774166         0.553536         -0.1114
281752                 -0.312209       -0.142871      -0.00069804     -0.00023093         0.924219        0.148806      9.34639e-05    -0.000860398
                    -0.000643322    -0.000193171        -0.508183       -0.252638      -0.00043833    -0.000858893         0.808336       0.0994695
                        0.924333        0.148702     -0.000493411    -0.000871597         0.339685      -0.0386783      0.000555682    -0.000749283
                     8.12416e-05    -0.000886219          0.80796       0.0997453      0.000439842    -0.000758518         0.553402       -0.111737
281754                 -0.312262       -0.142784     -0.000703919    -0.000214448         0.924273        0.148438      9.13143e-05    -0.000860737
                    -0.000642972    -0.000193245        -0.508225       -0.252403     -0.000439081    -0.000845318         0.808439       0.0990704
                        0.924389        0.148329     -0.000502938    -0.000876704         0.339675      -0.0388523      0.000554951    -0.000753413
                     8.15639e-05    -0.000887511         0.808068       0.0993458      0.000443915    -0.000738251         0.553268       -0.112075
281756                 -0.312314       -0.142696     -0.000712531    -0.000198759         0.924326         0.14807      8.91795e-05    -0.000861026
                    -0.000642855    -0.000193329        -0.508267       -0.252167     -0.000444224    -0.000832118         0.808542       0.0986714
                        0.924445        0.147957     -0.000511906     -0.00088256         0.339666      -0.0390265      0.000554052    -0.000757745
                     8.11963e-05    -0.000888434         0.808176       0.0989459      0.000443975    -0.000712454         0.553134       -0.112412
281758                 -0.312367       -0.142608     -0.000724858    -0.000182962         0.924379        0.147704      8.70629e-05    -0.000861259
                    -0.000642911     -0.00019336        -0.508308       -0.251932     -0.000453236    -0.000820892         0.808645       0.0982726
                        0.924501        0.147585     -0.000519963    -0.000889803         0.339656      -0.0392009       0.00055293    -0.000762266
                     8.05244e-05    -0.000889041         0.808283       0.0985456      0.000436509    -0.000680655         0.552999       -0.112749
281760                 -0.312419       -0.142521     -0.000743757    -0.000166469         0.924431        0.147341       8.4969e-05    -0.000861431
                    -0.000643086    -0.000193317         -0.50835       -0.251697     -0.000465089    -0.000812771         0.808746       0.0978739
                        0.924557        0.147212     -0.000526307    -0.000899072         0.339646      -0.0393756      0.000551517    -0.000766944
                     7.97096e-05    -0.000889423         0.808389        0.098145      0.000415847    -0.000644236         0.552865       -0.113086
281762                 -0.312472       -0.142433     -0.000776323    -0.000150648         0.924485        0.146982      8.29053e-05    -0.000861529
                    -0.000643342    -0.000193195        -0.508392       -0.251462     -0.000478563     -0.00080836         0.808848       0.0974752
                        0.924612         0.14684     -0.000529365    -0.000910703         0.339635      -0.0395509      0.000549724    -0.000771724
