! TOUCHSTONE file generated by CST MICROWAVE STUDIO
! Date and time: Tue Oct 14 07:32:06 2025
! Project name: Teste_Macro_Metasurface_Nanopilar.cst
! Parameters = {H=600; L_x=185; L_y=115; Lambda=1064; Max_L=200; Min_L=70; PathPara=1; Phi=0; Step_L=10; Theta=0; p=520; phaseX=180; phaseY=0}
! Header version: 2018
! Port assignment regex: !\s*Touchstone port\s*([0-9]+)\s*=\s*(CST MWS port|CST DS port)\s*([0-9]+|Zmin|Zmax)\s*\(\"(.*)\"\)(\s*mode\s*([0-9]+))?.*
! Touchstone port assignment:
! Touchstone port 1 = CST MWS port Zmax ("") mode 1
! Touchstone port 2 = CST MWS port Zmax ("") mode 2
! Touchstone port 3 = CST MWS port Zmin ("") mode 1
! Touchstone port 4 = CST MWS port Zmin ("") mode 2
! S-Parameters are not renormalized. Each port impedance will be approximated by the real part at minimum frequency. The values are described via the [Reference] keyword.
! Default impedance is overridden by [Reference]
[Version] 2.0
# GHz S RI R 376.73
[Number of Ports] 4
[Reference]
376.73 376.73 259.814 259.814 
[Number of Frequencies] 51
[Network Data]
281700                -0.0705101      -0.0550753      0.000434063     0.000154368        -0.395206          0.9074        0.0007373    -0.000162441
                     0.000432113     0.000119549        -0.189416        0.172662      0.000584204     0.000166188         0.518376        0.807607
                       -0.395655        0.906877      0.000693645     0.000118157       -0.0867721      -0.0125767       0.00020708     3.08778e-05
                     0.000649475    -0.000150162         0.518356        0.808158      0.000258396    -0.000129252        -0.232512       0.0900849
281702                -0.0705265      -0.0550744       0.00043408     0.000154102         -0.39478        0.907584      0.000737073    -0.000162819
                     0.000432076     0.000119295        -0.189332        0.172644      0.000584265     0.000166364         0.518778        0.807374
                        -0.39523        0.907062      0.000693736     0.000117868        -0.086795      -0.0125077      0.000207184     3.09249e-05
                     0.000649308    -0.000150361         0.518759        0.807925      0.000257873    -0.000129257         -0.23237       0.0902464
281704                -0.0705429      -0.0550734      0.000434095     0.000153835        -0.394355        0.907768      0.000736845    -0.000163196
                     0.000432039      0.00011904        -0.189249        0.172626      0.000584329     0.000166541          0.51918        0.807141
                       -0.394806        0.907247      0.000693826     0.000117579       -0.0868177      -0.0124387      0.000207289     3.09718e-05
                     0.000649142     -0.00015056         0.519162        0.807692      0.000257349     -0.00012926        -0.232228       0.0904077
281706                -0.0705594      -0.0550724      0.000434108     0.000153566        -0.393929        0.907952      0.000736617    -0.000163571
                        0.000432     0.000118785        -0.189165        0.172608      0.000584393     0.000166718         0.519583        0.806907
                       -0.394381        0.907432      0.000693917     0.000117291       -0.0868405      -0.0123697      0.000207394     3.10184e-05
                     0.000648975     -0.00015076         0.519565        0.807458      0.000256825    -0.000129262        -0.232087       0.0905689
281708                -0.0705758      -0.0550714      0.000434121     0.000153297        -0.393504        0.908135      0.000736388    -0.000163944
                      0.00043196      0.00011853        -0.189081         0.17259       0.00058446     0.000166894         0.519985        0.806674
                       -0.393956        0.907616      0.000694007     0.000117002       -0.0868632      -0.0123006      0.000207499     3.10647e-05
                     0.000648808    -0.000150959         0.519968        0.807225      0.000256301    -0.000129262        -0.231945       0.0907299
281710                -0.0705923      -0.0550704      0.000434132     0.000153026        -0.393078        0.908318      0.000736159    -0.000164316
                     0.000431919     0.000118275        -0.188998        0.172571      0.000584527      0.00016707         0.520387         0.80644
                       -0.393531        0.907801      0.000694097     0.000116714       -0.0868858      -0.0122315      0.000207605     3.11106e-05
                     0.000648641    -0.000151159          0.52037        0.806991      0.000255777    -0.000129261        -0.231803       0.0908908
281712                -0.0706087      -0.0550694      0.000434142     0.000152754        -0.392652        0.908501      0.000735931    -0.000164687
                     0.000431876     0.000118019        -0.188914        0.172553      0.000584596     0.000167246         0.520788        0.806206
                       -0.393107        0.907985      0.000694188     0.000116426       -0.0869084      -0.0121625      0.000207711     3.11562e-05
                     0.000648474    -0.000151359         0.520773        0.806757      0.000255253    -0.000129259        -0.231661       0.0910515
281714                -0.0706252      -0.0550684      0.000434151      0.00015248        -0.392227        0.908684      0.000735702    -0.000165056
                     0.000431833     0.000117763        -0.188831        0.172535      0.000584667     0.000167422          0.52119        0.805972
                       -0.392682        0.908168      0.000694278     0.000116138       -0.0869309      -0.0120933      0.000207817     3.12014e-05
                     0.000648306    -0.000151559         0.521175        0.806523      0.000254729    -0.000129256        -0.231519       0.0912121
281716                -0.0706417      -0.0550674       0.00043416     0.000152205        -0.391801        0.908867      0.000735475    -0.000165424
                     0.000431788     0.000117507        -0.188748        0.172517      0.000584739     0.000167597         0.521591        0.805738
                       -0.392256        0.908352      0.000694369      0.00011585       -0.0869534      -0.0120242      0.000207923     3.12462e-05
                     0.000648139    -0.000151759         0.521577        0.806289      0.000254204    -0.000129251        -0.231377       0.0913725
281718                -0.0706581      -0.0550664      0.000434168     0.000151929        -0.391375         0.90905      0.000735247    -0.000165792
                     0.000431742      0.00011725        -0.188664        0.172499      0.000584813     0.000167773         0.521993        0.805503
                       -0.391831        0.908535      0.000694459     0.000115563       -0.0869758      -0.0119551       0.00020803     3.12906e-05
                     0.000647972    -0.000151959         0.521979        0.806054       0.00025368    -0.000129244        -0.231235       0.0915328
281720                -0.0706746      -0.0550654      0.000434175     0.000151651        -0.390949        0.909232      0.000735021    -0.000166158
                     0.000431695     0.000116993        -0.188581        0.172481      0.000584888     0.000167948         0.522394        0.805269
                       -0.391406        0.908719       0.00069455     0.000115276       -0.0869981      -0.0118859      0.000208136     3.13345e-05
                     0.000647804     -0.00015216         0.522381         0.80582      0.000253155    -0.000129237        -0.231093       0.0916929
281722                -0.0706911      -0.0550643      0.000434181     0.000151372        -0.390523        0.909414      0.000734794    -0.000166525
                     0.000431647     0.000116736        -0.188498        0.172462      0.000584964     0.000168122         0.522795        0.805034
                       -0.390981        0.908902       0.00069464     0.000114989       -0.0870205      -0.0118167      0.000208243      3.1378e-05
                     0.000647637     -0.00015236         0.522782        0.805585       0.00025263    -0.000129228         -0.23095       0.0918529
281724                -0.0707076      -0.0550633      0.000434188     0.000151092        -0.390096        0.909596      0.000734569    -0.000166891
                     0.000431597     0.000116479        -0.188415        0.172444      0.000585042     0.000168297         0.523196        0.804799
                       -0.390555        0.909085       0.00069473     0.000114702       -0.0870427      -0.0117475      0.000208349      3.1421e-05
                     0.000647469    -0.000152561         0.523184         0.80535      0.000252106    -0.000129217        -0.230808       0.0920127
281726                -0.0707241      -0.0550623      0.000434194      0.00015081         -0.38967        0.909778      0.000734343    -0.000167256
                     0.000431546     0.000116221        -0.188332        0.172426      0.000585121     0.000168471         0.523597        0.804563
                        -0.39013        0.909267      0.000694821     0.000114416       -0.0870649      -0.0116782      0.000208456     3.14637e-05
                     0.000647301    -0.000152762         0.523585        0.805115       0.00025158    -0.000129206        -0.230665       0.0921724
281728                -0.0707407      -0.0550612        0.0004342     0.000150527        -0.389244        0.909959      0.000734118    -0.000167622
                     0.000431495     0.000115964        -0.188249        0.172408      0.000585201     0.000168645         0.523997        0.804328
                       -0.389704         0.90945      0.000694911      0.00011413       -0.0870871       -0.011609      0.000208563     3.15058e-05
                     0.000647133    -0.000152963         0.523986        0.804879      0.000251055    -0.000129193        -0.230523       0.0923319
281730                -0.0707572      -0.0550602      0.000434206     0.000150242        -0.388817         0.91014      0.000733893    -0.000167987
                     0.000431441     0.000115706        -0.188166        0.172389      0.000585283     0.000168819         0.524398        0.804092
                       -0.389279        0.909632      0.000695001     0.000113844       -0.0871092      -0.0115397      0.000208669     3.15476e-05
                     0.000646965    -0.000153164         0.524387        0.804644       0.00025053    -0.000129179         -0.23038       0.0924913
281732                -0.0707737      -0.0550591      0.000434212     0.000149957        -0.388391        0.910322      0.000733668    -0.000168353
                     0.000431387     0.000115447        -0.188083        0.172371      0.000585367     0.000168992         0.524798        0.803856
                       -0.388853        0.909814      0.000695092     0.000113559       -0.0871313      -0.0114704      0.000208775     3.15888e-05
                     0.000646797    -0.000153366         0.524788        0.804408      0.000250004    -0.000129163        -0.230238       0.0926505
281734                -0.0707903      -0.0550581      0.000434218      0.00014967        -0.387964        0.910502      0.000733443    -0.000168718
                     0.000431332     0.000115189           -0.188        0.172353      0.000585452     0.000169165         0.525198         0.80362
                       -0.388427        0.909996      0.000695182     0.000113274       -0.0871533      -0.0114011      0.000208882     3.16297e-05
                     0.000646629    -0.000153567         0.525189        0.804172      0.000249479    -0.000129146        -0.230095       0.0928095
281736                -0.0708068       -0.055057      0.000434225     0.000149383        -0.387538        0.910683      0.000733218    -0.000169084
                     0.000431275      0.00011493        -0.187917        0.172335      0.000585538     0.000169338         0.525598        0.803384
                       -0.388002        0.910177      0.000695272     0.000112989       -0.0871752      -0.0113318      0.000208988     3.16701e-05
                     0.000646461    -0.000153769          0.52559        0.803936      0.000248953    -0.000129128        -0.229952       0.0929684
281738                -0.0708234      -0.0550559      0.000434231     0.000149094        -0.387111        0.910864      0.000732993    -0.000169449
                     0.000431218     0.000114671        -0.187834        0.172316      0.000585625     0.000169511         0.525998        0.803148
                       -0.387576        0.910359      0.000695363     0.000112705       -0.0871971      -0.0112624      0.000209094     3.17101e-05
                     0.000646293    -0.000153971          0.52599        0.803699      0.000248427    -0.000129109        -0.229809       0.0931272
281740                -0.0708399      -0.0550549      0.000434238     0.000148804        -0.386684        0.911044      0.000732768    -0.000169815
                     0.000431159     0.000114412        -0.187752        0.172298      0.000585714     0.000169683         0.526398        0.802911
                        -0.38715         0.91054      0.000695453      0.00011242        -0.087219       -0.011193        0.0002092     3.17497e-05
                     0.000646124    -0.000154173          0.52639        0.803463        0.0002479    -0.000129088        -0.229666       0.0932858
281742                -0.0708565      -0.0550538      0.000434246     0.000148513        -0.386257        0.911224      0.000732543     -0.00017018
                     0.000431099     0.000114153        -0.187669         0.17228      0.000585804     0.000169855         0.526798        0.802674
                       -0.386723        0.910721      0.000695544     0.000112136       -0.0872408      -0.0111236      0.000209306     3.17888e-05
                     0.000645956    -0.000154376         0.526791        0.803226      0.000247374    -0.000129066        -0.229523       0.0934443
281744                -0.0708731      -0.0550527      0.000434254     0.000148222         -0.38583        0.911404      0.000732318    -0.000170546
                     0.000431037     0.000113893        -0.187587        0.172261      0.000585896     0.000170026         0.527197        0.802437
                       -0.386297        0.910902      0.000695635     0.000111851       -0.0872625      -0.0110542      0.000209411     3.18275e-05
                     0.000645788    -0.000154579         0.527191        0.802989      0.000246847    -0.000129043         -0.22938       0.0936026
281746                -0.0708897      -0.0550516      0.000434263     0.000147929        -0.385403        0.911583      0.000732092    -0.000170911
                     0.000430974     0.000113633        -0.187504        0.172243      0.000585989     0.000170198         0.527597          0.8022
                       -0.385871        0.911082      0.000695729     0.000111567       -0.0872842      -0.0109848      0.000209517     3.18658e-05
                     0.000645622    -0.000154783         0.527591        0.802752      0.000246321    -0.000129019        -0.229237       0.0937607
281748                -0.0709063      -0.0550505      0.000434274     0.000147636        -0.384976        0.911763      0.000731867    -0.000171277
                     0.000430908     0.000113371        -0.187422        0.172224      0.000586083     0.000170369         0.527996        0.801963
                       -0.385445        0.911263      0.000695825     0.000111287       -0.0873058      -0.0109153      0.000209622     3.19037e-05
                     0.000645465    -0.000154992          0.52799        0.802515      0.000245793    -0.000128993        -0.229094       0.0939187
281750                -0.0709229      -0.0550494      0.000434287     0.000147344        -0.384549        0.911942      0.000731641    -0.000171643
                     0.000430855     0.000113122        -0.187339        0.172206      0.000586179     0.000170539         0.528395        0.801725
                       -0.385018        0.911443      0.000695921     0.000111013       -0.0873274      -0.0108458      0.000209727     3.19412e-05
                     0.000645249    -0.000155174          0.52839        0.802277      0.000245266    -0.000128966         -0.22895       0.0940766
281752                -0.0709395      -0.0550483      0.000434302     0.000147053        -0.384122        0.912121      0.000731415    -0.000172008
                     0.000430784     0.000112857        -0.187257        0.172188      0.000586276     0.000170709         0.528794        0.801487
                       -0.384592        0.911623      0.000696009     0.000110741        -0.087349      -0.0107763      0.000209832     3.19782e-05
                     0.000645098    -0.000155385          0.52879        0.802039      0.000244739    -0.000128938        -0.228807       0.0942343
281754                -0.0709561      -0.0550472      0.000434316     0.000146767        -0.383694          0.9123      0.000731189    -0.000172374
                     0.000430717     0.000112596        -0.187174        0.172169      0.000586374     0.000170879         0.529192        0.801249
                       -0.384165        0.911803      0.000696093     0.000110466       -0.0873705      -0.0107068      0.000209937     3.20149e-05
                     0.000644932     -0.00015559         0.529189        0.801801      0.000244211    -0.000128908        -0.228664       0.0943918
281756                -0.0709727       -0.055046      0.000434326     0.000146484        -0.383267        0.912479      0.000730962    -0.000172739
                     0.000430649     0.000112335        -0.187092        0.172151      0.000586473     0.000171049         0.529591        0.801011
                       -0.383739        0.911982      0.000696178     0.000110188       -0.0873919      -0.0106373      0.000210042     3.20511e-05
                     0.000644763    -0.000155794         0.529588        0.801563      0.000243683    -0.000128878         -0.22852       0.0945492
281758                -0.0709893      -0.0550449       0.00043433     0.000146198        -0.382839        0.912657      0.000730736    -0.000173105
                     0.000430579     0.000112074         -0.18701        0.172132      0.000586574     0.000171218         0.529989        0.800773
                       -0.383312        0.912162      0.000696264      0.00010991       -0.0874133      -0.0105677      0.000210146     3.20869e-05
                     0.000644594    -0.000155998         0.529987        0.801325      0.000243155    -0.000128846        -0.228377       0.0947064
281760                 -0.071006      -0.0550438      0.000434333     0.000145907        -0.382412        0.912836      0.000730509     -0.00017347
                     0.000430509     0.000111813        -0.186928        0.172114      0.000586676     0.000171386         0.530388        0.800534
                       -0.382885        0.912341       0.00069635     0.000109632       -0.0874346      -0.0104981      0.000210251     3.21223e-05
                     0.000644424    -0.000156202         0.530386        0.801086      0.000242627    -0.000128813        -0.228233       0.0948635
281762                -0.0710226      -0.0550426      0.000434338     0.000145614        -0.381984        0.913014      0.000730283    -0.000173836
                     0.000430438     0.000111552        -0.186846        0.172095      0.000586779     0.000171555         0.530786        0.800295
                       -0.382458         0.91252      0.000696437     0.000109354       -0.0874559      -0.0104285      0.000210355     3.21574e-05
