! TOUCHSTONE file generated by CST MICROWAVE STUDIO
! Date and time: Tue Oct 14 07:25:51 2025
! Project name: Teste_Macro_Metasurface_Nanopilar.cst
! Parameters = {H=600; L_x=85; L_y=130; Lambda=1064; Max_L=200; Min_L=70; PathPara=1; Phi=0; Step_L=10; Theta=0; p=520; phaseX=180; phaseY=0}
! Header version: 2018
! Port assignment regex: !\s*Touchstone port\s*([0-9]+)\s*=\s*(CST MWS port|CST DS port)\s*([0-9]+|Zmin|Zmax)\s*\(\"(.*)\"\)(\s*mode\s*([0-9]+))?.*
! Touchstone port assignment:
! Touchstone port 1 = CST MWS port Zmax ("") mode 1
! Touchstone port 2 = CST MWS port Zmax ("") mode 2
! Touchstone port 3 = CST MWS port Zmin ("") mode 1
! Touchstone port 4 = CST MWS port Zmin ("") mode 2
! S-Parameters are not renormalized. Each port impedance will be approximated by the real part at minimum frequency. The values are described via the [Reference] keyword.
! Default impedance is overridden by [Reference]
[Version] 2.0
# GHz S RI R 376.73
[Number of Ports] 4
[Reference]
376.73 376.73 259.814 259.814 
[Number of Frequencies] 51
[Network Data]
281700                 -0.169301       0.0748663     -7.87219e-05    -0.000176536        -0.579042        -0.78346     -0.000126685    -3.62062e-05
                     0.000123147    -9.87998e-05        0.0143689       0.0606671     -5.20774e-05    -0.000189106         0.945635        -0.31554
                       -0.579276       -0.783343     -0.000150673    -3.68067e-05        -0.121313        0.139287     -0.000242538     5.08548e-05
                    -0.000160983    -6.98106e-05         0.945659       -0.315225      -0.00025796     3.01031e-05        0.0247799       0.0575175
281702                 -0.169265       0.0749339     -7.87969e-05    -0.000176354        -0.579442       -0.783165     -0.000126725    -3.61641e-05
                     0.000122279    -9.84469e-05        0.0143945       0.0606553     -5.22231e-05    -0.000189224         0.945515       -0.315898
                       -0.579676       -0.783048     -0.000150658    -3.67259e-05        -0.121225        0.139355     -0.000242463      5.0827e-05
                    -0.000160897    -6.96953e-05         0.945539       -0.315584     -0.000257985     3.01847e-05        0.0247958       0.0575046
281704                 -0.169228       0.0750015     -7.88716e-05    -0.000176171        -0.579841        -0.78287     -0.000126764     -3.6122e-05
                     0.000121411    -9.80921e-05        0.0144201       0.0606434     -5.23702e-05    -0.000189344         0.945396       -0.316257
                       -0.580075       -0.782753     -0.000150642    -3.66451e-05        -0.121137        0.139424     -0.000242389     5.07991e-05
                    -0.000160812    -6.95802e-05          0.94542       -0.315942     -0.000258011     3.02663e-05        0.0248116       0.0574917
281706                 -0.169192        0.075069     -7.89459e-05    -0.000175989        -0.580241       -0.782574     -0.000126804    -3.60797e-05
                     0.000120541    -9.77354e-05        0.0144458       0.0606316     -5.25186e-05    -0.000189464         0.945276       -0.316615
                       -0.580475       -0.782458     -0.000150626    -3.65643e-05        -0.121049        0.139493     -0.000242314     5.07712e-05
                    -0.000160726    -6.94654e-05           0.9453       -0.316301     -0.000258038      3.0348e-05        0.0248274       0.0574788
281708                 -0.169156       0.0751366       -7.902e-05    -0.000175807         -0.58064       -0.782279     -0.000126843    -3.60374e-05
                     0.000119671    -9.73768e-05        0.0144714       0.0606197     -5.26685e-05    -0.000189585         0.945156       -0.316973
                       -0.580874       -0.782163     -0.000150611    -3.64835e-05        -0.120961        0.139562      -0.00024224     5.07432e-05
                     -0.00016064    -6.93508e-05         0.945181       -0.316659     -0.000258065     3.04298e-05        0.0248433       0.0574659
281710                  -0.16912       0.0752041     -7.90938e-05    -0.000175625         -0.58104       -0.781983     -0.000126882     -3.5995e-05
                     0.000118799    -9.70162e-05         0.014497       0.0606078     -5.28197e-05    -0.000189707         0.945036       -0.317332
                       -0.581274       -0.781867     -0.000150595    -3.64028e-05        -0.120873        0.139631     -0.000242166     5.07152e-05
                    -0.000160555    -6.92365e-05         0.945061       -0.317018     -0.000258092     3.05116e-05        0.0248591        0.057453
281712                 -0.169083       0.0752716     -7.91672e-05    -0.000175443        -0.581439       -0.781687     -0.000126921    -3.59526e-05
                     0.000117927    -9.66537e-05        0.0145226       0.0605959     -5.29724e-05     -0.00018983         0.944916        -0.31769
                       -0.581673       -0.781571     -0.000150579    -3.63221e-05        -0.120785        0.139699     -0.000242092     5.06871e-05
                     -0.00016047    -6.91223e-05         0.944941       -0.317376     -0.000258119     3.05935e-05        0.0248749       0.0574401
281714                 -0.169047       0.0753391     -7.92404e-05     -0.00017526        -0.581838       -0.781391      -0.00012696      -3.591e-05
                     0.000117054    -9.62891e-05        0.0145482        0.060584     -5.31264e-05    -0.000189954         0.944795       -0.318048
                       -0.582072       -0.781275     -0.000150563    -3.62414e-05        -0.120697        0.139768     -0.000242017      5.0659e-05
                    -0.000160384    -6.90084e-05         0.944821       -0.317734     -0.000258147     3.06755e-05        0.0248907       0.0574272
281716                  -0.16901       0.0754065     -7.93132e-05    -0.000175078        -0.582237       -0.781095     -0.000126999    -3.58674e-05
                     0.000116181    -9.59225e-05        0.0145738       0.0605721     -5.32819e-05    -0.000190079         0.944675       -0.318406
                       -0.582471       -0.780979     -0.000150547    -3.61608e-05        -0.120609        0.139836     -0.000241943     5.06307e-05
                    -0.000160299    -6.88948e-05           0.9447       -0.318093     -0.000258175     3.07576e-05        0.0249065       0.0574143
281718                 -0.168974        0.075474     -7.93858e-05    -0.000174896        -0.582636       -0.780798     -0.000127038    -3.58246e-05
                     0.000115306    -9.55539e-05        0.0145994       0.0605601     -5.34388e-05    -0.000190205         0.944554       -0.318765
                       -0.582869       -0.780683     -0.000150531    -3.60802e-05        -0.120521        0.139905      -0.00024187     5.06025e-05
                    -0.000160214    -6.87813e-05          0.94458       -0.318451     -0.000258204     3.08397e-05        0.0249223       0.0574014
281720                 -0.168938       0.0755414      -7.9458e-05    -0.000174714        -0.583034       -0.780502     -0.000127077    -3.57818e-05
                     0.000114432    -9.51833e-05         0.014625       0.0605482     -5.35972e-05    -0.000190332         0.944433       -0.319123
                       -0.583268       -0.780386     -0.000150514    -3.59996e-05        -0.120433        0.139973     -0.000241796     5.05742e-05
                    -0.000160129    -6.86681e-05          0.94446       -0.318809     -0.000258233     3.09218e-05        0.0249381       0.0573884
281722                 -0.168901       0.0756089       -7.953e-05    -0.000174532        -0.583433       -0.780205     -0.000127116     -3.5739e-05
                     0.000113556    -9.48106e-05        0.0146506       0.0605362      -5.3757e-05     -0.00019046         0.944313       -0.319481
                       -0.583666       -0.780089     -0.000150498     -3.5919e-05        -0.120344        0.140041     -0.000241722     5.05458e-05
                    -0.000160044    -6.85552e-05         0.944339       -0.319167     -0.000258262     3.10041e-05        0.0249539       0.0573755
281724                 -0.168865       0.0756763     -7.96017e-05     -0.00017435        -0.583831       -0.779908     -0.000127155     -3.5696e-05
                     0.000112681    -9.44358e-05        0.0146761       0.0605243     -5.39182e-05    -0.000190589         0.944191       -0.319839
                       -0.584065       -0.779792     -0.000150481    -3.58385e-05        -0.120256         0.14011     -0.000241648     5.05174e-05
                     -0.00015996    -6.84424e-05         0.944218       -0.319525     -0.000258292     3.10864e-05        0.0249697       0.0573626
281726                 -0.168828       0.0757437     -7.96731e-05    -0.000174168        -0.584229        -0.77961     -0.000127194    -3.56529e-05
                     0.000111805    -9.40589e-05        0.0147017       0.0605123      -5.4081e-05    -0.000190719          0.94407       -0.320197
                       -0.584463       -0.779495     -0.000150465     -3.5758e-05        -0.120168        0.140178     -0.000241575     5.04889e-05
                    -0.000159876    -6.83299e-05         0.944097       -0.319883     -0.000258322     3.11688e-05        0.0249855       0.0573497
281728                 -0.168791        0.075811     -7.97442e-05    -0.000173986        -0.584627       -0.779313     -0.000127233    -3.56098e-05
                     0.000110929    -9.36799e-05        0.0147273       0.0605003     -5.42452e-05     -0.00019085         0.943949       -0.320555
                       -0.584861       -0.779197     -0.000150448    -3.56775e-05        -0.120079        0.140246     -0.000241501     5.04604e-05
                    -0.000159792    -6.82175e-05         0.943976       -0.320241     -0.000258353     3.12513e-05        0.0250012       0.0573367
281730                 -0.168755       0.0758784      -7.9815e-05    -0.000173804        -0.585025       -0.779015     -0.000127271    -3.55666e-05
                     0.000110052    -9.32988e-05        0.0147528       0.0604883      -5.4411e-05    -0.000190982         0.943828       -0.320912
                       -0.585259         -0.7789     -0.000150431    -3.55971e-05        -0.119991        0.140314     -0.000241428     5.04318e-05
                    -0.000159709    -6.81051e-05         0.943855       -0.320599     -0.000258383     3.13339e-05         0.025017       0.0573238
281732                 -0.168718       0.0759457     -7.98856e-05    -0.000173623        -0.585423       -0.778717      -0.00012731    -3.55233e-05
                     0.000109176    -9.29156e-05        0.0147784       0.0604763     -5.45782e-05    -0.000191115         0.943706        -0.32127
                       -0.585657       -0.778602     -0.000150415    -3.55166e-05        -0.119902        0.140382     -0.000241354     5.04031e-05
                    -0.000159627    -6.79926e-05         0.943734       -0.320957     -0.000258415     3.14165e-05        0.0250327       0.0573109
281734                 -0.168681       0.0760131     -7.99559e-05    -0.000173441         -0.58582       -0.778419     -0.000127348      -3.548e-05
                     0.000108299    -9.25302e-05        0.0148039       0.0604643      -5.4747e-05    -0.000191249         0.943584       -0.321628
                       -0.586054       -0.778304     -0.000150398    -3.54362e-05        -0.119814         0.14045     -0.000241281     5.03744e-05
                    -0.000159547    -6.78794e-05         0.943612       -0.321315     -0.000258446     3.14992e-05        0.0250485       0.0572979
281736                 -0.168645       0.0760804     -8.00259e-05    -0.000173259        -0.586218        -0.77812     -0.000127387    -3.54366e-05
                     0.000107422    -9.21427e-05        0.0148295       0.0604523     -5.49173e-05    -0.000191384         0.943462       -0.321986
                       -0.586452       -0.778006     -0.000150381    -3.53559e-05        -0.119725        0.140518     -0.000241208     5.03457e-05
                    -0.000159469    -6.77643e-05         0.943491       -0.321673     -0.000258479      3.1582e-05        0.0250642        0.057285
281738                 -0.168608       0.0761476     -8.00956e-05    -0.000173077        -0.586615       -0.777822     -0.000127426     -3.5393e-05
                     0.000106546    -9.17531e-05         0.014855       0.0604403     -5.50891e-05     -0.00019152          0.94334       -0.322343
                       -0.586849       -0.777707     -0.000150364    -3.52755e-05        -0.119636        0.140586     -0.000241135     5.03169e-05
                    -0.000159392    -6.76449e-05         0.943369       -0.322031     -0.000258511     3.16649e-05        0.0250799       0.0572721
281740                 -0.168571       0.0762149      -8.0165e-05    -0.000172895        -0.587012       -0.777523     -0.000127464    -3.53495e-05
                     0.000105669    -9.13615e-05        0.0148805       0.0604282     -5.52626e-05    -0.000191657         0.943218       -0.322701
                       -0.587246       -0.777408     -0.000150346    -3.51952e-05        -0.119548        0.140654     -0.000241062     5.02881e-05
                    -0.000159313    -6.75172e-05         0.943247       -0.322388     -0.000258544     3.17479e-05        0.0250957       0.0572591
281742                 -0.168534       0.0762822     -8.02342e-05    -0.000172713        -0.587409       -0.777224     -0.000127502    -3.53058e-05
                     0.000104793    -9.09678e-05         0.014906       0.0604162     -5.54376e-05    -0.000191795         0.943096       -0.323059
                       -0.587643       -0.777109     -0.000150329    -3.51149e-05        -0.119459        0.140721     -0.000240989     5.02592e-05
                    -0.000159222    -6.73826e-05         0.943125       -0.322746     -0.000258577     3.18309e-05        0.0251114       0.0572462
281744                 -0.168497       0.0763494      -8.0303e-05    -0.000172532        -0.587806       -0.776925     -0.000127541    -3.52621e-05
                     0.000103917    -9.05722e-05        0.0149315       0.0604041     -5.56142e-05    -0.000191934         0.942974       -0.323416
                        -0.58804        -0.77681     -0.000150312    -3.50346e-05         -0.11937        0.140789     -0.000240916     5.02303e-05
                    -0.000159116    -6.72565e-05         0.943003       -0.323104     -0.000258611     3.19141e-05        0.0251271       0.0572332
281746                 -0.168461       0.0764166     -8.03714e-05     -0.00017235        -0.588203       -0.776625     -0.000127579    -3.52183e-05
                     0.000103041    -9.01754e-05        0.0149571        0.060392     -5.57925e-05    -0.000192074         0.942851       -0.323774
                       -0.588436       -0.776511     -0.000150294    -3.49543e-05        -0.119281        0.140857     -0.000240843     5.02013e-05
                    -0.000159009    -6.71468e-05         0.942881       -0.323461     -0.000258645     3.19973e-05        0.0251428       0.0572203
281748                 -0.168424       0.0764838     -8.04394e-05    -0.000172168          -0.5886       -0.776326     -0.000127617    -3.51744e-05
                     0.000102164    -8.97795e-05        0.0149826       0.0603799     -5.59725e-05    -0.000192215         0.942729       -0.324131
                       -0.588833       -0.776211     -0.000150277    -3.48741e-05        -0.119193        0.140924     -0.000240771     5.01723e-05
                    -0.000158911    -6.70439e-05         0.942758       -0.323819      -0.00025868     3.20806e-05        0.0251585       0.0572073
281750                 -0.168387        0.076551     -8.05067e-05    -0.000171986        -0.588996       -0.776026     -0.000127655    -3.51304e-05
                     0.000101245    -8.93716e-05         0.015008       0.0603678     -5.61543e-05    -0.000192358         0.942606       -0.324489
                       -0.589229       -0.775912     -0.000150259    -3.47939e-05        -0.119104        0.140992     -0.000240698     5.01432e-05
                    -0.000158819    -6.69409e-05         0.942636       -0.324176     -0.000258715      3.2164e-05        0.0251742       0.0571943
281752                  -0.16835       0.0766182     -8.05726e-05    -0.000171804        -0.589392       -0.775726     -0.000127694    -3.50864e-05
                     0.000100414    -8.89491e-05        0.0150335       0.0603557     -5.63384e-05    -0.000192502         0.942483       -0.324846
                       -0.589626       -0.775612     -0.000150241    -3.47136e-05        -0.119015        0.141059     -0.000240625     5.01141e-05
                     -0.00015873    -6.68365e-05         0.942513       -0.324534     -0.000258751     3.22476e-05        0.0251899       0.0571814
281754                 -0.168313       0.0766854     -8.06317e-05    -0.000171619        -0.589789       -0.775426     -0.000127732    -3.50423e-05
                     9.95431e-05    -8.85468e-05         0.015059       0.0603436     -5.65259e-05    -0.000192648          0.94236       -0.325203
                       -0.590022       -0.775312     -0.000150222    -3.46329e-05        -0.118926        0.141126     -0.000240553     5.00849e-05
                    -0.000158642    -6.67307e-05          0.94239       -0.324891     -0.000258788     3.23313e-05        0.0252056       0.0571684
281756                 -0.168276       0.0767525      -8.0735e-05    -0.000171433        -0.590185       -0.775125      -0.00012777    -3.49981e-05
                     9.86707e-05    -8.81388e-05        0.0150845       0.0603315     -5.67368e-05    -0.000192818         0.942236       -0.325561
                       -0.590418       -0.775011     -0.000150207    -3.45497e-05        -0.118837        0.141194      -0.00024048     5.00557e-05
                    -0.000158555    -6.66239e-05         0.942267       -0.325249      -0.00025884     3.24169e-05        0.0252212       0.0571554
281758                 -0.168238       0.0768196     -8.07887e-05     -0.00017126        -0.590581       -0.774825     -0.000127808    -3.49539e-05
                     9.77987e-05    -8.77276e-05          0.01511       0.0603193     -5.68813e-05     -0.00019293         0.942113       -0.325918
                       -0.590814       -0.774711      -0.00015019    -3.44726e-05        -0.118748        0.141261     -0.000240408     5.00264e-05
                    -0.000158468    -6.65165e-05         0.942144       -0.325606     -0.000258854     3.24981e-05        0.0252369       0.0571425
281760                 -0.168201       0.0768867     -8.08531e-05    -0.000171079        -0.590976       -0.774524     -0.000127846    -3.49096e-05
                     9.69275e-05    -8.73138e-05        0.0151354       0.0603072     -5.70773e-05     -0.00019308          0.94199       -0.326275
                       -0.591209        -0.77441     -0.000150171     -3.4393e-05        -0.118659        0.141328     -0.000240336     4.99971e-05
                    -0.000158381    -6.64087e-05         0.942021       -0.325963     -0.000258894     3.25822e-05        0.0252526       0.0571295
281762                 -0.168164       0.0769538     -8.09189e-05    -0.000170897        -0.591372       -0.774223     -0.000127883    -3.48652e-05
                     9.60571e-05    -8.68975e-05        0.0151609        0.060295     -5.72702e-05    -0.000193229         0.941866       -0.326632
                       -0.591605       -0.774109     -0.000150153     -3.4313e-05         -0.11857        0.141395     -0.000240263     4.99678e-05
