! TOUCHSTONE file generated by CST MICROWAVE STUDIO
! Date and time: Tue Oct 14 07:28:46 2025
! Project name: Teste_Macro_Metasurface_Nanopilar.cst
! Parameters = {H=600; L_x=130; L_y=170; Lambda=1064; Max_L=200; Min_L=70; PathPara=1; Phi=0; Step_L=10; Theta=0; p=520; phaseX=180; phaseY=0}
! Header version: 2018
! Port assignment regex: !\s*Touchstone port\s*([0-9]+)\s*=\s*(CST MWS port|CST DS port)\s*([0-9]+|Zmin|Zmax)\s*\(\"(.*)\"\)(\s*mode\s*([0-9]+))?.*
! Touchstone port assignment:
! Touchstone port 1 = CST MWS port Zmax ("") mode 1
! Touchstone port 2 = CST MWS port Zmax ("") mode 2
! Touchstone port 3 = CST MWS port Zmin ("") mode 1
! Touchstone port 4 = CST MWS port Zmin ("") mode 2
! S-Parameters are not renormalized. Each port impedance will be approximated by the real part at minimum frequency. The values are described via the [Reference] keyword.
! Default impedance is overridden by [Reference]
[Version] 2.0
# GHz S RI R 376.73
[Number of Ports] 4
[Reference]
376.73 376.73 259.814 259.814 
[Number of Frequencies] 51
[Network Data]
281700                 -0.192405        0.130568      0.000151258    -3.03928e-05         0.514893         0.81768     -2.51602e-05     0.000137405
                     7.88005e-05    -0.000102802         -0.11009       -0.160169     -0.000168574     0.000115072         0.315775        0.924188
                        0.514737        0.817278     -0.000130821      0.00017116        -0.197903        0.107314      0.000136019     0.000162818
                    -0.000131978     6.09216e-05         0.316076        0.923768      8.70124e-05     4.22912e-05        0.0122181        0.192527
281702                 -0.192333        0.130557       0.00015141    -3.04313e-05         0.515295        0.817448     -2.54434e-05     0.000137154
                     7.72072e-05    -0.000101703        -0.110143       -0.160164     -0.000168477     0.000115001         0.316185        0.924042
                        0.515142        0.817041      -0.00013026       0.0001703        -0.197755        0.107453      0.000136351     0.000162628
                    -0.000130418      5.8358e-05         0.316491        0.923621      8.72801e-05     4.25657e-05        0.0123459        0.192544
281704                 -0.192261        0.130545      0.000151666    -3.04609e-05         0.515696        0.817215     -2.56975e-05     0.000136905
                     7.62038e-05    -0.000101761        -0.110196       -0.160159     -0.000168365     0.000114938         0.316594        0.923896
                        0.515545        0.816804     -0.000129446     0.000169308        -0.197608        0.107591      0.000136666     0.000162452
                    -0.000130774     5.65272e-05         0.316906        0.923474      8.75254e-05     4.28406e-05        0.0124736        0.192561
281706                  -0.19219        0.130532      0.000152078     -3.0533e-05         0.516098        0.816982     -2.59229e-05      0.00013666
                     7.56288e-05    -0.000102025        -0.110248       -0.160154     -0.000168239     0.000114883         0.317004         0.92375
                        0.515948        0.816567     -0.000128188     0.000168244        -0.197461        0.107728      0.000136964     0.000162289
                    -0.000131315     5.57574e-05          0.31732        0.923326      8.77492e-05     4.31154e-05        0.0126014        0.192578
281708                  -0.19212        0.130519      0.000152678    -3.07764e-05         0.516499        0.816749     -2.61202e-05     0.000136419
                     7.52622e-05    -0.000102312        -0.110301       -0.160149     -0.000168098     0.000114834         0.317413        0.923604
                        0.516349         0.81633     -0.000126227     0.000167388        -0.197313        0.107866      0.000137246      0.00016214
                    -0.000131622     5.54407e-05         0.317734        0.923178      8.79523e-05     4.33897e-05        0.0127292        0.192595
281710                  -0.19205        0.130506      0.000153356     -3.1394e-05         0.516901        0.816515     -2.62896e-05     0.000136181
                     7.50037e-05    -0.000102591        -0.110354       -0.160144     -0.000167941     0.000114792         0.317823        0.923457
                         0.51675        0.816094     -0.000123542     0.000167441        -0.197165        0.108004      0.000137515     0.000162006
                    -0.000131731     5.52902e-05         0.318147        0.923029      8.81355e-05     4.36631e-05         0.012857        0.192611
281712                  -0.19198        0.130493      0.000153759    -3.24343e-05         0.517302        0.816281     -2.64317e-05     0.000135947
                     7.48063e-05    -0.000102857        -0.110407       -0.160139     -0.000167769     0.000114754         0.318232         0.92331
                        0.517151        0.815858     -0.000121056     0.000169124        -0.197018        0.108141       0.00013777     0.000161888
                    -0.000131711     5.52015e-05          0.31856         0.92288      8.82997e-05     4.39354e-05        0.0129848        0.192628
281714                 -0.191911         0.13048      0.000153627    -3.35423e-05         0.517702        0.816047     -2.65468e-05     0.000135718
                     7.46463e-05     -0.00010311         -0.11046       -0.160134     -0.000167583      0.00011472         0.318641        0.923163
                        0.517551        0.815623     -0.000120174     0.000171752         -0.19687        0.108278      0.000138014     0.000161784
                    -0.000131607     5.51359e-05         0.318972         0.92273      8.84457e-05     4.42062e-05        0.0131127        0.192645
281716                 -0.191842        0.130467       0.00015315    -3.43507e-05         0.518103        0.815813     -2.66355e-05     0.000135493
                     7.45105e-05    -0.000103355        -0.110513       -0.160129      -0.00016738      0.00011469         0.319051        0.923016
                        0.517951        0.815388     -0.000120794     0.000173777        -0.196722        0.108415      0.000138247     0.000161695
                    -0.000131449     5.50783e-05         0.319383        0.922581      8.85742e-05     4.44752e-05        0.0132406        0.192661
281718                 -0.191772        0.130454       0.00015263    -3.48391e-05         0.518504        0.815578     -2.66981e-05     0.000135273
                     7.43912e-05    -0.000103592        -0.110566       -0.160124     -0.000167163     0.000114663          0.31946        0.922868
                        0.518351        0.815153      -0.00012186     0.000174762        -0.196575        0.108552      0.000138471     0.000161622
                    -0.000131253     5.50224e-05         0.319795         0.92243       8.8686e-05     4.47423e-05        0.0133685        0.192678
281720                 -0.191703        0.130442      0.000152195    -3.51364e-05         0.518904        0.815344     -2.67351e-05     0.000135058
                     7.42833e-05    -0.000103823        -0.110619       -0.160119     -0.000166931     0.000114637         0.319869         0.92272
                         0.51875        0.814919     -0.000122788     0.000175048        -0.196427        0.108689      0.000138687     0.000161564
                    -0.000131031     5.49658e-05         0.320205         0.92228      8.87818e-05     4.50071e-05        0.0134965        0.192694
281722                 -0.191634        0.130429      0.000151858    -3.53443e-05         0.519305        0.815109     -2.67469e-05     0.000134848
                     7.41837e-05     -0.00010405        -0.110671       -0.160114     -0.000166684     0.000114613         0.320279        0.922573
                         0.51915        0.814685     -0.000123456     0.000174981        -0.196279        0.108826      0.000138894     0.000161521
                    -0.000130791     5.49073e-05         0.320614        0.922129      8.88623e-05     4.52695e-05        0.0136244         0.19271
281724                 -0.191565        0.130416        0.0001516    -3.55162e-05         0.519705        0.814873     -2.67338e-05     0.000134643
                     7.40903e-05    -0.000104273        -0.110724       -0.160108     -0.000166423      0.00011459         0.320688        0.922425
                        0.519549        0.814451     -0.000123897     0.000174754        -0.196131        0.108962      0.000139095     0.000161494
                    -0.000130537     5.48468e-05         0.321023        0.921978      8.89283e-05     4.55293e-05        0.0137524        0.192727
281726                 -0.191496        0.130403      0.000151399    -3.56768e-05         0.520105        0.814638     -2.66964e-05     0.000134443
                     7.40014e-05    -0.000104493        -0.110777       -0.160103     -0.000166147     0.000114566         0.321097        0.922276
                        0.519949        0.814217      -0.00012417      0.00017446        -0.195983        0.109099      0.000139291     0.000161481
                    -0.000130273     5.47842e-05         0.321431        0.921827      8.89804e-05     4.57863e-05        0.0138804        0.192743
281728                 -0.191427         0.13039      0.000151238    -3.58369e-05         0.520504        0.814402      -2.6635e-05     0.000134248
                     7.39161e-05     -0.00010471         -0.11083       -0.160098     -0.000165858     0.000114542         0.321506        0.922128
                        0.520349        0.813983     -0.000124321     0.000174141        -0.195835        0.109235      0.000139481     0.000161483
                    -0.000130002     5.47198e-05         0.321838        0.921676      8.90192e-05     4.60404e-05        0.0140085        0.192759
281730                 -0.191359        0.130378      0.000151106    -3.60006e-05         0.520904        0.814167       -2.655e-05     0.000134059
                     7.38335e-05    -0.000104926        -0.110883       -0.160093     -0.000165555     0.000114517         0.321915        0.921979
                        0.520749        0.813749     -0.000124385     0.000173817        -0.195687        0.109371      0.000139667     0.000161499
                    -0.000129725     5.46536e-05         0.322244        0.921526      8.90455e-05     4.62914e-05        0.0141366        0.192775
281732                  -0.19129        0.130365      0.000150995    -3.61696e-05         0.521303        0.813931     -2.64418e-05     0.000133875
                     7.37529e-05     -0.00010514        -0.110936       -0.160088     -0.000165239      0.00011449         0.322324        0.921831
                        0.521149        0.813514     -0.000124384     0.000173498        -0.195539        0.109507      0.000139849     0.000161529
                    -0.000129444     5.45859e-05         0.322649        0.921376      8.90599e-05     4.65392e-05        0.0142647        0.192791
281734                 -0.191221        0.130352        0.0001509     -3.6344e-05         0.521703        0.813694     -2.63109e-05     0.000133696
                     7.36739e-05    -0.000105353        -0.110989       -0.160083     -0.000164911     0.000114461         0.322733        0.921682
                        0.521549         0.81328     -0.000124336     0.000173186        -0.195391        0.109643      0.000140028     0.000161572
                    -0.000129159     5.45169e-05         0.323054        0.921227      8.90631e-05     4.67838e-05        0.0143928        0.192807
281736                 -0.191153        0.130339      0.000150816    -3.65235e-05         0.522102        0.813458     -2.61576e-05     0.000133523
                     7.35961e-05    -0.000105565        -0.111042       -0.160078      -0.00016457     0.000114429         0.323142        0.921533
                        0.521949        0.813045     -0.000124251     0.000172882        -0.195243        0.109779      0.000140205      0.00016163
                    -0.000128872     5.44467e-05         0.323458        0.921079      8.90555e-05     4.70249e-05        0.0145209        0.192822
281738                 -0.191084        0.130327      0.000150742    -3.67079e-05         0.522501        0.813221     -2.59825e-05     0.000133355
                     7.35192e-05    -0.000105776        -0.111095       -0.160073     -0.000164218     0.000114394         0.323551        0.921384
                        0.522349         0.81281     -0.000124139     0.000172587        -0.195094        0.109914       0.00014038       0.0001617
                    -0.000128583     5.43755e-05         0.323863        0.920933       8.9038e-05     4.72626e-05        0.0146491        0.192838
281740                 -0.191015        0.130314      0.000150674    -3.68966e-05         0.522899        0.812985     -2.57859e-05     0.000133193
                     7.34431e-05    -0.000105986        -0.111148       -0.160068     -0.000163854     0.000114356          0.32396        0.921234
                        0.522749        0.812574     -0.000124003     0.000172301        -0.194946        0.110049      0.000140553     0.000161783
                    -0.000128293     5.43034e-05         0.324269        0.920787      8.90111e-05     4.74968e-05        0.0147773        0.192854
281742                 -0.190947        0.130301      0.000150614    -3.70892e-05         0.523298        0.812748     -2.55683e-05     0.000133036
                     7.33673e-05    -0.000106195        -0.111201       -0.160063      -0.00016348     0.000114314         0.324368        0.921085
                        0.523148        0.812338      -0.00012385     0.000172022        -0.194798        0.110185      0.000140725     0.000161878
                    -0.000128002     5.42306e-05         0.324675        0.920642      8.89754e-05     4.77275e-05        0.0149056        0.192869
281744                 -0.190878        0.130288      0.000150558    -3.72855e-05         0.523696         0.81251     -2.53302e-05     0.000132885
                      7.3292e-05    -0.000106405        -0.111254       -0.160058     -0.000163096     0.000114268         0.324777        0.920935
                        0.523548        0.812102     -0.000123682      0.00017175        -0.194649         0.11032      0.000140895     0.000161985
                     -0.00012771      5.4157e-05         0.325084        0.920497      8.89316e-05     4.79545e-05        0.0150338        0.192885
281746                  -0.19081        0.130275      0.000150507     -3.7485e-05         0.524094        0.812273     -2.50722e-05      0.00013274
                     7.32168e-05    -0.000106613        -0.111307       -0.160053     -0.000162702     0.000114218         0.325185        0.920785
                        0.523947        0.811866     -0.000123501     0.000171485        -0.194501        0.110455      0.000141065     0.000162104
                    -0.000127418     5.40828e-05         0.325493        0.920352      8.88802e-05     4.81779e-05        0.0151621          0.1929
281748                 -0.190741        0.130263      0.000150461    -3.76878e-05         0.524492        0.812036     -2.47947e-05     0.000132601
                     7.31416e-05    -0.000106822         -0.11136       -0.160048     -0.000162299     0.000114164         0.325594        0.920635
                        0.524346        0.811629     -0.000123308     0.000171225        -0.194352        0.110589      0.000141235     0.000162234
                    -0.000127126     5.40081e-05         0.325903        0.920205      8.88219e-05     4.83976e-05        0.0152905        0.192916
281750                 -0.190673         0.13025      0.000150419    -3.78937e-05          0.52489        0.811798     -2.44984e-05     0.000132468
                     7.30665e-05    -0.000107031        -0.111413       -0.160043     -0.000161888     0.000114106         0.326002        0.920485
                        0.524745        0.811392     -0.000123106     0.000170971        -0.194204        0.110724      0.000141403     0.000162374
                    -0.000126835      5.3933e-05         0.326314        0.920057      8.87574e-05     4.86137e-05        0.0154188        0.192931
281752                 -0.190605        0.130237      0.000150382    -3.81029e-05         0.525287         0.81156     -2.41841e-05     0.000132343
                     7.29912e-05    -0.000107239        -0.111466       -0.160038     -0.000161469     0.000114044         0.326411        0.920334
                        0.525143        0.811155     -0.000122893     0.000170721        -0.194055        0.110858      0.000141571     0.000162525
                    -0.000126544     5.38574e-05         0.326725        0.919908      8.86872e-05     4.88261e-05        0.0155472        0.192946
281754                 -0.190537        0.130224      0.000150351    -3.83155e-05         0.525685        0.811322     -2.38525e-05     0.000132225
                     7.29158e-05    -0.000107447        -0.111519       -0.160033     -0.000161043     0.000113978         0.326819        0.920184
                        0.525541        0.810918     -0.000122672     0.000170476        -0.193906        0.110993      0.000141737     0.000162685
                    -0.000126253     5.37814e-05         0.327135        0.919758      8.86122e-05     4.90349e-05        0.0156756        0.192961
281756                 -0.190468        0.130211      0.000150325     -3.8532e-05         0.526082        0.811083     -2.35047e-05     0.000132116
                     7.28401e-05    -0.000107656        -0.111572       -0.160028      -0.00016061     0.000113908         0.327227        0.920033
                        0.525939         0.81068     -0.000122441     0.000170234        -0.193758        0.111127      0.000141902     0.000162854
                    -0.000125963     5.37052e-05         0.327545        0.919608      8.85329e-05       4.924e-05        0.0158041        0.192976
281758                   -0.1904        0.130199      0.000150307    -3.87531e-05         0.526479        0.810845     -2.31419e-05     0.000132018
                     7.27642e-05    -0.000107865        -0.111625       -0.160023     -0.000160171     0.000113835         0.327635        0.919882
                        0.526337        0.810442     -0.000122199     0.000169995        -0.193609        0.111261      0.000142065     0.000163032
                    -0.000125673     5.36286e-05         0.327955        0.919456      8.84502e-05     4.94416e-05        0.0159325        0.192991
281760                 -0.190332        0.130186      0.000150297    -3.89802e-05         0.526876        0.810606     -2.27656e-05     0.000131932
                     7.26878e-05    -0.000108074        -0.111678       -0.160018     -0.000159727     0.000113758         0.328043        0.919731
                        0.526735        0.810204     -0.000121946     0.000169758        -0.193459        0.111396      0.000142224     0.000163217
                    -0.000125385     5.35517e-05         0.328364        0.919305      8.83647e-05     4.96395e-05         0.016061        0.193006
281762                 -0.190264        0.130173      0.000150299    -3.92152e-05         0.527272        0.810367     -2.23779e-05     0.000131863
                     7.26111e-05    -0.000108283        -0.111731       -0.160012     -0.000159278     0.000113679          0.32845        0.919579
                        0.527132        0.809966     -0.000121679     0.000169523        -0.193325         0.11155      0.000142378      0.00016341
