! TOUCHSTONE file generated by CST MICROWAVE STUDIO
! Date and time: Tue Oct 14 07:27:35 2025
! Project name: Teste_Macro_Metasurface_Nanopilar.cst
! Parameters = {H=600; L_x=115; L_y=70; Lambda=1064; Max_L=200; Min_L=70; PathPara=1; Phi=0; Step_L=10; Theta=0; p=520; phaseX=180; phaseY=0}
! Header version: 2018
! Port assignment regex: !\s*Touchstone port\s*([0-9]+)\s*=\s*(CST MWS port|CST DS port)\s*([0-9]+|Zmin|Zmax)\s*\(\"(.*)\"\)(\s*mode\s*([0-9]+))?.*
! Touchstone port assignment:
! Touchstone port 1 = CST MWS port Zmax ("") mode 1
! Touchstone port 2 = CST MWS port Zmax ("") mode 2
! Touchstone port 3 = CST MWS port Zmin ("") mode 1
! Touchstone port 4 = CST MWS port Zmin ("") mode 2
! S-Parameters are not renormalized. Each port impedance will be approximated by the real part at minimum frequency. The values are described via the [Reference] keyword.
! Default impedance is overridden by [Reference]
[Version] 2.0
# GHz S RI R 376.73
[Number of Ports] 4
[Reference]
376.73 376.73 259.814 259.814 
[Number of Frequencies] 51
[Network Data]
281700                -0.0454008        0.123634     -8.65246e-05      0.00016395         0.985097        0.108419      5.31194e-05    -9.58114e-06
                     7.84182e-05      7.1062e-05        -0.017154      0.00685079     -3.07751e-05     8.66963e-05          0.84492       -0.531118
                         0.98516        0.108728     -0.000186179     9.92362e-05        0.0173468        0.130603      9.27431e-05     2.28742e-05
                    -1.97866e-05     3.24284e-05         0.844911       -0.531059     -7.60214e-05     3.78971e-05          0.01321      -0.0119288
281702                -0.0453585        0.123646     -8.63236e-05     0.000163882         0.985137        0.108063      5.31662e-05    -9.66569e-06
                     7.85334e-05     7.10699e-05       -0.0171493      0.00684486     -3.06857e-05     8.67649e-05         0.844711       -0.531451
                        0.985199        0.108373     -0.000186009     9.93487e-05         0.017397        0.130594      9.28507e-05     2.28065e-05
                    -1.97245e-05     3.24495e-05         0.844702       -0.531391     -7.59948e-05     3.80134e-05         0.013193      -0.0119376
281704                -0.0453163        0.123659     -8.61232e-05     0.000163813         0.985176        0.107708      5.32129e-05    -9.75025e-06
                     7.86486e-05     7.10779e-05       -0.0171447      0.00683891     -3.05963e-05     8.68336e-05         0.844502       -0.531783
                        0.985239        0.108017      -0.00018584     9.94607e-05        0.0174473        0.130584       9.2958e-05     2.27385e-05
                    -1.96625e-05     3.24706e-05         0.844493       -0.531723     -7.59681e-05     3.81299e-05        0.0131761      -0.0119464
281706                 -0.045274        0.123671     -8.59233e-05     0.000163744         0.985215        0.107352      5.32593e-05    -9.83482e-06
                     7.87638e-05     7.10858e-05         -0.01714      0.00683297     -3.05067e-05     8.69022e-05         0.844292       -0.532115
                        0.985278        0.107662     -0.000185671     9.95724e-05        0.0174976        0.130574      9.30651e-05     2.26703e-05
                    -1.96004e-05     3.24915e-05         0.844283       -0.532056     -7.59414e-05     3.82465e-05        0.0131592      -0.0119552
281708                -0.0452317        0.123683     -8.57239e-05     0.000163675         0.985254        0.106997      5.33056e-05    -9.91941e-06
                     7.88789e-05     7.10936e-05       -0.0171354      0.00682702      -3.0417e-05      8.6971e-05         0.844083       -0.532448
                        0.985317        0.107306     -0.000185503     9.96839e-05        0.0175478        0.130565      9.31718e-05     2.26019e-05
                    -1.95383e-05     3.25124e-05         0.844074       -0.532388     -7.59147e-05     3.83632e-05        0.0131423       -0.011964
281710                -0.0451894        0.123696      -8.5525e-05     0.000163606         0.985293        0.106641      5.33516e-05     -1.0004e-05
                     7.89939e-05     7.11014e-05       -0.0171307      0.00682107     -3.03272e-05     8.70397e-05         0.843873        -0.53278
                        0.985356         0.10695     -0.000185334      9.9795e-05        0.0175981        0.130555      9.32783e-05     2.25333e-05
                    -1.94762e-05     3.25331e-05         0.843865        -0.53272     -7.58879e-05     3.84801e-05        0.0131253      -0.0119727
281712                -0.0451471        0.123708     -8.53265e-05     0.000163537         0.985332        0.106286      5.33975e-05    -1.00887e-05
                     7.91089e-05     7.11092e-05       -0.0171261      0.00681512     -3.02373e-05     8.71085e-05         0.843663       -0.533112
                        0.985395        0.106595     -0.000185166      9.9906e-05        0.0176483        0.130546      9.33845e-05     2.24644e-05
                    -1.94141e-05     3.25537e-05         0.843655       -0.533052      -7.5861e-05     3.85972e-05        0.0131084      -0.0119815
281714                -0.0451048        0.123721     -8.51284e-05     0.000163467          0.98537         0.10593      5.34431e-05    -1.01733e-05
                     7.92238e-05      7.1117e-05       -0.0171215      0.00680917     -3.01473e-05     8.71774e-05         0.843454       -0.533444
                        0.985434        0.106239     -0.000184998     0.000100017        0.0176986        0.130536      9.34905e-05     2.23952e-05
                    -1.93521e-05     3.25742e-05         0.843445       -0.533384     -7.58341e-05     3.87144e-05        0.0130914      -0.0119902
281716                -0.0450626        0.123733     -8.49306e-05     0.000163398         0.985409        0.105575      5.34886e-05     -1.0258e-05
                     7.93387e-05     7.11248e-05       -0.0171169      0.00680321     -3.00571e-05     8.72462e-05         0.843243       -0.533776
                        0.985473        0.105883     -0.000184831     0.000100127        0.0177488        0.130526      9.35962e-05     2.23258e-05
                      -1.929e-05     3.25946e-05         0.843235       -0.533716     -7.58071e-05     3.88317e-05        0.0130745      -0.0119989
281718                -0.0450203        0.123746     -8.47331e-05     0.000163329         0.985447        0.105219      5.35338e-05    -1.03427e-05
                     7.94536e-05     7.11325e-05       -0.0171122      0.00679725     -2.99668e-05     8.73152e-05         0.843033       -0.534108
                        0.985511        0.105528     -0.000184663     0.000100238        0.0177991        0.130517      9.37016e-05     2.22561e-05
                    -1.92279e-05     3.26149e-05         0.843025       -0.534048     -7.57801e-05     3.89492e-05        0.0130575      -0.0120076
281720                 -0.044978        0.123758     -8.45359e-05     0.000163259         0.985486        0.104864      5.35789e-05    -1.04275e-05
                     7.95683e-05     7.11403e-05       -0.0171076      0.00679129     -2.98763e-05     8.73842e-05         0.842823       -0.534439
                         0.98555        0.105172     -0.000184496     0.000100348        0.0178493        0.130507      9.38067e-05     2.21862e-05
                    -1.91659e-05     3.26351e-05         0.842815        -0.53438      -7.5753e-05     3.90668e-05        0.0130405      -0.0120163
281722                -0.0449357         0.12377      -8.4339e-05      0.00016319         0.985524        0.104508      5.36237e-05    -1.05122e-05
                      7.9683e-05      7.1148e-05        -0.017103      0.00678532     -2.97858e-05     8.74532e-05         0.842613       -0.534771
                        0.985588        0.104816     -0.000184329     0.000100459        0.0178995        0.130497      9.39116e-05      2.2116e-05
                    -1.91038e-05     3.26551e-05         0.842605       -0.534711     -7.57259e-05     3.91846e-05        0.0130235       -0.012025
281724                -0.0448933        0.123783     -8.41422e-05     0.000163121         0.985562        0.104153      5.36684e-05     -1.0597e-05
                     7.97977e-05     7.11558e-05       -0.0170984      0.00677935     -2.96951e-05     8.75223e-05         0.842402       -0.535103
                        0.985626         0.10446     -0.000184162     0.000100569        0.0179497        0.130487      9.40162e-05     2.20456e-05
                    -1.90418e-05     3.26751e-05         0.842394       -0.535043     -7.56987e-05     3.93025e-05        0.0130066      -0.0120337
281726                 -0.044851        0.123795     -8.39457e-05     0.000163051           0.9856        0.103797      5.37128e-05    -1.06817e-05
                     7.99123e-05     7.11637e-05       -0.0170938      0.00677338     -2.96042e-05     8.75914e-05         0.842191       -0.535434
                        0.985664        0.104105     -0.000183995     0.000100679            0.018        0.130478      9.41204e-05      2.1975e-05
                    -1.89797e-05     3.26949e-05         0.842184       -0.535375     -7.56714e-05     3.94205e-05        0.0129896      -0.0120424
281728                -0.0448087        0.123807     -8.37492e-05     0.000162982         0.985638        0.103441      5.37571e-05    -1.07664e-05
                     8.00267e-05     7.11718e-05       -0.0170893      0.00676741     -2.95132e-05     8.76606e-05          0.84198       -0.535766
                        0.985702        0.103749     -0.000183828      0.00010079        0.0180502        0.130468      9.42243e-05     2.19041e-05
                    -1.89176e-05     3.27146e-05         0.841973       -0.535706     -7.56441e-05     3.95387e-05        0.0129726       -0.012051
281730                -0.0447664         0.12382     -8.35529e-05     0.000162913         0.985675        0.103086      5.38012e-05     -1.0851e-05
                     8.01411e-05     7.11803e-05       -0.0170847      0.00676143     -2.94221e-05     8.77298e-05         0.841769       -0.536097
                         0.98574        0.103393     -0.000183661       0.0001009        0.0181004        0.130458      9.43278e-05      2.1833e-05
                    -1.88555e-05     3.27342e-05         0.841762       -0.536037     -7.56167e-05     3.96571e-05        0.0129556      -0.0120596
281732                -0.0447241        0.123832     -8.33567e-05     0.000162844         0.985713         0.10273      5.38451e-05    -1.09353e-05
                     8.02554e-05     7.11895e-05       -0.0170801      0.00675545     -2.93308e-05     8.77991e-05         0.841558       -0.536428
                        0.985778        0.103037     -0.000183495     0.000101011        0.0181506        0.130448      9.44306e-05     2.17618e-05
                    -1.87932e-05     3.27535e-05         0.841551       -0.536369     -7.55892e-05     3.97755e-05        0.0129386      -0.0120683
281734                -0.0446818        0.123844     -8.31604e-05     0.000162774          0.98575        0.102375      5.38889e-05    -1.10192e-05
                     8.03694e-05     7.12005e-05       -0.0170755      0.00674947     -2.92394e-05     8.78684e-05         0.841347       -0.536759
                        0.985815        0.102681     -0.000183328     0.000101121        0.0182008        0.130438      9.45325e-05     2.16905e-05
                    -1.87308e-05     3.27726e-05          0.84134         -0.5367     -7.55617e-05     3.98942e-05        0.0129216      -0.0120769
281736                -0.0446394        0.123856     -8.29643e-05     0.000162705         0.985787        0.102019      5.39328e-05     -1.1102e-05
                     8.04834e-05      7.1217e-05        -0.017071      0.00674348     -2.91479e-05     8.79378e-05         0.841136       -0.537091
                        0.985853        0.102326     -0.000183161     0.000101232         0.018251        0.130428      9.46327e-05     2.16195e-05
                    -1.86679e-05     3.27908e-05         0.841129       -0.537031     -7.55341e-05     4.00129e-05        0.0129046      -0.0120855
281738                -0.0445971        0.123869      -8.2768e-05     0.000162636         0.985824        0.101663      5.39775e-05    -1.11818e-05
                     8.06088e-05     7.12741e-05       -0.0170664       0.0067375     -2.90562e-05     8.80072e-05         0.840924       -0.537422
                         0.98589         0.10197     -0.000182994     0.000101343        0.0183011        0.130418      9.47284e-05     2.15497e-05
                    -1.86022e-05     3.28045e-05         0.840918       -0.537362     -7.55065e-05     4.01319e-05        0.0128875      -0.0120941
281740                -0.0445548        0.123881     -8.25718e-05     0.000162567         0.985861        0.101308      5.40288e-05     -1.1248e-05
                     8.07415e-05      7.1154e-05       -0.0170619      0.00673151     -2.89643e-05     8.80767e-05         0.840713       -0.537753
                        0.985927        0.101614     -0.000182827     0.000101454        0.0183513        0.130408      9.48013e-05     2.14901e-05
                    -1.85583e-05      3.2838e-05         0.840706       -0.537693     -7.54788e-05     4.02509e-05        0.0128705      -0.0121026
281742                -0.0445124        0.123893     -8.23755e-05     0.000162499         0.985898        0.100952      5.41135e-05    -1.14625e-05
                     8.08357e-05     7.11924e-05       -0.0170573      0.00672551     -2.88723e-05     8.81462e-05         0.840501       -0.538084
                        0.985964        0.101258      -0.00018266     0.000101565        0.0184015        0.130399      9.50696e-05      2.1394e-05
                    -1.84882e-05     3.28536e-05         0.840495       -0.538024      -7.5451e-05     4.03701e-05        0.0128535      -0.0121112
281744                -0.0444701        0.123905     -8.21791e-05      0.00016243         0.985935        0.100596      5.41028e-05    -1.14803e-05
                     8.09469e-05     7.12069e-05       -0.0170528      0.00671952     -2.87801e-05     8.82158e-05         0.840289       -0.538414
                        0.986001        0.100902     -0.000182493     0.000101677        0.0184517        0.130389      9.50877e-05     2.13185e-05
                     -1.8425e-05     3.28717e-05         0.840283       -0.538355     -7.54231e-05     4.04894e-05        0.0128365      -0.0121197
281746                -0.0444277        0.123917     -8.19827e-05     0.000162361         0.985972         0.10024      5.41439e-05    -1.15556e-05
                       8.106e-05     7.12169e-05       -0.0170483      0.00671352     -2.86878e-05     8.82854e-05         0.840077       -0.538745
                        0.986038        0.100546     -0.000182326     0.000101788        0.0185018        0.130379      9.51786e-05     2.12469e-05
                    -1.83626e-05     3.28902e-05         0.840071       -0.538685     -7.53952e-05     4.06089e-05        0.0128194      -0.0121283
281748                -0.0443854         0.12393     -8.17861e-05     0.000162293         0.986008       0.0998846      5.41858e-05    -1.16377e-05
                     8.11736e-05     7.12252e-05       -0.0170437      0.00670752     -2.85952e-05     8.83552e-05         0.839865       -0.539075
                        0.986074         0.10019     -0.000182159       0.0001019         0.018552        0.130369      9.52766e-05      2.1174e-05
                    -1.83004e-05     3.29087e-05         0.839859       -0.539016     -7.53671e-05     4.07285e-05        0.0128024      -0.0121368
281750                 -0.044343        0.123942     -8.15894e-05     0.000162224         0.986045       0.0995288      5.42276e-05    -1.17218e-05
                     8.12873e-05     7.12327e-05       -0.0170392      0.00670152     -2.85025e-05     8.84249e-05         0.839653       -0.539406
                        0.986111       0.0998343     -0.000181991     0.000102012        0.0186021        0.130359      9.53767e-05     2.11003e-05
                    -1.82384e-05     3.29273e-05         0.839647       -0.539347      -7.5339e-05     4.08482e-05        0.0127853      -0.0121453
281752                -0.0443007        0.123954     -8.13926e-05     0.000162156         0.986081       0.0991731      5.42692e-05    -1.18069e-05
                     8.14012e-05     7.12397e-05       -0.0170347      0.00669551     -2.84096e-05     8.84948e-05          0.83944       -0.539736
                        0.986147       0.0994784     -0.000181824     0.000102124        0.0186523        0.130349      9.54776e-05     2.10262e-05
                    -1.81765e-05     3.29458e-05         0.839435       -0.539677     -7.53108e-05     4.09681e-05        0.0127683      -0.0121538
281754                -0.0442583        0.123966     -8.11957e-05     0.000162088         0.986117       0.0988173      5.43106e-05    -1.18926e-05
                      8.1515e-05     7.12464e-05       -0.0170302       0.0066895     -2.83163e-05     8.85648e-05         0.839228       -0.540067
                        0.986183       0.0991224     -0.000181656     0.000102236        0.0187024        0.130339      9.55788e-05     2.09517e-05
                    -1.81146e-05     3.29643e-05         0.839222       -0.540007     -7.52825e-05     4.10881e-05        0.0127512      -0.0121623
281756                 -0.044216        0.123978     -8.09986e-05      0.00016202         0.986153       0.0984615      5.43517e-05    -1.19786e-05
                     8.16289e-05     7.12528e-05       -0.0170257      0.00668349     -2.82223e-05     8.86351e-05         0.839015       -0.540397
                         0.98622       0.0987664     -0.000181488     0.000102349        0.0187526        0.130328      9.56802e-05     2.08768e-05
                    -1.80528e-05     3.29826e-05          0.83901       -0.540338     -7.52539e-05     4.12082e-05        0.0127341      -0.0121708
281758                -0.0441736         0.12399     -8.08014e-05     0.000161952         0.986189       0.0981056      5.43926e-05    -1.20649e-05
                     8.17428e-05      7.1259e-05       -0.0170212      0.00667748     -2.81251e-05     8.87071e-05         0.838802       -0.540727
                        0.986256       0.0984105      -0.00018132     0.000102461        0.0188027        0.130318      9.57816e-05     2.08016e-05
                    -1.79909e-05     3.30009e-05         0.838797       -0.540668     -7.52241e-05     4.13281e-05        0.0127171      -0.0121792
281760                -0.0441312        0.124002     -8.06041e-05     0.000161884         0.986224       0.0977498      5.44333e-05    -1.21515e-05
                     8.18566e-05      7.1265e-05       -0.0170167      0.00667146     -2.80464e-05     8.87709e-05         0.838589       -0.541057
                        0.986291       0.0980545     -0.000181152     0.000102574        0.0188528        0.130308       9.5883e-05      2.0726e-05
                    -1.79292e-05     3.30191e-05         0.838584       -0.540998     -7.52009e-05       4.145e-05           0.0127      -0.0121877
281762                -0.0440889        0.124014     -8.04067e-05     0.000161817          0.98626        0.097394      5.44737e-05    -1.22383e-05
                     8.19704e-05     7.12709e-05       -0.0170122      0.00666544     -2.79469e-05      8.8843e-05         0.838376       -0.541388
                        0.986327       0.0976984     -0.000180984     0.000102688         0.018903        0.130298      9.59843e-05     2.06502e-05
