! TOUCHSTONE file generated by CST MICROWAVE STUDIO
! Date and time: Tue Oct 14 07:31:05 2025
! Project name: Teste_Macro_Metasurface_Nanopilar.cst
! Parameters = {H=600; L_x=170; L_y=85; Lambda=1064; Max_L=200; Min_L=70; PathPara=1; Phi=0; Step_L=10; Theta=0; p=520; phaseX=180; phaseY=0}
! Header version: 2018
! Port assignment regex: !\s*Touchstone port\s*([0-9]+)\s*=\s*(CST MWS port|CST DS port)\s*([0-9]+|Zmin|Zmax)\s*\(\"(.*)\"\)(\s*mode\s*([0-9]+))?.*
! Touchstone port assignment:
! Touchstone port 1 = CST MWS port Zmax ("") mode 1
! Touchstone port 2 = CST MWS port Zmax ("") mode 2
! Touchstone port 3 = CST MWS port Zmin ("") mode 1
! Touchstone port 4 = CST MWS port Zmin ("") mode 2
! S-Parameters are not renormalized. Each port impedance will be approximated by the real part at minimum frequency. The values are described via the [Reference] keyword.
! Default impedance is overridden by [Reference]
[Version] 2.0
# GHz S RI R 376.73
[Number of Ports] 4
[Reference]
376.73 376.73 259.814 259.814 
[Number of Frequencies] 51
[Network Data]
281700                  0.033624     -0.00254356      -0.00062382     0.000256628         0.790013       -0.609216     -0.000570254     7.25747e-05
                     -0.00046804     0.000260925       -0.0567341       -0.197112      0.000198284     0.000162131        0.0999874        0.967726
                        0.789727       -0.609114      0.000164698     0.000285202       -0.0109075       0.0325983      0.000206226     0.000585994
                    -0.000573126     7.47383e-05         0.100592        0.968174      0.000409458     0.000429389       -0.0136602        0.204193
281702                   0.03363      -0.0025674      -0.00062375     0.000257079         0.789771       -0.609529     -0.000570232      7.2889e-05
                    -0.000468069     0.000261177       -0.0568072       -0.197122       0.00019847     0.000162279         0.100435        0.967673
                        0.789485       -0.609427      0.000164778      0.00028518       -0.0109064       0.0326069      0.000206362     0.000586116
                    -0.000573211     7.49395e-05          0.10104        0.968121      0.000409307     0.000429072       -0.0135401        0.204231
281704                  0.033636     -0.00259124     -0.000623679     0.000257529         0.789529       -0.609842     -0.000570211      7.3203e-05
                    -0.000468097     0.000261429       -0.0568803       -0.197132      0.000198655     0.000162425         0.100883        0.967621
                        0.789242       -0.609739      0.000164859     0.000285157       -0.0109054       0.0326155      0.000206499     0.000586238
                    -0.000573296     7.51404e-05         0.101488        0.968068      0.000409155     0.000428756       -0.0134199        0.204269
281706                  0.033642     -0.00261509     -0.000623608     0.000257979         0.789287       -0.610155      -0.00057019      7.3517e-05
                    -0.000468126      0.00026168       -0.0569534       -0.197143      0.000198839      0.00016257         0.101331        0.967568
                           0.789       -0.610051      0.000164939     0.000285135       -0.0109043        0.032624      0.000206635      0.00058636
                    -0.000573381     7.53411e-05         0.101937        0.968014      0.000409003      0.00042844       -0.0132996        0.204307
281708                  0.033648     -0.00263895     -0.000623537     0.000258429         0.789044       -0.610468      -0.00057017     7.38308e-05
                    -0.000468155     0.000261931       -0.0570265       -0.197153      0.000199022     0.000162713         0.101779        0.967514
                        0.788758       -0.610364      0.000165019     0.000285112       -0.0109033       0.0326326      0.000206772     0.000586482
                    -0.000573466     7.55416e-05         0.102385        0.967961      0.000408851     0.000428125       -0.0131793        0.204344
281710                  0.033654     -0.00266281     -0.000623466     0.000258879         0.788802        -0.61078      -0.00057015     7.41446e-05
                    -0.000468184     0.000262182       -0.0570996       -0.197163      0.000199204     0.000162855         0.102227        0.967461
                        0.788515       -0.610676      0.000165099     0.000285089       -0.0109022       0.0326412      0.000206909     0.000586604
                    -0.000573552     7.57419e-05         0.102833        0.967907      0.000408697     0.000427811        -0.013059        0.204382
281712                   0.03366     -0.00268667     -0.000623394     0.000259328         0.788559       -0.611093      -0.00057013     7.44584e-05
                    -0.000468214     0.000262433       -0.0571728       -0.197173      0.000199384     0.000162996         0.102675        0.967408
                        0.788272       -0.610988      0.000165179     0.000285067       -0.0109011       0.0326498      0.000207045     0.000586726
                    -0.000573637     7.59419e-05         0.103281        0.967853      0.000408543     0.000427497       -0.0129386        0.204419
281714                  0.033666     -0.00271054     -0.000623321     0.000259778         0.788316       -0.611405      -0.00057011     7.47722e-05
                    -0.000468243     0.000262683       -0.0572459       -0.197183      0.000199563     0.000163136         0.103123        0.967354
                         0.78803         -0.6113      0.000165259     0.000285044          -0.0109       0.0326584      0.000207182     0.000586848
                    -0.000573722     7.61416e-05          0.10373        0.967799      0.000408388     0.000427185       -0.0128182        0.204457
281716                 0.0336719     -0.00273442     -0.000623249     0.000260227         0.788073       -0.611717     -0.000570091      7.5086e-05
                    -0.000468273     0.000262934       -0.0573191       -0.197194      0.000199741     0.000163274          0.10357          0.9673
                        0.787787       -0.611612      0.000165339     0.000285021        -0.010899        0.032667      0.000207319     0.000586969
                    -0.000573808     7.63411e-05         0.104178        0.967744      0.000408233     0.000426873       -0.0126977        0.204494
281718                 0.0336779      -0.0027583     -0.000623176     0.000260676          0.78783        -0.61203     -0.000570072     7.53998e-05
                    -0.000468303     0.000263183       -0.0573923       -0.197204      0.000199917      0.00016341         0.104018        0.967246
                        0.787544       -0.611924       0.00016542     0.000284999       -0.0108979       0.0326756      0.000207456     0.000587091
                    -0.000573894     7.65404e-05         0.104626        0.967689      0.000408077     0.000426564       -0.0125772        0.204532
281720                 0.0336838     -0.00278218     -0.000623103     0.000261125         0.787587       -0.612342     -0.000570053     7.57137e-05
                    -0.000468332     0.000263433       -0.0574654       -0.197214      0.000200092     0.000163544         0.104466        0.967191
                          0.7873       -0.612235        0.0001655     0.000284976       -0.0108968       0.0326842      0.000207593     0.000587212
                    -0.000573979     7.67394e-05         0.105074        0.967634       0.00040792     0.000426256       -0.0124567        0.204569
281722                 0.0336897     -0.00280607     -0.000623029     0.000261574         0.787344       -0.612654     -0.000570036     7.60276e-05
                    -0.000468363     0.000263682       -0.0575386       -0.197224      0.000200265     0.000163673         0.104914        0.967137
                        0.787057       -0.612547       0.00016558     0.000284953       -0.0108957       0.0326928      0.000207731     0.000587332
                    -0.000574065     7.69382e-05         0.105522        0.967579      0.000407763     0.000425951       -0.0123361        0.204606
281724                 0.0336956     -0.00282996     -0.000622956     0.000262023         0.787101       -0.612966     -0.000570019     7.63414e-05
                    -0.000468393     0.000263931       -0.0576118       -0.197234      0.000200435     0.000163795         0.105361        0.967082
                        0.786813       -0.612858       0.00016566      0.00028493       -0.0108946       0.0327015      0.000207868     0.000587452
                    -0.000574151     7.71367e-05          0.10597        0.967524      0.000407607     0.000425649       -0.0122155        0.204643
281726                 0.0337015     -0.00285386     -0.000622882     0.000262471         0.786857       -0.613278     -0.000570004     7.66549e-05
                    -0.000468423      0.00026418       -0.0576851       -0.197244      0.000200605     0.000163894         0.105809        0.967027
                         0.78657        -0.61317      0.000165741     0.000284908       -0.0108934       0.0327101      0.000208007     0.000587572
                    -0.000574237      7.7335e-05         0.106418        0.967468      0.000407454     0.000425352       -0.0120948         0.20468
281728                 0.0337074     -0.00287776     -0.000622808      0.00026292         0.786614       -0.613589      -0.00056999     7.69675e-05
                    -0.000468454     0.000264428       -0.0577583       -0.197254      0.000200866     0.000163888         0.106257        0.966972
                        0.786326       -0.613481      0.000165821     0.000284885       -0.0108923       0.0327187      0.000208146      0.00058769
                    -0.000574323     7.75329e-05         0.106866        0.967413      0.000407308     0.000425058       -0.0119741        0.204717
281730                 0.0337133     -0.00290167     -0.000622733     0.000263368          0.78637       -0.613901      -0.00056998     7.72779e-05
                    -0.000468484     0.000264676       -0.0578315       -0.197264       0.00020112     0.000164326         0.106704        0.966916
                        0.786082       -0.613792      0.000165901     0.000284862       -0.0108911       0.0327274      0.000208286     0.000587807
                     -0.00057441     7.77307e-05         0.107314        0.967357      0.000407173     0.000424765       -0.0118534        0.204754
281732                 0.0337191     -0.00292559     -0.000622658     0.000263816         0.786126       -0.614212     -0.000569974     7.75824e-05
                    -0.000468515     0.000264924       -0.0579048       -0.197274      0.000201194     0.000164435         0.107152        0.966861
                        0.785838       -0.614103      0.000165982     0.000284839       -0.0108902       0.0327361      0.000208429     0.000587922
                    -0.000574496     7.79282e-05         0.107762        0.967301       0.00040705      0.00042446       -0.0117326        0.204791
281734                  0.033725      -0.0029495     -0.000622583     0.000264264         0.785882       -0.614524     -0.000569972     7.78701e-05
                    -0.000468546     0.000265171        -0.057978       -0.197284      0.000201342      0.00016455         0.107599        0.966805
                        0.785594       -0.614414      0.000166062     0.000284817        -0.010889       0.0327448      0.000208578     0.000588034
                    -0.000574582     7.81254e-05          0.10821        0.967244      0.000406928     0.000424136       -0.0116118        0.204827
281736                 0.0337308     -0.00297342     -0.000622508     0.000264712         0.785638       -0.614835     -0.000569945     7.81209e-05
                    -0.000468577     0.000265418       -0.0580513       -0.197294      0.000201501     0.000164673         0.108047        0.966749
                         0.78535       -0.614725      0.000166143     0.000284794       -0.0108879       0.0327534      0.000208742      0.00058814
                    -0.000574669     7.83224e-05         0.108658        0.967188      0.000406794     0.000423799       -0.0114909        0.204864
281738                 0.0337366     -0.00299735     -0.000622433      0.00026516         0.785394       -0.615147     -0.000569834     7.84053e-05
                    -0.000468609     0.000265665       -0.0581246       -0.197304      0.000201664     0.000164799         0.108495        0.966693
                        0.785106       -0.615036      0.000166223     0.000284771       -0.0108867       0.0327621      0.000208954      0.00058826
                    -0.000574756     7.85193e-05         0.109106        0.967131      0.000406645      0.00042346       -0.0113701        0.204901
281740                 0.0337425     -0.00302128     -0.000622357     0.000265608         0.785149       -0.615458     -0.000569765     7.87757e-05
                     -0.00046864     0.000265912       -0.0581979       -0.197314      0.000201828     0.000164925         0.108941        0.966636
                        0.784861       -0.615347      0.000166304     0.000284749       -0.0108856       0.0327708      0.000209155     0.000588548
                    -0.000574842      7.8716e-05         0.109554        0.967074      0.000406486     0.000423125       -0.0112489        0.204937
281742                 0.0337483     -0.00304522     -0.000622281     0.000266055         0.784905       -0.615769     -0.000569745     7.91302e-05
                    -0.000468671     0.000266159       -0.0582712       -0.197324      0.000201992     0.000165052         0.109389         0.96658
                        0.784617       -0.615658      0.000166384     0.000284726       -0.0108844       0.0327795      0.000209137     0.000588715
                    -0.000574929      7.8913e-05         0.110001        0.967017      0.000406323     0.000422796        -0.011128        0.204974
281744                 0.0337541     -0.00306916     -0.000622205     0.000266503          0.78466        -0.61608     -0.000569731     7.94659e-05
                      -0.0004687     0.000266409       -0.0583445       -0.197333      0.000202155     0.000165179         0.109836        0.966523
                        0.784372       -0.615968      0.000166465     0.000284703       -0.0108832       0.0327881      0.000209227     0.000588794
                    -0.000575016     7.91119e-05         0.110449        0.966959      0.000406159     0.000422471       -0.0110069         0.20501
281746                 0.0337598     -0.00309311     -0.000622128      0.00026695         0.784415       -0.616391     -0.000569716     7.97932e-05
                    -0.000468746     0.000266623       -0.0584179       -0.197343      0.000202318     0.000165306         0.110283        0.966466
                        0.784127       -0.616279      0.000166545     0.000284681       -0.0108821       0.0327968      0.000209352      0.00058889
                    -0.000575072     7.92965e-05         0.110897        0.966901      0.000405994     0.000422149       -0.0108859        0.205047
281748                 0.0337656     -0.00311706     -0.000622052     0.000267398         0.784171       -0.616701       -0.0005697     8.01168e-05
                    -0.000468772     0.000266888       -0.0584912       -0.197353       0.00020248     0.000165433         0.110731        0.966408
                        0.783882       -0.616589      0.000166626     0.000284658       -0.0108809       0.0328056      0.000209484     0.000588998
                    -0.000575188     7.94911e-05         0.111345        0.966844       0.00040583     0.000421829       -0.0107647        0.205083
281750                 0.0337714     -0.00314101     -0.000621975     0.000267845         0.783926       -0.617012     -0.000569681     8.04385e-05
                    -0.000468803     0.000267135       -0.0585646       -0.197363      0.000202641     0.000165559         0.111178        0.966351
                        0.783637       -0.616899      0.000166706     0.000284636       -0.0108797       0.0328143      0.000209619     0.000589112
                    -0.000575276     7.96881e-05         0.111792        0.966786      0.000405667      0.00042151       -0.0106436        0.205119
281752                 0.0337771     -0.00316497     -0.000621898     0.000268292          0.78368       -0.617323     -0.000569662     8.07593e-05
                    -0.000468835      0.00026738       -0.0586379       -0.197373      0.000202802     0.000165684         0.111625        0.966293
                        0.783392       -0.617209      0.000166787     0.000284613       -0.0108786        0.032823      0.000209754     0.000589228
                    -0.000575364     7.98834e-05          0.11224        0.966727      0.000405503     0.000421192       -0.0105224        0.205155
281754                 0.0337828     -0.00318894     -0.000621821     0.000268739         0.783435       -0.617633     -0.000569641     8.10797e-05
                    -0.000468868     0.000267624       -0.0587113       -0.197382      0.000202962     0.000165809         0.112073        0.966235
                        0.783146        -0.61752      0.000166868     0.000284591       -0.0108774       0.0328317      0.000209889     0.000589347
                    -0.000575451     8.00779e-05         0.112687        0.966669       0.00040534     0.000420874       -0.0104011        0.205191
281756                 0.0337885     -0.00321291     -0.000621743     0.000269186          0.78319       -0.617944      -0.00056962     8.13998e-05
                    -0.000468901     0.000267868       -0.0587847       -0.197392      0.000203121     0.000165934          0.11252        0.966177
                        0.782901        -0.61783      0.000166949     0.000284569       -0.0108762       0.0328404      0.000210024     0.000589467
                    -0.000575539      8.0272e-05         0.113135         0.96661      0.000405178     0.000420556       -0.0102799        0.205227
281758                 0.0337943     -0.00323688     -0.000621665     0.000269633         0.782944       -0.618254     -0.000569598     8.17199e-05
                    -0.000468934     0.000268112       -0.0588581       -0.197402      0.000203279     0.000166058         0.112967        0.966119
                        0.782655       -0.618139      0.000167029     0.000284547        -0.010875       0.0328492      0.000210159     0.000589587
                    -0.000575626     8.04656e-05         0.113582        0.966551      0.000405015     0.000420238       -0.0101585        0.205263
281760                    0.0338     -0.00326086     -0.000621588      0.00027008         0.782699       -0.618564     -0.000569575       8.204e-05
                    -0.000468967     0.000268355       -0.0589315       -0.197411      0.000203437     0.000166182         0.113414         0.96606
                         0.78241       -0.618449       0.00016711     0.000284525       -0.0108738       0.0328579      0.000210294     0.000589709
                    -0.000575714     8.06589e-05          0.11403        0.966492      0.000404854      0.00041992       -0.0100372        0.205299
281762                 0.0338056     -0.00328484      -0.00062151     0.000270527         0.782453       -0.618874     -0.000569551     8.23602e-05
                    -0.000469001     0.000268598       -0.0590049       -0.197421      0.000203594     0.000166305         0.113861        0.966002
                        0.782164       -0.618759      0.000167191     0.000284503       -0.0108726       0.0328667      0.000210429     0.000589831
