! TOUCHSTONE file generated by CST MICROWAVE STUDIO
! Date and time: Tue Oct 14 07:30:07 2025
! Project name: Teste_Macro_Metasurface_Nanopilar.cst
! Parameters = {H=600; L_x=155; L_y=75; Lambda=1064; Max_L=200; Min_L=70; PathPara=1; Phi=0; Step_L=10; Theta=0; p=520; phaseX=180; phaseY=0}
! Header version: 2018
! Port assignment regex: !\s*Touchstone port\s*([0-9]+)\s*=\s*(CST MWS port|CST DS port)\s*([0-9]+|Zmin|Zmax)\s*\(\"(.*)\"\)(\s*mode\s*([0-9]+))?.*
! Touchstone port assignment:
! Touchstone port 1 = CST MWS port Zmax ("") mode 1
! Touchstone port 2 = CST MWS port Zmax ("") mode 2
! Touchstone port 3 = CST MWS port Zmin ("") mode 1
! Touchstone port 4 = CST MWS port Zmin ("") mode 2
! S-Parameters are not renormalized. Each port impedance will be approximated by the real part at minimum frequency. The values are described via the [Reference] keyword.
! Default impedance is overridden by [Reference]
[Version] 2.0
# GHz S RI R 376.73
[Number of Ports] 4
[Reference]
376.73 376.73 259.814 259.814 
[Number of Frequencies] 51
[Network Data]
281700               -0.00344498       0.0900378     -4.10194e-05     5.01775e-05         0.982569       -0.159477     -5.72931e-05    -0.000132539
                      3.4786e-05    -5.59611e-05          0.06639       0.0605487      9.06457e-05     8.30672e-05        -0.931948        0.324759
                        0.982853       -0.159304      0.000153268     0.000141349        0.0316512        0.084531      2.75082e-05      0.00010768
                     5.88962e-05    -0.000186797        -0.931888        0.324851      7.35608e-05     4.39142e-06       -0.0168736       0.0905599
281702               -0.00341079       0.0900346     -4.10461e-05     5.01563e-05          0.98251       -0.159841      -5.7359e-05     -0.00013247
                     3.47838e-05    -5.60366e-05        0.0664212       0.0604858      9.08634e-05     8.30171e-05        -0.931782        0.325243
                        0.982795       -0.159668      0.000153331     0.000141251        0.0316802       0.0845154      2.76248e-05     0.000107691
                     5.87448e-05     -0.00018675        -0.931721        0.325335      7.35766e-05     4.23304e-06       -0.0168439       0.0905465
281704               -0.00337661       0.0900314     -4.10728e-05     5.01348e-05         0.982452       -0.160204     -5.74245e-05    -0.000132401
                     3.47815e-05    -5.61121e-05        0.0664523       0.0604229      9.10809e-05     8.29672e-05        -0.931615        0.325726
                        0.982736       -0.160031      0.000153394     0.000141152        0.0317093       0.0844998      2.77412e-05     0.000107702
                     5.85939e-05    -0.000186704        -0.931555        0.325818      7.35922e-05     4.07481e-06       -0.0168143       0.0905332
281706               -0.00334243       0.0900282     -4.10995e-05     5.01132e-05         0.982393       -0.160568     -5.74896e-05    -0.000132332
                     3.47792e-05    -5.61877e-05        0.0664833       0.0603599      9.12985e-05     8.29173e-05        -0.931448        0.326208
                        0.982677       -0.160395      0.000153457     0.000141053        0.0317384       0.0844842      2.78575e-05     0.000107713
                     5.84433e-05    -0.000186657        -0.931387        0.326302      7.36077e-05     3.91672e-06       -0.0167847       0.0905198
281708               -0.00330825        0.090025     -4.11263e-05     5.00914e-05         0.982333       -0.160931     -5.75544e-05    -0.000132263
                     3.47768e-05    -5.62634e-05        0.0665144        0.060297      9.15159e-05     8.28674e-05        -0.931281        0.326691
                        0.982618       -0.160758       0.00015352     0.000140954        0.0317674       0.0844686      2.79738e-05     0.000107723
                      5.8293e-05    -0.000186611         -0.93122        0.326785       7.3623e-05     3.75877e-06       -0.0167551       0.0905064
281710               -0.00327408       0.0900218     -4.11531e-05     5.00695e-05         0.982274       -0.161295     -5.76187e-05    -0.000132194
                     3.47743e-05    -5.63392e-05        0.0665454        0.060234      9.17333e-05     8.28176e-05        -0.931113        0.327174
                        0.982559       -0.161121      0.000153583     0.000140855        0.0317965       0.0844529      2.80898e-05     0.000107734
                     5.81431e-05    -0.000186565        -0.931052        0.327268      7.36382e-05     3.60096e-06       -0.0167255        0.090493
281712                -0.0032399       0.0900186     -4.11799e-05     5.00474e-05         0.982215       -0.161658     -5.76827e-05    -0.000132124
                     3.47717e-05     -5.6415e-05        0.0665763       0.0601711      9.19506e-05     8.27677e-05        -0.930945        0.327657
                          0.9825       -0.161485      0.000153646     0.000140756        0.0318255       0.0844373      2.82058e-05     0.000107744
                     5.79935e-05    -0.000186519        -0.930885        0.327751      7.36532e-05     3.44328e-06        -0.016696       0.0904796
281714               -0.00320573       0.0900153     -4.12068e-05     5.00251e-05         0.982155       -0.162022     -5.77463e-05    -0.000132055
                      3.4769e-05    -5.64909e-05        0.0666072       0.0601081      9.21679e-05     8.27178e-05        -0.930777        0.328139
                         0.98244       -0.161848      0.000153709     0.000140657        0.0318545       0.0844216      2.83216e-05     0.000107754
                     5.78441e-05    -0.000186474        -0.930716        0.328234       7.3668e-05     3.28572e-06       -0.0166665       0.0904663
281716               -0.00317156       0.0900121     -4.12337e-05     5.00027e-05         0.982096       -0.162385     -5.78095e-05    -0.000131986
                     3.47663e-05    -5.65668e-05        0.0666381       0.0600451      9.23851e-05     8.26678e-05        -0.930609        0.328622
                        0.982381       -0.162211      0.000153772     0.000140558        0.0318835        0.084406      2.84373e-05     0.000107764
                      5.7695e-05    -0.000186428        -0.930548        0.328717      7.36826e-05     3.12829e-06        -0.016637       0.0904529
281718                -0.0031374       0.0900088     -4.12607e-05     4.99802e-05         0.982036       -0.162749     -5.78722e-05    -0.000131917
                     3.47634e-05    -5.66428e-05        0.0666689        0.059982      9.26023e-05     8.26177e-05         -0.93044        0.329104
                        0.982321       -0.162575      0.000153835     0.000140459        0.0319125       0.0843903      2.85529e-05     0.000107774
                     5.75461e-05    -0.000186383        -0.930379          0.3292       7.3697e-05     2.97097e-06       -0.0166075       0.0904395
281720               -0.00310323       0.0900055     -4.12878e-05     4.99576e-05         0.981976       -0.163112     -5.79346e-05    -0.000131847
                     3.47604e-05    -5.67188e-05        0.0666997        0.059919      9.28195e-05     8.25675e-05        -0.930272        0.329586
                        0.982261       -0.162938      0.000153897      0.00014036        0.0319415       0.0843746      2.86683e-05     0.000107784
                     5.73973e-05    -0.000186338        -0.930211        0.329682      7.37112e-05     2.81377e-06       -0.0165781       0.0904261
281722               -0.00306907       0.0900022     -4.13149e-05     4.99349e-05         0.981916       -0.163475     -5.79965e-05    -0.000131778
                     3.47573e-05    -5.67948e-05        0.0667305       0.0598559      9.30367e-05     8.25172e-05        -0.930103        0.330068
                        0.982201       -0.163301       0.00015396     0.000140261        0.0319705       0.0843589      2.87836e-05     0.000107793
                     5.72488e-05    -0.000186293        -0.930041        0.330165      7.37251e-05     2.65668e-06       -0.0165486       0.0904127
281724               -0.00303491       0.0899989     -4.13421e-05     4.99121e-05         0.981856       -0.163839      -5.8058e-05    -0.000131709
                     3.47541e-05    -5.68709e-05        0.0667612       0.0597929      9.32538e-05     8.24667e-05        -0.929933         0.33055
                        0.982141       -0.163665      0.000154023     0.000140162        0.0319995       0.0843432      2.88987e-05     0.000107803
                     5.71004e-05    -0.000186248        -0.929872        0.330647      7.37388e-05     2.49969e-06       -0.0165192       0.0903993
281726               -0.00300075       0.0899956     -4.13694e-05     4.98892e-05         0.981795       -0.164202     -5.81191e-05    -0.000131639
                     3.47507e-05    -5.69471e-05        0.0667918       0.0597298      9.34709e-05      8.2416e-05        -0.929764        0.331032
                        0.982081       -0.164028      0.000154085     0.000140062        0.0320285       0.0843275      2.90137e-05     0.000107812
                     5.69522e-05    -0.000186203        -0.929702         0.33113      7.37523e-05     2.34281e-06       -0.0164899       0.0903859
281728               -0.00296659       0.0899923     -4.13967e-05     4.98663e-05         0.981735       -0.164565     -5.81797e-05     -0.00013157
                     3.47473e-05    -5.70233e-05        0.0668225       0.0596667       9.3688e-05     8.23651e-05        -0.929594        0.331514
                        0.982021       -0.164391      0.000154148     0.000139963        0.0320575       0.0843118      2.91286e-05     0.000107821
                     5.68041e-05    -0.000186158        -0.929532        0.331612      7.37655e-05     2.18603e-06       -0.0164605       0.0903725
281730               -0.00293243       0.0899889      -4.1424e-05     4.98433e-05         0.981674       -0.164929     -5.82398e-05      -0.0001315
                     3.47436e-05    -5.70995e-05         0.066853       0.0596036      9.39051e-05      8.2314e-05        -0.929424        0.331996
                         0.98196       -0.164754       0.00015421     0.000139864        0.0320864       0.0842961      2.92433e-05     0.000107829
                     5.66561e-05    -0.000186113        -0.929362        0.332094      7.37785e-05     2.02935e-06       -0.0164312       0.0903591
281732               -0.00289828       0.0899856     -4.14515e-05     4.98203e-05         0.981613       -0.165292     -5.82995e-05    -0.000131431
                     3.47398e-05    -5.71758e-05        0.0668836       0.0595405      9.41222e-05     8.22626e-05        -0.929254        0.332478
                          0.9819       -0.165117      0.000154272     0.000139764        0.0321154       0.0842803      2.93578e-05     0.000107838
                     5.65082e-05    -0.000186068        -0.929192        0.332577      7.37912e-05     1.87277e-06       -0.0164019       0.0903457
281734               -0.00286413       0.0899822     -4.14789e-05     4.97972e-05         0.981552       -0.165655     -5.83587e-05    -0.000131361
                     3.47358e-05    -5.72522e-05        0.0669141       0.0594773      9.43394e-05      8.2211e-05        -0.929083        0.332959
                        0.981839        -0.16548      0.000154335     0.000139665        0.0321444       0.0842646      2.94721e-05     0.000107847
                     5.63604e-05    -0.000186024        -0.929021        0.333059      7.38037e-05     1.71628e-06       -0.0163726       0.0903323
281736               -0.00282998       0.0899788     -4.15065e-05     4.97741e-05         0.981491       -0.166018     -5.84175e-05    -0.000131292
                     3.47317e-05    -5.73286e-05        0.0669446       0.0594142      9.45565e-05     8.21592e-05        -0.928912        0.333441
                        0.981778       -0.165844      0.000154397     0.000139565        0.0321733       0.0842488      2.95863e-05     0.000107855
                     5.62127e-05    -0.000185979         -0.92885        0.333541      7.38159e-05     1.55989e-06       -0.0163433       0.0903189
281738               -0.00279583       0.0899754      -4.1534e-05     4.97509e-05          0.98143       -0.166382     -5.84757e-05    -0.000131222
                     3.47274e-05     -5.7405e-05         0.066975        0.059351      9.47736e-05     8.21071e-05        -0.928741        0.333922
                        0.981717       -0.166207      0.000154459     0.000139465        0.0322022        0.084233      2.97003e-05     0.000107863
                     5.60651e-05    -0.000185934        -0.928679        0.334023      7.38278e-05     1.40359e-06       -0.0163141       0.0903055
281740               -0.00276169        0.089972     -4.15616e-05     4.97278e-05         0.981369       -0.166745     -5.85335e-05    -0.000131153
                     3.47229e-05    -5.74816e-05        0.0670054       0.0592878      9.49908e-05     8.20547e-05         -0.92857        0.334404
                        0.981656        -0.16657      0.000154521     0.000139366        0.0322312       0.0842173      2.98142e-05     0.000107871
                     5.59175e-05     -0.00018589        -0.928508        0.334504      7.38395e-05     1.24738e-06       -0.0162849       0.0902921
281742               -0.00272755       0.0899686     -4.15893e-05     4.97045e-05         0.981307       -0.167108     -5.85907e-05    -0.000131083
                     3.47181e-05    -5.75582e-05        0.0670357       0.0592246      9.52079e-05     8.20021e-05        -0.928398        0.334885
                        0.981595       -0.166933      0.000154583     0.000139266        0.0322601       0.0842015      2.99278e-05     0.000107879
                       5.577e-05    -0.000185845        -0.928336        0.334986      7.38508e-05     1.09126e-06       -0.0162557       0.0902787
281744                -0.0026934       0.0899652     -4.16169e-05     4.96813e-05         0.981246       -0.167471     -5.86474e-05    -0.000131013
                     3.47132e-05    -5.76348e-05         0.067066       0.0591614      9.54251e-05     8.19492e-05        -0.928227        0.335366
                        0.981533       -0.167296      0.000154644     0.000139166         0.032289       0.0841857      3.00413e-05     0.000107886
                     5.56225e-05    -0.000185801        -0.928164        0.335468       7.3862e-05     9.35249e-07       -0.0162266       0.0902653
281746               -0.00265927       0.0899617     -4.16446e-05     4.96581e-05         0.981184       -0.167834     -5.87036e-05    -0.000130944
                     3.47081e-05    -5.77116e-05        0.0670963       0.0590982      9.56422e-05     8.18962e-05        -0.928055        0.335847
                        0.981472       -0.167659      0.000154706     0.000139067        0.0323179       0.0841699      3.01546e-05     0.000107894
                     5.54751e-05    -0.000185756        -0.927992        0.335949      7.38729e-05     7.79345e-07       -0.0161974       0.0902519
281748               -0.00262513       0.0899582     -4.16723e-05     4.96348e-05         0.981122       -0.168197     -5.87593e-05    -0.000130874
                     3.47027e-05    -5.77885e-05        0.0671265       0.0590349      9.58592e-05      8.1843e-05        -0.927882        0.336328
                         0.98141       -0.168022      0.000154767     0.000138967        0.0323468       0.0841541      3.02677e-05     0.000107901
                     5.53277e-05    -0.000185711         -0.92782        0.336431      7.38836e-05     6.23572e-07       -0.0161683       0.0902385
281750                 -0.002591       0.0899548     -4.17001e-05     4.96116e-05          0.98106        -0.16856     -5.88144e-05    -0.000130804
                      3.4697e-05    -5.78654e-05        0.0671567       0.0589716       9.6076e-05     8.17899e-05         -0.92771        0.336809
                        0.981348       -0.168385      0.000154828     0.000138867        0.0323757       0.0841382      3.03806e-05     0.000107908
                     5.51803e-05    -0.000185667        -0.927647        0.336912      7.38943e-05     4.67977e-07       -0.0161392       0.0902251
281752               -0.00255686       0.0899513     -4.17278e-05     4.95883e-05         0.980998       -0.168923      -5.8869e-05    -0.000130735
                     3.46911e-05    -5.79426e-05        0.0671868       0.0589084      9.62923e-05     8.17376e-05        -0.927537         0.33729
                        0.981286       -0.168748      0.000154888     0.000138767        0.0324046       0.0841224      3.04933e-05     0.000107915
                     5.50328e-05    -0.000185622        -0.927474        0.337393      7.39054e-05     3.12694e-07       -0.0161101       0.0902117
281754               -0.00252273       0.0899478     -4.17556e-05      4.9565e-05         0.980936       -0.169286     -5.89231e-05    -0.000130665
                     3.46848e-05    -5.80199e-05        0.0672169       0.0588451      9.65063e-05     8.16885e-05        -0.927364         0.33777
                        0.981224       -0.169111      0.000154948     0.000138667        0.0324334       0.0841066      3.06058e-05     0.000107922
                     5.48853e-05    -0.000185577        -0.927301        0.337874      7.39189e-05     1.58215e-07       -0.0160811       0.0901983
281756                -0.0024886       0.0899443     -4.17834e-05     4.95417e-05         0.980874       -0.169649     -5.89767e-05    -0.000130596
                     3.46782e-05    -5.80975e-05         0.067247       0.0587818      9.66846e-05     8.16665e-05        -0.927191        0.338251
                        0.981162       -0.169474      0.000155008     0.000138567        0.0324623       0.0840907       3.0718e-05     0.000107929
                     5.47375e-05    -0.000185532        -0.927128        0.338355      7.39939e-05    -2.42266e-08       -0.0160521       0.0901849
281758               -0.00245443       0.0899408     -4.18112e-05     4.95184e-05         0.980811       -0.170012     -5.90299e-05    -0.000130528
                     3.46714e-05    -5.81757e-05         0.067277       0.0587185      9.69557e-05     8.15335e-05        -0.927017        0.338732
                        0.981099       -0.169836      0.000155068     0.000138467        0.0324911       0.0840748        3.083e-05     0.000107935
                     5.45894e-05    -0.000185486        -0.926954        0.338836      7.39176e-05    -1.61515e-07       -0.0160231       0.0901714
281760               -0.00242036       0.0899372      -4.1839e-05     4.94952e-05         0.980749       -0.170375     -5.90808e-05    -0.000130467
                     3.46648e-05    -5.82545e-05         0.067307       0.0586551      9.71709e-05     8.14941e-05        -0.926843        0.339212
                        0.981037       -0.170199      0.000155127     0.000138368          0.03252        0.084059      3.09414e-05     0.000107942
                     5.44415e-05    -0.000185438         -0.92678        0.339317       7.3931e-05    -3.13948e-07       -0.0159941        0.090158
281762               -0.00238624       0.0899337     -4.18668e-05     4.94719e-05         0.980686       -0.170738     -5.91169e-05    -0.000130378
                     3.46588e-05    -5.83335e-05        0.0673369       0.0585918      9.73875e-05     8.14415e-05        -0.926669        0.339692
                        0.980974       -0.170562      0.000155186     0.000138268        0.0325488       0.0840431      3.10498e-05     0.000107946
