! TOUCHSTONE file generated by CST MICROWAVE STUDIO
! Date and time: Tue Oct 14 07:32:33 2025
! Project name: Teste_Macro_Metasurface_Nanopilar.cst
! Parameters = {H=600; L_x=190; L_y=170; Lambda=1064; Max_L=200; Min_L=70; PathPara=1; Phi=0; Step_L=10; Theta=0; p=520; phaseX=180; phaseY=0}
! Header version: 2018
! Port assignment regex: !\s*Touchstone port\s*([0-9]+)\s*=\s*(CST MWS port|CST DS port)\s*([0-9]+|Zmin|Zmax)\s*\(\"(.*)\"\)(\s*mode\s*([0-9]+))?.*
! Touchstone port assignment:
! Touchstone port 1 = CST MWS port Zmax ("") mode 1
! Touchstone port 2 = CST MWS port Zmax ("") mode 2
! Touchstone port 3 = CST MWS port Zmin ("") mode 1
! Touchstone port 4 = CST MWS port Zmin ("") mode 2
! S-Parameters are not renormalized. Each port impedance will be approximated by the real part at minimum frequency. The values are described via the [Reference] keyword.
! Default impedance is overridden by [Reference]
[Version] 2.0
# GHz S RI R 376.73
[Number of Ports] 4
[Reference]
376.73 376.73 259.814 259.814 
[Number of Frequencies] 51
[Network Data]
281700                 -0.299524       -0.203726      0.000250026     0.000268616         0.818661        0.431064     -6.44092e-05     -0.00017189
                     3.99101e-06     0.000218049        -0.236796      -0.0921658      0.000341295    -9.88996e-05         0.957838        0.102932
                        0.818356        0.430759      0.000179587     6.25562e-05         0.334407        0.137102     -0.000299424     4.96684e-05
                    -1.80956e-05    -0.000192408         0.957669        0.102892     -0.000115508    -1.91836e-05         0.249028      -0.0397818
281702                 -0.299569       -0.203571      0.000249924     0.000269428         0.818887         0.43069     -6.84094e-05    -0.000175036
                     4.35445e-06     0.000224021        -0.236824      -0.0921023      0.000340893    -9.97896e-05         0.957881        0.102531
                        0.818597        0.430402      0.000179893     6.26649e-05         0.334436        0.136892     -0.000299259      4.9178e-05
                     -1.8006e-05    -0.000191103         0.957708        0.102484     -0.000115745    -1.93141e-05          0.24901      -0.0399226
281704                 -0.299613       -0.203416      0.000249875       0.0002702         0.819112        0.430316     -6.91774e-05    -0.000175934
                     3.76994e-06     0.000231125        -0.236853      -0.0920387      0.000340481    -0.000100655         0.957922        0.102128
                        0.818835        0.430043      0.000180367     6.26528e-05         0.334465        0.136681     -0.000299466     4.86007e-05
                    -1.79454e-05    -0.000189852         0.957747        0.102076     -0.000115989    -1.94465e-05         0.248992       -0.040063
281706                 -0.299656       -0.203261      0.000249885     0.000270926         0.819337        0.429941     -6.55308e-05    -0.000173506
                     1.39174e-06     0.000239495        -0.236881      -0.0919749      0.000340069    -0.000101495         0.957963        0.101724
                        0.819071        0.429681      0.000181005     6.24179e-05         0.334494         0.13647     -0.000300157     4.79364e-05
                    -1.79153e-05    -0.000188659         0.957786        0.101668     -0.000116241    -1.95819e-05         0.248973      -0.0402031
281708                 -0.299696       -0.203106      0.000249962       0.0002716         0.819561        0.429566     -5.69092e-05     -0.00016717
                     -4.2205e-06     0.000248782        -0.236909      -0.0919109      0.000339664    -0.000102316         0.958002        0.101318
                        0.819305        0.429317      0.000181738     6.18287e-05         0.334523         0.13626     -0.000301511     4.71904e-05
                    -1.79174e-05    -0.000187526         0.957824        0.101261     -0.000116503    -1.97222e-05         0.248954      -0.0403426
281710                 -0.299736       -0.202951      0.000250115     0.000272213         0.819786        0.429192     -4.38057e-05    -0.000157391
                    -1.49673e-05     0.000257184        -0.236938      -0.0918467      0.000339271    -0.000103126         0.958039        0.100908
                        0.819537        0.428951      0.000182382     6.07795e-05         0.334552         0.13605     -0.000303846     4.63871e-05
                    -1.79535e-05    -0.000186456         0.957863        0.100854     -0.000116776    -1.98703e-05         0.248935      -0.0404812
281712                 -0.299774       -0.202797      0.000250354     0.000272755          0.82001        0.428817     -2.77429e-05    -0.000145703
                    -3.13992e-05     0.000260203        -0.236966      -0.0917822      0.000338888     -0.00010393         0.958071        0.100494
                        0.819769        0.428583       0.00018266      5.9302e-05         0.334581        0.135839     -0.000307751     4.56154e-05
                    -1.80258e-05    -0.000185455         0.957902        0.100448      -0.00011706    -2.00303e-05         0.248915      -0.0406182
281714                 -0.299811       -0.202645      0.000250691     0.000273211         0.820234        0.428442     -1.07307e-05    -0.000134041
                     -4.8665e-05     0.000252666        -0.236995      -0.0917175      0.000338512    -0.000104732         0.958095        0.100073
                        0.819999        0.428213      0.000182347     5.76418e-05         0.334609        0.135629     -0.000314459     4.52008e-05
                    -1.81364e-05    -0.000184527         0.957941        0.100042     -0.000117356    -2.02078e-05         0.248894      -0.0407522
281716                 -0.299848       -0.202493      0.000251139     0.000273565         0.820458        0.428068      5.43525e-06     -0.00012391
                    -5.77993e-05     0.000236451        -0.237023      -0.0916525      0.000338142    -0.000105536         0.958098       0.0996437
                        0.820229        0.427842      0.000181445     5.61504e-05         0.334638        0.135419     -0.000326893     4.65044e-05
                    -1.82878e-05    -0.000183678          0.95798       0.0996362      -0.00011766    -2.04097e-05         0.248869      -0.0408782
281718                 -0.299884       -0.202343      0.000251712     0.000273796         0.820681        0.427693      1.96101e-05    -0.000116007
                    -5.62455e-05     0.000220373        -0.237052      -0.0915872      0.000337774    -0.000106342         0.958048       0.0992144
                        0.820458        0.427469      0.000180178     5.50629e-05         0.334667        0.135209     -0.000352861     5.70947e-05
                    -1.84822e-05    -0.000182916         0.958019        0.099231     -0.000117965    -2.06432e-05         0.248823      -0.0409712
281720                  -0.29992       -0.202194      0.000252429     0.000273878         0.820905        0.427318      3.13422e-05    -0.000110356
                    -4.88311e-05     0.000209676        -0.237081      -0.0915218      0.000337406     -0.00010715         0.957904       0.0989019
                        0.820686        0.427095      0.000178807     5.44092e-05         0.334695        0.134999     -0.000389498     0.000133299
                    -1.87222e-05    -0.000182249         0.958058       0.0988262     -0.000118258    -2.09128e-05         0.248674      -0.0415333
281722                 -0.299956       -0.202046      0.000253307     0.000273776         0.821128        0.426943      4.06737e-05    -0.000106626
                    -4.01143e-05     0.000204125        -0.237111      -0.0914563      0.000337037    -0.000107959         0.957995       0.0987901
                        0.820914         0.42672      0.000177502     5.40944e-05         0.334723        0.134789     -0.000243091     0.000176538
                      -1.901e-05    -0.000181687         0.958097       0.0984219     -0.000118524    -2.12162e-05         0.248838      -0.0414189
281724                 -0.299992       -0.201899      0.000254367     0.000273447         0.821351        0.426568      4.79023e-05    -0.000104384
                    -3.20367e-05     0.000201927        -0.237141      -0.0913907      0.000336666     -0.00010877         0.958225       0.0984159
                        0.821141        0.426343      0.000176334     5.40005e-05         0.334752        0.134579     -0.000228115      9.9742e-05
                    -1.93475e-05    -0.000181243         0.958136       0.0980179     -0.000118746    -2.15411e-05         0.248817      -0.0415265
281726                 -0.300029       -0.201752      0.000255629     0.000272831         0.821573        0.426193      5.34071e-05    -0.000103233
                    -2.50399e-05     0.000201651        -0.237171      -0.0913254      0.000336292    -0.000109581         0.958341       0.0979685
                        0.821369        0.425966      0.000175311     5.40344e-05          0.33478        0.134369     -0.000239704     7.51498e-05
                    -1.97358e-05    -0.000180931         0.958175       0.0976143     -0.000118917     -2.1867e-05         0.248796      -0.0416552
281728                 -0.300066       -0.201606      0.000257115     0.000271854         0.821796        0.425818      5.75529e-05    -0.000102857
                    -1.90405e-05     0.000202434        -0.237202      -0.0912602      0.000335914    -0.000110392          0.95841       0.0975322
                        0.821595        0.425587      0.000174414     5.41349e-05         0.334808        0.134159     -0.000247464     6.48797e-05
                    -2.01748e-05    -0.000180769         0.958214       0.0972111     -0.000119045    -2.21723e-05         0.248776      -0.0417899
281730                 -0.300103       -0.201461      0.000258839     0.000270414         0.822018        0.425443      6.06519e-05    -0.000103021
                    -1.38355e-05     0.000203793        -0.237233      -0.0911954      0.000335533    -0.000111203         0.958464       0.0971076
                        0.821822        0.425207      0.000173622     5.42657e-05         0.334837        0.133949     -0.000252379     5.92966e-05
                    -2.06627e-05    -0.000180775         0.958253       0.0968083     -0.000119143    -2.24433e-05         0.248756       -0.041927
281732                 -0.300141       -0.201316      0.000260807     0.000268376          0.82224        0.425068      6.29546e-05    -0.000103557
                    -9.22979e-06     0.000205463        -0.237264       -0.091131      0.000335147    -0.000112014         0.958511       0.0966903
                        0.822048        0.424827       0.00017291     5.44062e-05         0.334865         0.13374     -0.000255648     5.56921e-05
                    -2.11949e-05    -0.000180973         0.958292       0.0964059     -0.000119231    -2.26771e-05         0.248736      -0.0420653
281734                 -0.300179        -0.20117      0.000263001     0.000265563         0.822461        0.424693      6.46559e-05    -0.000104346
                    -5.06451e-06     0.000207294        -0.237295      -0.0910669      0.000334757    -0.000112823         0.958555       0.0962775
                        0.822274        0.424446       0.00017226     5.45456e-05         0.334893         0.13353     -0.000257929     5.30756e-05
                    -2.17625e-05    -0.000181388         0.958331       0.0960039     -0.000119321    -2.28789e-05         0.248716      -0.0422043
281736                 -0.300218       -0.201026      0.000265357     0.000261739         0.822683        0.424317      6.59042e-05    -0.000105307
                    -1.21647e-06     0.000209199        -0.237326      -0.0910032      0.000334364    -0.000113632         0.958597       0.0958676
                        0.822499        0.424064      0.000171657     5.46784e-05         0.334921        0.133321     -0.000259586     5.10111e-05
                    -2.23514e-05    -0.000182048          0.95837       0.0956022     -0.000119422     -2.3057e-05         0.248697      -0.0423438
281738                 -0.300257       -0.200881      0.000267727       0.0002566         0.822904        0.423942      6.68115e-05    -0.000106384
                     2.40933e-06     0.000211126        -0.237356      -0.0909397      0.000333965    -0.000114438         0.958637       0.0954595
                        0.822724        0.423681      0.000171089     5.48026e-05         0.334949        0.133111     -0.000260829     4.92806e-05
                    -2.29401e-05    -0.000182982         0.958409       0.0952009     -0.000119537    -2.32197e-05         0.248677      -0.0424835
281740                 -0.300296       -0.200736      0.000269816      0.00024978         0.823125        0.423567      6.74623e-05    -0.000107539
                     5.88723e-06     0.000213042        -0.237387      -0.0908764      0.000333563    -0.000115243         0.958678       0.0950527
                        0.822948        0.423297      0.000170547     5.49176e-05         0.334977        0.132902     -0.000261787     4.77638e-05
                    -2.34979e-05    -0.000184217         0.958449          0.0948     -0.000119665    -2.33736e-05         0.248657      -0.0426234
281742                 -0.300335       -0.200591      0.000271078     0.000240887         0.823345        0.423191      6.79199e-05    -0.000108743
                     9.27707e-06     0.000214921        -0.237417      -0.0908133      0.000333156    -0.000116046         0.958717       0.0946469
                        0.823173        0.422913      0.000170023     5.50239e-05         0.335004        0.132693     -0.000262545     4.63895e-05
                    -2.39835e-05    -0.000185775         0.958488       0.0943994     -0.000119806    -2.35236e-05         0.248637      -0.0427634
281744                 -0.300374       -0.200446      0.000270594     0.000229638         0.823566        0.422816      6.82323e-05     -0.00010998
                      1.2629e-05     0.000216743        -0.237447      -0.0907503      0.000332745    -0.000116847         0.958757       0.0942416
                        0.823396        0.422529      0.000169511     5.51225e-05         0.335032        0.132483     -0.000263158     4.51133e-05
                    -2.43452e-05    -0.000187666         0.958527       0.0939991     -0.000119958     -2.3673e-05         0.248617      -0.0429035
281746                 -0.300414       -0.200301       0.00026699     0.000216163         0.823786         0.42244      6.84355e-05    -0.000111236
                     1.59869e-05     0.000218485        -0.237477      -0.0906873      0.000332329    -0.000117646         0.958796       0.0938368
                        0.823619        0.422143      0.000169003     5.52146e-05          0.33506        0.132274     -0.000263663     4.39058e-05
                    -2.45233e-05    -0.000189881         0.958567       0.0935991     -0.000120118    -2.38242e-05         0.248597      -0.0430437
281748                 -0.300454       -0.200156      0.000258625       0.0002015         0.824005        0.422065      6.85569e-05    -0.000112504
                     1.93918e-05     0.000220122        -0.237507      -0.0906242      0.000331909    -0.000118442         0.958834       0.0934323
                        0.823842        0.421757      0.000168496     5.53017e-05         0.335088        0.132065     -0.000264089     4.27472e-05
                    -2.44578e-05    -0.000192384         0.958606       0.0931993     -0.000120285    -2.39788e-05         0.248576      -0.0431839
281750                 -0.300493       -0.200011      0.000244342     0.000188013         0.824225        0.421689      6.86173e-05    -0.000113778
                     2.28839e-05      0.00022162        -0.237536      -0.0905612      0.000331485    -0.000119236         0.958873        0.093028
                        0.824064         0.42137      0.000167983     5.53854e-05         0.335115        0.131856     -0.000264455     4.16236e-05
                    -2.41008e-05    -0.000195104         0.958645       0.0927998     -0.000120458    -2.41384e-05         0.248556      -0.0433241
281752                 -0.300533       -0.199866       0.00022474     0.000178988         0.824444        0.421313      6.86327e-05    -0.000115055
                     2.65052e-05     0.000222933        -0.237566       -0.090498      0.000331056    -0.000120027         0.958911       0.0926238
                        0.824285        0.420983      0.000167457     5.54672e-05         0.335143        0.131647     -0.000264775     4.05248e-05
                    -2.34348e-05    -0.000197937         0.958685       0.0924003     -0.000120636    -2.43041e-05         0.248536      -0.0434644
281754                 -0.300573       -0.199722      0.000202787     0.000176887         0.824663        0.420938      6.86152e-05    -0.000116331
                     3.03003e-05     0.000223988        -0.237595      -0.0904348      0.000330623    -0.000120816         0.958949       0.0922198
                        0.824504        0.420595      0.000166909     5.55491e-05          0.33517        0.131438      -0.00026506     3.94435e-05
                    -2.24918e-05     -0.00020075         0.958724       0.0920009     -0.000120819    -2.44771e-05         0.248515      -0.0436046
281756                 -0.300613       -0.199577      0.000182476     0.000181566         0.824882        0.420562      6.85741e-05    -0.000117606
                      3.4317e-05     0.000224679        -0.237624      -0.0903714      0.000330185    -0.000121603         0.958987       0.0918158
                        0.824723        0.420207       0.00016633     5.56327e-05         0.335198         0.13123     -0.000265319     3.83742e-05
                    -2.13683e-05    -0.000203402         0.958763       0.0916014     -0.000121009    -2.46583e-05         0.248495      -0.0437449
281758                 -0.300653       -0.199432      0.000166544     0.000190487         0.825101        0.420186      6.85166e-05     -0.00011888
                     3.86011e-05     0.000224832        -0.237652      -0.0903079      0.000329742    -0.000122387         0.959024       0.0914119
                         0.82494        0.419818      0.000165702     5.57198e-05         0.335225        0.131021     -0.000265558     3.73125e-05
                     -2.0226e-05    -0.000205767         0.958801       0.0912015     -0.000121208    -2.48475e-05         0.248474      -0.0438851
281760                 -0.300694       -0.199288      0.000155579     0.000200468         0.825319         0.41981      6.84483e-05    -0.000120152
                     4.31757e-05     0.000224159        -0.237681      -0.0902442      0.000329294    -0.000123169         0.959062        0.091008
                        0.825154         0.41943      0.000165001     5.58115e-05         0.335252        0.130812     -0.000265781     3.62551e-05
                    -1.92779e-05    -0.000207751         0.958839       0.0908008     -0.000121419    -2.50428e-05         0.248453      -0.0440254
281762                 -0.300736       -0.199144      0.000148778     0.000208917         0.825537        0.419434      6.83734e-05    -0.000121422
                     4.79734e-05     0.000222166        -0.237709      -0.0901804      0.000328842    -0.000123948         0.959099       0.0906041
                        0.825366        0.419042       0.00016419      5.5907e-05         0.335279        0.130604     -0.000265992     3.51995e-05
