! TOUCHSTONE file generated by CST MICROWAVE STUDIO
! Date and time: Tue Oct 14 07:30:06 2025
! Project name: Teste_Macro_Metasurface_Nanopilar.cst
! Parameters = {H=600; L_x=150; L_y=200; Lambda=1064; Max_L=200; Min_L=70; PathPara=1; Phi=0; Step_L=10; Theta=0; p=520; phaseX=180; phaseY=0}
! Header version: 2018
! Port assignment regex: !\s*Touchstone port\s*([0-9]+)\s*=\s*(CST MWS port|CST DS port)\s*([0-9]+|Zmin|Zmax)\s*\(\"(.*)\"\)(\s*mode\s*([0-9]+))?.*
! Touchstone port assignment:
! Touchstone port 1 = CST MWS port Zmax ("") mode 1
! Touchstone port 2 = CST MWS port Zmax ("") mode 2
! Touchstone port 3 = CST MWS port Zmin ("") mode 1
! Touchstone port 4 = CST MWS port Zmin ("") mode 2
! S-Parameters are not renormalized. Each port impedance will be approximated by the real part at minimum frequency. The values are described via the [Reference] keyword.
! Default impedance is overridden by [Reference]
[Version] 2.0
# GHz S RI R 376.73
[Number of Ports] 4
[Reference]
376.73 376.73 259.814 259.814 
[Number of Frequencies] 51
[Network Data]
281700                 -0.258659       -0.100428      5.12755e-05    -0.000165096         0.946453        0.143298      0.000185857    -0.000166658
                    -3.77182e-05    -0.000181173        -0.220101       -0.156378     -4.52471e-05    -0.000292553         0.673617        0.673226
                        0.946335         0.14276      3.46256e-05    -0.000230954         0.274512      -0.0215989      0.000164625    -0.000173033
                     0.000180711    -0.000247085         0.673734        0.672825      0.000158878    -0.000217745         0.149834        0.228283
281702                 -0.258706       -0.100365      5.12922e-05    -0.000165282         0.946509        0.142905      0.000185616     -0.00016673
                    -3.77739e-05    -0.000181329        -0.220132       -0.156184     -4.55918e-05    -0.000292976         0.674009        0.672901
                        0.946388         0.14237      3.45912e-05    -0.000230861         0.274522      -0.0217524      0.000164666    -0.000173272
                     0.000180397    -0.000247002         0.674125        0.672501      0.000158474    -0.000221157         0.149899        0.228117
281704                 -0.258752       -0.100302      5.13092e-05    -0.000165467         0.946564        0.142513      0.000185375    -0.000166801
                    -3.78273e-05    -0.000181483        -0.220162        -0.15599     -4.59121e-05    -0.000293326           0.6744        0.672575
                        0.946441        0.141979      3.45567e-05    -0.000230768         0.274531       -0.021906      0.000164706    -0.000173512
                     0.000180084    -0.000246918         0.674516        0.672176      0.000158043    -0.000224374         0.149965        0.227952
281706                 -0.258799       -0.100239      5.13263e-05    -0.000165651         0.946618         0.14212      0.000185133    -0.000166871
                    -3.78786e-05    -0.000181634        -0.220193       -0.155797      -4.6205e-05    -0.000293597          0.67479        0.672249
                        0.946494        0.141589      3.45223e-05    -0.000230675          0.27454      -0.0220595      0.000164745    -0.000173752
                     0.000179772    -0.000246834         0.674906        0.671852      0.000157599    -0.000227362         0.150031        0.227787
281708                 -0.258845       -0.100176      5.13439e-05    -0.000165834         0.946672        0.141728      0.000184891    -0.000166941
                    -3.79279e-05    -0.000181781        -0.220223       -0.155604     -4.64667e-05    -0.000293779          0.67518        0.671924
                        0.946546        0.141198      3.44878e-05    -0.000230583         0.274548      -0.0222129      0.000164782    -0.000173993
                     0.000179461     -0.00024675         0.675293        0.671531      0.000157161    -0.000230083         0.150096        0.227623
281710                 -0.258892       -0.100113      5.13621e-05    -0.000166017         0.946726        0.141335      0.000184648    -0.000167011
                    -3.79753e-05    -0.000181926        -0.220253       -0.155412     -4.66935e-05    -0.000293864          0.67557        0.671598
                        0.946599        0.140807      3.44532e-05    -0.000230491         0.274557      -0.0223664      0.000164818    -0.000174234
                     0.000179151    -0.000246666         0.675685        0.671197      0.000156747    -0.000232496         0.150162        0.227459
281712                 -0.258938       -0.100049      5.13815e-05    -0.000166197         0.946779        0.140943      0.000184406     -0.00016708
                    -3.80208e-05    -0.000182068        -0.220283        -0.15522     -4.68811e-05    -0.000293843         0.675958        0.671272
                        0.946651        0.140417      3.44187e-05      -0.0002304         0.274565      -0.0225198      0.000164853    -0.000174476
                     0.000178842    -0.000246581         0.676074        0.670874       0.00015638    -0.000234556         0.150228        0.227295
281714                 -0.258984      -0.0999864      5.14028e-05    -0.000166377         0.946832        0.140551      0.000184163    -0.000167149
                    -3.80646e-05    -0.000182207        -0.220313       -0.155028     -4.70248e-05    -0.000293704         0.676347        0.670946
                        0.946704        0.140026      3.43841e-05    -0.000230309         0.274573      -0.0226731      0.000164886    -0.000174718
                     0.000178535    -0.000246496         0.676461         0.67055      0.000156081    -0.000236216         0.150293        0.227131
281716                 -0.259031      -0.0999233      5.14276e-05    -0.000166555         0.946884        0.140159      0.000183919    -0.000167218
                    -3.81068e-05    -0.000182343        -0.220343       -0.154837     -4.71195e-05    -0.000293437         0.676735         0.67062
                        0.946756        0.139635      3.43495e-05    -0.000230219         0.274581      -0.0228264      0.000164918    -0.000174962
                     0.000178228    -0.000246411         0.676849        0.670225      0.000155873    -0.000237424         0.150359        0.226968
281718                 -0.259077      -0.0998601      5.14573e-05    -0.000166734         0.946936        0.139766      0.000183676    -0.000167286
                    -3.81475e-05    -0.000182476        -0.220372       -0.154647     -4.71598e-05    -0.000293028         0.677122        0.670293
                        0.946808        0.139245      3.43149e-05    -0.000230129         0.274589      -0.0229797       0.00016495    -0.000175205
                     0.000177922    -0.000246325         0.677236        0.669899      0.000155777    -0.000238128         0.150425        0.226805
281720                 -0.259124       -0.099797       5.1492e-05    -0.000166919         0.946988        0.139374      0.000183432    -0.000167354
                    -3.81868e-05    -0.000182607        -0.220402       -0.154457     -4.71399e-05    -0.000292466         0.677509        0.669967
                        0.946859        0.138854      3.42803e-05     -0.00023004         0.274597       -0.023133      0.000164979    -0.000175449
                     0.000177618    -0.000246239         0.677622        0.669574      0.000155813    -0.000238271         0.150491        0.226642
281722                  -0.25917      -0.0997338      5.15274e-05    -0.000167112         0.947039        0.138982      0.000183187    -0.000167421
                    -3.82246e-05    -0.000182735        -0.220432       -0.154267     -4.70537e-05    -0.000291736         0.677895         0.66964
                        0.946911        0.138463      3.42456e-05    -0.000229951         0.274605      -0.0232862      0.000165008    -0.000175694
                     0.000177315    -0.000246152         0.678008        0.669249      0.000155994    -0.000237797         0.150557         0.22648
281724                 -0.259216      -0.0996706      5.15562e-05    -0.000167313         0.947089        0.138591      0.000182943    -0.000167488
                    -3.82612e-05     -0.00018286        -0.220461       -0.154078     -4.68951e-05    -0.000290826         0.678281        0.669314
                        0.946962        0.138073       3.4211e-05    -0.000229863         0.274612      -0.0234394      0.000165035    -0.000175939
                     0.000177013    -0.000246065         0.678393        0.668923       0.00015633     -0.00023665         0.150623        0.226318
281726                 -0.259263      -0.0996074      5.15755e-05    -0.000167515          0.94714        0.138199      0.000182698    -0.000167555
                    -3.82966e-05    -0.000182983         -0.22049       -0.153889     -4.66583e-05     -0.00028972         0.678666        0.668987
                        0.947013        0.137682      3.41763e-05    -0.000229775          0.27462      -0.0235925      0.000165062    -0.000176185
                     0.000176712    -0.000245978         0.678778        0.668597      0.000156818    -0.000234779         0.150689        0.226156
281728                 -0.259309      -0.0995441      5.15883e-05    -0.000167713         0.947189        0.137807      0.000182453    -0.000167621
                    -3.83309e-05    -0.000183103         -0.22052         -0.1537      -4.6338e-05    -0.000288409          0.67905         0.66866
                        0.947065        0.137291      3.41416e-05    -0.000229688         0.274627      -0.0237457      0.000165087    -0.000176431
                     0.000176412     -0.00024589         0.679162        0.668271      0.000157444    -0.000232143         0.150755        0.225994
281730                 -0.259355      -0.0994809      5.15987e-05    -0.000167906         0.947239        0.137416      0.000182207    -0.000167687
                    -3.83641e-05    -0.000183221        -0.220549       -0.153512     -4.59305e-05    -0.000286885         0.679434        0.668333
                        0.947116          0.1369      3.41069e-05    -0.000229601         0.274634      -0.0238988       0.00016511    -0.000176677
                     0.000176114    -0.000245802         0.679546        0.667945      0.000158181     -0.00022872         0.150821        0.225833
281732                 -0.259402      -0.0994176       5.1609e-05    -0.000168095         0.947288        0.137024      0.000181962    -0.000167752
                    -3.83963e-05    -0.000183336        -0.220578       -0.153324     -4.54347e-05    -0.000285146         0.679818        0.668006
                        0.947166        0.136509      3.40723e-05    -0.000229515         0.274641      -0.0240519      0.000165133    -0.000176924
                     0.000175817    -0.000245713         0.679929        0.667619      0.000158985    -0.000224517         0.150887        0.225672
281734                 -0.259448      -0.0993543        5.162e-05    -0.000168281         0.947337        0.136633      0.000181716    -0.000167817
                    -3.84276e-05    -0.000183449        -0.220607       -0.153137     -4.48545e-05    -0.000283202         0.680201        0.667679
                        0.947217        0.136118      3.40376e-05    -0.000229429         0.274648       -0.024205      0.000165154    -0.000177171
                     0.000175521    -0.000245624         0.680312        0.667293      0.000159796    -0.000219593         0.150953        0.225511
281736                 -0.259494      -0.0992909      5.16316e-05    -0.000168466         0.947386        0.136242       0.00018147    -0.000167882
                    -3.84581e-05    -0.000183559        -0.220636        -0.15295     -4.42012e-05    -0.000281084         0.680584        0.667352
                        0.947267        0.135727       3.4003e-05    -0.000229344         0.274655      -0.0243581      0.000165174    -0.000177419
                     0.000175226    -0.000245535         0.680694        0.666967      0.000160545    -0.000214079         0.151019        0.225351
281738                  -0.25954      -0.0992276      5.16439e-05    -0.000168649         0.947435        0.135851      0.000181223    -0.000167946
                    -3.84877e-05    -0.000183668        -0.220664       -0.152764     -4.34991e-05    -0.000278853         0.680966        0.667025
                        0.947318        0.135336      3.39684e-05    -0.000229259         0.274662      -0.0245112      0.000165193    -0.000177667
                     0.000174933    -0.000245445         0.681076         0.66664      0.000161162     -0.00020822         0.151085        0.225191
281740                 -0.259587      -0.0991642      5.16567e-05    -0.000168832         0.947484         0.13546      0.000180976    -0.000168009
                    -3.85165e-05    -0.000183773        -0.220693       -0.152578     -4.27931e-05    -0.000276624         0.681347        0.666697
                        0.947368        0.134945      3.39338e-05    -0.000229175         0.274669      -0.0246643      0.000165211    -0.000177915
                     0.000174641    -0.000245356         0.681457        0.666314      0.000161595     -0.00020243         0.151151        0.225031
281742                 -0.259633      -0.0991008      5.16698e-05    -0.000169013         0.947533        0.135068      0.000180729    -0.000168073
                    -3.85446e-05    -0.000183877        -0.220721       -0.152393     -4.21617e-05    -0.000274593         0.681728         0.66637
                        0.947418        0.134554      3.38993e-05    -0.000229092         0.274676      -0.0248176      0.000165227    -0.000178164
                      0.00017435    -0.000245266         0.681837        0.665987      0.000161834    -0.000197377         0.151218        0.224871
281744                 -0.259679      -0.0990374       5.1683e-05    -0.000169195         0.947582        0.134676      0.000180482    -0.000168136
                    -3.85721e-05    -0.000183978         -0.22075       -0.152207     -4.17369e-05    -0.000273094         0.682109        0.666042
                        0.947467        0.134163      3.38646e-05    -0.000229009         0.274682      -0.0249709      0.000165242    -0.000178413
                      0.00017406    -0.000245176         0.682218         0.66566      0.000161924    -0.000194136         0.151284        0.224712
281746                 -0.259725      -0.0989739      5.16963e-05    -0.000169376         0.947632        0.134284      0.000180234    -0.000168198
                     -3.8599e-05    -0.000184077        -0.220778       -0.152023     -4.17378e-05    -0.000272675         0.682489        0.665715
                        0.947517        0.133772      3.38299e-05    -0.000228927         0.274689      -0.0251244      0.000165257    -0.000178663
                     0.000173771    -0.000245086         0.682597        0.665333      0.000161942    -0.000194469          0.15135        0.224553
281748                 -0.259772      -0.0989105      5.17096e-05    -0.000169556         0.947684        0.133891      0.000179986    -0.000168261
                    -3.86252e-05    -0.000184174        -0.220807       -0.151838     -4.25234e-05    -0.000274219         0.682868        0.665387
                        0.947567        0.133381      3.37952e-05    -0.000228845         0.274696      -0.0252782      0.000165269    -0.000178912
                     0.000173483    -0.000244996         0.682976        0.665006       0.00016176    -0.000201402         0.151416        0.224394
281750                 -0.259818       -0.098847      5.17228e-05    -0.000169736         0.947737        0.133495      0.000179738    -0.000168322
                    -3.86509e-05    -0.000184268        -0.220835       -0.151654     -4.46761e-05    -0.000279114         0.683248        0.665059
                        0.947616         0.13299      3.37603e-05    -0.000228764         0.274704      -0.0254325      0.000165281    -0.000179162
                     0.000173195    -0.000244906         0.683355        0.664679      0.000160005    -0.000220467         0.151483        0.224235
281752                 -0.259864      -0.0987835      5.17359e-05    -0.000169916         0.947796        0.133097       0.00017949    -0.000168384
                    -3.86759e-05    -0.000184361        -0.220863       -0.151471     -4.91264e-05    -0.000289446         0.683626        0.664731
                        0.947665        0.132599      3.37254e-05    -0.000228683         0.274712      -0.0255875      0.000165292    -0.000179413
                     0.000172907    -0.000244815         0.683733        0.664352      0.000149709    -0.000261751         0.151549        0.224077
281754                  -0.25991      -0.0987199      5.17487e-05    -0.000170095         0.947865        0.132695      0.000179241    -0.000168445
                    -3.87002e-05    -0.000184451        -0.220891       -0.151288     -5.73144e-05    -0.000308109         0.684004        0.664403
                        0.947714        0.132208      3.36905e-05    -0.000228603         0.274722      -0.0257439      0.000165301    -0.000179663
                     0.000172619    -0.000244723         0.684111        0.664025       0.00010192    -0.000336215         0.151615        0.223919
281756                 -0.259956      -0.0986564      5.17613e-05    -0.000170274         0.947963        0.132294      0.000178993    -0.000168505
                    -3.87238e-05    -0.000184539        -0.220919       -0.151105     -7.13118e-05    -0.000338527         0.684382        0.664075
                        0.947763        0.131817      3.36555e-05    -0.000228524          0.27474      -0.0259017      0.000165309    -0.000179914
                     0.000172332    -0.000244629         0.684488        0.663697     -5.02805e-05    -0.000394156         0.151682        0.223761
281758                 -0.260002      -0.0985928      5.17735e-05    -0.000170452         0.948118        0.131962      0.000178744    -0.000168565
                    -3.87463e-05    -0.000184625        -0.220947       -0.150923      -9.3626e-05    -0.000383395         0.684759        0.663746
                        0.947811        0.131426      3.36206e-05    -0.000228445         0.274779      -0.0260421      0.000165316    -0.000180165
                     0.000172045    -0.000244534         0.684864         0.66337     -0.000218844    -0.000285339         0.151748        0.223604
281760                 -0.260048      -0.0985292      5.17855e-05     -0.00017063         0.948117         0.13175      0.000178494    -0.000168625
                    -3.87678e-05     -0.00018471        -0.220974       -0.150741     -0.000126095    -0.000442072         0.685135        0.663418
                         0.94786        0.131034      3.35856e-05    -0.000228366         0.274759      -0.0261426      0.000165322    -0.000180417
                     0.000171759    -0.000244438         0.685241        0.663042     -0.000234928    -0.000143311         0.151815        0.223446
281762                 -0.260094      -0.0984656       5.1797e-05    -0.000170808          0.94805        0.131358      0.000178245    -0.000168685
                    -3.87885e-05    -0.000184793        -0.221002       -0.150559     -0.000167538    -0.000507959         0.685511        0.663089
                        0.947908        0.130643      3.35507e-05    -0.000228289         0.274738      -0.0263086      0.000165326    -0.000180668
