! TOUCHSTONE file generated by CST MICROWAVE STUDIO
! Date and time: Tue Oct 14 07:27:59 2025
! Project name: Teste_Macro_Metasurface_Nanopilar.cst
! Parameters = {H=600; L_x=120; L_y=105; Lambda=1064; Max_L=200; Min_L=70; PathPara=1; Phi=0; Step_L=10; Theta=0; p=520; phaseX=180; phaseY=0}
! Header version: 2018
! Port assignment regex: !\s*Touchstone port\s*([0-9]+)\s*=\s*(CST MWS port|CST DS port)\s*([0-9]+|Zmin|Zmax)\s*\(\"(.*)\"\)(\s*mode\s*([0-9]+))?.*
! Touchstone port assignment:
! Touchstone port 1 = CST MWS port Zmax ("") mode 1
! Touchstone port 2 = CST MWS port Zmax ("") mode 2
! Touchstone port 3 = CST MWS port Zmin ("") mode 1
! Touchstone port 4 = CST MWS port Zmin ("") mode 2
! S-Parameters are not renormalized. Each port impedance will be approximated by the real part at minimum frequency. The values are described via the [Reference] keyword.
! Default impedance is overridden by [Reference]
[Version] 2.0
# GHz S RI R 376.73
[Number of Ports] 4
[Reference]
376.73 376.73 259.814 259.814 
[Number of Frequencies] 51
[Network Data]
281700                -0.0726862      -0.0914931       0.00122812     0.000123669         0.212915       -0.964558     -1.81707e-05    -0.000186633
                       0.0012183     8.41225e-05        -0.162766       0.0412724     -3.21157e-05    -0.000346264        -0.705679         -0.6754
                        0.212944       -0.964704     -3.32924e-05     -0.00029933        -0.103495       0.0533482      0.000860976    -0.000789095
                     2.25772e-06    -0.000117329        -0.706327        -0.67499      0.000817337    -0.000827104       -0.0346905         0.16344
281702                -0.0727262      -0.0914824       0.00122815     0.000122904         0.212475       -0.964653     -1.83384e-05    -0.000186524
                      0.00121831     8.33378e-05        -0.162741       0.0413344     -3.24297e-05    -0.000346218        -0.706032       -0.675032
                        0.212504       -0.964798     -3.35292e-05    -0.000299255        -0.103479       0.0534161      0.000860637    -0.000789336
                     2.05702e-06    -0.000117303         -0.70668       -0.674623      0.000817059     -0.00082739       -0.0345833        0.163454
281704                -0.0727662      -0.0914716       0.00122818     0.000122138         0.212036       -0.964747     -1.85059e-05    -0.000186415
                      0.00121832     8.25531e-05        -0.162716       0.0413964      -3.2744e-05    -0.000346172        -0.706384       -0.674665
                        0.212064       -0.964892     -3.37657e-05     -0.00029918        -0.103462       0.0534841      0.000860297    -0.000789577
                     1.85638e-06    -0.000117277        -0.707033       -0.674256      0.000816781    -0.000827675        -0.034476        0.163468
281706                -0.0728063      -0.0914608       0.00122822     0.000121372         0.211596       -0.964841     -1.86732e-05    -0.000186305
                      0.00121832     8.17683e-05        -0.162692       0.0414583     -3.30586e-05    -0.000346125        -0.706737       -0.674297
                        0.211624       -0.964986     -3.40022e-05    -0.000299105        -0.103446        0.053552      0.000859955    -0.000789817
                     1.65582e-06    -0.000117251        -0.707385       -0.673888      0.000816503     -0.00082796       -0.0343688        0.163482
281708                -0.0728463        -0.09145       0.00122825     0.000120607         0.211156       -0.964935     -1.88404e-05    -0.000186195
                      0.00121833     8.09836e-05        -0.162667       0.0415202     -3.33735e-05    -0.000346078        -0.707089       -0.673929
                        0.211184        -0.96508     -3.42384e-05    -0.000299029        -0.103429       0.0536199      0.000859613    -0.000790059
                     1.45534e-06    -0.000117225        -0.707738        -0.67352      0.000816226    -0.000828245       -0.0342616        0.163495
281710                -0.0728863      -0.0914392       0.00122827     0.000119841         0.210716       -0.965029     -1.90074e-05    -0.000186085
                      0.00121833     8.01988e-05        -0.162642       0.0415821     -3.36888e-05     -0.00034603        -0.707441       -0.673561
                        0.210744       -0.965173     -3.44746e-05    -0.000298953        -0.103413       0.0536878      0.000859271    -0.000790301
                     1.25492e-06    -0.000117198         -0.70809       -0.673152      0.000815949    -0.000828529       -0.0341543        0.163509
281712                -0.0729263      -0.0914284        0.0012283     0.000119075         0.210276       -0.965122     -1.91742e-05    -0.000185975
                      0.00121833      7.9414e-05        -0.162617        0.041644     -3.40043e-05    -0.000345982        -0.707793       -0.673192
                        0.210304       -0.965267     -3.47105e-05    -0.000298877        -0.103396       0.0537557      0.000858929    -0.000790545
                     1.05459e-06    -0.000117172        -0.708442       -0.672784      0.000815672    -0.000828813       -0.0340471        0.163523
281714                -0.0729663      -0.0914175       0.00122833     0.000118309         0.209836       -0.965216     -1.93408e-05    -0.000185865
                      0.00121834     7.86292e-05        -0.162592       0.0417059     -3.43202e-05    -0.000345934        -0.708145       -0.672824
                        0.209864        -0.96536     -3.49463e-05    -0.000298801        -0.103379       0.0538237      0.000858587    -0.000790789
                     8.54329e-07    -0.000117145        -0.708794       -0.672416      0.000815395    -0.000829097       -0.0339398        0.163536
281716                -0.0730064      -0.0914066       0.00122836     0.000117544         0.209396       -0.965309     -1.95073e-05    -0.000185754
                      0.00121834     7.78444e-05        -0.162568       0.0417678     -3.46364e-05    -0.000345886        -0.708496       -0.672455
                        0.209424       -0.965453     -3.51819e-05    -0.000298724        -0.103362       0.0538916      0.000858247    -0.000791032
                     6.54147e-07    -0.000117118        -0.709145       -0.672047      0.000815119    -0.000829381       -0.0338326        0.163549
281718                -0.0730464      -0.0913957       0.00122838     0.000116778         0.208956       -0.965402     -1.96736e-05    -0.000185643
                      0.00121834     7.70596e-05        -0.162543       0.0418296     -3.49529e-05    -0.000345837        -0.708847       -0.672086
                        0.208984       -0.965545     -3.54174e-05    -0.000298648        -0.103345       0.0539595      0.000857907    -0.000791275
                     4.54042e-07     -0.00011709        -0.709496       -0.671678      0.000814842    -0.000829665       -0.0337253        0.163563
281720                -0.0730864      -0.0913848       0.00122841     0.000116012         0.208516       -0.965494     -1.98398e-05    -0.000185532
                      0.00121834     7.62749e-05        -0.162518       0.0418915     -3.52697e-05    -0.000345788        -0.709198       -0.671717
                        0.208544       -0.965638     -3.56527e-05    -0.000298571        -0.103328       0.0540274      0.000857568    -0.000791517
                     2.54015e-07    -0.000117062        -0.709848        -0.67131      0.000814566    -0.000829948        -0.033618        0.163576
281722                -0.0731265      -0.0913739       0.00122843     0.000115246         0.208076       -0.965587     -2.00058e-05     -0.00018542
                      0.00121834     7.54901e-05        -0.162493       0.0419533     -3.55868e-05    -0.000345739        -0.709549       -0.671348
                        0.208103        -0.96573     -3.58879e-05    -0.000298494        -0.103312       0.0540953      0.000857228    -0.000791759
                     5.40668e-08    -0.000117035        -0.710199        -0.67094       0.00081429    -0.000830231       -0.0335108        0.163589
281724                -0.0731665      -0.0913629       0.00122845      0.00011448         0.207636       -0.965679     -2.01716e-05    -0.000185309
                      0.00121834     7.47053e-05        -0.162468       0.0420151     -3.59043e-05    -0.000345689          -0.7099       -0.670978
                        0.207663       -0.965822     -3.61229e-05    -0.000298416        -0.103295       0.0541632      0.000856889       -0.000792
                    -1.45803e-07    -0.000117006         -0.71055       -0.670571      0.000814015    -0.000830514       -0.0334035        0.163602
281726                -0.0732065       -0.091352       0.00122847     0.000113715         0.207196       -0.965771     -2.03373e-05    -0.000185197
                      0.00121834     7.39205e-05        -0.162443       0.0420769      -3.6222e-05    -0.000345639         -0.71025       -0.670608
                        0.207223       -0.965914     -3.63577e-05    -0.000298338        -0.103278       0.0542311      0.000856549    -0.000792241
                    -3.45593e-07    -0.000116978          -0.7109       -0.670202      0.000813739    -0.000830797       -0.0332962        0.163615
281728                -0.0732466       -0.091341        0.0012285     0.000112949         0.206756       -0.965863     -2.05028e-05    -0.000185084
                      0.00121834     7.31356e-05        -0.162418       0.0421387       -3.654e-05    -0.000345589        -0.710601       -0.670238
                        0.206782       -0.966006     -3.65923e-05     -0.00029826         -0.10326        0.054299      0.000856209    -0.000792481
                    -5.45303e-07     -0.00011695        -0.711251       -0.669832      0.000813464    -0.000831079       -0.0331889        0.163628
281730                -0.0732866        -0.09133       0.00122852     0.000112183         0.206315       -0.965955     -2.06682e-05    -0.000184972
                      0.00121834     7.23508e-05        -0.162393       0.0422005     -3.68583e-05    -0.000345539        -0.710951       -0.669868
                        0.206342       -0.966097     -3.68268e-05    -0.000298182        -0.103243       0.0543669       0.00085587    -0.000792721
                    -7.44934e-07    -0.000116921        -0.711601       -0.669462      0.000813189    -0.000831362       -0.0330816        0.163641
281732                -0.0733266      -0.0913189       0.00122853     0.000111417         0.205875       -0.966047     -2.08334e-05    -0.000184859
                      0.00121833      7.1566e-05        -0.162367       0.0422623      -3.7177e-05    -0.000345488        -0.711301       -0.669498
                        0.205901       -0.966189     -3.70611e-05    -0.000298104        -0.103226       0.0544348       0.00085553    -0.000792961
                    -9.44484e-07    -0.000116892        -0.711951       -0.669092      0.000812914    -0.000831644       -0.0329743        0.163654
281734                -0.0733667      -0.0913079       0.00122855     0.000110651         0.205434       -0.966138     -2.09985e-05    -0.000184746
                      0.00121833     7.07812e-05        -0.162342        0.042324     -3.74959e-05    -0.000345437        -0.711651       -0.669128
                        0.205461        -0.96628     -3.72952e-05    -0.000298025        -0.103209       0.0545027      0.000855189      -0.0007932
                    -1.14395e-06    -0.000116863        -0.712301       -0.668722      0.000812639    -0.000831926        -0.032867        0.163666
281736                -0.0734067      -0.0912968       0.00122857     0.000109886         0.204994       -0.966229     -2.11634e-05    -0.000184632
                      0.00121832     6.99964e-05        -0.162317       0.0423857     -3.78151e-05    -0.000345385           -0.712       -0.668757
                         0.20502       -0.966371     -3.75291e-05    -0.000297946        -0.103192       0.0545706      0.000854849    -0.000793439
                    -1.34334e-06    -0.000116833        -0.712651       -0.668351      0.000812365    -0.000832207       -0.0327597        0.163679
281738                -0.0734468      -0.0912857       0.00122859      0.00010912         0.204553        -0.96632     -2.13282e-05    -0.000184518
                      0.00121832     6.92117e-05        -0.162292       0.0424475     -3.81346e-05    -0.000345334         -0.71235       -0.668386
                         0.20458       -0.966461     -3.77628e-05    -0.000297867        -0.103174       0.0546385      0.000854509    -0.000793677
                    -1.54265e-06    -0.000116804           -0.713       -0.667981       0.00081209    -0.000832489       -0.0326524        0.163692
281740                -0.0734868      -0.0912746        0.0012286     0.000108354         0.204113       -0.966411     -2.14928e-05    -0.000184404
                      0.00121831     6.84269e-05        -0.162267       0.0425092     -3.84545e-05    -0.000345282        -0.712699       -0.668015
                        0.204139       -0.966552     -3.79962e-05    -0.000297787        -0.103157       0.0547064      0.000854168    -0.000793916
                    -1.74188e-06    -0.000116774         -0.71335        -0.66761      0.000811816     -0.00083277       -0.0325451        0.163704
281742                -0.0735269      -0.0912635       0.00122862     0.000107588         0.203672       -0.966502     -2.16573e-05     -0.00018429
                       0.0012183     6.76421e-05        -0.162242       0.0425709     -3.87746e-05    -0.000345229        -0.713048       -0.667644
                        0.203698       -0.966642     -3.82292e-05    -0.000297707         -0.10314       0.0547743      0.000853827    -0.000794154
                    -1.94103e-06    -0.000116744        -0.713699       -0.667239      0.000811542    -0.000833051       -0.0324377        0.163716
281744                -0.0735669      -0.0912524       0.00122863     0.000106822         0.203232       -0.966592     -2.18216e-05    -0.000184175
                       0.0012183     6.68574e-05        -0.162216       0.0426325      -3.9095e-05    -0.000345177        -0.713397       -0.667273
                        0.203257       -0.966732     -3.84617e-05    -0.000297626        -0.103122       0.0548421      0.000853486    -0.000794391
                     -2.1401e-06    -0.000116714        -0.714048       -0.666868      0.000811268    -0.000833332       -0.0323304        0.163729
281746                 -0.073607      -0.0912412       0.00122864     0.000106057         0.202791       -0.966682     -2.19858e-05     -0.00018406
                      0.00121829     6.60726e-05        -0.162191       0.0426942     -3.94157e-05    -0.000345124        -0.713745       -0.666901
                        0.202816       -0.966822     -3.86934e-05    -0.000297545        -0.103105         0.05491      0.000853145    -0.000794628
                     -2.3391e-06    -0.000116683        -0.714396       -0.666496      0.000810994    -0.000833613       -0.0322231        0.163741
281748                 -0.073647        -0.09123       0.00122865     0.000105291          0.20235       -0.966772     -2.21498e-05    -0.000183944
                      0.00121828     6.52879e-05        -0.162166       0.0427559     -3.97367e-05     -0.00034507        -0.714094       -0.666529
                        0.202376       -0.966912     -3.89238e-05    -0.000297462        -0.103087       0.0549779      0.000852804    -0.000794866
                    -2.53803e-06    -0.000116653        -0.714745       -0.666125      0.000810721    -0.000833893       -0.0321157        0.163753
281750                -0.0736871      -0.0912188       0.00122865     0.000104527         0.201909       -0.966862     -2.23137e-05    -0.000183829
                      0.00121827     6.45032e-05         -0.16214       0.0428175     -4.00581e-05    -0.000345017        -0.714442       -0.666157
                        0.201935       -0.967002     -3.91511e-05    -0.000297375         -0.10307       0.0550458      0.000852463    -0.000795102
                    -2.73689e-06    -0.000116622        -0.715093       -0.665753      0.000810448    -0.000834173       -0.0320084        0.163765
281752                -0.0737271      -0.0912076       0.00122864     0.000103763         0.201469       -0.966951     -2.24775e-05    -0.000183712
                      0.00121826     6.37186e-05        -0.162115       0.0428791     -4.03798e-05    -0.000344963         -0.71479       -0.665785
                        0.201494       -0.967091     -3.93688e-05     -0.00029728        -0.103052       0.0551136      0.000852121    -0.000795339
                    -2.93571e-06    -0.000116591        -0.715442       -0.665381      0.000810175    -0.000834453        -0.031901        0.163777
281754                -0.0737672      -0.0911964       0.00122845     0.000103011         0.201028       -0.967041     -2.26411e-05    -0.000183596
                      0.00121825     6.29341e-05        -0.162089       0.0429408     -4.07018e-05    -0.000344909        -0.715138       -0.665413
                        0.201053        -0.96718     -3.94855e-05    -0.000297104        -0.103034       0.0551815      0.000851779    -0.000795575
                    -3.13448e-06    -0.000116561         -0.71579       -0.665009      0.000809902    -0.000834733       -0.0317937        0.163789
281756                -0.0738073      -0.0911851       0.00122885     0.000102209         0.200587        -0.96713     -2.28046e-05    -0.000183479
                      0.00121824     6.21497e-05        -0.162064       0.0430023     -4.10242e-05    -0.000344854        -0.715486        -0.66504
                        0.200611       -0.967269     -3.99402e-05    -0.000297241        -0.103017       0.0552494      0.000851438    -0.000795811
                    -3.33327e-06     -0.00011653        -0.716137       -0.664637      0.000809629    -0.000835013       -0.0316863        0.163801
281758                -0.0738473      -0.0911739       0.00122879     0.000101453         0.200146       -0.967219     -2.29679e-05    -0.000183361
                      0.00121822     6.13655e-05        -0.162038       0.0430639      -4.1347e-05    -0.000344799        -0.715833       -0.664668
                         0.20017       -0.967358     -4.01336e-05    -0.000297109        -0.102999       0.0553172      0.000851096    -0.000796047
                    -3.53214e-06    -0.000116501        -0.716485       -0.664264      0.000809357    -0.000835292        -0.031579        0.163813
281760                -0.0738874      -0.0911626       0.00122878     0.000100689         0.199705       -0.967308     -2.31311e-05    -0.000183244
                      0.00121821     6.05818e-05        -0.162013       0.0431255     -4.16704e-05    -0.000344744         -0.71618       -0.664295
                        0.199729       -0.967446     -4.03564e-05    -0.000297017        -0.102981       0.0553851      0.000850754    -0.000796282
                     -3.7313e-06    -0.000116473        -0.716833       -0.663892      0.000809085    -0.000835571       -0.0314716        0.163824
281762                -0.0739275      -0.0911513       0.00122878     9.99239e-05         0.199264       -0.967396     -2.32941e-05    -0.000183125
                       0.0012182     5.97997e-05        -0.161987        0.043187     -4.19945e-05    -0.000344687        -0.716528       -0.663922
                        0.199288       -0.967534     -4.05848e-05    -0.000296931        -0.102963        0.055453      0.000850411    -0.000796517
