! TOUCHSTONE file generated by CST MICROWAVE STUDIO
! Date and time: Tue Oct 14 07:30:46 2025
! Project name: Teste_Macro_Metasurface_Nanopilar.cst
! Parameters = {H=600; L_x=165; L_y=85; Lambda=1064; Max_L=200; Min_L=70; PathPara=1; Phi=0; Step_L=10; Theta=0; p=520; phaseX=180; phaseY=0}
! Header version: 2018
! Port assignment regex: !\s*Touchstone port\s*([0-9]+)\s*=\s*(CST MWS port|CST DS port)\s*([0-9]+|Zmin|Zmax)\s*\(\"(.*)\"\)(\s*mode\s*([0-9]+))?.*
! Touchstone port assignment:
! Touchstone port 1 = CST MWS port Zmax ("") mode 1
! Touchstone port 2 = CST MWS port Zmax ("") mode 2
! Touchstone port 3 = CST MWS port Zmin ("") mode 1
! Touchstone port 4 = CST MWS port Zmin ("") mode 2
! S-Parameters are not renormalized. Each port impedance will be approximated by the real part at minimum frequency. The values are described via the [Reference] keyword.
! Default impedance is overridden by [Reference]
[Version] 2.0
# GHz S RI R 376.73
[Number of Ports] 4
[Reference]
376.73 376.73 259.814 259.814 
[Number of Frequencies] 51
[Network Data]
281700                 0.0294386      0.00372941      -0.00115541    -0.000222893         0.817047       -0.572941      0.000305647    -0.000366937
                     -0.00113261    -0.000272165       -0.0353498       -0.162412      1.00428e-05    -0.000590656       -0.0815512         0.97666
                        0.816829       -0.572612     -4.03542e-05    -0.000474627      -0.00650643        0.029656      0.000836836     0.000818476
                     0.000295329    -0.000263953        -0.081279        0.976051      0.000897905     0.000679219       -0.0604788        0.154837
281702                 0.0294463       0.0037084      -0.00115564    -0.000222423         0.816821       -0.573263      0.000305696    -0.000367122
                     -0.00113285    -0.000271679        -0.035411       -0.162424       9.8902e-06    -0.000590946       -0.0810953        0.976694
                        0.816603       -0.572934     -4.06567e-05    -0.000474713       -0.0065057       0.0296613      0.000837282     0.000818264
                     0.000295211    -0.000264126       -0.0808245        0.976092      0.000898382     0.000678927        -0.060397        0.154896
281704                  0.029454      0.00368739      -0.00115587    -0.000221947         0.816594       -0.573585      0.000305745    -0.000367307
                     -0.00113309    -0.000271193       -0.0354723       -0.162437      9.74691e-06    -0.000591222       -0.0806395        0.976728
                        0.816377       -0.573255     -4.09484e-05    -0.000474789      -0.00650496       0.0296666      0.000837728     0.000818053
                     0.000295092    -0.000264299       -0.0803699        0.976132      0.000898855     0.000678637       -0.0603152        0.154955
281706                 0.0294616      0.00366638      -0.00115609    -0.000221464         0.816368       -0.573907      0.000305795    -0.000367492
                     -0.00113332    -0.000270708       -0.0355336       -0.162449      9.60056e-06    -0.000591482       -0.0801835        0.976761
                         0.81615       -0.573576     -4.12279e-05    -0.000474856      -0.00650422       0.0296719      0.000838173     0.000817843
                     0.000294974    -0.000264472        -0.079915        0.976172      0.000899323     0.000678347       -0.0602333        0.155013
281708                 0.0294693      0.00364536       -0.0011563    -0.000220973         0.816142       -0.574229      0.000305846    -0.000367676
                     -0.00113356    -0.000270222       -0.0355949       -0.162462      9.44376e-06    -0.000591734       -0.0797276        0.976795
                        0.815924       -0.573897     -4.14941e-05    -0.000474911      -0.00650347       0.0296772      0.000838618     0.000817634
                     0.000294855    -0.000264645       -0.0794598        0.976211      0.000899786     0.000678056       -0.0601514        0.155072
281710                 0.0294769      0.00362433      -0.00115651    -0.000220472         0.815915       -0.574551      0.000305898    -0.000367859
                      -0.0011338    -0.000269736       -0.0356562       -0.162474      9.27839e-06    -0.000591987       -0.0792717        0.976828
                        0.815697       -0.574218     -4.17454e-05    -0.000474955      -0.00650272       0.0296825      0.000839063     0.000817426
                     0.000294737    -0.000264818       -0.0790043        0.976248      0.000900246     0.000677764       -0.0600694         0.15513
281712                 0.0294845       0.0036033      -0.00115671    -0.000219962         0.815688       -0.574872       0.00030595    -0.000368042
                     -0.00113404     -0.00026925       -0.0357175       -0.162486      9.10886e-06    -0.000592243       -0.0788158        0.976861
                         0.81547       -0.574539     -4.19801e-05    -0.000474985      -0.00650194       0.0296878      0.000839507     0.000817219
                     0.000294618    -0.000264991       -0.0785485        0.976285      0.000900701     0.000677468       -0.0599874        0.155188
281714                 0.0294921      0.00358227       -0.0011569     -0.00021944         0.815461       -0.575193      0.000306003    -0.000368225
                     -0.00113428    -0.000268763       -0.0357789       -0.162499      8.93822e-06    -0.000592503       -0.0783598        0.976893
                        0.815243        -0.57486     -4.21962e-05       -0.000475      -0.00650108       0.0296932      0.000839951     0.000817013
                       0.0002945    -0.000265163       -0.0780924         0.97632      0.000901156     0.000677168       -0.0599053        0.155247
281716                 0.0294997      0.00356123      -0.00115708    -0.000218905         0.815235       -0.575518      0.000306057    -0.000368408
                     -0.00113452    -0.000268277       -0.0358403       -0.162511      8.76798e-06    -0.000592765       -0.0779039        0.976926
                        0.815016       -0.575181     -4.23917e-05    -0.000474998      -0.00650048       0.0296987      0.000840395     0.000816807
                     0.000294382    -0.000265336        -0.077636        0.976355      0.000901611     0.000676864       -0.0598231        0.155305
281718                 0.0295073      0.00354018      -0.00115726    -0.000218356         0.815008       -0.575838      0.000306112     -0.00036859
                     -0.00113475    -0.000267791       -0.0359017       -0.162523       8.5988e-06    -0.000593029       -0.0774479        0.976958
                        0.814789       -0.575502      -4.2564e-05    -0.000474977      -0.00649978        0.029704      0.000840838     0.000816603
                     0.000294264    -0.000265509       -0.0771794        0.976387      0.000902067     0.000676558       -0.0597409        0.155363
281720                 0.0295149      0.00351913      -0.00115742     -0.00021779          0.81478       -0.576159      0.000306168    -0.000368771
                     -0.00113499    -0.000267304       -0.0359631       -0.162535      8.43091e-06    -0.000593294       -0.0769919         0.97699
                        0.814562       -0.575822     -4.27104e-05    -0.000474934      -0.00649901       0.0297093      0.000841281       0.0008164
                     0.000294146    -0.000265682       -0.0767224        0.976418      0.000902526      0.00067625       -0.0596587        0.155422
281722                 0.0295225      0.00349808      -0.00115757    -0.000217206         0.814553        -0.57648      0.000306225    -0.000368952
                     -0.00113523    -0.000266817       -0.0360246       -0.162548      8.26436e-06     -0.00059356       -0.0765359        0.977022
                        0.814334       -0.576143     -4.28278e-05    -0.000474866      -0.00649825       0.0297146      0.000841724     0.000816198
                     0.000294027    -0.000265854       -0.0762654        0.976448      0.000902987     0.000675943       -0.0595764         0.15548
281724                   0.02953      0.00347702       -0.0011577    -0.000216602         0.814326       -0.576802      0.000306282    -0.000369133
                     -0.00113547    -0.000266331        -0.036086        -0.16256      8.09911e-06    -0.000593826       -0.0760799        0.977053
                        0.814107       -0.576463      -4.2913e-05    -0.000474771      -0.00649748         0.02972      0.000842166     0.000815997
                     0.000293909    -0.000266027       -0.0758083        0.976474       0.00090345     0.000675636       -0.0594941        0.155538
281726                 0.0295376      0.00345596      -0.00115783    -0.000215973         0.814098       -0.577123      0.000306341    -0.000369313
                      -0.0011357    -0.000265844       -0.0361475       -0.162572      7.93512e-06    -0.000594093       -0.0756239        0.977085
                        0.813879       -0.576783     -4.29625e-05    -0.000474643      -0.00649672       0.0297254      0.000842608     0.000815797
                     0.000293791    -0.000266199       -0.0753514        0.976499      0.000903915     0.000675331       -0.0594117        0.155596
281728                 0.0295451      0.00343489      -0.00115793    -0.000215317          0.81387       -0.577444        0.0003064    -0.000369493
                     -0.00113594    -0.000265357        -0.036209       -0.162584      7.77233e-06    -0.000594359       -0.0751679        0.977116
                        0.813651       -0.577104     -4.29726e-05    -0.000474481      -0.00649595       0.0297307       0.00084305     0.000815598
                     0.000293673    -0.000266372       -0.0748951         0.97652      0.000904381     0.000675028       -0.0593293        0.155654
281730                 0.0295526      0.00341381      -0.00115802    -0.000214632         0.813642       -0.577765       0.00030646    -0.000369673
                     -0.00113618    -0.000264869       -0.0362704       -0.162596      7.61066e-06    -0.000594626       -0.0747119        0.977147
                        0.813423       -0.577424     -4.29399e-05    -0.000474278      -0.00649517       0.0297361      0.000843491       0.0008154
                     0.000293555    -0.000266544       -0.0744399        0.976538      0.000904847     0.000674727       -0.0592468        0.155712
281732                 0.0295601      0.00339273      -0.00115809    -0.000213914         0.813414       -0.578086      0.000306521    -0.000369852
                     -0.00113641    -0.000264382        -0.036332       -0.162608      7.45007e-06    -0.000594893       -0.0742559        0.977178
                        0.813195       -0.577744     -4.28621e-05    -0.000474032       -0.0064944       0.0297415      0.000843932     0.000815203
                     0.000293437    -0.000266717       -0.0739866        0.976553      0.000905313     0.000674428       -0.0591643         0.15577
281734                 0.0295677      0.00337165      -0.00115814    -0.000213161         0.813186       -0.578406      0.000306583    -0.000370031
                     -0.00113665    -0.000263895       -0.0363935        -0.16262       7.2905e-06     -0.00059516       -0.0737998        0.977208
                        0.812967       -0.578064     -4.27385e-05    -0.000473739      -0.00649362       0.0297469      0.000844373     0.000815007
                     0.000293319    -0.000266889       -0.0735363        0.976564      0.000905779      0.00067413       -0.0590817        0.155828
281736                 0.0295752      0.00335056      -0.00115818    -0.000212374         0.812958       -0.578727      0.000306646    -0.000370209
                     -0.00113688    -0.000263407        -0.036455       -0.162632      7.13189e-06    -0.000595427       -0.0733438        0.977238
                        0.812739       -0.578384     -4.25726e-05    -0.000473402      -0.00649284       0.0297523      0.000844813     0.000814812
                     0.000293201    -0.000267061       -0.0730899        0.976573      0.000906245     0.000673834       -0.0589991        0.155886
281738                 0.0295826      0.00332947      -0.00115821    -0.000211558          0.81273       -0.579048       0.00030671    -0.000370387
                     -0.00113712     -0.00026292       -0.0365165       -0.162644      6.97422e-06    -0.000595695       -0.0728877        0.977269
                         0.81251       -0.578704      -4.2375e-05    -0.000473026      -0.00649206       0.0297577      0.000845253     0.000814619
                     0.000293084    -0.000267233       -0.0726482         0.97658      0.000906711      0.00067354       -0.0589164        0.155944
281740                 0.0295901      0.00330837      -0.00115823     -0.00021073         0.812501       -0.579368      0.000306774    -0.000370565
                     -0.00113736    -0.000262432       -0.0365781       -0.162656      6.81743e-06    -0.000595962       -0.0724316        0.977298
                        0.812282       -0.579023     -4.21696e-05    -0.000472634      -0.00649127       0.0297631      0.000845693     0.000814426
                     0.000292966    -0.000267405       -0.0722106        0.976589      0.000907177     0.000673247       -0.0588337        0.156002
281742                 0.0295976      0.00328727      -0.00115828    -0.000209924         0.812273       -0.579689       0.00030684    -0.000370742
                     -0.00113759    -0.000261944       -0.0366396       -0.162668      6.66148e-06    -0.000596229       -0.0719756        0.977328
                        0.812053       -0.579343     -4.20039e-05    -0.000472273      -0.00649049       0.0297686      0.000846132     0.000814235
                     0.000292848    -0.000267577       -0.0717742        0.976604      0.000907643     0.000672955       -0.0587509        0.156059
281744                  0.029605      0.00326616      -0.00115837    -0.000209208         0.812044       -0.580009      0.000306906    -0.000370918
                     -0.00113783    -0.000261456       -0.0367011        -0.16268      6.50635e-06    -0.000596497       -0.0715195        0.977358
                        0.811824       -0.579662     -4.19651e-05    -0.000472032      -0.00648969        0.029774      0.000846571     0.000814045
                      0.00029273    -0.000267749       -0.0713324        0.976627      0.000908108     0.000672664       -0.0586681        0.156117
281746                 0.0296125      0.00324504      -0.00115857    -0.000208701         0.811815       -0.580329      0.000306974    -0.000371095
                     -0.00113806    -0.000260968       -0.0367626       -0.162692      6.35199e-06    -0.000596764       -0.0710634        0.977387
                        0.811595       -0.579982      -4.2206e-05    -0.000472073       -0.0064889       0.0297794       0.00084701     0.000813856
                     0.000292612    -0.000267921       -0.0708747        0.976663      0.000908573     0.000672375       -0.0585852        0.156175
281748                 0.0296199      0.00322392      -0.00115896    -0.000208591         0.811586       -0.580649      0.000307042     -0.00037127
                     -0.00113829    -0.000260479       -0.0368241       -0.162704      6.19838e-06    -0.000597032       -0.0706073        0.977416
                        0.811366       -0.580301     -4.29762e-05    -0.000472644       -0.0064881       0.0297849      0.000847448     0.000813668
                     0.000292494    -0.000268093       -0.0703894        0.976723      0.000909038     0.000672086       -0.0585023        0.156232
281750                 0.0296274       0.0032028      -0.00115971    -0.000209102         0.811357        -0.58097      0.000307112    -0.000371446
                     -0.00113853    -0.000259991       -0.0368854       -0.162717      6.04549e-06    -0.000597299       -0.0701512        0.977445
                        0.811137        -0.58062     -4.46412e-05    -0.000474044       -0.0064873       0.0297903      0.000847886     0.000813481
                     0.000292376    -0.000268265       -0.0698794        0.976836      0.000909502     0.000671799       -0.0584193         0.15629
281752                 0.0296348      0.00318167        -0.001161     -0.00021037         0.811128        -0.58129      0.000307182    -0.000371621
                     -0.00113876    -0.000259502       -0.0369465       -0.162729      5.89329e-06    -0.000597567        -0.069695        0.977473
                        0.810908        -0.58094      -4.7616e-05    -0.000476446       -0.0064865       0.0297958      0.000848324     0.000813295
                     0.000292259    -0.000268436       -0.0694098        0.977023      0.000909967     0.000671513       -0.0583363        0.156348
281754                 0.0296422      0.00316054      -0.00116296    -0.000212221         0.810898        -0.58161      0.000307253    -0.000371795
                       -0.001139    -0.000259014       -0.0370067       -0.162742      5.74176e-06    -0.000597835       -0.0692389        0.977502
                        0.810678       -0.581259     -5.20929e-05      -0.0004796       -0.0064857       0.0298012      0.000848761     0.000813111
                     0.000292141    -0.000268608       -0.0690425         0.97719      0.000910432     0.000671227       -0.0582532        0.156405
281756                 0.0296496       0.0031394      -0.00116543    -0.000214121         0.810669       -0.581929      0.000307325    -0.000371969
                     -0.00113923    -0.000258525       -0.0370596       -0.162762      5.59086e-06    -0.000598103       -0.0687828         0.97753
                        0.810448       -0.581578     -5.76209e-05    -0.000482758      -0.00648489       0.0298067      0.000849198     0.000812927
                     0.000292023    -0.000268779       -0.0686907        0.977263      0.000910897     0.000670943       -0.0581701        0.156463
281758                  0.029657      0.00311826      -0.00116791    -0.000215535         0.810439       -0.582249      0.000307399    -0.000372143
                     -0.00113946    -0.000258036       -0.0371409       -0.162749      5.44058e-06    -0.000598371       -0.0683266        0.977558
                        0.810219       -0.581897     -6.31052e-05    -0.000485184      -0.00648408       0.0298122      0.000849634     0.000812745
                     0.000291905    -0.000268951       -0.0682985        0.977292      0.000911361     0.000670659       -0.0580869         0.15652
281760                 0.0296643      0.00309711      -0.00116992    -0.000216291         0.810209       -0.582569      0.000307473    -0.000372316
                      -0.0011397    -0.000257547       -0.0371983       -0.162769       5.2909e-06    -0.000598639       -0.0678705        0.977586
                        0.809989       -0.582215     -6.75294e-05    -0.000486689      -0.00648326       0.0298177      0.000850071     0.000812565
                     0.000291788    -0.000269122       -0.0678755        0.977313      0.000911826     0.000670376       -0.0580037        0.156577
281762                 0.0296717      0.00307596      -0.00117131     -0.00021651          0.80998       -0.582888      0.000307548    -0.000372489
                     -0.00113993    -0.000257058       -0.0372589       -0.162782      5.14178e-06    -0.000598908       -0.0674143        0.977613
                        0.809759       -0.582534     -7.05441e-05    -0.000487504      -0.00648244       0.0298231      0.000850507     0.000812385
