! TOUCHSTONE file generated by CST MICROWAVE STUDIO
! Date and time: Tue Oct 14 07:29:07 2025
! Project name: Teste_Macro_Metasurface_Nanopilar.cst
! Parameters = {H=600; L_x=135; L_y=190; Lambda=1064; Max_L=200; Min_L=70; PathPara=1; Phi=0; Step_L=10; Theta=0; p=520; phaseX=180; phaseY=0}
! Header version: 2018
! Port assignment regex: !\s*Touchstone port\s*([0-9]+)\s*=\s*(CST MWS port|CST DS port)\s*([0-9]+|Zmin|Zmax)\s*\(\"(.*)\"\)(\s*mode\s*([0-9]+))?.*
! Touchstone port assignment:
! Touchstone port 1 = CST MWS port Zmax ("") mode 1
! Touchstone port 2 = CST MWS port Zmax ("") mode 2
! Touchstone port 3 = CST MWS port Zmin ("") mode 1
! Touchstone port 4 = CST MWS port Zmin ("") mode 2
! S-Parameters are not renormalized. Each port impedance will be approximated by the real part at minimum frequency. The values are described via the [Reference] keyword.
! Default impedance is overridden by [Reference]
[Version] 2.0
# GHz S RI R 376.73
[Number of Ports] 4
[Reference]
376.73 376.73 259.814 259.814 
[Number of Frequencies] 51
[Network Data]
281700                 -0.173801      -0.0361201      -0.00098991     0.000816094          0.85921        0.472298      -0.00175981    -0.000287095
                    -0.000963677     0.000753211        -0.793196        0.110959      -0.00183935    -0.000414841        -0.178183        0.433882
                         0.85892         0.47215      -0.00152353    -0.000368769         0.122317        0.123551     -0.000786551     -0.00191965
                     -0.00168807    -0.000398236        -0.178739        0.434306      -0.00101515     -0.00231635        -0.165541       -0.746594
281702                 -0.173821      -0.0360965     -0.000986702     0.000818487         0.859405        0.471937      -0.00175951     -0.00028241
                    -0.000961442     0.000755709        -0.792138        0.112325      -0.00183849    -0.000409949        -0.178192        0.435726
                        0.859116         0.47179      -0.00152332    -0.000364944         0.122412        0.123478     -0.000789953     -0.00191687
                     -0.00168828    -0.000394675        -0.178746        0.436151      -0.00101948     -0.00231153          -0.1676       -0.745282
281704                 -0.173841      -0.0360728     -0.000983488     0.000820864           0.8596        0.471576      -0.00175919    -0.000277736
                    -0.000959316     0.000758168        -0.791077        0.113684      -0.00183759     -0.00040505        -0.178191        0.437568
                        0.859311        0.471431       -0.0015231    -0.000361126         0.122508        0.123405     -0.000793336     -0.00191408
                     -0.00168863     -0.00039142        -0.178743        0.437994       -0.0010238     -0.00230667         -0.16965       -0.743964
281706                 -0.173862      -0.0360492     -0.000980267     0.000823225         0.859794        0.471215      -0.00175885    -0.000273073
                    -0.000957339      0.00076061        -0.790012        0.115036      -0.00183667    -0.000400145        -0.178182        0.439408
                        0.859507        0.471071      -0.00152286    -0.000357314         0.122603        0.123333     -0.000796701     -0.00191128
                     -0.00168924    -0.000388505        -0.178732        0.439834      -0.00102809     -0.00230178         -0.17169        -0.74264
281708                 -0.173882      -0.0360255     -0.000977039     0.000825568         0.859989        0.470854      -0.00175849    -0.000268421
                    -0.000955557     0.000763078        -0.788944        0.116381      -0.00183572    -0.000395232        -0.178164        0.441244
                        0.859703        0.470711       -0.0015226    -0.000353508         0.122699         0.12326     -0.000800049     -0.00190848
                     -0.00169035    -0.000385898        -0.178711        0.441672      -0.00103236     -0.00229686         -0.17372        -0.74131
281710                 -0.173902      -0.0360018     -0.000973805     0.000827895         0.860183        0.470493      -0.00175811     -0.00026378
                    -0.000954012     0.000765646        -0.787873        0.117719      -0.00183474    -0.000390314        -0.178137        0.443078
                        0.859898        0.470351      -0.00152233    -0.000349709         0.122794        0.123187     -0.000803378     -0.00190566
                     -0.00169219    -0.000383433        -0.178682        0.443506      -0.00103661     -0.00229189        -0.175741       -0.739973
281712                 -0.173922      -0.0359781     -0.000970565     0.000830206         0.860377        0.470132      -0.00175771     -0.00025915
                     -0.00095273     0.000768437        -0.786799        0.119051      -0.00183373    -0.000385388        -0.178101        0.444909
                        0.860093        0.469991      -0.00152204    -0.000345917          0.12289        0.123114     -0.000806689     -0.00190284
                     -0.00169495     -0.00038074        -0.178644        0.445338      -0.00104083     -0.00228689        -0.177752        -0.73863
281714                 -0.173942      -0.0359544     -0.000967318     0.000832499         0.860571        0.469771      -0.00175729    -0.000254531
                    -0.000951673     0.000771623        -0.785722        0.120375      -0.00183268    -0.000380456        -0.178056        0.446737
                        0.860288        0.469631      -0.00152173    -0.000342132         0.122985        0.123041     -0.000809982     -0.00190002
                     -0.00169857    -0.000377283        -0.178597        0.447167      -0.00104503     -0.00228185        -0.179754       -0.737282
281716                 -0.173962      -0.0359307     -0.000964065     0.000834776         0.860765        0.469409      -0.00175685    -0.000249924
                    -0.000950685     0.000775392        -0.784642        0.121692      -0.00183161    -0.000375517        -0.178003        0.448562
                        0.860483        0.469271      -0.00152141    -0.000338353          0.12308        0.122967     -0.000813257     -0.00189718
                     -0.00170257    -0.000372618        -0.178542        0.448993       -0.0010492     -0.00227678        -0.181746       -0.735928
281718                 -0.173983      -0.0359069     -0.000960807     0.000837036         0.860959        0.469048       -0.0017564    -0.000245328
                     -0.00094946     0.000779844        -0.783559        0.123003       -0.0018305    -0.000370571        -0.177941        0.450384
                        0.860678        0.468911      -0.00152108    -0.000334582         0.123176        0.122894     -0.000816515     -0.00189434
                     -0.00170628      -0.0003667        -0.178478        0.450816      -0.00105334     -0.00227166        -0.183728       -0.734567
281720                 -0.174003      -0.0358832     -0.000957544     0.000839279         0.861152        0.468687      -0.00175592    -0.000240743
                    -0.000947622     0.000784862        -0.782473        0.124306      -0.00182935    -0.000365618         -0.17787        0.452204
                        0.860872         0.46855      -0.00152072    -0.000330818         0.123271        0.122821     -0.000819754     -0.00189149
                     -0.00170918    -0.000359914        -0.178405        0.452636      -0.00105745      -0.0022665        -0.185701       -0.733202
281722                 -0.174023      -0.0358594     -0.000954274     0.000841506         0.861345        0.468325      -0.00175543     -0.00023617
                    -0.000944928     0.000790081        -0.781384        0.125602      -0.00182817    -0.000360659        -0.177791         0.45402
                        0.861067         0.46819      -0.00152036    -0.000327061         0.123366        0.122748     -0.000822975     -0.00188864
                     -0.00171115    -0.000352785        -0.178323        0.454453      -0.00106154      -0.0022613        -0.187665        -0.73183
281724                 -0.174043      -0.0358356        -0.000951     0.000843715         0.861539        0.467963      -0.00175492    -0.000231608
                    -0.000941421     0.000795069        -0.780292        0.126892      -0.00182695    -0.000355693        -0.177703        0.455833
                        0.861261        0.467829      -0.00151998    -0.000323311         0.123461        0.122674     -0.000826178     -0.00188577
                     -0.00171231    -0.000345708        -0.178233        0.456267      -0.00106559     -0.00225606        -0.189619       -0.730453
281726                 -0.174063      -0.0358117     -0.000947721     0.000845908         0.861732        0.467602      -0.00175439    -0.000227058
                    -0.000937373     0.000799554        -0.779197        0.128174       -0.0018257    -0.000350721        -0.177607        0.457643
                        0.861455        0.467468      -0.00151958    -0.000319569         0.123556        0.122601     -0.000829363     -0.00188291
                      -0.0017129    -0.000338875        -0.178135        0.458078      -0.00106961     -0.00225078        -0.191563        -0.72907
281728                 -0.174084      -0.0357879     -0.000944437     0.000848083         0.861925         0.46724      -0.00175384     -0.00022252
                    -0.000933089     0.000803484          -0.7781         0.12945      -0.00182441    -0.000345743        -0.177502         0.45945
                        0.861649        0.467108      -0.00151917    -0.000315835         0.123651        0.122527     -0.000832531     -0.00188003
                     -0.00171315    -0.000332337        -0.178028        0.459886       -0.0010736     -0.00224545        -0.193497       -0.727682
281730                 -0.174104      -0.0357641     -0.000941148     0.000850242         0.862117        0.466878      -0.00175327    -0.000217993
                    -0.000928788     0.000806954           -0.777        0.130719      -0.00182308    -0.000340758        -0.177388        0.461253
                        0.861843        0.466747      -0.00151874    -0.000312108         0.123746        0.122454      -0.00083568     -0.00187715
                      -0.0017132    -0.000326071        -0.177913         0.46169      -0.00107756     -0.00224008        -0.195423       -0.726289
281732                 -0.174124      -0.0357402     -0.000937855     0.000852384          0.86231        0.466516      -0.00175268    -0.000213477
                    -0.000924576     0.000810102        -0.775897         0.13198      -0.00182171    -0.000335767        -0.177267        0.463054
                        0.862036        0.466386       -0.0015183    -0.000308389         0.123841         0.12238     -0.000838812     -0.00187426
                     -0.00171315    -0.000320025        -0.177789        0.463491      -0.00108148     -0.00223467        -0.197338        -0.72489
281734                 -0.174144      -0.0357163     -0.000934558     0.000854508         0.862502        0.466154      -0.00175208    -0.000208974
                    -0.000920485     0.000813059        -0.774792        0.133235       -0.0018203     -0.00033077        -0.177137        0.464851
                         0.86223        0.466025      -0.00151784    -0.000304678         0.123936        0.122306     -0.000841925     -0.00187137
                     -0.00171308    -0.000314137        -0.177657        0.465289      -0.00108537     -0.00222921        -0.199244       -0.723486
281736                 -0.174164      -0.0356924     -0.000931257     0.000856615         0.862695        0.465792      -0.00175146    -0.000204482
                    -0.000916504     0.000815938        -0.773685        0.134483      -0.00181885    -0.000325768        -0.176998        0.466645
                        0.862423        0.465663      -0.00151737    -0.000300975         0.124031        0.122232     -0.000845021     -0.00186847
                     -0.00171303    -0.000308347        -0.177517        0.467084      -0.00108922     -0.00222371         -0.20114       -0.722077
281738                 -0.174185      -0.0356685     -0.000927953     0.000858705         0.862887         0.46543      -0.00175082    -0.000200001
                    -0.000912598     0.000818847        -0.772574        0.135724      -0.00181736     -0.00032076        -0.176852        0.468435
                        0.862616        0.465302      -0.00151689    -0.000297281         0.124126        0.122158     -0.000848099     -0.00186557
                     -0.00171308    -0.000302584        -0.177368        0.468875      -0.00109304     -0.00221817        -0.203027       -0.720663
281740                 -0.174205      -0.0356446     -0.000924645     0.000860778         0.863079        0.465067      -0.00175016    -0.000195532
                    -0.000908722     0.000821924        -0.771462        0.136958      -0.00181583    -0.000315747        -0.176697        0.470222
                        0.862809        0.464941      -0.00151639    -0.000293594         0.124221        0.122085     -0.000851159     -0.00186266
                      -0.0017133    -0.000296761        -0.177211        0.470663      -0.00109682     -0.00221258        -0.204904       -0.719244
281742                 -0.174225      -0.0356207     -0.000921334     0.000862832         0.863271        0.464705      -0.00174949    -0.000191075
                    -0.000904828     0.000825434        -0.770347        0.138185      -0.00181425     -0.00031073        -0.176534        0.472006
                        0.863002         0.46458      -0.00151587    -0.000289917         0.124315        0.122011       -0.0008542     -0.00185974
                      -0.0017139    -0.000290741        -0.177046        0.472447      -0.00110056     -0.00220694        -0.206771        -0.71782
281744                 -0.174245      -0.0355968     -0.000918021     0.000864868         0.863462        0.464343       -0.0017488    -0.000186629
                    -0.000900954     0.000830084        -0.769229        0.139406      -0.00181264    -0.000305708        -0.176363        0.473786
                        0.863195        0.464219      -0.00151534    -0.000286249          0.12441        0.121937     -0.000857223     -0.00185682
                     -0.00171548    -0.000284294        -0.176873        0.474228      -0.00110426     -0.00220126        -0.208629       -0.716392
281746                 -0.174265       -0.035573     -0.000914706     0.000866885         0.863654         0.46398      -0.00174809    -0.000182195
                    -0.000898512     0.000838517        -0.768109        0.140619      -0.00181098    -0.000300682        -0.176184        0.475562
                        0.863385        0.463866       -0.0015148     -0.00028259         0.124505        0.121862     -0.000860228     -0.00185389
                      -0.0017205    -0.000277504        -0.176692        0.476005      -0.00110793     -0.00219554        -0.210477       -0.714958
281748                 -0.174284      -0.0355488     -0.000911389     0.000868882         0.863845        0.463617      -0.00174737    -0.000177774
                    -0.000916519     0.000844075        -0.766987        0.141826      -0.00180927    -0.000295653        -0.175997        0.477335
                        0.863578        0.463488      -0.00151424     -0.00027894         0.124599        0.121788     -0.000863215     -0.00185096
                     -0.00173443    -0.000285053        -0.176503        0.477779      -0.00111155     -0.00218977        -0.212316        -0.71352
281750                 -0.174306      -0.0355235     -0.000908071     0.000870854         0.864037        0.463255      -0.00174663    -0.000173364
                    -0.000906059     0.000825741        -0.765863        0.143025      -0.00180752    -0.000290621        -0.175802        0.479105
                        0.863771        0.463129      -0.00151367      -0.0002753         0.124694        0.121714     -0.000866184     -0.00184803
                     -0.00171266     -0.00029018        -0.176306         0.47955      -0.00111514     -0.00218395        -0.214145       -0.712077
281752                 -0.174326      -0.0354999     -0.000904747     0.000872799         0.864228        0.462892      -0.00174587    -0.000168968
                    -0.000896482     0.000828328        -0.764736        0.144218      -0.00180573    -0.000285586        -0.175599         0.48087
                        0.863964        0.462768      -0.00151307    -0.000271667         0.124788         0.12164     -0.000869136     -0.00184509
                     -0.00170823      -0.0002783        -0.176101        0.481317      -0.00111868      -0.0021781        -0.215964       -0.710629
281754                 -0.174347      -0.0354761     -0.000901409     0.000874711         0.864419        0.462529       -0.0017451    -0.000164583
                    -0.000891012     0.000831502        -0.763607        0.145405      -0.00180389    -0.000280549        -0.175388        0.482633
                        0.864156        0.462406      -0.00151247    -0.000268041         0.124882        0.121565      -0.00087207     -0.00184214
                     -0.00170761    -0.000270472        -0.175888        0.483081      -0.00112218      -0.0021722        -0.217774       -0.709177
281756                 -0.174367      -0.0354521     -0.000898034     0.000876599         0.864609        0.462166      -0.00174431    -0.000160212
                    -0.000886706     0.000834371        -0.762476        0.146585      -0.00180201    -0.000275511        -0.175169        0.484391
                        0.864348        0.462044      -0.00151184     -0.00026442         0.124977        0.121491     -0.000874987     -0.00183919
                     -0.00170738    -0.000264123        -0.175668        0.484842      -0.00112565     -0.00216626        -0.219574       -0.707721
281758                 -0.174387      -0.0354281      -0.00089462     0.000878505           0.8648        0.461803      -0.00174351    -0.000155853
                    -0.000882858     0.000837025        -0.761344        0.147759      -0.00180009    -0.000270472        -0.174943        0.486146
                        0.864539        0.461682      -0.00151121    -0.000260803         0.125071        0.121417     -0.000877886     -0.00183624
                     -0.00170719    -0.000258397        -0.175442        0.486597      -0.00112906     -0.00216028        -0.221364        -0.70626
281760                 -0.174407       -0.035404     -0.000891221     0.000880445          0.86499         0.46144      -0.00174269    -0.000151508
                    -0.000879233     0.000839541        -0.760212        0.148925      -0.00179811    -0.000265434        -0.174708        0.487897
                        0.864731        0.461319      -0.00151057    -0.000257193         0.125165        0.121342     -0.000880768     -0.00183328
                     -0.00170697    -0.000252989        -0.175207        0.488347      -0.00113244     -0.00215425        -0.223145       -0.704795
281762                 -0.174428      -0.0353799     -0.000887857     0.000882377         0.865181        0.461077      -0.00174185    -0.000147175
                    -0.000875731     0.000841964        -0.759076        0.150083       -0.0017961    -0.000260396        -0.174466        0.489644
                        0.864922        0.460957      -0.00150991    -0.000253592          0.12526        0.121268     -0.000883632     -0.00183032
