! TOUCHSTONE file generated by CST MICROWAVE STUDIO
! Date and time: Tue Oct 14 07:26:33 2025
! Project name: Teste_Macro_Metasurface_Nanopilar.cst
! Parameters = {H=600; L_x=95; L_y=165; Lambda=1064; Max_L=200; Min_L=70; PathPara=1; Phi=0; Step_L=10; Theta=0; p=520; phaseX=180; phaseY=0}
! Header version: 2018
! Port assignment regex: !\s*Touchstone port\s*([0-9]+)\s*=\s*(CST MWS port|CST DS port)\s*([0-9]+|Zmin|Zmax)\s*\(\"(.*)\"\)(\s*mode\s*([0-9]+))?.*
! Touchstone port assignment:
! Touchstone port 1 = CST MWS port Zmax ("") mode 1
! Touchstone port 2 = CST MWS port Zmax ("") mode 2
! Touchstone port 3 = CST MWS port Zmin ("") mode 1
! Touchstone port 4 = CST MWS port Zmin ("") mode 2
! S-Parameters are not renormalized. Each port impedance will be approximated by the real part at minimum frequency. The values are described via the [Reference] keyword.
! Default impedance is overridden by [Reference]
[Version] 2.0
# GHz S RI R 376.73
[Number of Ports] 4
[Reference]
376.73 376.73 259.814 259.814 
[Number of Frequencies] 51
[Network Data]
281700                -0.0987199       -0.213668      -0.00016922     0.000516308         0.298454        0.919372     -9.35152e-05     0.000367849
                    -0.000182084     0.000517737       -0.0389876       -0.126422      0.000154533     0.000562463         0.195737       -0.966813
                        0.297823        0.919462      0.000266131     0.000335158        0.0470309        0.229487      0.000157915     0.000470937
                    -7.23019e-06     0.000318993         0.195612       -0.966843      0.000121388     0.000512323       -0.0837856        0.102126
281702                -0.0987982       -0.213669     -0.000168889     0.000516341         0.298873        0.919228     -9.33968e-05     0.000367908
                    -0.000181916     0.000517712       -0.0390385       -0.126428      0.000154813     0.000562317         0.195302       -0.966898
                        0.298242        0.919318      0.000266482     0.000335068        0.0471795        0.229491      0.000158329     0.000470799
                    -7.28503e-06     0.000318892         0.195177       -0.966928      0.000121735     0.000512143       -0.0837431        0.102187
281704                -0.0988766       -0.213671     -0.000168558     0.000516374         0.299292        0.919083     -9.32785e-05     0.000367967
                    -0.000181747     0.000517687       -0.0390894       -0.126433      0.000155094     0.000562171         0.194867       -0.966983
                         0.29866        0.919174      0.000266833     0.000334979         0.047328        0.229495      0.000158743      0.00047066
                    -7.34024e-06     0.000318791         0.194741       -0.967012      0.000122082     0.000511964       -0.0837006        0.102248
281706                -0.0989549       -0.213672     -0.000168226     0.000516406          0.29971        0.918938       -9.316e-05     0.000368027
                    -0.000181579     0.000517661       -0.0391404       -0.126439      0.000155374     0.000562025         0.194431       -0.967067
                        0.299078        0.919029      0.000267182      0.00033489        0.0474766        0.229499      0.000159157     0.000470521
                    -7.39582e-06     0.000318689         0.194306       -0.967097      0.000122429     0.000511785       -0.0836581        0.102309
281708                -0.0990332       -0.213674     -0.000167894     0.000516438         0.300129        0.918793     -9.30415e-05     0.000368086
                    -0.000181412     0.000517634       -0.0391913       -0.126444      0.000155654     0.000561878         0.193996       -0.967152
                        0.299497        0.918885      0.000267531     0.000334802        0.0476253        0.229502      0.000159571     0.000470383
                    -7.45178e-06     0.000318587          0.19387       -0.967181      0.000122775     0.000511606       -0.0836155         0.10237
281710                -0.0991116       -0.213675     -0.000167561     0.000516469         0.300547        0.918647      -9.2923e-05     0.000368145
                    -0.000181245     0.000517608       -0.0392422        -0.12645      0.000155935     0.000561732         0.193561       -0.967236
                        0.299915         0.91874      0.000267879     0.000334714         0.047774        0.229506      0.000159985     0.000470244
                    -7.50813e-06     0.000318484         0.193435       -0.967265      0.000123121     0.000511427       -0.0835728        0.102432
281712                  -0.09919       -0.213677     -0.000167227     0.000516501         0.300966        0.918502     -9.28044e-05     0.000368204
                    -0.000181078      0.00051758       -0.0392932       -0.126455      0.000156215     0.000561585         0.193125        -0.96732
                        0.300333        0.918595      0.000268226     0.000334627        0.0479226         0.22951      0.000160398     0.000470105
                    -7.56487e-06      0.00031838         0.192999       -0.967349      0.000123467     0.000511249       -0.0835302        0.102493
281714                -0.0992684       -0.213678     -0.000166893     0.000516531         0.301384        0.918356     -9.26858e-05     0.000368263
                    -0.000180911     0.000517553       -0.0393441       -0.126461      0.000156496     0.000561437          0.19269       -0.967403
                        0.300751         0.91845      0.000268573      0.00033454        0.0480714        0.229513      0.000160812     0.000469966
                    -7.62201e-06     0.000318276         0.192564       -0.967433      0.000123813      0.00051107       -0.0834874        0.102554
281716                -0.0993468        -0.21368     -0.000166559     0.000516562         0.301802         0.91821     -9.25671e-05     0.000368321
                    -0.000180745     0.000517524       -0.0393951       -0.126466      0.000156776      0.00056129         0.192254       -0.967487
                        0.301169        0.918305      0.000268918     0.000334454        0.0482201        0.229517      0.000161225     0.000469828
                    -7.67954e-06     0.000318172         0.192128       -0.967516      0.000124158     0.000510892       -0.0834447        0.102615
281718                -0.0994252       -0.213681     -0.000166223     0.000516591         0.302221        0.918064     -9.24484e-05      0.00036838
                    -0.000180579     0.000517496       -0.0394461       -0.126471      0.000157056     0.000561142         0.191819        -0.96757
                        0.301587        0.918159      0.000269263     0.000334368        0.0483689         0.22952      0.000161638     0.000469689
                    -7.73748e-06     0.000318067         0.191693         -0.9676      0.000124503     0.000510714       -0.0834019        0.102676
281720                -0.0995036       -0.213682     -0.000165888     0.000516621         0.302639        0.917917     -9.23296e-05     0.000368439
                    -0.000180414     0.000517467        -0.039497       -0.126477      0.000157336     0.000560994         0.191383       -0.967653
                        0.302005        0.918014      0.000269606     0.000334283        0.0485177        0.229523       0.00016205      0.00046955
                    -7.79583e-06     0.000317962         0.191257       -0.967683      0.000124847     0.000510536        -0.083359        0.102737
281722                 -0.099582       -0.213684     -0.000165551      0.00051665         0.303057        0.917771     -9.22107e-05     0.000368498
                    -0.000180249     0.000517437        -0.039548       -0.126482      0.000157617     0.000560845         0.190947       -0.967736
                        0.302423        0.917868      0.000269949     0.000334198        0.0486665        0.229526      0.000162462     0.000469411
                    -7.85458e-06     0.000317857         0.190821       -0.967766      0.000125191     0.000510358       -0.0833161        0.102798
281724                -0.0996605       -0.213685     -0.000165215     0.000516678         0.303475        0.917624     -9.20918e-05     0.000368556
                    -0.000180084     0.000517408        -0.039599       -0.126488      0.000157897     0.000560696         0.190512       -0.967819
                        0.302841        0.917722      0.000270291     0.000334114        0.0488154        0.229529      0.000162875     0.000469273
                    -7.91375e-06     0.000317751         0.190385       -0.967848      0.000125535     0.000510181       -0.0832732        0.102859
281726                -0.0997389       -0.213686     -0.000164877     0.000516706         0.303893        0.917477     -9.19728e-05     0.000368615
                     -0.00017992     0.000517377         -0.03965       -0.126493      0.000158177     0.000560547         0.190076       -0.967901
                        0.303258        0.917576      0.000270632      0.00033403        0.0489642        0.229532      0.000163286     0.000469134
                    -7.97333e-06     0.000317644         0.189949       -0.967931      0.000125879     0.000510004       -0.0832302         0.10292
281728                -0.0998174       -0.213687     -0.000164539     0.000516734         0.304311         0.91733     -9.18538e-05     0.000368673
                    -0.000179756     0.000517346       -0.0397011       -0.126498      0.000158457     0.000560398          0.18964       -0.967983
                        0.303676        0.917429      0.000270972     0.000333947        0.0491131        0.229535      0.000163698     0.000468996
                    -8.03333e-06     0.000317538         0.189514       -0.968013      0.000126222     0.000509827       -0.0831872         0.10298
281730                -0.0998959       -0.213689     -0.000164201     0.000516761         0.304728        0.917183     -9.17347e-05     0.000368732
                    -0.000179592     0.000517315       -0.0397521       -0.126503      0.000158737     0.000560248         0.189204       -0.968065
                        0.304094        0.917282      0.000271312     0.000333865        0.0492621        0.229538      0.000164109     0.000468857
                    -8.09374e-06     0.000317431         0.189078       -0.968095      0.000126565      0.00050965       -0.0831441        0.103041
281732                -0.0999744        -0.21369     -0.000163862     0.000516787         0.305146        0.917035     -9.16155e-05      0.00036879
                    -0.000179429     0.000517284       -0.0398031       -0.126509      0.000159017     0.000560098         0.188768       -0.968147
                        0.304511        0.917136       0.00027165     0.000333783         0.049411        0.229541      0.000164519     0.000468719
                    -8.15457e-06     0.000317323         0.188642       -0.968177      0.000126908     0.000509473        -0.083101        0.103102
281734                 -0.100053       -0.213691     -0.000163522     0.000516813         0.305564        0.916887     -9.14963e-05     0.000368848
                    -0.000179266     0.000517252       -0.0398542       -0.126514      0.000159297     0.000559947         0.188333       -0.968229
                        0.304929        0.916989      0.000271988     0.000333702          0.04956        0.229543      0.000164929     0.000468581
                    -8.21583e-06     0.000317215         0.188206       -0.968259      0.000127251     0.000509296       -0.0830579        0.103163
281736                 -0.100131       -0.213692     -0.000163182     0.000516838         0.305981        0.916739     -9.13771e-05     0.000368906
                    -0.000179104     0.000517219       -0.0399052       -0.126519      0.000159576     0.000559797         0.187897       -0.968311
                        0.305346        0.916841      0.000272325     0.000333621         0.049709        0.229546      0.000165337     0.000468444
                     -8.2775e-06     0.000317107          0.18777       -0.968341      0.000127593      0.00050912       -0.0830147        0.103224
281738                  -0.10021       -0.213693     -0.000162842     0.000516863         0.306399        0.916591     -9.12582e-05     0.000368963
                    -0.000178942     0.000517186       -0.0399563       -0.126524      0.000159856     0.000559646         0.187461       -0.968392
                        0.305763        0.916694       0.00027266     0.000333542        0.0498581        0.229548       0.00016574     0.000468309
                    -8.33959e-06     0.000316999         0.187334       -0.968422      0.000127936     0.000508943       -0.0829715        0.103285
281740                 -0.100288       -0.213694     -0.000162501     0.000516887         0.306816        0.916443     -9.11438e-05     0.000369019
                     -0.00017878     0.000517153       -0.0400074        -0.12653      0.000160136     0.000559495         0.187025       -0.968473
                         0.30618        0.916546      0.000272995     0.000333462        0.0500071        0.229551      0.000166092      0.00046817
                     -8.4021e-06      0.00031689         0.186897       -0.968503      0.000128277     0.000508767       -0.0829282        0.103346
281742                 -0.100367       -0.213696     -0.000162159     0.000516911         0.307234        0.916295     -9.10254e-05     0.000369085
                    -0.000178619     0.000517119       -0.0400585       -0.126535      0.000160415     0.000559343         0.186588       -0.968554
                        0.306598        0.916398      0.000273329     0.000333384        0.0501562        0.229553        0.0001666     0.000467991
                    -8.46502e-06     0.000316781         0.186461       -0.968584      0.000128619     0.000508591       -0.0828849        0.103407
281744                 -0.100446       -0.213697     -0.000161817     0.000516934         0.307651        0.916146     -9.09028e-05     0.000369143
                    -0.000178458     0.000517085       -0.0401096        -0.12654      0.000160695     0.000559191         0.186152       -0.968635
                        0.307015         0.91625      0.000273662     0.000333306        0.0503053        0.229555         0.000167     0.000467871
                    -8.52836e-06     0.000316672         0.186025       -0.968665      0.000128961     0.000508415       -0.0828415        0.103467
281746                 -0.100524       -0.213698     -0.000161474     0.000516956         0.308068        0.915997     -9.07823e-05     0.000369201
                    -0.000178297      0.00051705       -0.0401607       -0.126545      0.000160974     0.000559039         0.185716       -0.968715
                        0.307432        0.916102      0.000273995     0.000333229        0.0504545        0.229557      0.000167406     0.000467736
                    -8.59211e-06     0.000316562         0.185589       -0.968746      0.000129302      0.00050824       -0.0827981        0.103528
281748                 -0.100603       -0.213699     -0.000161131     0.000516978         0.308485        0.915848     -9.06623e-05     0.000369259
                    -0.000178137     0.000517015       -0.0402118        -0.12655      0.000161253     0.000558886          0.18528       -0.968796
                        0.307849        0.915954      0.000274326     0.000333152        0.0506036        0.229559      0.000167814       0.0004676
                    -8.65626e-06     0.000316452         0.185153       -0.968826      0.000129643     0.000508064       -0.0827547        0.103589
281750                 -0.100681         -0.2137     -0.000160788     0.000516999         0.308903        0.915699     -9.05424e-05     0.000369317
                    -0.000177978      0.00051698       -0.0402629       -0.126555      0.000161532     0.000558733         0.184844       -0.968876
                        0.308266        0.915805      0.000274656     0.000333076        0.0507528        0.229561      0.000168222     0.000467462
                     -8.7208e-06     0.000316342         0.184716       -0.968906      0.000129984     0.000507889       -0.0827112         0.10365
281752                  -0.10076       -0.213701     -0.000160444     0.000517019          0.30932        0.915549     -9.04225e-05     0.000369374
                    -0.000177818     0.000516944       -0.0403141        -0.12656      0.000161811      0.00055858         0.184407       -0.968956
                        0.308682        0.915656      0.000274986     0.000333001         0.050902        0.229563      0.000168631     0.000467324
                    -8.78572e-06     0.000316232          0.18428       -0.968986      0.000130324     0.000507714       -0.0826677         0.10371
281754                 -0.100839       -0.213702     -0.000160099     0.000517038         0.309737        0.915399     -9.03027e-05     0.000369432
                    -0.000177659     0.000516908       -0.0403652       -0.126565       0.00016209     0.000558427         0.183971       -0.969035
                        0.309099        0.915507      0.000275314     0.000332927        0.0510513        0.229564      0.000169039     0.000467186
                      -8.851e-06     0.000316121         0.183843       -0.969066      0.000130665     0.000507538       -0.0826241        0.103771
281756                 -0.100917       -0.213703     -0.000159755     0.000517056         0.310153         0.91525     -9.01828e-05      0.00036949
                    -0.000177501     0.000516871       -0.0404164        -0.12657      0.000162369     0.000558273         0.183535       -0.969115
                        0.309516        0.915358      0.000275642     0.000332855        0.0512005        0.229566      0.000169447     0.000467047
                     -8.9166e-06      0.00031601         0.183407       -0.969145      0.000131005     0.000507363       -0.0825805        0.103832
281758                 -0.100996       -0.213704      -0.00015941     0.000517073          0.31057          0.9151     -9.00629e-05     0.000369548
                    -0.000177343     0.000516834       -0.0404675       -0.126575      0.000162648     0.000558119         0.183098       -0.969194
                        0.309933        0.915209      0.000275968     0.000332783        0.0513498        0.229567      0.000169855     0.000466909
                    -8.98245e-06     0.000315899          0.18297       -0.969225      0.000131345     0.000507189       -0.0825369        0.103892
281760                 -0.101075       -0.213705     -0.000159066     0.000517087         0.310987        0.914949     -8.99429e-05     0.000369605
                    -0.000177186     0.000516797       -0.0405187        -0.12658      0.000162926     0.000557964         0.182662       -0.969274
                        0.310349        0.915059      0.000276291     0.000332716        0.0514992        0.229569      0.000170263      0.00046677
                     -9.0484e-06     0.000315787         0.182534       -0.969304      0.000131685     0.000507014       -0.0824932        0.103953
281762                 -0.101153       -0.213705      -0.00015873     0.000517096         0.311404        0.914799     -8.98228e-05     0.000369663
                    -0.000177029     0.000516759       -0.0405699       -0.126585      0.000163205     0.000557809         0.182225       -0.969353
                        0.310766         0.91491      0.000276595     0.000332682        0.0516485         0.22957      0.000170671     0.000466632
