! TOUCHSTONE file generated by CST MICROWAVE STUDIO
! Date and time: Tue Oct 14 07:25:58 2025
! Project name: Teste_Macro_Metasurface_Nanopilar.cst
! Parameters = {H=600; L_x=85; L_y=185; Lambda=1064; Max_L=200; Min_L=70; PathPara=1; Phi=0; Step_L=10; Theta=0; p=520; phaseX=180; phaseY=0}
! Header version: 2018
! Port assignment regex: !\s*Touchstone port\s*([0-9]+)\s*=\s*(CST MWS port|CST DS port)\s*([0-9]+|Zmin|Zmax)\s*\(\"(.*)\"\)(\s*mode\s*([0-9]+))?.*
! Touchstone port assignment:
! Touchstone port 1 = CST MWS port Zmax ("") mode 1
! Touchstone port 2 = CST MWS port Zmax ("") mode 2
! Touchstone port 3 = CST MWS port Zmin ("") mode 1
! Touchstone port 4 = CST MWS port Zmin ("") mode 2
! S-Parameters are not renormalized. Each port impedance will be approximated by the real part at minimum frequency. The values are described via the [Reference] keyword.
! Default impedance is overridden by [Reference]
[Version] 2.0
# GHz S RI R 376.73
[Number of Ports] 4
[Reference]
376.73 376.73 259.814 259.814 
[Number of Frequencies] 51
[Network Data]
281700                 -0.168672       -0.351925       -0.0004525     -2.5378e-05         0.550616        0.730539      4.03004e-05    -0.000205966
                    -0.000228362      1.6221e-05        0.0384408      -0.0317388     -9.76982e-05    -0.000123847         0.700042       -0.709232
                        0.549785        0.729916      -0.00010226    -0.000211419         0.293327        0.253574       0.00042149     7.00229e-06
                     4.66626e-05    -0.000129636          0.69993       -0.709345      0.000447269     0.000142411       -0.0309268       0.0397092
281702                 -0.168826       -0.351938     -0.000452298    -2.50613e-05         0.550964        0.730234      4.03778e-05    -0.000205998
                    -0.000228233     1.61745e-05        0.0384356      -0.0317665      -9.7803e-05    -0.000123741         0.699758        -0.70952
                        0.550133        0.729611     -0.000102467    -0.000211446         0.293556        0.253429      0.000421435     6.89345e-06
                     4.67626e-05    -0.000129572         0.699643       -0.709627      0.000447138     0.000142206       -0.0309229       0.0397296
281704                 -0.168981       -0.351951     -0.000452096    -2.47453e-05         0.551312        0.729929      4.04354e-05    -0.000206033
                    -0.000228105     1.61277e-05        0.0384304      -0.0317942     -9.79087e-05    -0.000123635         0.699473       -0.709807
                         0.55048        0.729307     -0.000102673    -0.000211471         0.293785        0.253283      0.000421379     6.76782e-06
                     4.68631e-05    -0.000129509         0.699355       -0.709909      0.000447007     0.000142001        -0.030919         0.03975
281706                 -0.169136       -0.351965     -0.000451893    -2.44298e-05         0.551659        0.729624      4.04715e-05    -0.000206072
                    -0.000227977     1.60807e-05        0.0384252      -0.0318219     -9.80154e-05     -0.00012353         0.699188       -0.710094
                        0.550827        0.729002     -0.000102879    -0.000211496         0.294014        0.253137      0.000421323     6.62411e-06
                     4.69641e-05    -0.000129446         0.699068       -0.710191      0.000446875     0.000141796        -0.030915       0.0397703
281708                 -0.169291       -0.351978     -0.000451689    -2.41148e-05         0.552007        0.729319      4.04846e-05    -0.000206115
                     -0.00022785     1.60334e-05          0.03842      -0.0318496     -9.81232e-05    -0.000123424         0.698901       -0.710381
                        0.551174        0.728696     -0.000103085     -0.00021152         0.294243        0.252992      0.000421265     6.46094e-06
                     4.70657e-05    -0.000129383          0.69878       -0.710472      0.000446743      0.00014159        -0.030911       0.0397907
281710                 -0.169446       -0.351991     -0.000451485    -2.38005e-05         0.552354        0.729013      4.04728e-05    -0.000206163
                    -0.000227724     1.59859e-05        0.0384147      -0.0318773     -9.82319e-05     -0.00012332         0.698614       -0.710667
                        0.551521        0.728391      -0.00010329    -0.000211543         0.294472        0.252845      0.000421207     6.27682e-06
                     4.71677e-05    -0.000129321         0.698492       -0.710754       0.00044661     0.000141384        -0.030907        0.039811
281712                 -0.169601       -0.352005      -0.00045128    -2.34868e-05         0.552701        0.728707      4.04344e-05    -0.000206217
                    -0.000227599     1.59382e-05        0.0384095       -0.031905     -9.83416e-05    -0.000123215         0.698326       -0.710952
                        0.551868        0.728085     -0.000103496    -0.000211565         0.294701        0.252699      0.000421147     6.07015e-06
                     4.72704e-05    -0.000129259         0.698205       -0.711035      0.000446476     0.000141178       -0.0309029       0.0398314
281714                 -0.169756       -0.352018     -0.000451075    -2.31737e-05         0.553048        0.728401      4.03674e-05    -0.000206277
                    -0.000227475     1.58902e-05        0.0384042      -0.0319327     -9.84523e-05     -0.00012311         0.698036       -0.711235
                        0.552214         0.72778     -0.000103701    -0.000211586          0.29493        0.252553      0.000421086     5.83927e-06
                     4.73735e-05    -0.000129198         0.697917       -0.711317      0.000446342     0.000140971       -0.0308988       0.0398517
281716                 -0.169912       -0.352031     -0.000450869    -2.28612e-05         0.553394        0.728095      4.02697e-05    -0.000206344
                    -0.000227351      1.5842e-05        0.0383989      -0.0319604     -9.85641e-05    -0.000123006         0.697746       -0.711517
                         0.55256        0.727474     -0.000103905    -0.000211606         0.295159        0.252406      0.000421023     5.58243e-06
                     4.74772e-05    -0.000129137         0.697629       -0.711598      0.000446207     0.000140764       -0.0308947       0.0398721
281718                 -0.170067       -0.352044     -0.000450662    -2.25493e-05         0.553741        0.727789      4.01393e-05    -0.000206418
                    -0.000227228     1.57936e-05        0.0383936      -0.0319882     -9.86768e-05    -0.000122902         0.697456       -0.711797
                        0.552906        0.727168      -0.00010411    -0.000211626         0.295387        0.252259      0.000420957     5.29788e-06
                     4.75814e-05    -0.000129076          0.69734       -0.711879      0.000446071     0.000140557       -0.0308905       0.0398924
281720                 -0.170222       -0.352057     -0.000450455     -2.2238e-05         0.554087        0.727482      3.99741e-05      -0.0002065
                    -0.000227106     1.57449e-05        0.0383883      -0.0320159     -9.87905e-05    -0.000122799         0.697165       -0.712074
                        0.553252        0.726861     -0.000104314    -0.000211645         0.295616        0.252112      0.000420889     4.98388e-06
                     4.76861e-05    -0.000129016         0.697052        -0.71216      0.000445935     0.000140349       -0.0308863       0.0399127
281722                 -0.170378        -0.35207     -0.000450247    -2.19274e-05         0.554434        0.727175      3.97723e-05    -0.000206591
                    -0.000226985      1.5696e-05         0.038383      -0.0320436     -9.89052e-05    -0.000122695         0.696875       -0.712349
                        0.553598        0.726555     -0.000104517    -0.000211662         0.295845        0.251965      0.000420817     4.63882e-06
                     4.77914e-05    -0.000128956         0.696764       -0.712441      0.000445798     0.000140141       -0.0308821        0.039933
281724                 -0.170533       -0.352083     -0.000450038    -2.16175e-05          0.55478        0.726868      3.95324e-05    -0.000206691
                    -0.000226865     1.56469e-05        0.0383777      -0.0320713      -9.9021e-05    -0.000122592         0.696587        -0.71262
                        0.553944        0.726248     -0.000104721    -0.000211679         0.296073        0.251818      0.000420741      4.2614e-06
                     4.78972e-05    -0.000128897         0.696475       -0.712722       0.00044566     0.000139933       -0.0308778       0.0399533
281726                 -0.170688       -0.352096     -0.000449829    -2.13081e-05         0.555125        0.726561      3.92533e-05    -0.000206801
                    -0.000226745     1.55975e-05        0.0383723       -0.032099     -9.91377e-05    -0.000122489         0.696302        -0.71289
                        0.554289        0.725941     -0.000104924    -0.000211695         0.296302         0.25167       0.00042066     3.85079e-06
                     4.80035e-05    -0.000128838         0.696186       -0.713003      0.000445522     0.000139725       -0.0308734       0.0399736
281728                 -0.170844       -0.352108      -0.00044962    -2.09995e-05         0.555471        0.726254      3.89352e-05    -0.000206921
                    -0.000226626      1.5548e-05         0.038367      -0.0321267     -9.92554e-05    -0.000122386         0.696021        -0.71316
                        0.554634        0.725634     -0.000105126    -0.000211711          0.29653        0.251523      0.000420573     3.40701e-06
                     4.81103e-05    -0.000128779         0.695898       -0.713283      0.000445383     0.000139516        -0.030869       0.0399939
281730                 -0.170999       -0.352121     -0.000449409    -2.06915e-05         0.555817        0.725946      3.85796e-05     -0.00020705
                    -0.000226508     1.54982e-05        0.0383616      -0.0321544      -9.9374e-05    -0.000122283         0.695744       -0.713431
                         0.55498        0.725327     -0.000105329    -0.000211725         0.296759        0.251375      0.000420481     2.93146e-06
                     4.82177e-05    -0.000128721         0.695609       -0.713564      0.000445243     0.000139307       -0.0308646       0.0400142
281732                 -0.171155       -0.352134     -0.000449199    -2.03842e-05         0.556162        0.725638      3.81907e-05    -0.000207189
                    -0.000226391     1.54483e-05        0.0383562      -0.0321822     -9.94937e-05     -0.00012218         0.695469       -0.713705
                        0.555325        0.725019     -0.000105531    -0.000211738         0.296987        0.251227      0.000420383     2.42762e-06
                     4.83256e-05    -0.000128663          0.69532       -0.713844      0.000445102     0.000139098       -0.0308602       0.0400344
281734                 -0.171311       -0.352146     -0.000448987    -2.00775e-05         0.556507         0.72533      3.77763e-05    -0.000207335
                    -0.000226275     1.53981e-05        0.0383508      -0.0322099     -9.96143e-05    -0.000122078         0.695194       -0.713984
                        0.555669        0.724711     -0.000105733    -0.000211751         0.297216        0.251078      0.000420278     1.90218e-06
                     4.84341e-05    -0.000128606          0.69503       -0.714124      0.000444961     0.000138889       -0.0308557       0.0400547
281736                 -0.171466       -0.352159     -0.000448775    -1.97715e-05         0.556852        0.725022        3.735e-05    -0.000207486
                    -0.000226159     1.53477e-05        0.0383454      -0.0322376     -9.97359e-05    -0.000121976         0.694917       -0.714265
                        0.556014        0.724404     -0.000105934    -0.000211763         0.297444         0.25093      0.000420169     1.36669e-06
                      4.8543e-05    -0.000128549         0.694741       -0.714404      0.000444819     0.000138679       -0.0308511        0.040075
281738                 -0.171622       -0.352172     -0.000448563    -1.94663e-05         0.557197        0.724714       3.6934e-05    -0.000207635
                    -0.000226045     1.52971e-05        0.0383399      -0.0322653     -9.98584e-05    -0.000121874         0.694637       -0.714548
                        0.556358        0.724095     -0.000106135    -0.000211774         0.297673        0.250781      0.000420057     8.39864e-07
                     4.86525e-05    -0.000128492         0.694452       -0.714684      0.000444677     0.000138469       -0.0308466       0.0400952
281740                 -0.171778       -0.352184     -0.000448349    -1.91617e-05         0.557542        0.724405      3.65629e-05    -0.000207774
                    -0.000225931     1.52464e-05        0.0383345       -0.032293     -9.99819e-05    -0.000121772         0.694353       -0.714832
                        0.556703        0.723787     -0.000106336    -0.000211784         0.297901        0.250632      0.000419948     3.50963e-07
                     4.87626e-05    -0.000128436         0.694162       -0.714964      0.000444533     0.000138259       -0.0308421       0.0401155
281742                 -0.171934       -0.352197     -0.000448136    -1.88578e-05         0.557887        0.724096      3.62893e-05    -0.000207891
                    -0.000225818     1.51954e-05         0.038329      -0.0323207     -0.000100106     -0.00012167         0.694066       -0.715116
                        0.557047        0.723479     -0.000106536    -0.000211794         0.298129        0.250483      0.000419849    -5.55729e-08
                     4.88731e-05     -0.00012838         0.693873       -0.715244      0.000444389     0.000138049       -0.0308377       0.0401359
281744                 -0.172089       -0.352209     -0.000447921    -1.85545e-05         0.558231        0.723787       3.6191e-05    -0.000207963
                    -0.000225705     1.51442e-05        0.0383235      -0.0323485     -0.000100232    -0.000121568         0.693773       -0.715399
                        0.557391         0.72317     -0.000106736    -0.000211802         0.298357        0.250334      0.000419775    -3.13956e-07
                     4.89842e-05    -0.000128325         0.693583       -0.715523      0.000444245     0.000137838       -0.0308334       0.0401563
281746                 -0.172245       -0.352221     -0.000447706     -1.8252e-05         0.558575        0.723478      3.63802e-05    -0.000207962
                    -0.000225594     1.50929e-05         0.038318      -0.0323762     -0.000100358    -0.000121467         0.693473       -0.715681
                        0.557735        0.722861     -0.000106936     -0.00021181         0.298586        0.250185      0.000419742     -3.2952e-07
                     4.90958e-05     -0.00012827         0.693293       -0.715803      0.000444099     0.000137627       -0.0308293       0.0401768
281748                 -0.172401       -0.352234      -0.00044749    -1.79501e-05          0.55892        0.723169      3.70114e-05    -0.000207845
                    -0.000225483     1.50414e-05        0.0383125      -0.0324039     -0.000100485    -0.000121366         0.693163       -0.715963
                        0.558078        0.722552     -0.000107135    -0.000211817         0.298814        0.250035      0.000419773     2.89687e-08
                     4.92079e-05    -0.000128216         0.693003       -0.716082      0.000443953     0.000137416       -0.0308255       0.0401975
281750                 -0.172557       -0.352246     -0.000447273    -1.76489e-05         0.559263        0.722859       3.8286e-05     -0.00020756
                    -0.000225373     1.49896e-05         0.038307      -0.0324316     -0.000100613    -0.000121265         0.692832        -0.71625
                        0.558422        0.722243     -0.000107334    -0.000211823         0.299042        0.249885      0.000419885      9.3357e-07
                     4.93206e-05    -0.000128162         0.692713       -0.716362      0.000443806     0.000137205       -0.0308223       0.0402185
281752                 -0.172713       -0.352258     -0.000447055    -1.73483e-05         0.559607         0.72255      4.04425e-05    -0.000207043
                    -0.000225264     1.49377e-05        0.0383015      -0.0324593     -0.000100742    -0.000121163         0.692462       -0.716565
                        0.558765        0.721934     -0.000107534    -0.000211828          0.29927        0.249735      0.000420076     2.58991e-06
                     4.94337e-05    -0.000128108         0.692423       -0.716641      0.000443659     0.000136993       -0.0308197       0.0402398
281754                 -0.172869       -0.352271     -0.000446836    -1.70485e-05         0.559951         0.72224      4.37205e-05    -0.000206231
                    -0.000225156     1.48857e-05        0.0382959      -0.0324871     -0.000100872    -0.000121063         0.692079       -0.717022
                        0.559108        0.721624     -0.000107733    -0.000211832         0.299498        0.249585      0.000420298     5.20423e-06
                     4.95474e-05    -0.000128055         0.692133        -0.71692       0.00044351     0.000136781       -0.0308179       0.0402617
281756                 -0.173026       -0.352283     -0.000446614    -1.67501e-05         0.560294        0.721929      4.82849e-05    -0.000205087
                    -0.000225049     1.48334e-05        0.0382904      -0.0325148     -0.000101003    -0.000120962         0.692012       -0.717517
                        0.559451        0.721314     -0.000107933    -0.000211835         0.299726        0.249435      0.000420425     8.90894e-06
                     4.96616e-05    -0.000128002         0.691842       -0.717199      0.000443361     0.000136569       -0.0308169       0.0402844
281758                 -0.173182       -0.352295     -0.000446388    -1.64562e-05         0.560638        0.721619      5.41175e-05    -0.000203624
                    -0.000224943      1.4781e-05        0.0382848      -0.0325425     -0.000101134    -0.000120861         0.691897        -0.71769
                        0.559794        0.721004     -0.000108136    -0.000211839         0.299954        0.249284      0.000420255     1.36503e-05
                     4.97763e-05     -0.00012795         0.691552       -0.717478      0.000443212     0.000136357       -0.0308166       0.0403078
281760                 -0.173338       -0.352307     -0.000446164     -1.6177e-05         0.560981        0.721309      6.09235e-05     -0.00020193
                    -0.000224837     1.47284e-05        0.0382792      -0.0325702     -0.000101267    -0.000120761         0.691633       -0.717884
                        0.560137        0.720694     -0.000108354    -0.000211862         0.300182        0.249134      0.000419589     1.90961e-05
                     4.98916e-05    -0.000127898         0.691261       -0.717756      0.000443062     0.000136144       -0.0308166       0.0403321
281762                 -0.173494       -0.352319     -0.000445964    -1.58927e-05         0.561324        0.720998      6.81338e-05    -0.000200155
                    -0.000224732     1.46757e-05        0.0382737       -0.032598       -0.0001014    -0.000120661         0.691341       -0.718119
                        0.560479        0.720384     -0.000108496    -0.000211866          0.30041        0.248983      0.000418365     2.46702e-05
