! TOUCHSTONE file generated by CST MICROWAVE STUDIO
! Date and time: Tue Oct 14 07:26:25 2025
! Project name: Teste_Macro_Metasurface_Nanopilar.cst
! Parameters = {H=600; L_x=95; L_y=105; Lambda=1064; Max_L=200; Min_L=70; PathPara=1; Phi=0; Step_L=10; Theta=0; p=520; phaseX=180; phaseY=0}
! Header version: 2018
! Port assignment regex: !\s*Touchstone port\s*([0-9]+)\s*=\s*(CST MWS port|CST DS port)\s*([0-9]+|Zmin|Zmax)\s*\(\"(.*)\"\)(\s*mode\s*([0-9]+))?.*
! Touchstone port assignment:
! Touchstone port 1 = CST MWS port Zmax ("") mode 1
! Touchstone port 2 = CST MWS port Zmax ("") mode 2
! Touchstone port 3 = CST MWS port Zmin ("") mode 1
! Touchstone port 4 = CST MWS port Zmin ("") mode 2
! S-Parameters are not renormalized. Each port impedance will be approximated by the real part at minimum frequency. The values are described via the [Reference] keyword.
! Default impedance is overridden by [Reference]
[Version] 2.0
# GHz S RI R 376.73
[Number of Ports] 4
[Reference]
376.73 376.73 259.814 259.814 
[Number of Frequencies] 51
[Network Data]
281700               -0.00745617      -0.0201142      1.69871e-05     4.63405e-05         0.744867       -0.663219      0.000134346      0.00028586
                     4.51782e-05     3.76901e-05        0.0111807        0.033102       0.00019653     0.000121515         0.901195       -0.428986
                        0.744691       -0.663505      7.20665e-05     0.000204453       -0.0193278     -0.00887014     -0.000130701     0.000108062
                     6.55042e-05     0.000193342         0.900823       -0.428699      7.05233e-05     8.40461e-05        0.0184323       0.0300158
281702               -0.00746093      -0.0201261      1.70033e-05     4.62969e-05         0.744597       -0.663522      0.000134345     0.000285959
                     4.50395e-05     3.76407e-05        0.0111969       0.0330882      0.000196535     0.000121531         0.901029       -0.429335
                        0.744421       -0.663808      7.21735e-05     0.000204388       -0.0193465     -0.00886052     -0.000130685      0.00010783
                     6.55644e-05     0.000193397         0.900657       -0.429048       7.0404e-05     8.40521e-05        0.0184345       0.0300054
281704                -0.0074657       -0.020138      1.70194e-05     4.62534e-05         0.744327       -0.663824      0.000134343      0.00028606
                      4.4901e-05     3.75911e-05         0.011213       0.0330745       0.00019654     0.000121546         0.900863       -0.429684
                         0.74415        -0.66411      7.22806e-05     0.000204324       -0.0193653     -0.00885089     -0.000130667     0.000107594
                     6.56247e-05     0.000193452          0.90049       -0.429397      7.02844e-05     8.40581e-05        0.0184368        0.029995
281706               -0.00747048      -0.0201498      1.70355e-05     4.62099e-05         0.744056       -0.664126      0.000134342      0.00028616
                     4.47626e-05     3.75415e-05        0.0112292       0.0330607      0.000196545     0.000121562         0.900697       -0.430033
                         0.74388       -0.664412      7.23877e-05     0.000204259        -0.019384     -0.00884124     -0.000130648     0.000107354
                     6.56849e-05     0.000193507         0.900324       -0.429746      7.01645e-05     8.40639e-05         0.018439       0.0299846
281708               -0.00747527      -0.0201617      1.70514e-05     4.61664e-05         0.743786       -0.664428      0.000134341     0.000286261
                     4.46244e-05     3.74918e-05        0.0112454       0.0330469       0.00019655     0.000121577          0.90053       -0.430382
                        0.743609       -0.664715      7.24948e-05     0.000204195       -0.0194027     -0.00883158     -0.000130629     0.000107113
                     6.57451e-05     0.000193562         0.900157       -0.430095      7.00443e-05     8.40697e-05        0.0184412       0.0299743
281710               -0.00748007      -0.0201736      1.70672e-05      4.6123e-05         0.743515        -0.66473       0.00013434     0.000286362
                     4.44863e-05     3.74419e-05        0.0112615       0.0330331      0.000196555     0.000121593         0.900364       -0.430731
                        0.743338       -0.665017       7.2602e-05      0.00020413       -0.0194214      -0.0088219      -0.00013061     0.000106869
                     6.58053e-05     0.000193617         0.899991       -0.430443      6.99238e-05     8.40753e-05        0.0184434       0.0299639
281712               -0.00748487      -0.0201854       1.7083e-05     4.60797e-05         0.743244       -0.665032      0.000134339     0.000286463
                     4.43484e-05      3.7392e-05        0.0112777       0.0330194      0.000196559     0.000121609         0.900197        -0.43108
                        0.743068       -0.665319      7.27093e-05     0.000204065       -0.0194401      -0.0088122     -0.000130591     0.000106625
                     6.58655e-05     0.000193671         0.899824       -0.430792       6.9803e-05     8.40809e-05        0.0184457       0.0299535
281714               -0.00748969      -0.0201973      1.70986e-05     4.60364e-05         0.742973       -0.665334      0.000134339     0.000286564
                     4.42107e-05     3.73419e-05        0.0112938       0.0330056      0.000196563     0.000121625         0.900031       -0.431429
                        0.742796       -0.665621      7.28166e-05     0.000204001       -0.0194588     -0.00880249     -0.000130571      0.00010638
                     6.59257e-05     0.000193726         0.899657       -0.431141      6.96818e-05     8.40863e-05        0.0184479       0.0299432
281716               -0.00749451      -0.0202092      1.71142e-05     4.59932e-05         0.742702       -0.665636      0.000134338     0.000286665
                     4.40731e-05     3.72918e-05          0.01131       0.0329918      0.000196567     0.000121641         0.899864       -0.431777
                        0.742525       -0.665922      7.29239e-05     0.000203936       -0.0194775     -0.00879277     -0.000130552     0.000106134
                     6.59859e-05      0.00019378          0.89949       -0.431489      6.95604e-05     8.40917e-05        0.0184501       0.0299328
281718               -0.00749934       -0.020221      1.71296e-05       4.595e-05         0.742431       -0.665937      0.000134338     0.000286766
                     4.39356e-05     3.72416e-05        0.0113261        0.032978      0.000196571     0.000121657         0.899697       -0.432126
                        0.742254       -0.666224      7.30313e-05     0.000203871       -0.0194962     -0.00878302     -0.000130533     0.000105888
                     6.60461e-05     0.000193834         0.899323       -0.431838      6.94386e-05     8.40969e-05        0.0184523       0.0299225
281720               -0.00750418      -0.0202329       1.7145e-05     4.59069e-05          0.74216       -0.666239      0.000134337     0.000286867
                     4.37983e-05     3.71913e-05        0.0113422       0.0329641      0.000196574     0.000121674         0.899529       -0.432475
                        0.741983       -0.666526      7.31388e-05     0.000203806       -0.0195149     -0.00877326     -0.000130513     0.000105641
                     6.61062e-05     0.000193889         0.899155       -0.432186      6.93165e-05      8.4102e-05        0.0184545       0.0299121
281722               -0.00750903      -0.0202448      1.71602e-05     4.58638e-05         0.741889        -0.66654      0.000134336     0.000286968
                     4.36611e-05      3.7141e-05        0.0113584       0.0329503      0.000196577      0.00012169         0.899362       -0.432823
                        0.741711       -0.666827      7.32463e-05     0.000203741       -0.0195336     -0.00876349     -0.000130494     0.000105395
                     6.61664e-05     0.000193943         0.898988       -0.432534      6.91941e-05     8.41071e-05        0.0184566       0.0299018
281724               -0.00751389      -0.0202566      1.71754e-05     4.58208e-05         0.741617       -0.666842      0.000134335     0.000287068
                     4.35241e-05     3.70906e-05        0.0113745       0.0329365       0.00019658     0.000121707         0.899195       -0.433172
                        0.741439       -0.667128      7.33539e-05     0.000203676       -0.0195523      -0.0087537     -0.000130474     0.000105148
                     6.62266e-05     0.000193997          0.89882       -0.432882      6.90714e-05      8.4112e-05        0.0184588       0.0298914
281726               -0.00751876      -0.0202685      1.71905e-05     4.57779e-05         0.741345       -0.667143      0.000134334     0.000287168
                     4.33872e-05     3.70401e-05        0.0113906       0.0329226      0.000196582     0.000121723         0.899027        -0.43352
                        0.741168        -0.66743      7.34616e-05      0.00020361        -0.019571     -0.00874389     -0.000130454     0.000104901
                     6.62868e-05     0.000194051         0.898652       -0.433231      6.89483e-05     8.41168e-05         0.018461       0.0298811
281728               -0.00752364      -0.0202803      1.72054e-05      4.5735e-05         0.741074       -0.667444      0.000134332     0.000287267
                     4.32504e-05     3.69895e-05        0.0114067       0.0329088      0.000196584      0.00012174         0.898859       -0.433868
                        0.740896       -0.667731      7.35693e-05     0.000203545       -0.0195896     -0.00873407     -0.000130434     0.000104655
                     6.63469e-05     0.000194104         0.898484       -0.433579      6.88249e-05     8.41215e-05        0.0184632       0.0298708
281730               -0.00752853      -0.0202922      1.72203e-05     4.56922e-05         0.740802       -0.667745       0.00013433     0.000287366
                     4.31138e-05     3.69389e-05        0.0114227       0.0328949      0.000196586     0.000121757         0.898692       -0.434217
                        0.740624       -0.668032      7.36771e-05     0.000203479       -0.0196083     -0.00872423     -0.000130413     0.000104408
                     6.64071e-05     0.000194158         0.898316       -0.433927      6.87012e-05     8.41261e-05        0.0184653       0.0298604
281732               -0.00753342      -0.0203041      1.72351e-05     4.56494e-05          0.74053       -0.668046      0.000134328     0.000287465
                     4.29772e-05     3.68883e-05        0.0114388       0.0328811      0.000196588     0.000121774         0.898524       -0.434565
                        0.740351       -0.668333      7.37849e-05     0.000203414        -0.019627     -0.00871438     -0.000130392     0.000104162
                     6.64674e-05     0.000194212         0.898148       -0.434275      6.85771e-05     8.41305e-05        0.0184675       0.0298501
281734               -0.00753833      -0.0203159      1.72497e-05     4.56067e-05         0.740258       -0.668346      0.000134325     0.000287563
                     4.28408e-05     3.68376e-05        0.0114549       0.0328672       0.00019659     0.000121791         0.898355       -0.434913
                        0.740079       -0.668633      7.38928e-05     0.000203348       -0.0196456     -0.00870451     -0.000130371     0.000103916
                     6.65276e-05     0.000194266          0.89798       -0.434623      6.84527e-05     8.41349e-05        0.0184696       0.0298398
281736               -0.00754324      -0.0203278      1.72643e-05      4.5564e-05         0.739985       -0.668647      0.000134322      0.00028766
                     4.27045e-05     3.67869e-05        0.0114709       0.0328533      0.000196591     0.000121808         0.898187       -0.435261
                        0.739807       -0.668934      7.40008e-05     0.000203283       -0.0196643     -0.00869462      -0.00013035      0.00010367
                     6.65878e-05     0.000194319         0.897811       -0.434971      6.83279e-05     8.41391e-05        0.0184718       0.0298295
281738               -0.00754816      -0.0203396      1.72788e-05     4.55214e-05         0.739713       -0.668947      0.000134318     0.000287757
                     4.25683e-05     3.67362e-05         0.011487       0.0328395      0.000196591     0.000121825         0.898019       -0.435609
                        0.739534       -0.669235      7.41089e-05     0.000203217       -0.0196829     -0.00868472     -0.000130329     0.000103425
                     6.66481e-05     0.000194373         0.897643       -0.435318      6.82028e-05     8.41432e-05        0.0184739       0.0298191
281740               -0.00755309      -0.0203515      1.72932e-05     4.54789e-05          0.73944       -0.669248      0.000134314     0.000287853
                     4.24322e-05     3.66854e-05         0.011503       0.0328256      0.000196592     0.000121842          0.89785       -0.435957
                        0.739261       -0.669535       7.4217e-05     0.000203151       -0.0197016     -0.00867481     -0.000130307     0.000103179
                     6.67084e-05     0.000194426         0.897474       -0.435666      6.80773e-05     8.41472e-05         0.018476       0.0298088
281742               -0.00755803      -0.0203634      1.73075e-05     4.54364e-05         0.739168       -0.669548      0.000134309     0.000287949
                     4.22962e-05     3.66347e-05        0.0115191       0.0328117      0.000196592      0.00012186         0.897682       -0.436305
                        0.738989       -0.669836      7.43253e-05     0.000203085       -0.0197202     -0.00866487     -0.000130285     0.000102934
                     6.67687e-05      0.00019448         0.897305       -0.436014      6.79513e-05     8.41511e-05        0.0184782       0.0297985
281744               -0.00756298      -0.0203752      1.73217e-05      4.5394e-05         0.738895       -0.669848      0.000134304     0.000288044
                     4.21602e-05     3.65841e-05        0.0115351       0.0327978      0.000196592     0.000121878         0.897513       -0.436653
                        0.738716       -0.670136      7.44336e-05     0.000203019       -0.0197388     -0.00865492     -0.000130262     0.000102689
                     6.68291e-05     0.000194533         0.897136       -0.436361      6.78249e-05     8.41549e-05        0.0184803       0.0297882
281746               -0.00756794      -0.0203871      1.73358e-05     4.53517e-05         0.738622       -0.670148      0.000134298     0.000288138
                     4.20242e-05     3.65336e-05        0.0115511       0.0327838      0.000196591     0.000121896         0.897344       -0.437001
                        0.738443       -0.670436       7.4542e-05     0.000202953       -0.0197575     -0.00864496     -0.000130239     0.000102445
                     6.68895e-05     0.000194587         0.896967       -0.436709      6.76979e-05     8.41585e-05        0.0184824       0.0297779
281748               -0.00757291      -0.0203989      1.73498e-05     4.53094e-05         0.738349       -0.670448      0.000134291     0.000288232
                     4.18881e-05     3.64834e-05        0.0115672       0.0327699       0.00019659     0.000121914         0.897175       -0.437348
                         0.73817       -0.670736      7.46504e-05     0.000202887       -0.0197761     -0.00863498     -0.000130216       0.0001022
                     6.69501e-05      0.00019464         0.896798       -0.437056      6.75695e-05      8.4162e-05        0.0184845       0.0297676
281750               -0.00757788      -0.0204108      1.73636e-05     4.52671e-05         0.738076       -0.670748      0.000134285     0.000288325
                     4.17514e-05     3.64343e-05        0.0115832        0.032756      0.000196578     0.000121942         0.897006       -0.437696
                        0.737896       -0.671036      7.47589e-05     0.000202821       -0.0197947     -0.00862499     -0.000130193     0.000101956
                     6.70112e-05     0.000194695         0.896628       -0.437404      6.74272e-05     8.41658e-05        0.0184866       0.0297573
281752               -0.00758287      -0.0204226      1.73772e-05     4.52247e-05         0.737803       -0.671048      0.000134277     0.000288417
                     4.16094e-05     3.63929e-05        0.0115992       0.0327421      0.000196594     0.000121945         0.896836       -0.438044
                        0.737623       -0.671336      7.48672e-05     0.000202754       -0.0198133     -0.00861497     -0.000130169     0.000101712
                     6.70759e-05     0.000194755         0.896459       -0.437751       6.7324e-05     8.41689e-05        0.0184887       0.0297471
281754               -0.00758786      -0.0204345      1.73915e-05     4.51836e-05         0.737529       -0.671348      0.000134269     0.000288509
                     4.14927e-05     3.63121e-05        0.0116152       0.0327281       0.00019659     0.000121965         0.896667       -0.438391
                        0.737349       -0.671635      7.49774e-05     0.000202688       -0.0198319     -0.00860494     -0.000130145     0.000101468
                     6.71257e-05     0.000194789         0.896289       -0.438098       6.7193e-05     8.41719e-05        0.0184908       0.0297368
281756               -0.00759286      -0.0204463       1.7405e-05     4.51413e-05         0.737256       -0.671647      0.000134261       0.0002886
                     4.13518e-05     3.62713e-05        0.0116311       0.0327142      0.000196588     0.000121984         0.896497       -0.438739
                        0.737076       -0.671935      7.50857e-05     0.000202622       -0.0198506      -0.0085949     -0.000130121     0.000101225
                     6.71889e-05     0.000194847         0.896119       -0.438446      6.70638e-05     8.41749e-05        0.0184929       0.0297265
281758               -0.00759787      -0.0204582      1.74185e-05     4.50993e-05         0.736982       -0.671947      0.000134252     0.000288691
                     4.12156e-05     3.62223e-05        0.0116471       0.0327002      0.000196586     0.000122002         0.896327       -0.439086
                        0.736802       -0.672235      7.51946e-05     0.000202555       -0.0198692     -0.00858484     -0.000130096     0.000100982
                     6.72499e-05     0.000194901         0.895949       -0.438793      6.69348e-05     8.41777e-05         0.018495       0.0297162
281760                -0.0076029        -0.02047      1.74319e-05     4.50574e-05         0.736708       -0.672246      0.000134243     0.000288781
                     4.10801e-05     3.61721e-05        0.0116631       0.0326863      0.000196583     0.000122021         0.896157       -0.439433
                        0.736528       -0.672534      7.53036e-05     0.000202489       -0.0198878     -0.00857477     -0.000130071     0.000100738
                     6.73107e-05     0.000194955         0.895779        -0.43914      6.68056e-05     8.41804e-05         0.018497        0.029706
281762               -0.00760793      -0.0204819      1.74452e-05     4.50156e-05         0.736434       -0.672545      0.000134233      0.00028887
                     4.09449e-05     3.61216e-05        0.0116791       0.0326723       0.00019658      0.00012204         0.895987       -0.439781
                        0.736254       -0.672833      7.54128e-05     0.000202422       -0.0199063     -0.00856467     -0.000130046     0.000100496
