! TOUCHSTONE file generated by CST MICROWAVE STUDIO
! Date and time: Tue Oct 14 07:32:30 2025
! Project name: Teste_Macro_Metasurface_Nanopilar.cst
! Parameters = {H=600; L_x=190; L_y=155; Lambda=1064; Max_L=200; Min_L=70; PathPara=1; Phi=0; Step_L=10; Theta=0; p=520; phaseX=180; phaseY=0}
! Header version: 2018
! Port assignment regex: !\s*Touchstone port\s*([0-9]+)\s*=\s*(CST MWS port|CST DS port)\s*([0-9]+|Zmin|Zmax)\s*\(\"(.*)\"\)(\s*mode\s*([0-9]+))?.*
! Touchstone port assignment:
! Touchstone port 1 = CST MWS port Zmax ("") mode 1
! Touchstone port 2 = CST MWS port Zmax ("") mode 2
! Touchstone port 3 = CST MWS port Zmin ("") mode 1
! Touchstone port 4 = CST MWS port Zmin ("") mode 2
! S-Parameters are not renormalized. Each port impedance will be approximated by the real part at minimum frequency. The values are described via the [Reference] keyword.
! Default impedance is overridden by [Reference]
[Version] 2.0
# GHz S RI R 376.73
[Number of Ports] 4
[Reference]
376.73 376.73 259.814 259.814 
[Number of Frequencies] 51
[Network Data]
281700                 -0.163586      -0.0298314      5.37831e-06     0.000181002         0.803079        0.564283      -1.3989e-05     0.000134086
                    -1.79942e-05     0.000203002         -0.22839       -0.091644      0.000111328    -0.000126398         0.932225        0.253215
                        0.803448        0.564226     -0.000132267    -2.45411e-05        0.0819144        0.143103     -5.77295e-05     0.000235437
                    -1.55568e-05     8.85854e-05         0.932359        0.252931       0.00027686      5.5163e-05         0.241443       0.0343398
281702                 -0.163583      -0.0297825       5.1071e-06     0.000180568         0.803322         0.56394      -1.4047e-05     0.000134095
                    -1.81748e-05     0.000202935        -0.228429      -0.0915907       0.00011097    -0.000126415         0.932324        0.252831
                        0.803691        0.563882     -0.000132323    -2.47393e-05        0.0819895        0.143048     -5.77852e-05       0.0002354
                    -1.55814e-05     8.85541e-05         0.932459        0.252547      0.000276346     5.48376e-05         0.241479       0.0342067
281704                  -0.16358      -0.0297336      4.83724e-06     0.000180139         0.803565        0.563596     -1.41064e-05     0.000134104
                    -1.83557e-05     0.000202867        -0.228468      -0.0915374      0.000110612    -0.000126433         0.932424        0.252447
                        0.803934        0.563538     -0.000132379    -2.49365e-05        0.0820644        0.142992     -5.78415e-05     0.000235364
                    -1.56066e-05      8.8522e-05         0.932559        0.252162      0.000275834     5.45132e-05         0.241515       0.0340735
281706                 -0.163577      -0.0296847      4.56876e-06     0.000179713         0.803808        0.563252      -1.4167e-05     0.000134114
                     -1.8537e-05       0.0002028        -0.228507      -0.0914841      0.000110255     -0.00012645         0.932523        0.252062
                        0.804176        0.563194     -0.000132435    -2.51327e-05        0.0821393        0.142937     -5.78985e-05     0.000235329
                    -1.56323e-05      8.8489e-05         0.932659        0.251778      0.000275322     5.41898e-05         0.241551       0.0339403
281708                 -0.163574      -0.0296359      4.30167e-06     0.000179291         0.804051        0.562907     -1.42289e-05     0.000134124
                    -1.87187e-05     0.000202733        -0.228546      -0.0914308      0.000109898    -0.000126467         0.932623        0.251678
                        0.804419         0.56285      -0.00013249    -2.53278e-05        0.0822141        0.142882      -5.7956e-05     0.000235295
                    -1.56586e-05     8.84553e-05         0.932759        0.251393       0.00027481     5.38673e-05         0.241586       0.0338071
281710                 -0.163571      -0.0295869      4.03598e-06     0.000178872         0.804293        0.562563     -1.42921e-05     0.000134135
                    -1.89007e-05     0.000202665        -0.228585      -0.0913774      0.000109541    -0.000126484         0.932722        0.251294
                        0.804661        0.562506     -0.000132545    -2.55218e-05        0.0822889        0.142827     -5.80142e-05     0.000235261
                    -1.56854e-05     8.84207e-05         0.932859        0.251009      0.000274299     5.35457e-05         0.241622       0.0336739
281712                 -0.163567       -0.029538       3.7717e-06     0.000178457         0.804535        0.562219     -1.43565e-05     0.000134146
                    -1.90831e-05     0.000202598        -0.228624      -0.0913241      0.000109184      -0.0001265         0.932821        0.250909
                        0.804903        0.562162     -0.000132599    -2.57148e-05        0.0823637        0.142772     -5.80729e-05     0.000235229
                    -1.57127e-05     8.83853e-05         0.932958        0.250624      0.000273788     5.32251e-05         0.241657       0.0335407
281714                 -0.163564      -0.0294891      3.50886e-06     0.000178046         0.804778        0.561874     -1.44223e-05     0.000134158
                    -1.92659e-05     0.000202531        -0.228663      -0.0912707      0.000108827    -0.000126517          0.93292        0.250525
                        0.805145        0.561817     -0.000132653    -2.59067e-05        0.0824383        0.142716     -5.81323e-05     0.000235197
                    -1.57405e-05     8.83492e-05         0.933057        0.250239      0.000273278     5.29054e-05         0.241693       0.0334074
281716                 -0.163561      -0.0294402      3.24746e-06     0.000177638          0.80502        0.561529     -1.44893e-05     0.000134169
                     -1.9449e-05     0.000202463        -0.228702      -0.0912173      0.000108471    -0.000126533         0.933018        0.250141
                        0.805387        0.561473     -0.000132706    -2.60976e-05         0.082513        0.142661     -5.81923e-05     0.000235166
                    -1.57689e-05     8.83122e-05         0.933157        0.249855      0.000272769     5.25867e-05         0.241728       0.0332741
281718                 -0.163557      -0.0293912      2.98753e-06     0.000177234         0.805262        0.561185     -1.45575e-05     0.000134182
                    -1.96324e-05     0.000202396        -0.228741      -0.0911639      0.000108114    -0.000126549         0.933117        0.249756
                        0.805629        0.561128     -0.000132759    -2.62875e-05        0.0825875        0.142605     -5.82529e-05     0.000235136
                    -1.57977e-05     8.82745e-05         0.933255         0.24947       0.00027226     5.22688e-05         0.241764       0.0331408
281720                 -0.163554      -0.0293422      2.72907e-06     0.000176833         0.805503         0.56084     -1.46271e-05     0.000134195
                    -1.98161e-05     0.000202329         -0.22878      -0.0911104      0.000107758    -0.000126565         0.933215        0.249372
                        0.805871        0.560783     -0.000132811    -2.64763e-05         0.082662         0.14255     -5.83141e-05     0.000235106
                     -1.5827e-05      8.8236e-05         0.933354        0.249085      0.000271752     5.19518e-05         0.241799       0.0330074
281722                 -0.163551      -0.0292933      2.47211e-06     0.000176435         0.805745        0.560495     -1.46979e-05     0.000134208
                    -2.00002e-05     0.000202261        -0.228819       -0.091057      0.000107402    -0.000126581         0.933313        0.248987
                        0.806112        0.560439     -0.000132863     -2.6664e-05        0.0827365        0.142494     -5.83759e-05     0.000235077
                    -1.58568e-05     8.81968e-05         0.933453        0.248701      0.000271244     5.16358e-05         0.241834        0.032874
281724                 -0.163547      -0.0292443      2.21665e-06     0.000176042         0.805987        0.560149       -1.477e-05     0.000134221
                    -2.01846e-05     0.000202194        -0.228858      -0.0910035      0.000107046    -0.000126597         0.933411        0.248602
                        0.806354        0.560094     -0.000132914    -2.68508e-05        0.0828109        0.142439     -5.84384e-05     0.000235049
                    -1.58871e-05     8.81568e-05         0.933551        0.248316      0.000270737     5.13206e-05         0.241869       0.0327406
281726                 -0.163544      -0.0291953      1.96272e-06     0.000175651         0.806228        0.559804     -1.48434e-05     0.000134235
                    -2.03693e-05     0.000202126        -0.228897        -0.09095      0.000106691    -0.000126612         0.933509        0.248218
                        0.806595        0.559749     -0.000132964    -2.70365e-05        0.0828853        0.142383     -5.85014e-05     0.000235022
                    -1.59179e-05     8.81161e-05          0.93365        0.247931       0.00027023     5.10064e-05         0.241904       0.0326072
281728                  -0.16354      -0.0291463      1.71033e-06     0.000175265         0.806469        0.559459     -1.49181e-05      0.00013425
                    -2.05543e-05     0.000202059        -0.228936      -0.0908965      0.000106335    -0.000126628         0.933607        0.247833
                        0.806836        0.559403     -0.000133015    -2.72211e-05        0.0829596        0.142327      -5.8565e-05     0.000234996
                    -1.59491e-05     8.80746e-05         0.933748        0.247546      0.000269723      5.0693e-05         0.241939       0.0324738
281730                 -0.163537      -0.0290972      1.45949e-06     0.000174881          0.80671        0.559113      -1.4994e-05     0.000134264
                    -2.07397e-05     0.000201992        -0.228975       -0.090843       0.00010598    -0.000126643         0.933704        0.247449
                        0.807077        0.559058     -0.000133064    -2.74047e-05        0.0830338        0.142272     -5.86292e-05      0.00023497
                    -1.59808e-05     8.80324e-05         0.933846        0.247161      0.000269218     5.03805e-05         0.241974       0.0323403
281732                 -0.163533      -0.0290482      1.21023e-06     0.000174501         0.806951        0.558768     -1.50712e-05      0.00013428
                    -2.09253e-05     0.000201924        -0.229014      -0.0907895      0.000105625    -0.000126658         0.933802        0.247064
                        0.807318        0.558713     -0.000133113    -2.75873e-05         0.083108        0.142216     -5.86941e-05     0.000234945
                    -1.60129e-05     8.79895e-05         0.933944        0.246776      0.000268712     5.00688e-05         0.242009       0.0322068
281734                 -0.163529      -0.0289991      9.62551e-07     0.000174125         0.807192        0.558422     -1.51497e-05     0.000134295
                    -2.11112e-05     0.000201857        -0.229052      -0.0907359      0.000105271    -0.000126673         0.933899        0.246679
                        0.807558        0.558367     -0.000133162    -2.77689e-05        0.0831821         0.14216     -5.87595e-05     0.000234921
                    -1.60455e-05     8.79458e-05         0.934041        0.246391      0.000268207     4.97581e-05         0.242043       0.0320732
281736                 -0.163526      -0.0289501      7.16481e-07     0.000173752         0.807433        0.558076     -1.52295e-05     0.000134311
                    -2.12974e-05     0.000201789        -0.229091      -0.0906824      0.000104916    -0.000126687         0.933996        0.246294
                        0.807799        0.558021      -0.00013321    -2.79495e-05        0.0832562        0.142104     -5.88255e-05     0.000234898
                    -1.60785e-05     8.79015e-05         0.934139        0.246006      0.000267703     4.94482e-05         0.242078       0.0319397
281738                 -0.163522       -0.028901      4.72033e-07     0.000173382         0.807674         0.55773     -1.53105e-05     0.000134328
                    -2.14839e-05     0.000201722         -0.22913      -0.0906288      0.000104562    -0.000126702         0.934093        0.245909
                        0.808039        0.557676     -0.000133257     -2.8129e-05        0.0833302        0.142048     -5.88921e-05     0.000234875
                     -1.6112e-05     8.78564e-05         0.934236        0.245621      0.000267199     4.91391e-05         0.242113       0.0318061
281740                 -0.163518      -0.0288519      2.29223e-07     0.000173015         0.807914        0.557384     -1.53929e-05     0.000134345
                    -2.16706e-05     0.000201655        -0.229169      -0.0905752      0.000104208    -0.000126717         0.934189        0.245525
                         0.80828         0.55733     -0.000133304    -2.83075e-05        0.0834042        0.141992     -5.89593e-05     0.000234853
                    -1.61458e-05     8.78107e-05         0.934333        0.245236      0.000266696     4.88309e-05         0.242147       0.0316725
281742                 -0.163515      -0.0288028     -1.19332e-08     0.000172652         0.808154        0.557038     -1.54765e-05     0.000134362
                    -2.18576e-05     0.000201587        -0.229208      -0.0905216      0.000103854    -0.000126731         0.934286         0.24514
                         0.80852        0.556984     -0.000133351     -2.8485e-05        0.0834781        0.141936     -5.90271e-05     0.000234832
                    -1.61801e-05     8.77642e-05          0.93443         0.24485      0.000266193     4.85235e-05         0.242181       0.0315389
281744                 -0.163511      -0.0287537     -2.51418e-07     0.000172293         0.808394        0.556692     -1.55614e-05     0.000134379
                    -2.20449e-05      0.00020152        -0.229247      -0.0904679        0.0001035    -0.000126745         0.934382        0.244755
                         0.80876        0.556638     -0.000133396    -2.86615e-05        0.0835519         0.14188     -5.90955e-05     0.000234812
                    -1.62148e-05     8.77171e-05         0.934527        0.244465      0.000265691      4.8217e-05         0.242216       0.0314052
281746                 -0.163507      -0.0287046     -4.89215e-07     0.000171936         0.808634        0.556345     -1.56476e-05     0.000134397
                    -2.22325e-05     0.000201453        -0.229285      -0.0904143      0.000103147     -0.00012676         0.934479         0.24437
                        0.808999        0.556291     -0.000133442     -2.8837e-05        0.0836257        0.141824     -5.91644e-05     0.000234793
                    -1.62499e-05     8.76693e-05         0.934624         0.24408      0.000265189     4.79113e-05          0.24225       0.0312715
281748                 -0.163503      -0.0286555     -7.25308e-07     0.000171583         0.808874        0.555999      -1.5735e-05     0.000134416
                    -2.24202e-05     0.000201385        -0.229324      -0.0903606      0.000102793    -0.000126774         0.934575        0.243985
                        0.809239        0.555945     -0.000133486    -2.90115e-05        0.0836995        0.141768      -5.9234e-05     0.000234774
                    -1.62854e-05     8.76209e-05          0.93472        0.243695      0.000264687     4.76064e-05         0.242284       0.0311378
281750                 -0.163499      -0.0286063      -9.5968e-07     0.000171233         0.809114        0.555652     -1.58238e-05     0.000134434
                    -2.26083e-05     0.000201318        -0.229363      -0.0903069       0.00010244    -0.000126788         0.934671          0.2436
                        0.809479        0.555598      -0.00013353     -2.9185e-05        0.0837732        0.141712     -5.93041e-05     0.000234756
                    -1.63213e-05     8.75718e-05         0.934817        0.243309      0.000264186     4.73024e-05         0.242318       0.0310041
281752                 -0.163496      -0.0285572     -1.19231e-06     0.000170886         0.809354        0.555305     -1.59138e-05     0.000134453
                    -2.27966e-05     0.000201251        -0.229402      -0.0902532      0.000102087    -0.000126801         0.934766        0.243215
                        0.809718        0.555252     -0.000133573    -2.93575e-05        0.0838468        0.141655     -5.93747e-05     0.000234738
                    -1.63575e-05      8.7522e-05         0.934913        0.242924      0.000263685     4.69991e-05         0.242352       0.0308704
281754                 -0.163492       -0.028508     -1.42319e-06     0.000170543         0.809593        0.554958     -1.60052e-05     0.000134472
                    -2.29851e-05     0.000201183         -0.22944      -0.0901995      0.000101735    -0.000126815         0.934862         0.24283
                        0.809957        0.554905     -0.000133616     -2.9529e-05        0.0839204        0.141599      -5.9446e-05     0.000234722
                    -1.63941e-05     8.74716e-05         0.935009        0.242538      0.000263185     4.66967e-05         0.242386       0.0307366
281756                 -0.163488      -0.0284588      -1.6523e-06     0.000170202         0.809833        0.554611     -1.60977e-05     0.000134492
                    -2.31738e-05     0.000201116        -0.229479      -0.0901458      0.000101383    -0.000126829         0.934958        0.242445
                        0.810197        0.554558     -0.000133658    -2.96996e-05        0.0839939        0.141543     -5.95177e-05     0.000234706
                    -1.64311e-05     8.74205e-05         0.935105        0.242153      0.000262685     4.63951e-05          0.24242       0.0306028
281758                 -0.163484      -0.0284096     -1.87962e-06     0.000169865         0.810072        0.554264     -1.61916e-05     0.000134511
                    -2.33628e-05     0.000201049        -0.229518       -0.090092       0.00010103    -0.000126842         0.935053        0.242059
                        0.810436        0.554211       -0.0001337    -2.98691e-05        0.0840673        0.141486       -5.959e-05      0.00023469
                    -1.64685e-05     8.73688e-05           0.9352        0.241767      0.000262186     4.60943e-05         0.242454       0.0304689
281760                  -0.16348      -0.0283604     -2.10513e-06     0.000169531         0.810311        0.553917     -1.62867e-05      0.00013453
                     -2.3552e-05     0.000200982        -0.229557      -0.0900382      0.000100678    -0.000126856         0.935148        0.241674
                        0.810675        0.553864     -0.000133741    -3.00377e-05        0.0841408         0.14143     -5.96626e-05     0.000234675
                    -1.65062e-05     8.73165e-05         0.935296        0.241382      0.000261687     4.57943e-05         0.242488       0.0303351
281762                 -0.163476      -0.0283112     -2.32882e-06       0.0001692          0.81055         0.55357     -1.63831e-05     0.000134548
                    -2.37414e-05     0.000200914        -0.229595      -0.0899844      0.000100327    -0.000126869         0.935243        0.241289
                        0.810913        0.553517     -0.000133781    -3.02053e-05        0.0842141        0.141373     -5.97357e-05      0.00023466
