! TOUCHSTONE file generated by CST MICROWAVE STUDIO
! Date and time: Tue Oct 14 07:29:22 2025
! Project name: Teste_Macro_Metasurface_Nanopilar.cst
! Parameters = {H=600; L_x=140; L_y=160; Lambda=1064; Max_L=200; Min_L=70; PathPara=1; Phi=0; Step_L=10; Theta=0; p=520; phaseX=180; phaseY=0}
! Header version: 2018
! Port assignment regex: !\s*Touchstone port\s*([0-9]+)\s*=\s*(CST MWS port|CST DS port)\s*([0-9]+|Zmin|Zmax)\s*\(\"(.*)\"\)(\s*mode\s*([0-9]+))?.*
! Touchstone port assignment:
! Touchstone port 1 = CST MWS port Zmax ("") mode 1
! Touchstone port 2 = CST MWS port Zmax ("") mode 2
! Touchstone port 3 = CST MWS port Zmin ("") mode 1
! Touchstone port 4 = CST MWS port Zmin ("") mode 2
! S-Parameters are not renormalized. Each port impedance will be approximated by the real part at minimum frequency. The values are described via the [Reference] keyword.
! Default impedance is overridden by [Reference]
[Version] 2.0
# GHz S RI R 376.73
[Number of Ports] 4
[Reference]
376.73 376.73 259.814 259.814 
[Number of Frequencies] 51
[Network Data]
281700                 -0.221307         0.15407      0.000206921     0.000135872         0.414202        0.859681     -0.000318755    -4.76259e-05
                     0.000178685     0.000111591        -0.207263       -0.349492     -0.000241667     0.000503911         0.648876        0.626597
                        0.414369        0.859911     -0.000301988     0.000495483        -0.252456       0.0640561      0.000178876    -0.000377446
                    -0.000444878    -2.95582e-05          0.64899        0.626863     -8.88159e-05    -0.000205233         0.357511        0.174762
281702                 -0.221203        0.154045      0.000207011     0.000135095         0.414665        0.859494     -0.000318743    -4.77111e-05
                     0.000177931     0.000111182        -0.207492       -0.349605     -0.000240552     0.000503901         0.649205        0.626099
                        0.414832        0.859723     -0.000300991     0.000494967        -0.252303       0.0642656      0.000179427    -0.000376855
                    -0.000444698    -2.95522e-05         0.649321        0.626366     -8.81065e-05    -0.000204928         0.357872        0.174491
281704                 -0.221099        0.154019      0.000207096     0.000134322         0.415128        0.859307     -0.000318732    -4.77976e-05
                      0.00017728     0.000111017        -0.207722       -0.349718     -0.000239436     0.000503891         0.649534        0.625601
                        0.415295        0.859535     -0.000300002     0.000494448        -0.252149       0.0644747      0.000179981    -0.000376266
                    -0.000444489    -2.94471e-05         0.649651        0.625868     -8.73954e-05    -0.000204626         0.358233        0.174218
281706                 -0.220995        0.153994      0.000207177     0.000133552          0.41559        0.859119     -0.000318723    -4.78854e-05
                     0.000176883     0.000111084        -0.207953       -0.349831     -0.000238319      0.00050388         0.649862        0.625102
                        0.415758        0.859347      -0.00029902     0.000493928        -0.251995       0.0646837      0.000180538    -0.000375679
                    -0.000444217    -2.92353e-05          0.64998         0.62537     -8.66827e-05    -0.000204325         0.358594        0.173945
281708                 -0.220891        0.153968      0.000207253     0.000132785         0.416053        0.858932     -0.000318715    -4.79746e-05
                     0.000176902     0.000111247        -0.208183       -0.349944     -0.000237202     0.000503868         0.650189        0.624603
                        0.416221        0.859159     -0.000298046     0.000493407        -0.251841       0.0648924      0.000181098    -0.000375093
                    -0.000443837    -2.89221e-05         0.650309        0.624872     -8.59685e-05    -0.000204027         0.358955        0.173672
281710                 -0.220787        0.153942      0.000207324     0.000132021         0.416515        0.858744     -0.000318708    -4.80651e-05
                      0.00017738     0.000111237        -0.208414       -0.350057     -0.000236083     0.000503856         0.650517        0.624103
                        0.416683         0.85897     -0.000297079     0.000492883        -0.251687       0.0651009      0.000181661    -0.000374509
                    -0.000443303     -2.8535e-05         0.650637        0.624373     -8.52527e-05     -0.00020373         0.359316        0.173397
281712                 -0.220683        0.153917      0.000207392     0.000131262         0.416977        0.858555     -0.000318703    -4.81568e-05
                     0.000178137      0.00011081        -0.208646       -0.350169     -0.000234963     0.000503843         0.650844        0.623603
                        0.417145        0.858781     -0.000296121     0.000492357        -0.251533       0.0653092      0.000182228    -0.000373926
                    -0.000442575     -2.8128e-05         0.650965        0.623874     -8.45354e-05    -0.000203436         0.359678        0.173123
281714                 -0.220579        0.153891      0.000207456     0.000130506         0.417439        0.858367     -0.000318698      -4.825e-05
                     0.000178883     0.000109922        -0.208877       -0.350282     -0.000233843      0.00050383         0.651171        0.623102
                        0.417607        0.858592     -0.000295172     0.000491829        -0.251378       0.0655172      0.000182797    -0.000373346
                    -0.000441644    -2.77766e-05         0.651292        0.623375     -8.38167e-05    -0.000203143         0.360039        0.172847
281716                 -0.220476        0.153865      0.000207515     0.000129754         0.417901        0.858178     -0.000318696    -4.83444e-05
                     0.000179418     0.000108716        -0.209109       -0.350394     -0.000232721     0.000503815         0.651497        0.622601
                        0.418069        0.858403     -0.000294233     0.000491299        -0.251224        0.065725      0.000183369    -0.000372767
                    -0.000440537    -2.75592e-05         0.651619        0.622875     -8.30964e-05    -0.000202852         0.360401        0.172571
281718                 -0.220372         0.15384      0.000207572     0.000129007         0.418362        0.857989     -0.000318694    -4.84401e-05
                     0.000179692     0.000107368        -0.209341       -0.350507     -0.000231598       0.0005038         0.651823        0.622099
                        0.418531        0.858213     -0.000293303     0.000490766         -0.25107       0.0659325      0.000183944    -0.000372189
                    -0.000439319    -2.75314e-05         0.651945        0.622375     -8.23747e-05    -0.000202563         0.360763        0.172295
281720                 -0.220269        0.153814      0.000207624     0.000128264         0.418824          0.8578     -0.000318694    -4.85372e-05
                     0.000179744        0.000106        -0.209574       -0.350619     -0.000230475     0.000503784         0.652149        0.621597
                        0.418992        0.858023     -0.000292384     0.000490231        -0.250915       0.0661399      0.000184523    -0.000371614
                    -0.000438071    -2.77093e-05         0.652271        0.621874     -8.16516e-05    -0.000202276         0.361125        0.172017
281722                 -0.220166        0.153789      0.000207674     0.000127527         0.419285        0.857611     -0.000318696    -4.86355e-05
                     0.000179632     0.000104671        -0.209807       -0.350732     -0.000229351     0.000503767         0.652474        0.621094
                        0.419453        0.857833     -0.000291477     0.000489693        -0.250761        0.066347      0.000185104     -0.00037104
                    -0.000436865    -2.80713e-05         0.652596        0.621373      -8.0927e-05    -0.000201991         0.361487        0.171739
281724                 -0.220062        0.153763      0.000207722     0.000126796         0.419746        0.857421     -0.000318699    -4.87352e-05
                      0.00017941     0.000103403         -0.21004       -0.350844     -0.000228225      0.00050375         0.652799         0.62059
                        0.419914        0.857643     -0.000290583     0.000489152        -0.250606       0.0665538      0.000185688    -0.000370468
                    -0.000435747    -2.85734e-05          0.65292        0.620871     -8.02011e-05    -0.000201707         0.361849        0.171461
281726                 -0.219959        0.153737      0.000207768      0.00012607         0.420207        0.857231     -0.000318703    -4.88362e-05
                     0.000179116     0.000102199        -0.210274       -0.350956     -0.000227099     0.000503731         0.653124        0.620086
                        0.420375        0.857452     -0.000289703     0.000488608        -0.250451       0.0667605      0.000186275    -0.000369898
                    -0.000434736    -2.91668e-05         0.653244         0.62037     -7.94738e-05    -0.000201426         0.362212        0.171182
281728                 -0.219856        0.153712      0.000207813     0.000125352         0.420667        0.857041     -0.000318709    -4.89384e-05
                     0.000178774     0.000101054        -0.210508       -0.351068     -0.000225972     0.000503711         0.653449        0.619582
                        0.420836        0.857261     -0.000288837     0.000488061        -0.250296       0.0669669      0.000186865     -0.00036933
                    -0.000433833    -2.98095e-05         0.653568        0.619867     -7.87452e-05    -0.000201146         0.362574        0.170902
281730                 -0.219754        0.153686      0.000207858     0.000124641         0.421128        0.856851     -0.000318717     -4.9042e-05
                     0.000178401     9.99612e-05        -0.210742        -0.35118     -0.000224844      0.00050369         0.653773        0.619077
                        0.421297         0.85707     -0.000287988      0.00048751        -0.250142       0.0671731      0.000187458    -0.000368764
                    -0.000433027    -3.04706e-05          0.65389        0.619365     -7.80152e-05    -0.000200868         0.362937        0.170622
281732                 -0.219651         0.15366      0.000207906     0.000123939         0.421588         0.85666     -0.000318726    -4.91468e-05
                     0.000178008     9.89139e-05        -0.210977       -0.351291     -0.000223715     0.000503668         0.654096        0.618571
                        0.421757        0.856879     -0.000287157     0.000486954        -0.249987        0.067379      0.000188055    -0.000368199
                    -0.000432302    -3.11295e-05         0.654212        0.618861     -7.72839e-05    -0.000200592           0.3633        0.170341
281734                 -0.219548        0.153635       0.00020796     0.000123247         0.422048        0.856469     -0.000318737     -4.9253e-05
                     0.000177601     9.79056e-05        -0.211213       -0.351402     -0.000222586     0.000503645          0.65442        0.618065
                        0.422217        0.856687     -0.000286345     0.000486393        -0.249832       0.0675848      0.000188654    -0.000367637
                    -0.000431643    -3.17743e-05         0.654534        0.618358     -7.65513e-05    -0.000200318         0.363662        0.170059
281736                 -0.219446        0.153609      0.000208022     0.000122565         0.422508        0.856278     -0.000318749    -4.93604e-05
                     0.000177186     9.69314e-05        -0.211449       -0.351513     -0.000221455     0.000503621         0.654743        0.617559
                        0.422677        0.856496     -0.000285553     0.000485826        -0.249677       0.0677902      0.000189256    -0.000367076
                    -0.000431037    -3.23986e-05         0.654854        0.617854     -7.58175e-05    -0.000200046         0.364025        0.169777
281738                 -0.219343        0.153583      0.000208101     0.000121893         0.422968        0.856086     -0.000318764    -4.94691e-05
                     0.000176765     9.59869e-05        -0.211686       -0.351624     -0.000220323     0.000503595         0.655066        0.617052
                        0.423137        0.856304     -0.000284781      0.00048525        -0.249521       0.0679955      0.000189861    -0.000366518
                    -0.000430472    -3.29998e-05         0.655173        0.617349     -7.50825e-05    -0.000199775         0.364389        0.169494
281740                 -0.219241        0.153558      0.000208205     0.000121231         0.423427        0.855895      -0.00031878    -4.95791e-05
                      0.00017634     9.50689e-05        -0.211925       -0.351733     -0.000219191     0.000503569         0.655388        0.616544
                        0.423596        0.856111     -0.000284028     0.000484661        -0.249366       0.0682005      0.000190468    -0.000365961
                    -0.000429938    -3.35777e-05         0.655491        0.616844     -7.43462e-05    -0.000199506         0.364752        0.169211
281742                 -0.219139        0.153532       0.00020835     0.000120573         0.423887        0.855703     -0.000318797    -4.96904e-05
                     0.000175912     9.41747e-05        -0.212168       -0.351843     -0.000218058     0.000503541          0.65571        0.616036
                        0.424056        0.855919     -0.000283289     0.000484052        -0.249211       0.0684054      0.000191079    -0.000365406
                     -0.00042943     -3.4133e-05         0.655806        0.616338     -7.36087e-05    -0.000199239         0.365115        0.168927
281744                 -0.219036        0.153506       0.00020856     0.000119904         0.424346        0.855511     -0.000318817     -4.9803e-05
                     0.000175482     9.33022e-05        -0.212418       -0.351959     -0.000216924     0.000503511         0.656032        0.615527
                        0.424515        0.855726     -0.000282552     0.000483408        -0.249056       0.0686099      0.000191693    -0.000364853
                    -0.000428941    -3.46673e-05         0.656114        0.615827       -7.287e-05    -0.000198974         0.365479        0.168642
281746                 -0.218934        0.153481      0.000208865      0.00011918         0.424805        0.855319     -0.000318838    -4.99169e-05
                      0.00017505     9.24498e-05        -0.212661       -0.352091     -0.000215789      0.00050348         0.656353        0.615018
                        0.424974        0.855533     -0.000281789     0.000482708          -0.2489       0.0688143      0.000192309    -0.000364303
                    -0.000428468    -3.51823e-05         0.656414        0.615293     -7.21302e-05     -0.00019871         0.365843        0.168357
281748                 -0.218832        0.153455      0.000209282     0.000118304         0.425264        0.855126     -0.000318862    -5.00322e-05
                     0.000174618     9.16161e-05        -0.212884       -0.352216     -0.000214654     0.000503448         0.656674        0.614508
                        0.425433         0.85534     -0.000280944     0.000481918        -0.248745       0.0690184      0.000192929    -0.000363754
                    -0.000428007    -3.56799e-05         0.656797        0.614733     -7.13893e-05    -0.000198448         0.366206        0.168071
281750                 -0.218731        0.153429      0.000209711     0.000117105         0.425722        0.854933     -0.000318887     -5.0149e-05
                     0.000174185     9.08002e-05         -0.21311       -0.352326     -0.000213517     0.000503415         0.656995        0.613998
                        0.425892        0.855146       -0.0002799     0.000481006        -0.248589       0.0692223      0.000193551    -0.000363208
                    -0.000427557    -3.61618e-05         0.657142         0.61428     -7.06473e-05    -0.000198188          0.36657        0.167784
281752                 -0.218629        0.153404      0.000209808     0.000115534         0.426181         0.85474     -0.000318915    -5.02674e-05
                     0.000173752     9.00015e-05        -0.213343       -0.352435      -0.00021238      0.00050338         0.657315        0.613487
                         0.42635        0.854952     -0.000278445     0.000480011        -0.248433        0.069426      0.000194176    -0.000362664
                    -0.000427117    -3.66294e-05         0.657452         0.61379     -6.99042e-05     -0.00019793         0.366934        0.167497
281754                 -0.218527        0.153378      0.000209295     0.000114015         0.426639        0.854547     -0.000318945    -5.03877e-05
                     0.000173318     8.92196e-05        -0.213579       -0.352544     -0.000211242     0.000503343         0.657635        0.612976
                        0.426808        0.854758     -0.000276361      0.00047923        -0.248278       0.0696294      0.000194804    -0.000362122
                    -0.000426684    -3.70842e-05         0.657764        0.613288       -6.916e-05    -0.000197673         0.367299         0.16721
281756                 -0.218426        0.153353      0.000208498      0.00011297         0.427097        0.854353     -0.000318978    -5.05102e-05
                     0.000172884     8.84544e-05        -0.213816       -0.352654     -0.000210103     0.000503305         0.657955        0.612464
                        0.427267        0.854564     -0.000273874     0.000479216        -0.248122       0.0698326      0.000195434    -0.000361582
                    -0.000426261    -3.75273e-05         0.658079        0.612782     -6.84149e-05    -0.000197418         0.367663        0.166921
281758                 -0.218324        0.153327      0.000207812     0.000112286         0.427555        0.854159     -0.000319017    -5.06346e-05
                     0.000172451     8.77059e-05        -0.214054       -0.352764     -0.000208964     0.000503265         0.658274        0.611951
                        0.427725        0.854369     -0.000271806     0.000479978        -0.247966       0.0700356      0.000196066    -0.000361044
                    -0.000425845    -3.79597e-05         0.658394        0.612275     -6.76687e-05    -0.000197165         0.368027        0.166632
281760                 -0.218223        0.153301      0.000207304     0.000111727         0.428013        0.853965     -0.000319063    -5.07544e-05
                     0.000172018     8.69746e-05        -0.214292       -0.352875     -0.000207823     0.000503224         0.658593        0.611439
                        0.428182        0.854175     -0.000270488     0.000480783         -0.24781       0.0702383        0.0001967    -0.000360507
                     -0.00042544    -3.83817e-05          0.65871        0.611766     -6.69216e-05    -0.000196913         0.368392        0.166343
281762                 -0.218122        0.153276      0.000206917     0.000111172          0.42847        0.853771     -0.000319106    -5.08651e-05
                     0.000171586     8.62612e-05        -0.214531       -0.352985     -0.000206682     0.000503181         0.658911        0.610925
                         0.42864         0.85398     -0.000269585     0.000481195        -0.247654       0.0704409      0.000197337     -0.00035997
