! TOUCHSTONE file generated by CST MICROWAVE STUDIO
! Date and time: Tue Oct 14 07:30:41 2025
! Project name: Teste_Macro_Metasurface_Nanopilar.cst
! Parameters = {H=600; L_x=160; L_y=185; Lambda=1064; Max_L=200; Min_L=70; PathPara=1; Phi=0; Step_L=10; Theta=0; p=520; phaseX=180; phaseY=0}
! Header version: 2018
! Port assignment regex: !\s*Touchstone port\s*([0-9]+)\s*=\s*(CST MWS port|CST DS port)\s*([0-9]+|Zmin|Zmax)\s*\(\"(.*)\"\)(\s*mode\s*([0-9]+))?.*
! Touchstone port assignment:
! Touchstone port 1 = CST MWS port Zmax ("") mode 1
! Touchstone port 2 = CST MWS port Zmax ("") mode 2
! Touchstone port 3 = CST MWS port Zmin ("") mode 1
! Touchstone port 4 = CST MWS port Zmin ("") mode 2
! S-Parameters are not renormalized. Each port impedance will be approximated by the real part at minimum frequency. The values are described via the [Reference] keyword.
! Default impedance is overridden by [Reference]
[Version] 2.0
# GHz S RI R 376.73
[Number of Ports] 4
[Reference]
376.73 376.73 259.814 259.814 
[Number of Frequencies] 51
[Network Data]
281700                 -0.217159      -0.0847242      0.000532155     0.000549438         0.924469        0.290919     -8.31801e-05     0.000291074
                     0.000564891     0.000547629        -0.171331       -0.040285     -0.000130937     0.000198948         0.835519         0.51295
                        0.924386         0.29071       3.9305e-05     0.000230807         0.224814       0.0527577     -0.000781934     5.79158e-05
                     3.82718e-05     0.000315264         0.835432        0.513237     -0.000911785     -9.6821e-05         0.111979        0.133473
281702                 -0.217193      -0.0846749      0.000532386     0.000549147         0.924584        0.290539     -8.28445e-05       0.0002909
                     0.000565298     0.000547298        -0.171336        -0.04024     -0.000130596     0.000199003         0.835735          0.5126
                        0.924502         0.29033      3.93644e-05     0.000230747         0.224858       0.0526331     -0.000782023     5.81485e-05
                     3.84692e-05     0.000315171         0.835648        0.512887     -0.000912035    -9.65957e-05         0.112053        0.133405
281704                 -0.217227      -0.0846255      0.000532616     0.000548856           0.9247        0.290158     -8.25087e-05     0.000290727
                     0.000565705     0.000546967        -0.171342      -0.0401951     -0.000130254     0.000199056          0.83595        0.512251
                        0.924618         0.28995      3.94234e-05     0.000230688         0.224902       0.0525084     -0.000782113     5.83808e-05
                     3.86661e-05     0.000315077         0.835863        0.512536     -0.000912284    -9.63696e-05         0.112128        0.133336
281706                 -0.217262      -0.0845761      0.000532847     0.000548565         0.924815        0.289778     -8.21726e-05     0.000290553
                     0.000566112     0.000546635        -0.171347      -0.0401502     -0.000129912     0.000199109         0.836166        0.511902
                        0.924734        0.289569      3.94822e-05     0.000230629         0.224946       0.0523837     -0.000782203     5.86127e-05
                     3.88624e-05     0.000314983         0.836079        0.512186     -0.000912531    -9.61427e-05         0.112202        0.133268
281708                 -0.217296      -0.0845267      0.000533077     0.000548275         0.924931        0.289397     -8.18362e-05     0.000290381
                     0.000566518     0.000546303        -0.171352      -0.0401052     -0.000129571     0.000199161         0.836381        0.511552
                        0.924849        0.289189      3.95407e-05     0.000230571          0.22499        0.052259     -0.000782293     5.88442e-05
                     3.90582e-05     0.000314889         0.836294        0.511836     -0.000912778    -9.59151e-05         0.112276        0.133199
281710                  -0.21733      -0.0844773      0.000533307     0.000547985         0.925046        0.289016     -8.14996e-05     0.000290208
                     0.000566923      0.00054597        -0.171358      -0.0400602      -0.00012923     0.000199211         0.836596        0.511203
                        0.924965        0.288808       3.9599e-05     0.000230513         0.225033       0.0521343     -0.000782383     5.90752e-05
                     3.92534e-05     0.000314794         0.836509        0.511485     -0.000913022    -9.56867e-05         0.112351        0.133131
281712                 -0.217365      -0.0844279      0.000533537     0.000547696         0.925161        0.288636     -8.11627e-05     0.000290037
                     0.000567328     0.000545637        -0.171363      -0.0400153     -0.000128888     0.000199261         0.836811        0.510853
                         0.92508        0.288428      3.96571e-05     0.000230456         0.225077       0.0520095     -0.000782474     5.93058e-05
                     3.94481e-05       0.0003147         0.836724        0.511134     -0.000913266    -9.54574e-05         0.112425        0.133062
281714                 -0.217399      -0.0843785      0.000533767     0.000547407         0.925276        0.288255     -8.08256e-05     0.000289865
                     0.000567732     0.000545303        -0.171368      -0.0399703     -0.000128547      0.00019931         0.837026        0.510503
                        0.925195        0.288047       3.9715e-05     0.000230399          0.22512       0.0518847     -0.000782565      5.9536e-05
                     3.96422e-05     0.000314605         0.836939        0.510784     -0.000913508    -9.52274e-05         0.112499        0.132994
281716                 -0.217433       -0.084329      0.000533996     0.000547118          0.92539        0.287874     -8.04882e-05     0.000289694
                     0.000568136     0.000544969        -0.171374      -0.0399253     -0.000128205     0.000199358         0.837241        0.510153
                         0.92531        0.287667      3.97728e-05     0.000230343         0.225164       0.0517599     -0.000782657     5.97657e-05
                     3.98358e-05      0.00031451         0.837154        0.510433      -0.00091375    -9.49965e-05         0.112573        0.132925
281718                 -0.217467      -0.0842796      0.000534226     0.000546829         0.925505        0.287493     -8.01505e-05     0.000289523
                     0.000568539     0.000544634        -0.171379      -0.0398803     -0.000127863     0.000199405         0.837455        0.509803
                        0.925425        0.287286      3.98304e-05     0.000230288         0.225207        0.051635     -0.000782748     5.99951e-05
                     4.00289e-05     0.000314414         0.837368        0.510082      -0.00091399    -9.47649e-05         0.112647        0.132857
281720                 -0.217502      -0.0842301      0.000534456     0.000546541         0.925619        0.287112     -7.98126e-05     0.000289353
                     0.000568941     0.000544298        -0.171384      -0.0398353     -0.000127521     0.000199451          0.83767        0.509453
                         0.92554        0.286906      3.98878e-05     0.000230233          0.22525       0.0515101      -0.00078284      6.0224e-05
                     4.02214e-05     0.000314319         0.837582        0.509731     -0.000914229    -9.45323e-05         0.112721        0.132788
281722                 -0.217536      -0.0841806      0.000534685     0.000546253         0.925733        0.286731     -7.94745e-05     0.000289183
                     0.000569343     0.000543963        -0.171389      -0.0397903     -0.000127178     0.000199495         0.837884        0.509103
                        0.925655        0.286525      3.99452e-05     0.000230179         0.225294       0.0513852     -0.000782933     6.04524e-05
                     4.04134e-05     0.000314223         0.837797         0.50938     -0.000914467     -9.4299e-05         0.112795        0.132719
281724                  -0.21757      -0.0841311      0.000534915     0.000545966         0.925847         0.28635     -7.91361e-05     0.000289014
                     0.000569745     0.000543626        -0.171395      -0.0397453     -0.000126834     0.000199537         0.838098        0.508753
                        0.925769        0.286144      4.00024e-05     0.000230125         0.225337       0.0512603     -0.000783025     6.06805e-05
                     4.06048e-05     0.000314127         0.838011        0.509029     -0.000914704    -9.40648e-05         0.112869         0.13265
281726                 -0.217604      -0.0840816      0.000535144     0.000545678         0.925961        0.285969     -7.87975e-05     0.000288845
                     0.000570145     0.000543289          -0.1714      -0.0397003     -0.000126489     0.000199576         0.838312        0.508402
                        0.925883        0.285763      4.00596e-05     0.000230072          0.22538       0.0511353     -0.000783118     6.09081e-05
                     4.07957e-05     0.000314031         0.838225        0.508677      -0.00091494    -9.38298e-05         0.112942        0.132581
281728                 -0.217638      -0.0840321      0.000535374     0.000545391         0.926075        0.285588     -7.84587e-05     0.000288676
                     0.000570546     0.000542952        -0.171405      -0.0396552     -0.000126145     0.000199611         0.838526        0.508052
                        0.925997        0.285383      4.01167e-05     0.000230019         0.225423       0.0510103     -0.000783211     6.11353e-05
                      4.0986e-05     0.000313935         0.838439        0.508326     -0.000915176     -9.3594e-05         0.113016        0.132513
281730                 -0.217673      -0.0839825      0.000535604     0.000545105         0.926188        0.285207     -7.81196e-05     0.000288508
                     0.000570945     0.000542614         -0.17141      -0.0396102     -0.000125802     0.000199642         0.838739        0.507701
                        0.926111        0.285002      4.01738e-05     0.000229967         0.225466       0.0508853     -0.000783305     6.13621e-05
                     4.11758e-05     0.000313838         0.838652        0.507974     -0.000915411    -9.33574e-05          0.11309        0.132444
281732                 -0.217707      -0.0839329      0.000535833     0.000544818         0.926302        0.284826     -7.77802e-05      0.00028834
                     0.000571344     0.000542276        -0.171415      -0.0395652     -0.000125462     0.000199669         0.838953         0.50735
                        0.926225        0.284621      4.02309e-05     0.000229916         0.225509       0.0507602     -0.000783398     6.15885e-05
                     4.13651e-05     0.000313742         0.838866        0.507623     -0.000915647    -9.31202e-05         0.113163        0.132375
281734                 -0.217741      -0.0838834      0.000536063     0.000544532         0.926415        0.284445     -7.74407e-05     0.000288173
                     0.000571743     0.000541937         -0.17142      -0.0395201     -0.000125129     0.000199694         0.839166           0.507
                        0.926339         0.28424      4.02879e-05     0.000229865         0.225551       0.0506351     -0.000783493     6.18144e-05
                     4.15539e-05     0.000313645         0.839079        0.507271     -0.000915883    -9.28826e-05         0.113237        0.132306
281736                 -0.217775      -0.0838338      0.000536293     0.000544246         0.926528        0.284063     -7.71009e-05     0.000288006
                      0.00057214     0.000541597        -0.171426       -0.039475       -0.0001248     0.000199721          0.83938        0.506649
                        0.926452        0.283859       4.0345e-05     0.000229815         0.225594         0.05051     -0.000783587     6.20399e-05
                     4.17421e-05     0.000313548         0.839292        0.506919     -0.000916123    -9.26451e-05         0.113311        0.132237
281738                 -0.217809      -0.0837842      0.000536523     0.000543961         0.926641        0.283682     -7.67609e-05     0.000287839
                     0.000572538     0.000541258        -0.171431        -0.03943     -0.000124474     0.000199751         0.839593        0.506298
                        0.926565        0.283478      4.04021e-05     0.000229765         0.225637       0.0503848     -0.000783682      6.2265e-05
                     4.19298e-05     0.000313451         0.839506        0.506567     -0.000916371    -9.24101e-05         0.113384        0.132168
281740                 -0.217843      -0.0837345      0.000536754     0.000543676         0.926754        0.283301     -7.64206e-05     0.000287673
                     0.000572934     0.000540917        -0.171436      -0.0393849     -0.000124148     0.000199783         0.839806        0.505947
                        0.926678        0.283097      4.04592e-05     0.000229716         0.225679       0.0502596     -0.000783777     6.24897e-05
                      4.2117e-05     0.000313354         0.839719        0.506215     -0.000916653    -9.21931e-05         0.113458        0.132098
281742                 -0.217877      -0.0836849      0.000536984     0.000543391         0.926866        0.282919     -7.60802e-05     0.000287507
                      0.00057333     0.000540577        -0.171441      -0.0393398     -0.000123821     0.000199817         0.840018        0.505596
                        0.926791        0.282716      4.05164e-05     0.000229667         0.225722       0.0501345     -0.000783872     6.27139e-05
                     4.23036e-05     0.000313256         0.839931        0.505863     -0.000916713    -9.25095e-05         0.113531        0.132029
281744                 -0.217911      -0.0836352      0.000537215     0.000543106         0.926979        0.282538     -7.57395e-05     0.000287342
                     0.000573726     0.000540235        -0.171446      -0.0392947     -0.000123493     0.000199851         0.840231        0.505244
                        0.926904        0.282335      4.05736e-05     0.000229619         0.225764       0.0500093     -0.000783967     6.29377e-05
                     4.24897e-05     0.000313159         0.840144        0.505511     -0.000916866    -9.16811e-05         0.113604         0.13196
281746                 -0.217946      -0.0835856      0.000537445     0.000542821         0.927091        0.282156     -7.53986e-05     0.000287177
                      0.00057412     0.000539894        -0.171451      -0.0392496     -0.000123164     0.000199885         0.840444        0.504893
                        0.927017        0.281953      4.06309e-05     0.000229571         0.225807        0.049884     -0.000784063     6.31611e-05
                     4.26752e-05     0.000313061         0.840357        0.505159      -0.00091715    -9.14242e-05         0.113678        0.131891
281748                  -0.21798      -0.0835359      0.000537677     0.000542537         0.927203        0.281774     -7.50575e-05     0.000287012
                     0.000574514     0.000539551        -0.171456      -0.0392045     -0.000122834     0.000199917         0.840656        0.504542
                        0.927129        0.281572      4.06884e-05     0.000229524         0.225849       0.0497587      -0.00078416     6.33841e-05
                     4.28601e-05     0.000312964         0.840569        0.504806     -0.000917395    -9.11775e-05         0.113751        0.131821
281750                 -0.218014      -0.0834862      0.000537908     0.000542253         0.927315        0.281393     -7.47162e-05     0.000286848
                     0.000574908     0.000539208        -0.171461      -0.0391594     -0.000122504     0.000199949         0.840868         0.50419
                        0.927242        0.281191      4.07459e-05     0.000229478         0.225891       0.0496334     -0.000784256     6.36067e-05
                     4.30443e-05     0.000312865         0.840781        0.504454     -0.000917628    -9.09309e-05         0.113824        0.131752
281752                 -0.218048      -0.0834365       0.00053814      0.00054197         0.927427        0.281011     -7.43746e-05     0.000286684
                     0.000575299     0.000538863        -0.171466      -0.0391143     -0.000122175      0.00019998          0.84108        0.503838
                        0.927354         0.28081      4.08035e-05     0.000229431         0.225933       0.0495081     -0.000784353     6.38288e-05
                     4.32274e-05     0.000312767         0.840993        0.504101     -0.000917855    -9.06837e-05         0.113897        0.131683
281754                 -0.218082      -0.0833868      0.000538373     0.000541687         0.927539        0.280629     -7.40329e-05      0.00028652
                     0.000575684     0.000538515        -0.171471      -0.0390692     -0.000121845      0.00020001         0.841292        0.503487
                        0.927466        0.280428      4.08612e-05     0.000229385         0.225975       0.0493827      -0.00078445     6.40505e-05
                      4.3408e-05     0.000312668         0.841205        0.503749      -0.00091808    -9.04355e-05          0.11397        0.131613
281756                 -0.218116       -0.083337      0.000538609     0.000541403          0.92765        0.280248      -7.3691e-05     0.000286357
                     0.000576069     0.000538197        -0.171476      -0.0390241     -0.000121515     0.000200039         0.841504        0.503135
                        0.927578        0.280047      4.09189e-05      0.00022934         0.226017       0.0492573     -0.000784548     6.42718e-05
                     4.35725e-05     0.000312585         0.841417        0.503396     -0.000918303    -9.01864e-05         0.114043        0.131544
281758                  -0.21815      -0.0832872      0.000538844     0.000541115         0.927761        0.279866     -7.33488e-05     0.000286194
                     0.000576474     0.000537848         -0.17148      -0.0389789     -0.000121186     0.000200066         0.841716        0.502783
                         0.92769        0.279665      4.09766e-05     0.000229293         0.226059       0.0491319     -0.000784645     6.44926e-05
                     4.37834e-05     0.000312484         0.841629        0.503043     -0.000918525    -8.99363e-05         0.114116        0.131474
281760                 -0.218184      -0.0832375      0.000539075     0.000540828         0.927873        0.279484     -7.30064e-05     0.000286032
                     0.000576867     0.000537501        -0.171485      -0.0389338     -0.000120857     0.000200093         0.841927        0.502431
                        0.927801        0.279284      4.10413e-05     0.000229252         0.226101       0.0490065     -0.000784744     6.47131e-05
                     4.39647e-05     0.000312382          0.84184         0.50269     -0.000918744    -8.96852e-05         0.114189        0.131404
281762                 -0.218218      -0.0831877      0.000539306     0.000540543         0.927984        0.279102     -7.26639e-05      0.00028587
                     0.000577257     0.000537155         -0.17149      -0.0388886     -0.000120529     0.000200118         0.842139        0.502079
                        0.927913        0.278902      4.10961e-05     0.000229209         0.226143        0.048881     -0.000784842     6.49331e-05
