! TOUCHSTONE file generated by CST MICROWAVE STUDIO
! Date and time: Tue Oct 14 07:27:57 2025
! Project name: Teste_Macro_Metasurface_Nanopilar.cst
! Parameters = {H=600; L_x=120; L_y=90; Lambda=1064; Max_L=200; Min_L=70; PathPara=1; Phi=0; Step_L=10; Theta=0; p=520; phaseX=180; phaseY=0}
! Header version: 2018
! Port assignment regex: !\s*Touchstone port\s*([0-9]+)\s*=\s*(CST MWS port|CST DS port)\s*([0-9]+|Zmin|Zmax)\s*\(\"(.*)\"\)(\s*mode\s*([0-9]+))?.*
! Touchstone port assignment:
! Touchstone port 1 = CST MWS port Zmax ("") mode 1
! Touchstone port 2 = CST MWS port Zmax ("") mode 2
! Touchstone port 3 = CST MWS port Zmin ("") mode 1
! Touchstone port 4 = CST MWS port Zmin ("") mode 2
! S-Parameters are not renormalized. Each port impedance will be approximated by the real part at minimum frequency. The values are described via the [Reference] keyword.
! Default impedance is overridden by [Reference]
[Version] 2.0
# GHz S RI R 376.73
[Number of Ports] 4
[Reference]
376.73 376.73 259.814 259.814 
[Number of Frequencies] 51
[Network Data]
281700                 0.0142838       0.0400233      0.000471718     0.000169849          0.91503       -0.397281      0.000363638    -1.36417e-05
                     0.000487401     0.000157871         -0.14801       -0.043205      0.000454885     0.000303721      -0.00507491        -0.98187
                        0.914974        -0.39752      0.000235217      0.00018982        0.0193539       0.0382196      0.000374972     0.000278857
                     0.000394061     8.24982e-05      -0.00495329         -0.9818      0.000414246     0.000364682        -0.146729       0.0454774
281702                 0.0143026       0.0400094      0.000472002     0.000169503         0.914877       -0.397633      0.000363645    -1.40545e-05
                     0.000487484      0.00015746        -0.148035      -0.0431568       0.00045494     0.000303585      -0.00553799       -0.981865
                        0.914821       -0.397873      0.000235395     0.000189734        0.0193601       0.0382089      0.000375052     0.000278577
                     0.000394025      8.2328e-05      -0.00541632       -0.981796      0.000414294     0.000364645        -0.146712       0.0455679
281704                 0.0143214       0.0399954      0.000472285     0.000169157         0.914723       -0.397985      0.000363652    -1.44664e-05
                     0.000487567     0.000157049         -0.14806      -0.0431085      0.000454994     0.000303448      -0.00600109        -0.98186
                        0.914668       -0.398225      0.000235573     0.000189648        0.0193664       0.0381982      0.000375131     0.000278299
                     0.000393988     8.21578e-05      -0.00587934       -0.981791      0.000414342     0.000364608        -0.146695       0.0456584
281706                 0.0143401       0.0399814      0.000472569      0.00016881          0.91457       -0.398337      0.000363659    -1.48774e-05
                     0.000487648     0.000156637        -0.148084      -0.0430602      0.000455047     0.000303312      -0.00646418       -0.981855
                        0.914515       -0.398576      0.000235751     0.000189562        0.0193726       0.0381875      0.000375211     0.000278021
                     0.000393951     8.19875e-05      -0.00634237       -0.981786       0.00041439     0.000364571        -0.146677       0.0457489
281708                 0.0143589       0.0399675      0.000472852     0.000168463         0.914416       -0.398689      0.000363666    -1.52874e-05
                     0.000487729     0.000156225        -0.148109      -0.0430119      0.000455101     0.000303175      -0.00692729        -0.98185
                        0.914362       -0.398928      0.000235929     0.000189476        0.0193788       0.0381768       0.00037529     0.000277745
                     0.000393915     8.18172e-05      -0.00680541       -0.981781      0.000414438     0.000364534        -0.146659       0.0458394
281710                 0.0143776       0.0399535      0.000473135     0.000168115         0.914263       -0.399041      0.000363672    -1.56966e-05
                     0.000487809     0.000155812        -0.148134      -0.0429636      0.000455154     0.000303038      -0.00739039       -0.981844
                        0.914208        -0.39928      0.000236107      0.00018939         0.019385       0.0381661       0.00037537     0.000277469
                     0.000393878     8.16468e-05      -0.00726845       -0.981775      0.000414487     0.000364497        -0.146642         0.04593
281712                 0.0143964       0.0399395      0.000473417     0.000167768         0.914109       -0.399393      0.000363679    -1.61048e-05
                     0.000487888     0.000155398        -0.148158      -0.0429153      0.000455207     0.000302902      -0.00785351       -0.981838
                        0.914055       -0.399632      0.000236285     0.000189304        0.0193912       0.0381554      0.000375449     0.000277195
                     0.000393841     8.14763e-05       -0.0077315        -0.98177      0.000414536      0.00036446        -0.146624       0.0460205
281714                 0.0144151       0.0399255        0.0004737      0.00016742         0.913955       -0.399744      0.000363686     -1.6512e-05
                     0.000487967     0.000154984        -0.148183      -0.0428669      0.000455259     0.000302765      -0.00831663       -0.981832
                        0.913901       -0.399984      0.000236463     0.000189218        0.0193974       0.0381447      0.000375528     0.000276921
                     0.000393804     8.13058e-05      -0.00819456       -0.981764      0.000414585     0.000364422        -0.146606        0.046111
281716                 0.0144338       0.0399115      0.000473982     0.000167072         0.913801       -0.400096      0.000363692    -1.69184e-05
                     0.000488046     0.000154568        -0.148208      -0.0428186      0.000455311     0.000302628      -0.00877975       -0.981826
                        0.913747       -0.400335      0.000236641     0.000189132        0.0194036        0.038134      0.000375607     0.000276649
                     0.000393767     8.11353e-05      -0.00865762       -0.981758      0.000414635     0.000364385        -0.146589       0.0462015
281718                 0.0144526       0.0398975      0.000474263     0.000166723         0.913646       -0.400448      0.000363699    -1.73238e-05
                     0.000488124     0.000154153        -0.148232      -0.0427702      0.000455362     0.000302491      -0.00924288        -0.98182
                        0.913594       -0.400687      0.000236818     0.000189045        0.0194098       0.0381233      0.000375685     0.000276377
                      0.00039373     8.09647e-05      -0.00912068       -0.981751      0.000414685     0.000364347        -0.146571       0.0462919
281720                 0.0144713       0.0398835      0.000474544     0.000166374         0.913492         -0.4008      0.000363705    -1.77283e-05
                     0.000488202     0.000153737        -0.148257      -0.0427218      0.000455414     0.000302355      -0.00970601       -0.981813
                         0.91344       -0.401039      0.000236996     0.000188959         0.019416       0.0381126      0.000375764     0.000276106
                     0.000393693     8.07941e-05      -0.00958375       -0.981745      0.000414735      0.00036431        -0.146553       0.0463824
281722                   0.01449       0.0398695      0.000474825     0.000166025         0.913337       -0.401151      0.000363712    -1.81319e-05
                      0.00048828      0.00015332        -0.148281      -0.0426734      0.000455465     0.000302218       -0.0101691       -0.981806
                        0.913285        -0.40139      0.000237173     0.000188873        0.0194221       0.0381019      0.000375843     0.000275836
                     0.000393656     8.06235e-05       -0.0100468       -0.981738      0.000414785     0.000364272        -0.146535       0.0464729
281724                 0.0145087       0.0398554      0.000475106     0.000165676         0.913183       -0.401503      0.000363718    -1.85346e-05
                     0.000488358     0.000152903        -0.148306       -0.042625      0.000455515     0.000302081       -0.0106323       -0.981799
                        0.913131       -0.401742       0.00023735     0.000188787        0.0194283       0.0380912      0.000375921     0.000275568
                     0.000393619     8.04528e-05       -0.0105099       -0.981731      0.000414836     0.000364234        -0.146517       0.0465634
281726                 0.0145274       0.0398414      0.000475386     0.000165326         0.913028       -0.401854      0.000363725    -1.89364e-05
                     0.000488436     0.000152486         -0.14833      -0.0425765      0.000455566     0.000301945       -0.0110954       -0.981792
                        0.912977       -0.402093      0.000237528     0.000188701        0.0194345       0.0380805         0.000376       0.0002753
                     0.000393581     8.02822e-05        -0.010973       -0.981724      0.000414886     0.000364197        -0.146499       0.0466538
281728                 0.0145461       0.0398273      0.000475666     0.000164977         0.912873       -0.402206      0.000363731    -1.93372e-05
                     0.000488513      0.00015207        -0.148355      -0.0425281      0.000455616     0.000301808       -0.0115586       -0.981784
                        0.912822       -0.402444      0.000237705     0.000188614        0.0194406       0.0380699      0.000376078     0.000275033
                     0.000393544     8.01116e-05       -0.0114361       -0.981716      0.000414937     0.000364159        -0.146481       0.0467443
281730                 0.0145647       0.0398133      0.000475946     0.000164627         0.912718       -0.402557      0.000363737    -1.97371e-05
                     0.000488591     0.000151653        -0.148379      -0.0424796      0.000455666     0.000301672       -0.0120217       -0.981776
                        0.912667       -0.402796      0.000237882     0.000188528        0.0194468       0.0380592      0.000376157     0.000274767
                     0.000393507      7.9941e-05       -0.0118992       -0.981709      0.000414988     0.000364121        -0.146463       0.0468348
281732                 0.0145834       0.0397992      0.000476225     0.000164276         0.912563       -0.402908      0.000363743    -2.01361e-05
                     0.000488668     0.000151237        -0.148404      -0.0424311      0.000455715     0.000301535       -0.0124849       -0.981768
                        0.912513       -0.403147      0.000238059     0.000188442        0.0194529       0.0380485      0.000376235     0.000274502
                      0.00039347     7.97705e-05       -0.0123623       -0.981701      0.000415039     0.000364083        -0.146444       0.0469252
281734                 0.0146021       0.0397851      0.000476505     0.000163926         0.912407       -0.403259       0.00036375    -2.05342e-05
                     0.000488745      0.00015082        -0.148428      -0.0423826      0.000455764     0.000301399       -0.0129481        -0.98176
                        0.912358       -0.403498      0.000238235     0.000188356        0.0194591       0.0380378      0.000376313     0.000274237
                     0.000393434        7.96e-05       -0.0128254       -0.981693      0.000415091     0.000364046        -0.146426       0.0470157
281736                 0.0146207        0.039771      0.000476783     0.000163575         0.912252       -0.403611      0.000363756    -2.09314e-05
                     0.000488821     0.000150405        -0.148453      -0.0423341      0.000455813     0.000301263       -0.0134112       -0.981752
                        0.912203       -0.403849      0.000238412     0.000188269        0.0194652       0.0380271      0.000376392     0.000273974
                     0.000393397     7.94297e-05       -0.0132885       -0.981685      0.000415143     0.000364008        -0.146408       0.0471061
281738                 0.0146394       0.0397569      0.000477062     0.000163224         0.912096       -0.403962      0.000363762    -2.13277e-05
                     0.000488897     0.000149989        -0.148477      -0.0422856      0.000455862     0.000301126       -0.0138744       -0.981743
                        0.912047         -0.4042      0.000238588     0.000188183        0.0194713       0.0380165       0.00037647     0.000273712
                      0.00039336     7.92595e-05       -0.0137516       -0.981676      0.000415194      0.00036397        -0.146389       0.0471965
281740                  0.014658       0.0397428       0.00047734     0.000162873          0.91194       -0.404313      0.000363768    -2.17231e-05
                     0.000488973     0.000149574        -0.148501      -0.0422371      0.000455911      0.00030099       -0.0143376       -0.981734
                        0.911892       -0.404551      0.000238764     0.000188097        0.0194775       0.0380058      0.000376548     0.000273451
                     0.000393323     7.90893e-05       -0.0142147       -0.981667      0.000415246     0.000363932        -0.146371       0.0472869
281742                 0.0146766       0.0397287      0.000477618     0.000162522         0.911784       -0.404664      0.000363774    -2.21175e-05
                     0.000489048     0.000149159        -0.148526      -0.0421885      0.000455959     0.000300854       -0.0148007       -0.981725
                        0.911736       -0.404902       0.00023894     0.000188011        0.0194836       0.0379951      0.000376626      0.00027319
                     0.000393286     7.89194e-05       -0.0146778       -0.981658      0.000415298     0.000363894        -0.146352       0.0473774
281744                 0.0146952       0.0397146      0.000477896     0.000162171         0.911628       -0.405015       0.00036378     -2.2511e-05
                     0.000489122     0.000148744         -0.14855      -0.0421399      0.000456007     0.000300718       -0.0152639       -0.981716
                        0.911581       -0.405253      0.000239116     0.000187925        0.0194897       0.0379845      0.000376704     0.000272931
                      0.00039325     7.87495e-05       -0.0151409       -0.981649      0.000415351     0.000363856        -0.146334       0.0474678
281746                 0.0147139       0.0397005      0.000478174      0.00016182         0.911472       -0.405366      0.000363785    -2.29035e-05
                     0.000489196      0.00014833        -0.148575      -0.0420913      0.000456055     0.000300583       -0.0157271       -0.981706
                        0.911425       -0.405604      0.000239291     0.000187839        0.0194958       0.0379738      0.000376783     0.000272672
                     0.000393213     7.85799e-05        -0.015604        -0.98164      0.000415403     0.000363819        -0.146315       0.0475582
281748                 0.0147325       0.0396864      0.000478452      0.00016147         0.911316       -0.405717      0.000363791    -2.32951e-05
                     0.000489268     0.000147915        -0.148599      -0.0420427      0.000456102     0.000300447       -0.0161903       -0.981696
                        0.911269       -0.405954      0.000239465     0.000187753        0.0195019       0.0379631      0.000376861     0.000272415
                     0.000393177     7.84104e-05       -0.0160672        -0.98163      0.000415456     0.000363781        -0.146296       0.0476486
281750                 0.0147511       0.0396722      0.000478732     0.000161123         0.911159       -0.406067      0.000363797    -2.36858e-05
                      0.00048934     0.000147502        -0.148623      -0.0419941       0.00045615     0.000300311       -0.0166535       -0.981686
                        0.911113       -0.406305      0.000239637     0.000187669         0.019508       0.0379525      0.000376939     0.000272158
                      0.00039314     7.82411e-05       -0.0165303        -0.98162      0.000415508     0.000363743        -0.146278        0.047739
281752                 0.0147697       0.0396581      0.000479018     0.000160788         0.911003       -0.406418      0.000363802    -2.40754e-05
                     0.000489412     0.000147088        -0.148647      -0.0419455      0.000456197     0.000300175       -0.0171167       -0.981676
                        0.910957       -0.406656        0.0002398     0.000187589        0.0195141       0.0379418      0.000377018     0.000271903
                     0.000393103      7.8072e-05       -0.0169934        -0.98161      0.000415561     0.000363705        -0.146259       0.0478294
281754                 0.0147883       0.0396439      0.000479191     0.000160229         0.910846       -0.406769      0.000363807     -2.4464e-05
                     0.000489482     0.000146675        -0.148672      -0.0418968      0.000456244      0.00030004       -0.0175799       -0.981666
                          0.9108       -0.407006      0.000240146     0.000187501        0.0195202       0.0379312      0.000377098      0.00027165
                     0.000393067     7.79031e-05       -0.0174567       -0.981601      0.000415614     0.000363667         -0.14624       0.0479198
281756                 0.0148068       0.0396298      0.000479537     0.000160023         0.910689       -0.407119      0.000363812     -2.4852e-05
                     0.000489552     0.000146261        -0.148696      -0.0418482       0.00045629     0.000299904       -0.0180431       -0.981655
                        0.910644       -0.407357      0.000240194     0.000187398        0.0195262       0.0379205      0.000377181     0.000271391
                      0.00039303     7.77345e-05       -0.0179197        -0.98159      0.000415667     0.000363629        -0.146221       0.0480101
281758                 0.0148254       0.0396156      0.000479819     0.000159681         0.910532        -0.40747      0.000363817    -2.52399e-05
                     0.000489621     0.000145849         -0.14872      -0.0417995      0.000456337     0.000299769       -0.0185063       -0.981644
                        0.910487       -0.407707      0.000240361     0.000187315        0.0195323       0.0379099      0.000377255     0.000271135
                     0.000392994      7.7566e-05       -0.0183829       -0.981579      0.000415721     0.000363591        -0.146202       0.0481005
281760                  0.014844       0.0396014      0.000480096     0.000159331         0.910375        -0.40782      0.000363822    -2.56273e-05
                     0.000489689     0.000145436        -0.148744      -0.0417508      0.000456383     0.000299634       -0.0189695       -0.981633
                        0.910331       -0.408058      0.000240532     0.000187229        0.0195384       0.0378992      0.000377332     0.000270883
                     0.000392957     7.73978e-05        -0.018846       -0.981568      0.000415774     0.000363553        -0.146183       0.0481909
281762                 0.0148625       0.0395872      0.000480371     0.000158979         0.910218       -0.408171      0.000363827    -2.60134e-05
                     0.000489756     0.000145024        -0.148769      -0.0417021      0.000456429     0.000299499       -0.0194327       -0.981622
                        0.910174       -0.408408      0.000240706     0.000187144        0.0195444       0.0378886       0.00037741     0.000270632
