! TOUCHSTONE file generated by CST MICROWAVE STUDIO
! Date and time: Tue Oct 14 07:26:19 2025
! Project name: Teste_Macro_Metasurface_Nanopilar.cst
! Parameters = {H=600; L_x=90; L_y=195; Lambda=1064; Max_L=200; Min_L=70; PathPara=1; Phi=0; Step_L=10; Theta=0; p=520; phaseX=180; phaseY=0}
! Header version: 2018
! Port assignment regex: !\s*Touchstone port\s*([0-9]+)\s*=\s*(CST MWS port|CST DS port)\s*([0-9]+|Zmin|Zmax)\s*\(\"(.*)\"\)(\s*mode\s*([0-9]+))?.*
! Touchstone port assignment:
! Touchstone port 1 = CST MWS port Zmax ("") mode 1
! Touchstone port 2 = CST MWS port Zmax ("") mode 2
! Touchstone port 3 = CST MWS port Zmin ("") mode 1
! Touchstone port 4 = CST MWS port Zmin ("") mode 2
! S-Parameters are not renormalized. Each port impedance will be approximated by the real part at minimum frequency. The values are described via the [Reference] keyword.
! Default impedance is overridden by [Reference]
[Version] 2.0
# GHz S RI R 376.73
[Number of Ports] 4
[Reference]
376.73 376.73 259.814 259.814 
[Number of Frequencies] 51
[Network Data]
281700                 -0.926563       -0.257139     -4.27401e-05     3.71756e-05         0.191825       -0.047791     -0.000140276    -0.000212177
                     0.000250839    -4.96549e-05      -0.00714821       -0.132321       1.0385e-06    -0.000250289         0.254569       -0.953633
                        0.191193      -0.0492997     -0.000308182    -0.000477978         0.547501        -0.78107     -0.000239096    -2.78981e-05
                     1.39457e-05    -0.000224644         0.254215       -0.953646       -8.348e-05     0.000240581       -0.0708076        0.111953
281702                  -0.92684       -0.256486     -4.31169e-05     3.74594e-05         0.191339      -0.0477971      -0.00014034    -0.000211719
                     0.000250404    -4.97694e-05      -0.00719729       -0.132338      9.10917e-07    -0.000250766          0.25415       -0.953742
                        0.190703      -0.0493051     -0.000309028    -0.000477949         0.546736       -0.781717     -0.000239668    -2.74839e-05
                      1.3858e-05    -0.000224476         0.253794       -0.953755     -8.34702e-05     0.000240401       -0.0707605        0.112007
281704                 -0.927116       -0.255832     -4.34938e-05     3.77445e-05         0.190853      -0.0478023     -0.000140405    -0.000211261
                     0.000249969    -4.98831e-05      -0.00724638       -0.132355      7.82398e-07    -0.000251242          0.25373        -0.95385
                        0.190213      -0.0493097     -0.000309875    -0.000477918          0.54597       -0.782362     -0.000240239    -2.70684e-05
                     1.37706e-05    -0.000224309         0.253374       -0.953864     -8.34607e-05     0.000240222       -0.0707133         0.11206
281706                 -0.927391       -0.255177      -4.3871e-05     3.80311e-05         0.190366      -0.0478067     -0.000140469    -0.000210804
                     0.000249534     -4.9996e-05      -0.00729549       -0.132373      6.52944e-07    -0.000251717          0.25331       -0.953959
                        0.189723      -0.0493134     -0.000310721    -0.000477886         0.545203       -0.783006     -0.000240811    -2.66514e-05
                     1.36838e-05    -0.000224141         0.252954       -0.953972     -8.34515e-05     0.000240044       -0.0706661        0.112113
281708                 -0.927666       -0.254523     -4.42483e-05     3.83191e-05          0.18988      -0.0478102     -0.000140533    -0.000210346
                     0.000249098     -5.0108e-05      -0.00734462        -0.13239      5.22559e-07    -0.000252191          0.25289       -0.954067
                        0.189233      -0.0493162     -0.000311567    -0.000477853         0.544436       -0.783649     -0.000241383     -2.6233e-05
                     1.35974e-05    -0.000223972         0.252533        -0.95408     -8.34426e-05     0.000239866       -0.0706189        0.112167
281710                  -0.92794       -0.253867     -4.46258e-05     3.86085e-05         0.189394      -0.0478128     -0.000140597    -0.000209889
                     0.000248663    -5.02193e-05      -0.00739375       -0.132407      3.91248e-07    -0.000252665          0.25247       -0.954175
                        0.188743      -0.0493182     -0.000312414    -0.000477819         0.543667       -0.784292     -0.000241955    -2.58132e-05
                     1.35114e-05    -0.000223804         0.252113       -0.954188     -8.34341e-05      0.00023969       -0.0705717         0.11222
281712                 -0.928213       -0.253212     -4.50034e-05     3.88994e-05         0.188908      -0.0478146     -0.000140661    -0.000209431
                     0.000248227    -5.03297e-05       -0.0074429       -0.132424      2.59015e-07    -0.000253138          0.25205       -0.954283
                        0.188253      -0.0493193     -0.000313261    -0.000477783         0.542897       -0.784934     -0.000242527     -2.5392e-05
                     1.34259e-05    -0.000223635         0.251692       -0.954296      -8.3426e-05     0.000239514       -0.0705244        0.112273
281714                 -0.928486       -0.252556     -4.53812e-05     3.91918e-05         0.188422      -0.0478156     -0.000140725    -0.000208974
                     0.000247792    -5.04394e-05      -0.00749207       -0.132441      1.25863e-07    -0.000253611          0.25163       -0.954391
                        0.187763      -0.0493195     -0.000314108    -0.000477747         0.542127       -0.785575       -0.0002431    -2.49694e-05
                     1.33408e-05    -0.000223466         0.251272       -0.954404     -8.34181e-05     0.000239339       -0.0704771        0.112326
281716                 -0.928758         -0.2519     -4.57592e-05     3.94857e-05         0.187936      -0.0478156     -0.000140789    -0.000208517
                     0.000247356    -5.05482e-05      -0.00754125       -0.132459     -8.20318e-09    -0.000254083          0.25121       -0.954499
                        0.187273      -0.0493189     -0.000314956    -0.000477709         0.541355       -0.786215     -0.000243672    -2.45455e-05
                     1.32562e-05    -0.000223296         0.250851       -0.954511     -8.34106e-05     0.000239165       -0.0704297        0.112379
281718                 -0.929029       -0.251243     -4.61373e-05     3.97811e-05          0.18745      -0.0478149     -0.000140852    -0.000208059
                      0.00024692    -5.06563e-05      -0.00759044       -0.132476      -1.4318e-07    -0.000254554          0.25079       -0.954606
                        0.186782      -0.0493174     -0.000315804     -0.00047767         0.540583       -0.786854     -0.000244245    -2.41202e-05
                      1.3172e-05    -0.000223127         0.250431       -0.954618     -8.34034e-05     0.000238992       -0.0703823        0.112433
281720                   -0.9293       -0.250586     -4.65155e-05      4.0078e-05         0.186964      -0.0478132     -0.000140916    -0.000207602
                     0.000246484    -5.07635e-05      -0.00763965       -0.132493     -2.79062e-07    -0.000255024          0.25037       -0.954714
                        0.186292       -0.049315     -0.000316653     -0.00047763         0.539809       -0.787492     -0.000244818    -2.36935e-05
                     1.30882e-05    -0.000222957          0.25001       -0.954725     -8.33966e-05      0.00023882       -0.0703349        0.112486
281722                  -0.92957       -0.249928     -4.68939e-05     4.03765e-05         0.186478      -0.0478107     -0.000140979    -0.000207145
                     0.000246048      -5.087e-05      -0.00768887        -0.13251     -4.15848e-07    -0.000255494         0.249949       -0.954821
                        0.185802      -0.0493118     -0.000317502    -0.000477589         0.539035       -0.788129     -0.000245391    -2.32655e-05
                     1.30049e-05    -0.000222787         0.249589       -0.954832     -8.33901e-05     0.000238649       -0.0702874        0.112539
281724                 -0.929839        -0.24927     -4.72723e-05     4.06766e-05         0.185992      -0.0478074     -0.000141042    -0.000206687
                     0.000245612    -5.09756e-05      -0.00773811       -0.132527     -5.53532e-07    -0.000255963         0.249529       -0.954928
                        0.185312      -0.0493077     -0.000318351    -0.000477546          0.53826       -0.788766     -0.000245965    -2.28362e-05
                      1.2922e-05    -0.000222616         0.249168       -0.954939     -8.33839e-05     0.000238479       -0.0702399        0.112592
281726                 -0.930108       -0.248611     -4.76509e-05     4.09782e-05         0.185506      -0.0478032     -0.000141106    -0.000206229
                     0.000245176    -5.10805e-05      -0.00778736       -0.132544     -6.92111e-07    -0.000256431         0.249109       -0.955034
                        0.184822      -0.0493027     -0.000319201    -0.000477502         0.537483       -0.789401     -0.000246538    -2.24057e-05
                     1.28396e-05    -0.000222445         0.248748       -0.955046     -8.33781e-05     0.000238309       -0.0701924        0.112645
281728                 -0.930377       -0.247953     -4.80296e-05     4.12815e-05          0.18502      -0.0477981     -0.000141169    -0.000205771
                     0.000244739    -5.11846e-05      -0.00783662       -0.132561     -8.31581e-07    -0.000256899         0.248688       -0.955141
                        0.184332      -0.0492969     -0.000320052    -0.000477456         0.536706       -0.790036     -0.000247111    -2.19744e-05
                     1.27576e-05    -0.000222274         0.248327       -0.955152     -8.33726e-05      0.00023814       -0.0701448        0.112698
281730                 -0.930644       -0.247293     -4.84084e-05     4.15865e-05         0.184534      -0.0477922     -0.000141233    -0.000205313
                     0.000244303    -5.12879e-05       -0.0078859       -0.132578     -9.71939e-07    -0.000257366         0.248268       -0.955247
                        0.183842      -0.0492902     -0.000320903    -0.000477409         0.535928        -0.79067     -0.000247682    -2.15429e-05
                      1.2676e-05    -0.000222103         0.247906       -0.955258     -8.33674e-05     0.000237972       -0.0700972        0.112751
281732                 -0.930911       -0.246634     -4.87873e-05     4.18931e-05         0.184048      -0.0477854       -0.0001413    -0.000204851
                     0.000243866    -5.13904e-05      -0.00793519       -0.132595     -1.11318e-06    -0.000257832         0.247848       -0.955353
                        0.183352      -0.0492827     -0.000321755    -0.000477361         0.535149       -0.791303     -0.000248248    -2.11155e-05
                     1.25949e-05    -0.000221931         0.247485       -0.955364     -8.33625e-05     0.000237806       -0.0700495        0.112804
281734                 -0.931177       -0.245974     -4.91663e-05     4.22013e-05         0.183562      -0.0477778     -0.000141396    -0.000204416
                      0.00024343    -5.14922e-05      -0.00798449       -0.132612     -1.25531e-06    -0.000258298         0.247427       -0.955459
                        0.182862      -0.0492742     -0.000322608    -0.000477311         0.534369       -0.791935     -0.000248942    -2.08848e-05
                     1.25142e-05    -0.000221759         0.247064        -0.95547      -8.3358e-05     0.000237639       -0.0700018        0.112857
281736                 -0.931443       -0.245313     -4.95453e-05     4.25113e-05         0.183076      -0.0477693     -0.000141419     -0.00020396
                     0.000242993    -5.15932e-05      -0.00803381       -0.132629     -1.39831e-06    -0.000258763         0.247006       -0.955565
                        0.182373       -0.049265     -0.000323461     -0.00047726         0.533588       -0.792566     -0.000249439    -2.02135e-05
                      1.2434e-05    -0.000221587         0.246643       -0.955575     -8.33538e-05     0.000237474       -0.0699541         0.11291
281738                 -0.931708       -0.244652     -4.99244e-05     4.28231e-05          0.18259      -0.0477599      -0.00014148    -0.000203497
                     0.000242556    -5.16934e-05      -0.00808314       -0.132646     -1.54219e-06    -0.000259227         0.246586       -0.955671
                        0.181883      -0.0492548     -0.000324315    -0.000477208         0.532806       -0.793197     -0.000250004    -1.97792e-05
                     1.23541e-05    -0.000221414         0.246221       -0.955681     -8.33499e-05      0.00023731       -0.0699063        0.112963
281740                 -0.931972       -0.243991     -5.03036e-05     4.31365e-05         0.182104      -0.0477497     -0.000141542    -0.000203038
                     0.000242119    -5.17928e-05      -0.00813249       -0.132663     -1.68695e-06    -0.000259691         0.246165       -0.955776
                        0.181393      -0.0492438     -0.000325169    -0.000477154         0.532023       -0.793826     -0.000250576    -1.93401e-05
                     1.22747e-05    -0.000221241           0.2458       -0.955786     -8.33463e-05     0.000237147       -0.0698585        0.113016
281742                 -0.932236       -0.243329     -5.06828e-05     4.34518e-05         0.181618      -0.0477386     -0.000141604     -0.00020258
                     0.000241682    -5.18914e-05      -0.00818185        -0.13268     -1.83258e-06    -0.000260153         0.245744       -0.955881
                        0.180903      -0.0492319     -0.000326025    -0.000477098          0.53124       -0.794455     -0.000251151    -1.88987e-05
                     1.21958e-05    -0.000221067         0.245379       -0.955891      -8.3343e-05     0.000236984       -0.0698107        0.113069
281744                 -0.932499       -0.242667      -5.1062e-05     4.37688e-05         0.181132      -0.0477267     -0.000141667    -0.000202123
                     0.000241245    -5.19893e-05      -0.00823122       -0.132697     -1.97908e-06    -0.000260615         0.245324       -0.955986
                        0.180413      -0.0492191     -0.000326881    -0.000477041         0.530455       -0.795082     -0.000251726    -1.84555e-05
                     1.21172e-05    -0.000220894         0.244958       -0.955996       -8.334e-05     0.000236822       -0.0697628        0.113122
281746                 -0.932761       -0.242005     -5.14413e-05     4.40876e-05         0.180646      -0.0477139     -0.000141728    -0.000201665
                     0.000240808    -5.20865e-05      -0.00828061       -0.132714     -2.12646e-06    -0.000261077         0.244903       -0.956091
                        0.179923      -0.0492055     -0.000327737    -0.000476982         0.529669       -0.795709     -0.000252302    -1.80106e-05
                     1.20391e-05     -0.00022072         0.244536       -0.956101     -8.33373e-05     0.000236662       -0.0697149        0.113175
281748                 -0.933023       -0.241342     -5.18206e-05     4.44083e-05         0.180161      -0.0477002      -0.00014179    -0.000201208
                      0.00024037    -5.21828e-05      -0.00833001       -0.132731     -2.27471e-06    -0.000261537         0.244482       -0.956196
                        0.179434       -0.049191     -0.000328595    -0.000476922         0.528883       -0.796335     -0.000252879    -1.75642e-05
                     1.19614e-05    -0.000220545         0.244115       -0.956205     -8.33349e-05     0.000236502        -0.069667        0.113228
281750                 -0.933284       -0.240679     -5.21998e-05     4.47308e-05         0.179675      -0.0476857     -0.000141852    -0.000200751
                     0.000239933    -5.22784e-05      -0.00837943       -0.132748     -2.42385e-06    -0.000261997         0.244061       -0.956301
                        0.178944      -0.0491756     -0.000329453     -0.00047686         0.528095        -0.79696     -0.000253456    -1.71163e-05
                     1.18842e-05    -0.000220371         0.243693        -0.95631     -8.33328e-05     0.000236343        -0.069619         0.11328
281752                 -0.933545       -0.240015     -5.25791e-05     4.50552e-05         0.179189      -0.0476703     -0.000141913    -0.000200293
                     0.000239495    -5.23732e-05      -0.00842886       -0.132765     -2.57389e-06    -0.000262456          0.24364       -0.956405
                        0.178454      -0.0491594     -0.000330312    -0.000476796         0.527307       -0.797584     -0.000254033     -1.6667e-05
                     1.18073e-05    -0.000220196         0.243272       -0.956414     -8.33308e-05     0.000236185        -0.069571        0.113333
281754                 -0.933804       -0.239351     -5.29583e-05     4.53815e-05         0.178703      -0.0476541     -0.000141975    -0.000199836
                     0.000239057    -5.24673e-05       -0.0084783       -0.132782     -2.72485e-06    -0.000262915         0.243219       -0.956509
                        0.177965      -0.0491423     -0.000331172    -0.000476731         0.526518       -0.798207     -0.000254611    -1.62162e-05
                     1.17309e-05     -0.00022002          0.24285       -0.956518     -8.33291e-05     0.000236028       -0.0695229        0.113386
281756                 -0.934064       -0.238687     -5.33376e-05     4.57097e-05         0.178218       -0.047637     -0.000142036    -0.000199379
                      0.00023862    -5.25606e-05      -0.00852776       -0.132798     -2.87677e-06    -0.000263372         0.242798       -0.956613
                        0.177475      -0.0491243     -0.000332033    -0.000476665         0.525727        -0.79883     -0.000255189    -1.57639e-05
                     1.16549e-05    -0.000219845         0.242429       -0.956621     -8.33274e-05     0.000235872       -0.0694748        0.113439
281758                 -0.934322       -0.238022     -5.37167e-05     4.60398e-05         0.177732       -0.047619     -0.000142097    -0.000198921
                     0.000238182    -5.26531e-05      -0.00857723       -0.132815     -3.02971e-06    -0.000263829         0.242377       -0.956717
                        0.176986      -0.0491055     -0.000332894    -0.000476596         0.524936       -0.799451     -0.000255768    -1.53102e-05
                     1.15793e-05    -0.000219669         0.242007       -0.956725     -8.33257e-05     0.000235717       -0.0694267        0.113492
281760                  -0.93458       -0.237357     -5.40958e-05     4.63719e-05         0.177246      -0.0476002     -0.000142158    -0.000198464
                     0.000237744    -5.27449e-05      -0.00862672       -0.132832     -3.18381e-06    -0.000264285         0.241956        -0.95682
                        0.176496      -0.0490858     -0.000333755    -0.000476526         0.524144       -0.800072     -0.000256347    -1.48551e-05
                     1.15041e-05    -0.000219493         0.241585       -0.956828     -8.33236e-05     0.000235563       -0.0693785        0.113544
281762                 -0.934837       -0.236691     -5.44749e-05     4.67058e-05         0.176761      -0.0475805     -0.000142219    -0.000198007
                     0.000237306    -5.28358e-05      -0.00867622       -0.132849     -3.33938e-06     -0.00026474         0.241535       -0.956924
                        0.176007      -0.0490652     -0.000334618    -0.000476455         0.523351       -0.800691     -0.000256926    -1.43986e-05
