! TOUCHSTONE file generated by CST MICROWAVE STUDIO
! Date and time: Tue Oct 14 07:29:12 2025
! Project name: Teste_Macro_Metasurface_Nanopilar.cst
! Parameters = {H=600; L_x=140; L_y=85; Lambda=1064; Max_L=200; Min_L=70; PathPara=1; Phi=0; Step_L=10; Theta=0; p=520; phaseX=180; phaseY=0}
! Header version: 2018
! Port assignment regex: !\s*Touchstone port\s*([0-9]+)\s*=\s*(CST MWS port|CST DS port)\s*([0-9]+|Zmin|Zmax)\s*\(\"(.*)\"\)(\s*mode\s*([0-9]+))?.*
! Touchstone port assignment:
! Touchstone port 1 = CST MWS port Zmax ("") mode 1
! Touchstone port 2 = CST MWS port Zmax ("") mode 2
! Touchstone port 3 = CST MWS port Zmin ("") mode 1
! Touchstone port 4 = CST MWS port Zmin ("") mode 2
! S-Parameters are not renormalized. Each port impedance will be approximated by the real part at minimum frequency. The values are described via the [Reference] keyword.
! Default impedance is overridden by [Reference]
[Version] 2.0
# GHz S RI R 376.73
[Number of Ports] 4
[Reference]
376.73 376.73 259.814 259.814 
[Number of Frequencies] 51
[Network Data]
281700                 0.0212196       0.0445481     -0.000498589     7.66728e-05         0.918138         -0.3906      -7.5506e-05     0.000368653
                    -0.000644577    -0.000275976      -0.00476829        0.110129     -0.000161309     -0.00024976        -0.984244      0.00815488
                        0.918245       -0.390654     -0.000247517    -0.000457958        0.0172953       0.0466206     -0.000340161     0.000113916
                    -5.75763e-05     0.000646037        -0.984443      0.00842684     -0.000538888      0.00017805        0.0037151        0.110915
281702                 0.0212406       0.0445326     -0.000498449     7.76986e-05         0.917988       -0.390952     -7.53475e-05     0.000368828
                    -0.000644496     -0.00027534      -0.00470577        0.110102     -0.000161464    -0.000249655        -0.984243      0.00867568
                        0.918096       -0.391005     -0.000247987    -0.000457681        0.0173051       0.0466118      -0.00034015     0.000114079
                    -5.74229e-05     0.000645972        -0.984442      0.00894903     -0.000538782     0.000178174       0.00376892        0.110884
281704                 0.0212616        0.044517     -0.000498307     7.87208e-05         0.917839       -0.391304     -7.51887e-05     0.000369003
                    -0.000644412    -0.000274701      -0.00464328        0.110075     -0.000161618    -0.000249549        -0.984242      0.00919648
                        0.917947       -0.391356     -0.000248456    -0.000457404        0.0173149       0.0466029     -0.000340139     0.000114242
                      -5.727e-05     0.000645906         -0.98444      0.00947122     -0.000538676     0.000178299        0.0038227        0.110853
281706                 0.0212826       0.0445014     -0.000498164     7.97393e-05         0.917689       -0.391656     -7.50296e-05     0.000369178
                    -0.000644327    -0.000274062      -0.00458081        0.110047     -0.000161773    -0.000249444        -0.984241      0.00971729
                        0.917797       -0.391707     -0.000248925    -0.000457127        0.0173248       0.0465941     -0.000340128     0.000114404
                    -5.71176e-05     0.000645837        -0.984439       0.0099934      -0.00053857     0.000178423       0.00387645        0.110822
281708                 0.0213036       0.0444858     -0.000498019     8.07541e-05         0.917539       -0.392007     -7.48702e-05     0.000369353
                    -0.000644239    -0.000273422      -0.00451837         0.11002     -0.000161928     -0.00024934        -0.984239       0.0102381
                        0.917648       -0.392058     -0.000249392     -0.00045685        0.0173346       0.0465853     -0.000340117     0.000114567
                    -5.69658e-05     0.000645768        -0.984437       0.0105156     -0.000538463     0.000178548       0.00393015        0.110791
281710                 0.0213246       0.0444703     -0.000497872     8.17651e-05         0.917389       -0.392359     -7.47105e-05     0.000369528
                    -0.000644149     -0.00027278      -0.00445594        0.109993     -0.000162084    -0.000249235        -0.984237       0.0107589
                        0.917498       -0.392408     -0.000249859    -0.000456572        0.0173444       0.0465764     -0.000340105      0.00011473
                    -5.68144e-05     0.000645697        -0.984435       0.0110378     -0.000538356     0.000178672       0.00398382         0.11076
281712                 0.0213455       0.0444547     -0.000497724     8.27724e-05         0.917239       -0.392711     -7.45506e-05     0.000369702
                    -0.000644058    -0.000272137      -0.00439354        0.109966     -0.000162239     -0.00024913        -0.984235       0.0112797
                        0.917348       -0.392759     -0.000250325    -0.000456294        0.0173542       0.0465676     -0.000340093     0.000114893
                    -5.66636e-05     0.000645625        -0.984432       0.0115599     -0.000538248     0.000178797       0.00403744        0.110728
281714                 0.0213665       0.0444391     -0.000497574     8.37759e-05         0.917089       -0.393062     -7.43903e-05     0.000369877
                    -0.000643964    -0.000271493      -0.00433117        0.109938     -0.000162394    -0.000249026        -0.984232       0.0118005
                        0.917198        -0.39311      -0.00025079    -0.000456016         0.017364       0.0465587     -0.000340081     0.000115056
                    -5.65133e-05     0.000645551         -0.98443       0.0120821     -0.000538141     0.000178921       0.00409103        0.110697
281716                 0.0213875       0.0444234     -0.000497423     8.47755e-05         0.916938       -0.393414     -7.42297e-05     0.000370052
                    -0.000643868    -0.000270848      -0.00426881        0.109911      -0.00016255    -0.000248922        -0.984229       0.0123213
                        0.917048        -0.39346     -0.000251255    -0.000455737        0.0173738       0.0465499     -0.000340069     0.000115219
                    -5.63635e-05     0.000645475        -0.984426       0.0126042     -0.000538032     0.000179045       0.00414458        0.110666
281718                 0.0214084       0.0444078      -0.00049727     8.57713e-05         0.916788       -0.393765     -7.40689e-05     0.000370226
                     -0.00064377    -0.000270201      -0.00420648        0.109884     -0.000162706    -0.000248818        -0.984226       0.0128421
                        0.916897       -0.393811     -0.000251718    -0.000455458        0.0173836       0.0465411     -0.000340056     0.000115383
                    -5.62143e-05     0.000645398        -0.984423       0.0131264     -0.000537924      0.00017917       0.00419808        0.110634
281720                 0.0214294       0.0443922     -0.000497115     8.67632e-05         0.916637       -0.394117     -7.39078e-05     0.000370401
                     -0.00064367    -0.000269554      -0.00414417        0.109856     -0.000162862    -0.000248715        -0.984223       0.0133629
                        0.916747       -0.394162      -0.00025218    -0.000455179        0.0173934       0.0465322     -0.000340043     0.000115546
                    -5.60656e-05      0.00064532         -0.98442       0.0136485     -0.000537815     0.000179294       0.00425155        0.110603
281722                 0.0214503       0.0443765     -0.000496959     8.77512e-05         0.916486       -0.394468     -7.37463e-05     0.000370575
                    -0.000643567    -0.000268905      -0.00408188        0.109829     -0.000163018    -0.000248611        -0.984219       0.0138837
                        0.916596       -0.394512     -0.000252641    -0.000454899        0.0174032       0.0465234      -0.00034003      0.00011571
                    -5.59175e-05      0.00064524        -0.984416       0.0141707     -0.000537706     0.000179418       0.00430498        0.110571
281724                 0.0214712       0.0443609     -0.000496802     8.87352e-05         0.916335       -0.394819     -7.35846e-05      0.00037075
                    -0.000643463    -0.000268255      -0.00401962        0.109801     -0.000163174    -0.000248508        -0.984215       0.0144045
                        0.916446       -0.394862     -0.000253101    -0.000454619         0.017413       0.0465146     -0.000340016     0.000115874
                      -5.577e-05     0.000645159        -0.984412       0.0146928     -0.000537596     0.000179542       0.00435836         0.11054
281726                 0.0214922       0.0443452     -0.000496642     8.97152e-05         0.916184       -0.395171     -7.34227e-05     0.000370924
                    -0.000643357    -0.000267604      -0.00395738        0.109774      -0.00016333    -0.000248405        -0.984211       0.0149254
                        0.916295       -0.395213     -0.000253561    -0.000454338        0.0174228       0.0465057     -0.000340003     0.000116038
                     -5.5623e-05     0.000645076        -0.984407       0.0152149     -0.000537487     0.000179666       0.00441171        0.110509
281728                 0.0215131       0.0443295     -0.000496482     9.06911e-05         0.916033       -0.395522     -7.32604e-05     0.000371098
                    -0.000643248    -0.000266952      -0.00389516        0.109746     -0.000163487    -0.000248302        -0.984206       0.0154462
                        0.916144       -0.395563     -0.000254019    -0.000454057        0.0174326       0.0464969     -0.000339989     0.000116203
                    -5.54765e-05     0.000644991        -0.984403        0.015737     -0.000537377      0.00017979       0.00446502        0.110477
281730                  0.021534       0.0443139      -0.00049632     9.16631e-05         0.915882       -0.395873     -7.30978e-05     0.000371272
                    -0.000643137    -0.000266298      -0.00383296        0.109718     -0.000163643      -0.0002482        -0.984201        0.015967
                        0.915992       -0.395913     -0.000254476    -0.000453775        0.0174424       0.0464881     -0.000339975     0.000116367
                    -5.53307e-05     0.000644905        -0.984398       0.0162592     -0.000537266     0.000179914       0.00451829        0.110446
281732                 0.0215549       0.0442982     -0.000496156     9.26309e-05          0.91573       -0.396224      -7.2935e-05     0.000371446
                    -0.000643024    -0.000265643      -0.00377079        0.109691       -0.0001638    -0.000248097        -0.984196       0.0164878
                        0.915841       -0.396263     -0.000254932    -0.000453493        0.0174521       0.0464792      -0.00033996     0.000116532
                    -5.51854e-05     0.000644818        -0.984392       0.0167813     -0.000537155     0.000180038       0.00457152        0.110414
281734                 0.0215758       0.0442825     -0.000495991     9.35947e-05         0.915578       -0.396575     -7.27719e-05      0.00037162
                    -0.000642909    -0.000264987      -0.00370864        0.109663     -0.000163957    -0.000247995        -0.984191       0.0170086
                         0.91569       -0.396614     -0.000255387     -0.00045321        0.0174619       0.0464704     -0.000339946     0.000116697
                    -5.50407e-05     0.000644729        -0.984387       0.0173034     -0.000537044     0.000180162       0.00462471        0.110383
281736                 0.0215967       0.0442668     -0.000495825     9.45542e-05         0.915427       -0.396926     -7.26086e-05     0.000371794
                    -0.000642792     -0.00026433      -0.00364652        0.109635     -0.000164114    -0.000247893        -0.984185       0.0175294
                        0.915538       -0.396964     -0.000255841    -0.000452926        0.0174716       0.0464616     -0.000339931     0.000116863
                    -5.48966e-05     0.000644639        -0.984381       0.0178254     -0.000536933     0.000180286       0.00467786        0.110351
281738                 0.0216175       0.0442511     -0.000495657     9.55097e-05         0.915275       -0.397277      -7.2445e-05     0.000371968
                    -0.000642672    -0.000263672      -0.00358441        0.109608     -0.000164272    -0.000247792        -0.984179       0.0180502
                        0.915387       -0.397314     -0.000256294    -0.000452641        0.0174814       0.0464527     -0.000339917     0.000117029
                    -5.47531e-05     0.000644547        -0.984375       0.0183475     -0.000536821      0.00018041       0.00473097        0.110319
281740                 0.0216384       0.0442353     -0.000495488     9.64609e-05         0.915123       -0.397628     -7.22811e-05     0.000372142
                    -0.000642551    -0.000263013      -0.00352233         0.10958     -0.000164429     -0.00024769        -0.984173       0.0185709
                        0.915235       -0.397663     -0.000256746    -0.000452355        0.0174912       0.0464439     -0.000339902     0.000117195
                    -5.46101e-05     0.000644453        -0.984368       0.0188696     -0.000536709     0.000180533       0.00478404        0.110288
281742                 0.0216593       0.0442196     -0.000495317     9.74078e-05         0.914971       -0.397978     -7.21171e-05     0.000372315
                    -0.000642427    -0.000262352      -0.00346027        0.109552     -0.000164587    -0.000247589        -0.984167       0.0190917
                        0.915083       -0.398013     -0.000257196    -0.000452069        0.0175009       0.0464351     -0.000339887     0.000117361
                    -5.44678e-05     0.000644358        -0.984362       0.0193917     -0.000536596     0.000180657       0.00483707        0.110256
281744                 0.0216801       0.0442038     -0.000495145     9.83506e-05         0.914818       -0.398329      -7.1953e-05     0.000372489
                    -0.000642301    -0.000261691      -0.00339824        0.109524     -0.000164745    -0.000247488         -0.98416       0.0196125
                        0.914931       -0.398363     -0.000257644    -0.000451781        0.0175106       0.0464262     -0.000339873     0.000117527
                    -5.43261e-05     0.000644262        -0.984355       0.0199137     -0.000536484     0.000180781       0.00489006        0.110224
281746                  0.021701       0.0441881     -0.000494972      9.9289e-05         0.914666        -0.39868     -7.17894e-05     0.000372663
                    -0.000642172    -0.000261028      -0.00333623        0.109496     -0.000164903    -0.000247388        -0.984153       0.0201333
                        0.914778       -0.398713     -0.000258091    -0.000451493        0.0175204       0.0464174     -0.000339858     0.000117693
                     -5.4185e-05     0.000644164        -0.984348       0.0204358      -0.00053637     0.000180904       0.00494301        0.110193
281748                 0.0217218       0.0441723     -0.000494797     0.000100223         0.914513        -0.39903     -7.16344e-05     0.000372841
                    -0.000642042    -0.000260364      -0.00327424        0.109468     -0.000165061    -0.000247287        -0.984146       0.0206541
                        0.914626       -0.399063     -0.000258537    -0.000451205        0.0175301       0.0464086     -0.000339838     0.000117848
                    -5.40446e-05     0.000644064         -0.98434       0.0209578     -0.000536257     0.000181028       0.00499593        0.110161
281750                 0.0217427       0.0441565     -0.000494621     0.000101153         0.914361       -0.399381     -7.14529e-05     0.000373007
                    -0.000641909    -0.000259699      -0.00321228         0.10944     -0.000165215    -0.000247184        -0.984138       0.0211749
                        0.914474       -0.399412     -0.000258982    -0.000450916        0.0175398       0.0463997     -0.000339829     0.000118038
                    -5.39047e-05     0.000643963        -0.984332       0.0214798     -0.000536141     0.000181152       0.00504879        0.110129
281752                 0.0217635       0.0441408     -0.000494444     0.000102079         0.914208       -0.399731     -7.12896e-05      0.00037318
                    -0.000641775    -0.000259033      -0.00315034        0.109412     -0.000165382    -0.000247089         -0.98413       0.0216957
                        0.914321       -0.399762     -0.000259426    -0.000450626        0.0175496       0.0463909     -0.000339815     0.000118202
                    -5.37659e-05      0.00064386        -0.984324       0.0220019     -0.000536031     0.000181275       0.00510163        0.110097
281754                 0.0217843        0.044125     -0.000494265        0.000103         0.914055       -0.400082     -7.11245e-05     0.000373353
                    -0.000641637    -0.000258365      -0.00308842        0.109384      -0.00016554    -0.000246989        -0.984122       0.0222164
                        0.914168       -0.400111     -0.000259868    -0.000450335        0.0175593       0.0463821     -0.000339801     0.000118369
                    -5.36268e-05     0.000643756        -0.984316       0.0225239     -0.000535916     0.000181398       0.00515442        0.110066
281756                 0.0218051       0.0441092     -0.000494085     0.000103916         0.913902       -0.400432     -7.09589e-05     0.000373526
                    -0.000641498    -0.000257696      -0.00302652        0.109356     -0.000165699    -0.000246889        -0.984114       0.0227372
                        0.914015       -0.400461      -0.00026031    -0.000450044         0.017569       0.0463732     -0.000339787     0.000118537
                    -5.34889e-05      0.00064365        -0.984307       0.0230459     -0.000535801     0.000181522       0.00520717        0.110034
281758                 0.0218259       0.0440934     -0.000493904     0.000104828         0.913748       -0.400783     -7.07929e-05     0.000373699
                    -0.000641356    -0.000257026      -0.00296465        0.109328     -0.000165858     -0.00024679        -0.984105        0.023258
                        0.913862        -0.40081      -0.00026075    -0.000449752        0.0175787       0.0463644     -0.000339774     0.000118705
                    -5.33516e-05     0.000643543        -0.984298       0.0235679     -0.000535686     0.000181645       0.00525989        0.110002
281760                 0.0218467       0.0440775     -0.000493721     0.000105735         0.913595       -0.401133     -7.06267e-05     0.000373871
                    -0.000641212    -0.000256356       -0.0029028          0.1093     -0.000166018    -0.000246692        -0.984096       0.0237787
                        0.913709       -0.401159     -0.000261189    -0.000449459        0.0175884       0.0463556     -0.000339761     0.000118873
                    -5.32149e-05     0.000643434        -0.984289       0.0240899     -0.000535571     0.000181768       0.00531256         0.10997
281762                 0.0218675       0.0440617     -0.000493537     0.000106638         0.913441       -0.401483     -7.04603e-05     0.000374044
                    -0.000641066    -0.000255684      -0.00284098        0.109272     -0.000166178    -0.000246593        -0.984087       0.0242995
                        0.913556       -0.401509     -0.000261627    -0.000449165        0.0175981       0.0463467     -0.000339748     0.000119041
