! TOUCHSTONE file generated by CST MICROWAVE STUDIO
! Date and time: Tue Oct 14 07:24:52 2025
! Project name: Teste_Macro_Metasurface_Nanopilar.cst
! Parameters = {H=600; L_x=70; L_y=115; Lambda=1064; Max_L=200; Min_L=70; PathPara=1; Phi=0; Step_L=10; Theta=0; p=520; phaseX=180; phaseY=0}
! Header version: 2018
! Port assignment regex: !\s*Touchstone port\s*([0-9]+)\s*=\s*(CST MWS port|CST DS port)\s*([0-9]+|Zmin|Zmax)\s*\(\"(.*)\"\)(\s*mode\s*([0-9]+))?.*
! Touchstone port assignment:
! Touchstone port 1 = CST MWS port Zmax ("") mode 1
! Touchstone port 2 = CST MWS port Zmax ("") mode 2
! Touchstone port 3 = CST MWS port Zmin ("") mode 1
! Touchstone port 4 = CST MWS port Zmin ("") mode 2
! S-Parameters are not renormalized. Each port impedance will be approximated by the real part at minimum frequency. The values are described via the [Reference] keyword.
! Default impedance is overridden by [Reference]
[Version] 2.0
# GHz S RI R 376.73
[Number of Ports] 4
[Reference]
376.73 376.73 259.814 259.814 
[Number of Frequencies] 51
[Network Data]
281700                -0.0191626      0.00491428     -0.000226081    -0.000478325         0.844084       -0.531899      0.000350032    -5.48998e-05
                    -0.000291919    -0.000397344       -0.0447549        0.120552      0.000124997    -0.000149541         0.985158        0.108387
                          0.8444       -0.531821     -3.00469e-05    -7.58681e-05        0.0123457      -0.0146086      0.000180133    -0.000562221
                    -1.59638e-05    -0.000137853         0.985448        0.108257      0.000219288    -0.000559853        0.0174607        0.127449
281702                -0.0191588      0.00490928     -0.000226378    -0.000478032         0.843874       -0.532232      0.000350138    -5.50008e-05
                    -0.000292111    -0.000397322       -0.0447134        0.120563      0.000124784     -0.00014948         0.985198        0.108032
                         0.84419       -0.532153     -3.01329e-05    -7.58168e-05        0.0123279      -0.0146171      0.000179922    -0.000562328
                    -1.60113e-05    -0.000137878         0.985488        0.107901      0.000218972    -0.000559882        0.0175097        0.127438
281704                 -0.019155      0.00490428     -0.000226716    -0.000477684         0.843665       -0.532564      0.000350243    -5.51014e-05
                    -0.000292303      -0.0003973       -0.0446718        0.120575       0.00012457    -0.000149418         0.985237        0.107676
                        0.843981       -0.532485     -3.02428e-05    -7.57387e-05        0.0123101      -0.0146256      0.000179711    -0.000562435
                    -1.60589e-05    -0.000137904         0.985527        0.107546      0.000218656    -0.000559912        0.0175586        0.127428
281706                -0.0191512      0.00489928     -0.000227097    -0.000477276         0.843456       -0.532896       0.00035035    -5.52017e-05
                    -0.000292496    -0.000397277       -0.0446303        0.120587      0.000124355    -0.000149356         0.985276        0.107321
                        0.843771       -0.532817     -3.03789e-05    -7.56312e-05        0.0122922      -0.0146341      0.000179501    -0.000562542
                    -1.61066e-05    -0.000137929         0.985566         0.10719      0.000218339    -0.000559941        0.0176075        0.127418
281708                -0.0191475      0.00489428     -0.000227527    -0.000476802         0.843246       -0.533229      0.000350457    -5.53017e-05
                    -0.000292688    -0.000397255       -0.0445887        0.120598       0.00012414    -0.000149294         0.985315        0.106965
                        0.843561       -0.533149     -3.05434e-05    -7.54916e-05        0.0122743      -0.0146426       0.00017929    -0.000562648
                    -1.61543e-05    -0.000137955         0.985606        0.106834      0.000218023     -0.00055997        0.0176564        0.127407
281710                -0.0191437      0.00488927     -0.000228009    -0.000476256         0.843036       -0.533561      0.000350563    -5.54014e-05
                    -0.000292881    -0.000397232       -0.0445471         0.12061      0.000123925    -0.000149232         0.985354         0.10661
                        0.843351       -0.533481     -3.07386e-05     -7.5317e-05        0.0122565       -0.014651       0.00017908    -0.000562755
                    -1.62021e-05    -0.000137981         0.985645        0.106478      0.000217707    -0.000559998        0.0177053        0.127397
281712                -0.0191399      0.00488426     -0.000228547    -0.000475633         0.842826       -0.533893      0.000350671    -5.55007e-05
                    -0.000293074    -0.000397209       -0.0445055        0.120621      0.000123711    -0.000149171         0.985392        0.106254
                        0.843141       -0.533813     -3.09662e-05    -7.51049e-05        0.0122386      -0.0146595       0.00017887    -0.000562861
                    -1.62499e-05    -0.000138006         0.985683        0.106123       0.00021739    -0.000560027        0.0177542        0.127387
281714                -0.0191362      0.00487925     -0.000229145    -0.000474928         0.842616       -0.534224      0.000350778    -5.55996e-05
                    -0.000293266    -0.000397187       -0.0444638        0.120632      0.000123496    -0.000149109         0.985431        0.105899
                        0.842931       -0.534145     -3.12276e-05     -7.4853e-05        0.0122207      -0.0146679       0.00017866    -0.000562967
                    -1.62978e-05    -0.000138032         0.985722        0.105767      0.000217074    -0.000560056        0.0178031        0.127376
281716                -0.0191324      0.00487424     -0.000229803     -0.00047414         0.842406       -0.534556      0.000350886    -5.56982e-05
                    -0.000293459    -0.000397164       -0.0444222        0.120644      0.000123282    -0.000149048         0.985469        0.105543
                         0.84272       -0.534477     -3.15228e-05    -7.45604e-05        0.0122029      -0.0146763       0.00017845    -0.000563073
                    -1.63458e-05    -0.000138057          0.98576        0.105411      0.000216758    -0.000560085         0.017852        0.127366
281718                -0.0191287      0.00486923     -0.000230519    -0.000473269         0.842196       -0.534888      0.000350994    -5.57964e-05
                    -0.000293653    -0.000397141       -0.0443805        0.120655      0.000123067    -0.000148986         0.985508        0.105188
                         0.84251       -0.534808       -3.185e-05    -7.42282e-05         0.012185      -0.0146848       0.00017824    -0.000563179
                    -1.63938e-05    -0.000138083         0.985798        0.105055      0.000216441    -0.000560113        0.0179009        0.127355
281720                -0.0191249      0.00486421     -0.000231288    -0.000472325         0.841986        -0.53522      0.000351102    -5.58943e-05
                    -0.000293846    -0.000397118       -0.0443389        0.120666      0.000122853    -0.000148925         0.985546        0.104832
                        0.842299        -0.53514     -3.22041e-05    -7.38613e-05        0.0121671      -0.0146932       0.00017803    -0.000563284
                    -1.64418e-05    -0.000138109         0.985836          0.1047      0.000216125    -0.000560142        0.0179498        0.127345
281722                -0.0191212      0.00485919      -0.00023209    -0.000471332         0.841775       -0.535551       0.00035121    -5.59918e-05
                    -0.000294039    -0.000397095       -0.0442972        0.120677      0.000122638    -0.000148863         0.985584        0.104476
                        0.842088       -0.535471     -3.25745e-05    -7.34713e-05        0.0121492      -0.0147016       0.00017782    -0.000563389
                      -1.649e-05    -0.000138134         0.985874        0.104344      0.000215809     -0.00056017        0.0179987        0.127334
281724                -0.0191175      0.00485417     -0.000232891    -0.000470335         0.841565       -0.535883      0.000351318     -5.6089e-05
                    -0.000294233    -0.000397072       -0.0442556        0.120689      0.000122424    -0.000148802         0.985622        0.104121
                        0.841877       -0.535803     -3.29419e-05    -7.30813e-05        0.0121313      -0.0147099       0.00017761    -0.000563495
                    -1.65382e-05     -0.00013816         0.985912        0.103988      0.000215492    -0.000560199        0.0180476        0.127324
281726                -0.0191138      0.00484915     -0.000233631    -0.000469419         0.841354       -0.536214      0.000351426    -5.61859e-05
                    -0.000294426    -0.000397049       -0.0442139          0.1207       0.00012221    -0.000148741          0.98566        0.103765
                        0.841666       -0.536134     -3.32725e-05    -7.27331e-05        0.0121134      -0.0147183        0.0001774      -0.0005636
                    -1.65864e-05    -0.000138185          0.98595        0.103632      0.000215176    -0.000560227        0.0180964        0.127313
281728                  -0.01911      0.00484413     -0.000234202    -0.000468729         0.841143       -0.536545      0.000351534    -5.62826e-05
                     -0.00029462    -0.000397026       -0.0441723        0.120711      0.000121996    -0.000148679         0.985697        0.103409
                        0.841455       -0.536465     -3.35102e-05    -7.24987e-05        0.0120955      -0.0147266       0.00017719    -0.000563704
                    -1.66347e-05    -0.000138211         0.985988        0.103277      0.000214859    -0.000560256        0.0181453        0.127303
281730                -0.0191063       0.0048391     -0.000234432    -0.000468506         0.840932       -0.536877      0.000351642    -5.63789e-05
                    -0.000294814    -0.000397002       -0.0441308        0.120723      0.000121782    -0.000148618         0.985735        0.103054
                        0.841244       -0.536796     -3.35625e-05     -7.2496e-05        0.0120776       -0.014735       0.00017698    -0.000563809
                     -1.6683e-05    -0.000138236         0.986026        0.102921      0.000214543    -0.000560284        0.0181941        0.127292
281732                -0.0191026      0.00483407     -0.000234049     -0.00046912         0.840721       -0.537208       0.00035175    -5.64751e-05
                    -0.000295008    -0.000396979       -0.0440893        0.120735      0.000121567    -0.000148557         0.985772        0.102698
                        0.841033       -0.537127     -3.32805e-05    -7.29071e-05        0.0120596      -0.0147433       0.00017677    -0.000563914
                    -1.67313e-05    -0.000138262         0.986064        0.102564      0.000214226    -0.000560312         0.018243        0.127282
281734                -0.0190989      0.00482904      -0.00023267    -0.000471094         0.840509       -0.537539      0.000351858     -5.6571e-05
                    -0.000295203    -0.000396955       -0.0440481        0.120747      0.000121353    -0.000148496          0.98581        0.102342
                        0.840821       -0.537458     -3.24311e-05    -7.39874e-05        0.0120417      -0.0147516      0.000176561    -0.000564018
                    -1.67793e-05    -0.000138287         0.986103        0.102208       0.00021391     -0.00056034        0.0182918        0.127271
281736                -0.0190952      0.00482401     -0.000229827    -0.000475051         0.840298        -0.53787      0.000351965    -5.66668e-05
                    -0.000295406    -0.000396928       -0.0440075        0.120761      0.000121139    -0.000148435         0.985847        0.101987
                        0.840609       -0.537789     -3.06688e-05    -7.60352e-05        0.0120238      -0.0147599      0.000176351    -0.000564122
                    -1.68239e-05    -0.000138312         0.986144        0.101851      0.000213594    -0.000560368        0.0183407         0.12726
281738                -0.0190915      0.00481898     -0.000225106    -0.000481501         0.840086       -0.538201      0.000352073    -5.67624e-05
                    -0.000295586     -0.00039691       -0.0439681        0.120776      0.000120925    -0.000148374         0.985884        0.101631
                        0.840397        -0.53812     -2.75445e-05    -7.92674e-05        0.0120059      -0.0147682      0.000176141    -0.000564226
                     -1.6879e-05     -0.00013834         0.986188        0.101494      0.000213277    -0.000560397        0.0183895         0.12725
281740                -0.0190879      0.00481394     -0.000218436    -0.000490438         0.839875       -0.538532       0.00035218    -5.68579e-05
                    -0.000295782    -0.000396886       -0.0439317        0.120791      0.000120712    -0.000148313         0.985921        0.101275
                        0.840185       -0.538451     -2.26449e-05    -8.35721e-05        0.0119879      -0.0147765      0.000175931    -0.000564329
                    -1.69268e-05    -0.000138365         0.986242        0.101137      0.000212961    -0.000560425        0.0184383        0.127239
281742                -0.0190842       0.0048089     -0.000210395     -0.00050098         0.839663       -0.538862      0.000352288    -5.69533e-05
                    -0.000295977    -0.000396862        -0.043899        0.120805      0.000120498    -0.000148252         0.985957        0.100919
                        0.839973       -0.538781      -1.5958e-05    -8.82942e-05          0.01197      -0.0147847      0.000175721    -0.000564433
                    -1.69754e-05     -0.00013839         0.986333        0.100796      0.000212644    -0.000560452        0.0184872        0.127228
281744                -0.0190805      0.00480386     -0.000202173    -0.000511515         0.839451       -0.539193      0.000352395    -5.70486e-05
                    -0.000296172    -0.000396838       -0.0438667        0.120813      0.000120284    -0.000148191         0.985994        0.100564
                        0.839761       -0.539112     -8.25711e-06    -9.24392e-05         0.011952       -0.014793      0.000175512    -0.000564536
                    -1.70241e-05    -0.000138416         0.986267        0.100615      0.000212328     -0.00056048         0.018536        0.127218
281746                -0.0190768      0.00479882     -0.000195042    -0.000520464         0.839239       -0.539524      0.000352501     -5.7144e-05
                    -0.000296367    -0.000396814       -0.0438305        0.120819       0.00012007     -0.00014813         0.986031        0.100208
                        0.839549       -0.539442     -9.14956e-07    -9.53266e-05        0.0119341      -0.0148012      0.000175302    -0.000564639
                    -1.70729e-05    -0.000138441         0.986256        0.100138      0.000212011    -0.000560508        0.0185848        0.127207
281748                -0.0190732      0.00479378     -0.000189754    -0.000526998         0.839026       -0.539854      0.000352608    -5.72392e-05
                    -0.000296562     -0.00039679       -0.0437908        0.120825      0.000119857    -0.000148069         0.986067       0.0998521
                        0.839336       -0.539773      4.90735e-06    -9.69618e-05        0.0119161      -0.0148094      0.000175092    -0.000564742
                    -1.71217e-05    -0.000138467         0.986305        0.099757      0.000211695    -0.000560536        0.0186336        0.127196
281750                -0.0190695      0.00478873     -0.000186382    -0.000531131         0.838814       -0.540185      0.000352714    -5.73345e-05
                    -0.000296757    -0.000396766       -0.0437497        0.120834      0.000119643    -0.000148008         0.986103       0.0994962
                        0.839124       -0.540103      8.81236e-06    -9.77472e-05        0.0118981      -0.0148176      0.000174882    -0.000564844
                    -1.71707e-05    -0.000138492         0.986347        0.099393      0.000211378    -0.000560564        0.0186824        0.127186
281752                -0.0190659      0.00478368     -0.000184578    -0.000533352         0.838602       -0.540515      0.000352819    -5.74299e-05
                    -0.000296952    -0.000396742       -0.0437081        0.120843      0.000119429    -0.000147947         0.986139       0.0991404
                        0.838911       -0.540433      1.10284e-05    -9.80719e-05        0.0118801      -0.0148258      0.000174672    -0.000564947
                    -1.72197e-05    -0.000138518         0.986386       0.0990336      0.000211062    -0.000560591        0.0187312        0.127175
281754                -0.0190622      0.00477863     -0.000183878    -0.000534246         0.838389       -0.540845      0.000352924    -5.75252e-05
                    -0.000297147    -0.000396717       -0.0436665        0.120854      0.000119216    -0.000147887         0.986175       0.0987846
                        0.838698       -0.540764      1.20184e-05    -9.81703e-05        0.0118622       -0.014834      0.000174462    -0.000565049
                    -1.72688e-05    -0.000138543         0.986424       0.0986761      0.000210745    -0.000560619          0.01878        0.127164
281756                -0.0190586      0.00477358     -0.000183878    -0.000534306         0.838176       -0.541175      0.000353029    -5.76204e-05
                    -0.000297342    -0.000396693       -0.0436249        0.120865      0.000119002    -0.000147826         0.986211       0.0984287
                        0.838485       -0.541094      1.22218e-05    -9.81569e-05        0.0118442      -0.0148421      0.000174252    -0.000565151
                    -1.73179e-05    -0.000138569          0.98646       0.0983195      0.000210429    -0.000560646        0.0188288        0.127153
281758                -0.0190549      0.00476852     -0.000184286    -0.000533882         0.837963       -0.541505      0.000353133    -5.77157e-05
                    -0.000297538    -0.000396669       -0.0435833        0.120876      0.000118789    -0.000147765         0.986247       0.0980729
                        0.838272       -0.541424      1.19677e-05    -9.80851e-05        0.0118262      -0.0148503      0.000174042    -0.000565253
                    -1.73671e-05    -0.000138594         0.986496       0.0979635      0.000210112    -0.000560674        0.0188775        0.127142
281760                -0.0190513      0.00476347     -0.000184907    -0.000533206          0.83775       -0.541835      0.000353237    -5.78109e-05
                    -0.000297733    -0.000396644       -0.0435417        0.120888      0.000118575    -0.000147705         0.986283        0.097717
                        0.838058       -0.541754      1.14757e-05    -9.79814e-05        0.0118082      -0.0148584      0.000173832    -0.000565354
                    -1.74164e-05     -0.00013862         0.986532       0.0976078      0.000209796    -0.000560701        0.0189263        0.127132
281762                -0.0190477      0.00475841      -0.00018562    -0.000532421         0.837537       -0.542165       0.00035334    -5.79059e-05
                    -0.000297929     -0.00039662       -0.0435001        0.120899      0.000118362    -0.000147644         0.986318       0.0973611
                        0.837845       -0.542083      1.08823e-05    -9.78614e-05        0.0117902      -0.0148666      0.000173621    -0.000565455
