! TOUCHSTONE file generated by CST MICROWAVE STUDIO
! Date and time: Tue Oct 14 07:24:51 2025
! Project name: Teste_Macro_Metasurface_Nanopilar.cst
! Parameters = {H=600; L_x=70; L_y=105; Lambda=1064; Max_L=200; Min_L=70; PathPara=1; Phi=0; Step_L=10; Theta=0; p=520; phaseX=180; phaseY=0}
! Header version: 2018
! Port assignment regex: !\s*Touchstone port\s*([0-9]+)\s*=\s*(CST MWS port|CST DS port)\s*([0-9]+|Zmin|Zmax)\s*\(\"(.*)\"\)(\s*mode\s*([0-9]+))?.*
! Touchstone port assignment:
! Touchstone port 1 = CST MWS port Zmax ("") mode 1
! Touchstone port 2 = CST MWS port Zmax ("") mode 2
! Touchstone port 3 = CST MWS port Zmin ("") mode 1
! Touchstone port 4 = CST MWS port Zmin ("") mode 2
! S-Parameters are not renormalized. Each port impedance will be approximated by the real part at minimum frequency. The values are described via the [Reference] keyword.
! Default impedance is overridden by [Reference]
[Version] 2.0
# GHz S RI R 376.73
[Number of Ports] 4
[Reference]
376.73 376.73 259.814 259.814 
[Number of Frequencies] 51
[Network Data]
281700               -0.00899223        0.061778      0.000390042     -3.3647e-05         0.962113         -0.2612     -0.000280539    -4.14389e-05
                     0.000364391     7.84815e-06       -0.0514756        0.126647      0.000165529     1.03841e-05         0.979684        0.143908
                        0.962271       -0.261269      0.000157041      1.1156e-05        0.0387402       0.0490176     -0.000477253    -0.000149228
                    -0.000153343     1.56802e-05         0.979843        0.143704      -0.00022918     0.000172372        0.0128636        0.136133
281702               -0.00896765        0.061774      0.000390005    -3.38138e-05         0.962015       -0.261563     -0.000280771    -4.13537e-05
                     0.000364473      7.5809e-06       -0.0514326        0.126661      0.000165649     1.03454e-05         0.979737        0.143555
                        0.962173       -0.261632      0.000157043     1.10904e-05        0.0387538       0.0489973     -0.000477199    -0.000149027
                    -0.000153308     1.57456e-05         0.979895        0.143351     -0.000229099     0.000172389        0.0129161        0.136126
281704               -0.00894308         0.06177      0.000389968    -3.39806e-05         0.961917       -0.261925     -0.000281004    -4.12681e-05
                     0.000364556     7.31341e-06       -0.0513896        0.126676       0.00016577     1.03066e-05         0.979789        0.143202
                        0.962075       -0.261994      0.000157044     1.10248e-05        0.0387674        0.048977     -0.000477146    -0.000148827
                    -0.000153273     1.58111e-05         0.979947        0.142998     -0.000229018     0.000172406        0.0129686        0.136118
281706               -0.00891851        0.061766       0.00038993    -3.41474e-05         0.961818       -0.262288     -0.000281236    -4.11823e-05
                     0.000364638      7.0457e-06       -0.0513466        0.126691       0.00016589     1.02677e-05         0.979841        0.142849
                        0.961977       -0.262357      0.000157045     1.09592e-05         0.038781       0.0489567     -0.000477093    -0.000148626
                    -0.000153238     1.58765e-05         0.979998        0.142646     -0.000228936     0.000172423        0.0130211        0.136111
281708               -0.00889394       0.0617619      0.000389893    -3.43142e-05          0.96172        -0.26265     -0.000281468    -4.10962e-05
                     0.000364721     6.77775e-06       -0.0513035        0.126706       0.00016601     1.02287e-05         0.979892        0.142496
                        0.961878        -0.26272      0.000157047     1.08937e-05        0.0387946       0.0489364      -0.00047704    -0.000148425
                    -0.000153203      1.5942e-05          0.98005        0.142293     -0.000228854      0.00017244        0.0130736        0.136104
281710               -0.00886938       0.0617579      0.000389855     -3.4481e-05         0.961621       -0.263012     -0.000281699    -4.10099e-05
                     0.000364804     6.50958e-06       -0.0512605        0.126721       0.00016613     1.01896e-05         0.979944        0.142143
                        0.961779       -0.263082      0.000157048     1.08282e-05        0.0388081       0.0489161     -0.000476987    -0.000148224
                    -0.000153167     1.60076e-05         0.980102         0.14194     -0.000228772     0.000172456        0.0131261        0.136096
281712               -0.00884482       0.0617538      0.000389818    -3.46478e-05         0.961522       -0.263375     -0.000281931    -4.09233e-05
                     0.000364887     6.24119e-06       -0.0512175        0.126735      0.000166249     1.01504e-05         0.979996         0.14179
                         0.96168       -0.263445      0.000157049     1.07627e-05        0.0388217       0.0488958     -0.000476934    -0.000148022
                    -0.000153132     1.60731e-05         0.980153        0.141587      -0.00022869     0.000172473        0.0131786        0.136089
281714               -0.00882027       0.0617498       0.00038978    -3.48146e-05         0.961423       -0.263737     -0.000282162    -4.08365e-05
                     0.000364969     5.97257e-06       -0.0511744         0.12675      0.000166369     1.01111e-05         0.980047        0.141437
                        0.961582       -0.263807       0.00015705     1.06972e-05        0.0388352       0.0488755     -0.000476881    -0.000147821
                    -0.000153096     1.61387e-05         0.980204        0.141234     -0.000228607     0.000172489         0.013231        0.136081
281716               -0.00879572       0.0617457      0.000389743    -3.49814e-05         0.961324       -0.264099     -0.000282393    -4.07494e-05
                     0.000365052     5.70373e-06       -0.0511314        0.126765      0.000166487     1.00717e-05         0.980098        0.141084
                        0.961482        -0.26417      0.000157051     1.06318e-05        0.0388487       0.0488552     -0.000476829    -0.000147619
                     -0.00015306     1.62043e-05         0.980255        0.140882     -0.000228524     0.000172505        0.0132835        0.136074
281718               -0.00877117       0.0617417      0.000389705    -3.51483e-05         0.961225       -0.264461     -0.000282624    -4.06621e-05
                     0.000365135     5.43469e-06       -0.0510884         0.12678      0.000166606     1.00322e-05         0.980149        0.140731
                        0.961383       -0.264532      0.000157052     1.05665e-05        0.0388623       0.0488349     -0.000476776    -0.000147417
                    -0.000153024     1.62699e-05         0.980306        0.140529     -0.000228441      0.00017252         0.013336        0.136066
281720               -0.00874662       0.0617376      0.000389667    -3.53152e-05         0.961126       -0.264823     -0.000282855    -4.05746e-05
                     0.000365219     5.16546e-06       -0.0510453        0.126794      0.000166725      9.9926e-06         0.980201        0.140378
                        0.961284       -0.264894      0.000157053     1.05011e-05        0.0388758       0.0488146     -0.000476724    -0.000147215
                    -0.000152988     1.63355e-05         0.980357        0.140176     -0.000228358     0.000172536        0.0133884        0.136059
281722               -0.00872208       0.0617335       0.00038963    -3.54821e-05         0.961026       -0.265186     -0.000283085    -4.04868e-05
                     0.000365302      4.8961e-06       -0.0510023        0.126809      0.000166843     9.95288e-06         0.980251        0.140025
                        0.961184       -0.265257      0.000157054     1.04358e-05        0.0388893       0.0487942     -0.000476672    -0.000147012
                    -0.000152952     1.64012e-05         0.980408        0.139823     -0.000228275     0.000172551        0.0134409        0.136051
281724               -0.00869754       0.0617294      0.000389592    -3.56491e-05         0.960927       -0.265548     -0.000283315    -4.03989e-05
                     0.000365385     4.62672e-06       -0.0509592        0.126824      0.000166961     9.91306e-06         0.980302        0.139671
                        0.961085       -0.265619      0.000157055     1.03706e-05        0.0389028       0.0487739     -0.000476621     -0.00014681
                    -0.000152915     1.64671e-05         0.980459         0.13947     -0.000228191     0.000172566        0.0134933        0.136043
281726               -0.00867301       0.0617253      0.000389554    -3.58161e-05         0.960827        -0.26591     -0.000283545    -4.03107e-05
                      0.00036547     4.35726e-06       -0.0509161        0.126839      0.000167078     9.87314e-06         0.980353        0.139318
                        0.960985       -0.265981      0.000157056     1.03054e-05        0.0389162       0.0487536     -0.000476569    -0.000146607
                    -0.000152879      1.6534e-05         0.980509        0.139117     -0.000228108     0.000172581        0.0135458        0.136036
281728               -0.00864848       0.0617211      0.000389516    -3.59832e-05         0.960727       -0.266272     -0.000283775    -4.02224e-05
                     0.000365554     4.08505e-06       -0.0508731        0.126853      0.000167196      9.8331e-06         0.980403        0.138965
                        0.960885       -0.266343      0.000157057     1.02402e-05        0.0389297       0.0487333     -0.000476518    -0.000146405
                    -0.000152839     1.66009e-05         0.980559        0.138764     -0.000228024     0.000172596        0.0135982        0.136028
281730               -0.00862395        0.061717      0.000389479    -3.61503e-05         0.960627       -0.266634     -0.000284005    -4.01338e-05
                     0.000365637     3.81389e-06         -0.05083        0.126868      0.000167313     9.79296e-06         0.980454        0.138612
                        0.960785       -0.266706      0.000157058     1.01751e-05        0.0389431       0.0487129     -0.000476467    -0.000146202
                    -0.000152802     1.66648e-05          0.98061        0.138411      -0.00022794      0.00017261        0.0136507         0.13602
281732               -0.00859942       0.0617129      0.000389441    -3.63175e-05         0.960527       -0.266996     -0.000284234     -4.0045e-05
                      0.00036572     3.54323e-06       -0.0507869        0.126882      0.000167429     9.75271e-06         0.980504        0.138259
                        0.960685       -0.267068      0.000157058     1.01101e-05        0.0389566       0.0486926     -0.000476417    -0.000145999
                    -0.000152766     1.67301e-05          0.98066        0.138058     -0.000227855     0.000172625        0.0137031        0.136013
281734                -0.0085749       0.0617087      0.000389403    -3.64848e-05         0.960427       -0.267358     -0.000284464    -3.99561e-05
                     0.000365804     3.27235e-06       -0.0507438        0.126897      0.000167546     9.71235e-06         0.980554        0.137906
                        0.960584        -0.26743      0.000157059     1.00451e-05          0.03897       0.0486723     -0.000476366    -0.000145796
                    -0.000152728     1.67958e-05          0.98071        0.137705     -0.000227771     0.000172639        0.0137555        0.136005
281736               -0.00855038       0.0617046      0.000389366    -3.66522e-05         0.960327       -0.267719     -0.000284693     -3.9867e-05
                     0.000365887      3.0012e-06       -0.0507008        0.126912      0.000167662     9.67189e-06         0.980604        0.137552
                        0.960484       -0.267792       0.00015706     9.98013e-06        0.0389834       0.0486519     -0.000476316    -0.000145593
                    -0.000152691     1.68615e-05          0.98076        0.137352     -0.000227686     0.000172653         0.013808        0.135997
281738               -0.00852587       0.0617004      0.000389328    -3.68196e-05         0.960226       -0.268081     -0.000284921    -3.97777e-05
                     0.000365971      2.7298e-06       -0.0506577        0.126926      0.000167778     9.63131e-06         0.980654        0.137199
                        0.960383       -0.268154      0.000157061     9.91523e-06        0.0389969       0.0486316     -0.000476267     -0.00014539
                    -0.000152653     1.69273e-05         0.980809        0.136999     -0.000227601     0.000172667        0.0138604         0.13599
281740               -0.00850136       0.0616962      0.000389291    -3.69872e-05         0.960125       -0.268443      -0.00028515    -3.96882e-05
                     0.000366055     2.45815e-06       -0.0506146        0.126941      0.000167894     9.59062e-06         0.980704        0.136846
                        0.960282       -0.268516      0.000157061     9.85038e-06        0.0390103       0.0486113     -0.000476217    -0.000145187
                    -0.000152616     1.69931e-05         0.980859        0.136646     -0.000227516      0.00017268        0.0139128        0.135982
281742               -0.00847685        0.061692      0.000389253    -3.71548e-05         0.960024       -0.268805     -0.000285379    -3.95986e-05
                     0.000366139     2.18626e-06       -0.0505715        0.126955       0.00016801     9.54983e-06         0.980753        0.136493
                        0.960182       -0.268878      0.000157062     9.78558e-06        0.0390236       0.0485909     -0.000476168    -0.000144984
                    -0.000152578      1.7059e-05         0.980909        0.136293     -0.000227431     0.000172694        0.0139652        0.135974
281744               -0.00845234       0.0616878      0.000389216    -3.73225e-05         0.959924       -0.269167     -0.000285607    -3.95088e-05
                     0.000366223     1.91412e-06       -0.0505284         0.12697      0.000168125     9.50892e-06         0.980803        0.136139
                        0.960081        -0.26924      0.000157062     9.72084e-06         0.039037       0.0485706      -0.00047612    -0.000144781
                    -0.000152539     1.71249e-05         0.980958         0.13594     -0.000227345     0.000172707        0.0140176        0.135966
281746               -0.00842784       0.0616836      0.000389178    -3.74903e-05         0.959822       -0.269528     -0.000285835    -3.94189e-05
                     0.000366308     1.64175e-06       -0.0504853        0.126984       0.00016824      9.4679e-06         0.980852        0.135786
                        0.959979       -0.269602      0.000157063     9.65614e-06        0.0390504       0.0485502     -0.000476072    -0.000144578
                    -0.000152501     1.71908e-05         0.981007        0.135587      -0.00022726      0.00017272          0.01407        0.135958
281748               -0.00840334       0.0616794      0.000389141    -3.76581e-05         0.959721        -0.26989     -0.000286063    -3.93288e-05
                     0.000366392     1.36914e-06       -0.0504422        0.126999      0.000168355     9.42676e-06         0.980902        0.135433
                        0.959878       -0.269963      0.000157063     9.59148e-06        0.0390638       0.0485299     -0.000476024    -0.000144375
                    -0.000152463     1.72567e-05         0.981056        0.135234     -0.000227174     0.000172733        0.0141225        0.135951
281750               -0.00837885       0.0616752      0.000389104     -3.7826e-05          0.95962       -0.270251      -0.00028629    -3.92386e-05
                     0.000366476     1.09629e-06       -0.0503991        0.127013      0.000168469     9.38552e-06         0.980951        0.135079
                        0.959777       -0.270325      0.000157064     9.52686e-06        0.0390771       0.0485095     -0.000475976    -0.000144173
                    -0.000152424     1.73227e-05         0.981105         0.13488     -0.000227088     0.000172745        0.0141749        0.135943
281752               -0.00835436       0.0616709      0.000389066    -3.79939e-05         0.959518       -0.270613     -0.000286518    -3.91482e-05
                     0.000366561      8.2321e-07       -0.0503559        0.127028      0.000168583     9.34416e-06            0.981        0.134726
                        0.959675       -0.270687      0.000157064     9.46227e-06        0.0390904       0.0484891     -0.000475929     -0.00014397
                    -0.000152385     1.73887e-05         0.981154        0.134527     -0.000227002     0.000172758        0.0142272        0.135935
281754               -0.00832987       0.0616667      0.000389029    -3.81618e-05         0.959417       -0.270975     -0.000286745    -3.90578e-05
                     0.000366645     5.49891e-07       -0.0503128        0.127042      0.000168697     9.30269e-06         0.981049        0.134372
                        0.959573       -0.271049      0.000157065      9.3977e-06        0.0391038       0.0484688     -0.000475882    -0.000143767
                    -0.000152346     1.74547e-05         0.981203        0.134174     -0.000226915      0.00017277        0.0142796        0.135927
281756               -0.00830539       0.0616624      0.000388991    -3.83297e-05         0.959315       -0.271336     -0.000286972    -3.89672e-05
                      0.00036673     2.76337e-07       -0.0502697        0.127057      0.000168811      9.2611e-06         0.981097        0.134019
                        0.959472        -0.27141      0.000157065     9.33314e-06        0.0391171       0.0484484     -0.000475836    -0.000143565
                    -0.000152307     1.75207e-05         0.981251        0.133821     -0.000226828     0.000172782         0.014332        0.135919
281758               -0.00828091       0.0616581      0.000388953    -3.84976e-05         0.959213       -0.271698     -0.000287199    -3.88764e-05
                     0.000366815     2.54676e-09       -0.0502266        0.127071      0.000168924     9.21939e-06         0.981146        0.133666
                         0.95937       -0.271772      0.000157065     9.26858e-06        0.0391304       0.0484281      -0.00047579    -0.000143363
                    -0.000152268     1.75868e-05           0.9813        0.133468     -0.000226742     0.000172794        0.0143844        0.135911
281760               -0.00825643       0.0616539      0.000388915    -3.86654e-05         0.959111       -0.272059     -0.000287426    -3.87856e-05
                       0.0003669    -2.71478e-07       -0.0501834        0.127086      0.000169038     9.17757e-06         0.981194        0.133312
                        0.959267       -0.272134      0.000157065       9.204e-06        0.0391437       0.0484077     -0.000475744    -0.000143161
                    -0.000152229     1.76529e-05         0.981348        0.133114     -0.000226655     0.000172806        0.0144368        0.135903
281762               -0.00823196       0.0616496      0.000388877    -3.88331e-05         0.959009        -0.27242     -0.000287653    -3.86947e-05
                     0.000366985    -5.45738e-07       -0.0501403          0.1271       0.00016915     9.13564e-06         0.981243        0.132959
                        0.959165       -0.272495      0.000157065     9.13939e-06         0.039157       0.0483873     -0.000475699    -0.000142959
