! TOUCHSTONE file generated by CST MICROWAVE STUDIO
! Date and time: Tue Oct 14 07:29:13 2025
! Project name: Teste_Macro_Metasurface_Nanopilar.cst
! Parameters = {H=600; L_x=140; L_y=90; Lambda=1064; Max_L=200; Min_L=70; PathPara=1; Phi=0; Step_L=10; Theta=0; p=520; phaseX=180; phaseY=0}
! Header version: 2018
! Port assignment regex: !\s*Touchstone port\s*([0-9]+)\s*=\s*(CST MWS port|CST DS port)\s*([0-9]+|Zmin|Zmax)\s*\(\"(.*)\"\)(\s*mode\s*([0-9]+))?.*
! Touchstone port assignment:
! Touchstone port 1 = CST MWS port Zmax ("") mode 1
! Touchstone port 2 = CST MWS port Zmax ("") mode 2
! Touchstone port 3 = CST MWS port Zmin ("") mode 1
! Touchstone port 4 = CST MWS port Zmin ("") mode 2
! S-Parameters are not renormalized. Each port impedance will be approximated by the real part at minimum frequency. The values are described via the [Reference] keyword.
! Default impedance is overridden by [Reference]
[Version] 2.0
# GHz S RI R 376.73
[Number of Ports] 4
[Reference]
376.73 376.73 259.814 259.814 
[Number of Frequencies] 51
[Network Data]
281700                 0.0264854    -0.000227941      -6.7861e-05     0.000446145         0.802769       -0.592676       0.00032097    -0.000329971
                    -1.96283e-05     0.000388968        0.0289659       0.0461483      0.000273418    -9.29804e-05        -0.921677         0.35894
                        0.803072       -0.592483      0.000354537     -0.00011949      -0.00804277       0.0259527     -0.000361267    -0.000210546
                     0.000277953    -0.000183447        -0.922106        0.358773     -0.000349436    -0.000253579       0.00758729        0.055766
281702                 0.0264907    -0.000249413     -6.76976e-05     0.000446164         0.802533       -0.592996      0.000320784    -0.000330171
                    -1.95103e-05     0.000388944        0.0289919       0.0461019      0.000273487    -9.30466e-05        -0.921491        0.359421
                        0.802836       -0.592803      0.000354487    -0.000119625      -0.00804445       0.0259579     -0.000361342    -0.000210355
                     0.000277876     -0.00018355        -0.921921        0.359254     -0.000349633    -0.000253432       0.00759402       0.0557405
281704                 0.0264961     -0.00027089     -6.75343e-05     0.000446182         0.802297       -0.593315      0.000320598    -0.000330371
                    -1.93924e-05      0.00038892        0.0290178       0.0460554      0.000273556    -9.31129e-05        -0.921305        0.359902
                          0.8026       -0.593122      0.000354437     -0.00011976      -0.00804614       0.0259632     -0.000361417    -0.000210164
                     0.000277799    -0.000183652        -0.921735        0.359735      -0.00034983    -0.000253284       0.00760072       0.0557151
281706                 0.0265015     -0.00029237     -6.73709e-05     0.000446201         0.802061       -0.593635      0.000320411    -0.000330571
                    -1.92746e-05     0.000388896        0.0290438       0.0460089      0.000273625    -9.31793e-05        -0.921119        0.360383
                        0.802364       -0.593442      0.000354388    -0.000119895      -0.00804782       0.0259685     -0.000361492    -0.000209973
                     0.000277722    -0.000183754        -0.921549        0.360216     -0.000350027    -0.000253135       0.00760739       0.0556897
281708                 0.0265068    -0.000313854     -6.72076e-05     0.000446219         0.801824       -0.593954      0.000320224    -0.000330771
                     -1.9157e-05     0.000388871        0.0290697       0.0459624      0.000273694    -9.32459e-05        -0.920932        0.360863
                        0.802127       -0.593761      0.000354338     -0.00012003       -0.0080495       0.0259739     -0.000361567    -0.000209783
                     0.000277645    -0.000183856        -0.921363        0.360697     -0.000350224    -0.000252987       0.00761403       0.0556642
281710                 0.0265122    -0.000335343     -6.70443e-05     0.000446237         0.801587       -0.594273      0.000320037     -0.00033097
                    -1.90394e-05     0.000388847        0.0290956       0.0459159      0.000273763    -9.33126e-05        -0.920746        0.361344
                        0.801891        -0.59408      0.000354288    -0.000120165      -0.00805117       0.0259792     -0.000361642    -0.000209592
                     0.000277568    -0.000183959        -0.921176        0.361178     -0.000350421    -0.000252838       0.00762064       0.0556388
281712                 0.0265175    -0.000356835      -6.6881e-05     0.000446255         0.801351       -0.594592      0.000319851     -0.00033117
                     -1.8922e-05     0.000388822        0.0291214       0.0458694      0.000273832    -9.33794e-05        -0.920559        0.361824
                        0.801654       -0.594399      0.000354238      -0.0001203      -0.00805285       0.0259845     -0.000361717    -0.000209401
                     0.000277491    -0.000184061        -0.920989        0.361658     -0.000350618    -0.000252689       0.00762723       0.0556134
281714                 0.0265228    -0.000378332     -6.67178e-05     0.000446273         0.801114       -0.594911      0.000319663     -0.00033137
                    -1.88047e-05     0.000388798        0.0291472       0.0458228      0.000273901    -9.34463e-05        -0.920371        0.362305
                        0.801417       -0.594718      0.000354188    -0.000120435      -0.00805452       0.0259898     -0.000361792    -0.000209211
                     0.000277414    -0.000184163        -0.920802        0.362139     -0.000350815    -0.000252539       0.00763378       0.0555881
281716                 0.0265281    -0.000399833     -6.65546e-05      0.00044629         0.800877        -0.59523      0.000319476    -0.000331569
                    -1.86876e-05     0.000388773         0.029173       0.0457763      0.000273969    -9.35134e-05        -0.920184        0.362785
                         0.80118       -0.595037      0.000354138     -0.00012057      -0.00805618       0.0259952     -0.000361866     -0.00020902
                     0.000277337    -0.000184265        -0.920615        0.362619     -0.000351012     -0.00025239        0.0076403       0.0555627
281718                 0.0265334    -0.000421337     -6.63914e-05     0.000446308          0.80064       -0.595549      0.000319289    -0.000331769
                    -1.85706e-05     0.000388748        0.0291987       0.0457297      0.000274038    -9.35806e-05        -0.919996        0.363265
                        0.800943       -0.595356      0.000354088    -0.000120706      -0.00805785       0.0260005     -0.000361941    -0.000208829
                      0.00027726    -0.000184368        -0.920428          0.3631     -0.000351209     -0.00025224        0.0076468       0.0555374
281720                 0.0265387    -0.000442846     -6.62282e-05     0.000446325         0.800403       -0.595868      0.000319101    -0.000331968
                    -1.84537e-05     0.000388723        0.0292244       0.0456831      0.000274107    -9.36479e-05        -0.919808        0.363745
                        0.800706       -0.595675      0.000354039    -0.000120841      -0.00805951       0.0260059     -0.000362015    -0.000208639
                     0.000277183     -0.00018447         -0.92024         0.36358     -0.000351406     -0.00025209       0.00765327        0.055512
281722                  0.026544    -0.000464358     -6.60651e-05     0.000446343         0.800165       -0.596186      0.000318913    -0.000332167
                    -1.83369e-05     0.000388698        0.0292501       0.0456365      0.000274176    -9.37154e-05         -0.91962        0.364225
                        0.800469       -0.595993      0.000353989    -0.000120976      -0.00806117       0.0260112     -0.000362089    -0.000208448
                     0.000277106    -0.000184572        -0.920052         0.36406     -0.000351603    -0.000251939        0.0076597       0.0554867
281724                 0.0265492    -0.000485875     -6.59019e-05      0.00044636         0.799928       -0.596505      0.000318726    -0.000332367
                    -1.82203e-05     0.000388673        0.0292757       0.0455899      0.000274244     -9.3783e-05        -0.919432        0.364705
                        0.800231       -0.596312      0.000353939    -0.000121112      -0.00806282       0.0260166     -0.000362163    -0.000208258
                     0.000277029    -0.000184675        -0.919864         0.36454       -0.0003518    -0.000251788       0.00766611       0.0554614
281726                 0.0265545    -0.000507396     -6.57388e-05     0.000446377          0.79969       -0.596824      0.000318538    -0.000332566
                    -1.81039e-05     0.000388648        0.0293013       0.0455433      0.000274313    -9.38507e-05        -0.919243        0.365185
                        0.799994        -0.59663       0.00035389    -0.000121247      -0.00806448        0.026022     -0.000362237    -0.000208067
                     0.000276951    -0.000184777        -0.919675         0.36502     -0.000351996    -0.000251637       0.00767249       0.0554361
281728                 0.0265597     -0.00052892     -6.55757e-05     0.000446394         0.799452       -0.597142       0.00031835    -0.000332765
                    -1.79875e-05     0.000388622        0.0293269       0.0454967      0.000274382    -9.39185e-05        -0.919054        0.365664
                        0.799756       -0.596949       0.00035384    -0.000121383      -0.00806613       0.0260273     -0.000362311    -0.000207876
                     0.000276874    -0.000184879        -0.919487          0.3655     -0.000352193    -0.000251486       0.00767884       0.0554108
281730                 0.0265649    -0.000550449     -6.54126e-05     0.000446411         0.799214        -0.59746      0.000318161    -0.000332964
                    -1.78713e-05     0.000388597        0.0293524         0.04545       0.00027445    -9.39865e-05        -0.918865        0.366144
                        0.799518       -0.597267       0.00035379    -0.000121518      -0.00806777       0.0260327     -0.000362384    -0.000207686
                     0.000276797    -0.000184982        -0.919298         0.36598      -0.00035239    -0.000251335       0.00768516       0.0553856
281732                 0.0265701    -0.000571982     -6.52496e-05     0.000446428         0.798976       -0.597778      0.000317973    -0.000333163
                    -1.77553e-05     0.000388571        0.0293779       0.0454034      0.000274519    -9.40546e-05        -0.918675        0.366623
                         0.79928       -0.597585      0.000353741    -0.000121654      -0.00806942       0.0260381     -0.000362458    -0.000207495
                      0.00027672    -0.000185084        -0.919108        0.366459     -0.000352586    -0.000251183       0.00769146       0.0553603
281734                 0.0265753    -0.000593518     -6.50865e-05     0.000446444         0.798738       -0.598096      0.000317784    -0.000333362
                    -1.76394e-05     0.000388546        0.0294034       0.0453567      0.000274587    -9.41229e-05        -0.918486        0.367103
                        0.799042       -0.597903      0.000353691    -0.000121789      -0.00807106       0.0260435     -0.000362532    -0.000207305
                     0.000276642    -0.000185186        -0.918919        0.366939     -0.000352783    -0.000251031       0.00769772       0.0553351
281736                 0.0265805    -0.000615059     -6.49235e-05     0.000446461           0.7985       -0.598414      0.000317596    -0.000333561
                    -1.75237e-05      0.00038852        0.0294288         0.04531      0.000274656    -9.41912e-05        -0.918296        0.367582
                        0.798804       -0.598221      0.000353641    -0.000121925       -0.0080727       0.0260489     -0.000362605    -0.000207114
                     0.000276565    -0.000185289        -0.918729        0.367418     -0.000352979    -0.000250878       0.00770396       0.0553099
281738                 0.0265857    -0.000636603     -6.47605e-05     0.000446477         0.798262       -0.598732      0.000317407     -0.00033376
                    -1.74081e-05     0.000388494        0.0294542       0.0452633      0.000274724    -9.42597e-05        -0.918106        0.368061
                        0.798565       -0.598539      0.000353592     -0.00012206      -0.00807433       0.0260544     -0.000362678    -0.000206924
                     0.000276488    -0.000185391        -0.918539        0.367898     -0.000353176    -0.000250726       0.00771016       0.0552847
281740                 0.0265909    -0.000658152     -6.45975e-05     0.000446494         0.798023        -0.59905      0.000317218    -0.000333959
                    -1.72927e-05     0.000388468        0.0294796       0.0452166      0.000274793    -9.43284e-05        -0.917915         0.36854
                        0.798327       -0.598857      0.000353542    -0.000122196      -0.00807596       0.0260598     -0.000362751    -0.000206733
                      0.00027641    -0.000185494        -0.918349        0.368377     -0.000353372    -0.000250573       0.00771634       0.0552595
281742                  0.026596    -0.000679704     -6.44345e-05      0.00044651         0.797784       -0.599368      0.000317029    -0.000334158
                    -1.71775e-05     0.000388442        0.0295049       0.0451699      0.000274861    -9.43971e-05        -0.917724        0.369019
                        0.798088       -0.599175      0.000353493    -0.000122332      -0.00807759       0.0260652     -0.000362824    -0.000206543
                     0.000276333    -0.000185596        -0.918158        0.368856     -0.000353569     -0.00025042       0.00772249       0.0552343
281744                 0.0266012    -0.000701261     -6.42715e-05     0.000446526         0.797546       -0.599686      0.000316839    -0.000334357
                    -1.70626e-05     0.000388415        0.0295302       0.0451231      0.000274929     -9.4466e-05        -0.917534        0.369498
                        0.797849       -0.599492      0.000353443    -0.000122468      -0.00807922       0.0260706     -0.000362897    -0.000206352
                     0.000276255    -0.000185699        -0.917968        0.369335     -0.000353765    -0.000250266       0.00772861       0.0552091
281746                 0.0266063    -0.000722821     -6.41086e-05     0.000446541         0.797307       -0.600003       0.00031665    -0.000334555
                    -1.69479e-05     0.000388389        0.0295555       0.0450764      0.000274998     -9.4535e-05        -0.917342        0.369976
                         0.79761        -0.59981      0.000353394    -0.000122603      -0.00808084       0.0260761      -0.00036297    -0.000206162
                     0.000276178    -0.000185801        -0.917777        0.369814     -0.000353961    -0.000250112        0.0077347        0.055184
281748                 0.0266114    -0.000744385     -6.39456e-05     0.000446557         0.797068        -0.60032       0.00031646    -0.000334754
                    -1.68336e-05     0.000388361        0.0295807       0.0450296      0.000275066    -9.46042e-05        -0.917151        0.370455
                        0.797371       -0.600127      0.000353344    -0.000122739      -0.00808246       0.0260815     -0.000363042    -0.000205972
                       0.0002761    -0.000185904        -0.917585        0.370293     -0.000354158    -0.000249959       0.00774076       0.0551588
281750                 0.0266166    -0.000765954     -6.37827e-05     0.000446573         0.796828       -0.600638      0.000316271    -0.000334952
                    -1.67201e-05     0.000388333        0.0296059       0.0449829      0.000275134    -9.46735e-05        -0.916959        0.370933
                        0.797132       -0.600445      0.000353295    -0.000122875      -0.00808408        0.026087     -0.000363115    -0.000205781
                     0.000276022    -0.000186007        -0.917394        0.370771     -0.000354354    -0.000249804       0.00774679       0.0551337
281752                 0.0266217    -0.000787526     -6.36197e-05     0.000446588         0.796589       -0.600955      0.000316081    -0.000335151
                    -1.66081e-05     0.000388303        0.0296311       0.0449361      0.000275202    -9.47429e-05        -0.916767        0.371412
                        0.796893       -0.600762      0.000353246    -0.000123011      -0.00808569       0.0260925     -0.000363187    -0.000205591
                     0.000275944     -0.00018611        -0.917202         0.37125      -0.00035455     -0.00024965        0.0077528       0.0551086
281754                 0.0266267    -0.000809101     -6.34568e-05     0.000446603          0.79635       -0.601272      0.000315891    -0.000335349
                    -1.65031e-05     0.000388262        0.0296562       0.0448893       0.00027527    -9.48124e-05        -0.916575         0.37189
                        0.796654       -0.601079      0.000353196    -0.000123147       -0.0080873       0.0260979     -0.000363259    -0.000205401
                     0.000275864    -0.000186215         -0.91701        0.371729     -0.000354747    -0.000249495       0.00775877       0.0550835
281756                 0.0266318    -0.000830685     -6.32939e-05     0.000446619          0.79611       -0.601589      0.000315701    -0.000335548
                    -1.63013e-05     0.000388401        0.0296813       0.0448425      0.000275338    -9.48821e-05        -0.916383        0.372368
                        0.796414       -0.601397      0.000353147    -0.000123283      -0.00808891       0.0261034     -0.000363332     -0.00020521
                     0.000275815     -0.00018629        -0.916818        0.372207     -0.000354943     -0.00024934       0.00776472       0.0550584
281758                 0.0266369    -0.000852267      -6.3131e-05     0.000446634          0.79587       -0.601906      0.000315511    -0.000335746
                    -1.62452e-05     0.000388254        0.0297064       0.0447956      0.000275406     -9.4952e-05         -0.91619        0.372846
                        0.796174       -0.601713      0.000353098    -0.000123419      -0.00809051       0.0261089     -0.000363403     -0.00020502
                     0.000275717    -0.000186412        -0.916626        0.372685      -0.00035514    -0.000249186       0.00777064       0.0550334
281760                 0.0266419    -0.000873855     -6.29681e-05     0.000446649         0.795631       -0.602223      0.000315322    -0.000335944
                    -1.61364e-05     0.000388219        0.0297314       0.0447488      0.000275474     -9.5022e-05        -0.915997        0.373324
                        0.795935        -0.60203      0.000353048    -0.000123554      -0.00809212       0.0261144     -0.000363474    -0.000204829
                     0.000275638    -0.000186516        -0.916433        0.373163     -0.000355337    -0.000249031       0.00777653       0.0550083
281762                  0.026647    -0.000895446     -6.28053e-05     0.000446664         0.795391        -0.60254      0.000315127    -0.000336143
                    -1.60244e-05     0.000388189        0.0297564       0.0447019      0.000275541    -9.50922e-05        -0.915804        0.373802
                        0.795695       -0.602347      0.000352999     -0.00012369      -0.00809372       0.0261199     -0.000363549     -0.00020464
