! TOUCHSTONE file generated by CST MICROWAVE STUDIO
! Date and time: Tue Oct 14 07:28:01 2025
! Project name: Teste_Macro_Metasurface_Nanopilar.cst
! Parameters = {H=600; L_x=120; L_y=120; Lambda=1064; Max_L=200; Min_L=70; PathPara=1; Phi=0; Step_L=10; Theta=0; p=520; phaseX=180; phaseY=0}
! Header version: 2018
! Port assignment regex: !\s*Touchstone port\s*([0-9]+)\s*=\s*(CST MWS port|CST DS port)\s*([0-9]+|Zmin|Zmax)\s*\(\"(.*)\"\)(\s*mode\s*([0-9]+))?.*
! Touchstone port assignment:
! Touchstone port 1 = CST MWS port Zmax ("") mode 1
! Touchstone port 2 = CST MWS port Zmax ("") mode 2
! Touchstone port 3 = CST MWS port Zmin ("") mode 1
! Touchstone port 4 = CST MWS port Zmin ("") mode 2
! S-Parameters are not renormalized. Each port impedance will be approximated by the real part at minimum frequency. The values are described via the [Reference] keyword.
! Default impedance is overridden by [Reference]
[Version] 2.0
# GHz S RI R 376.73
[Number of Ports] 4
[Reference]
376.73 376.73 259.814 259.814 
[Number of Frequencies] 51
[Network Data]
281700                -0.0733157       0.0625108     -0.000101535      0.00080104        -0.985791      0.00850695      -2.2959e-06    -0.000479937
                    -7.33216e-06     0.000829378       -0.0732731       0.0623061      4.10189e-05    -0.000546023        -0.986212      0.00889518
                        -0.98565      0.00850794      0.000114902    -0.000439147        0.0718075       0.0624802      6.46678e-05     0.000911108
                     3.13341e-05    -0.000425846        -0.985753      0.00881259      8.89672e-05      0.00094193        0.0717604       0.0622234
281702                -0.0732721       0.0625183     -0.000101037     0.000801176        -0.985789      0.00903277      1.18079e-05    -0.000464219
                    -6.83785e-06     0.000829424       -0.0732297       0.0623133      4.06984e-05    -0.000546472        -0.986052       0.0093989
                       -0.985648      0.00903231      0.000114623    -0.000439224        0.0718296       0.0624112      5.14469e-05      0.00093554
                     3.10822e-05     -0.00042593        -0.985751      0.00933692      8.94291e-05     0.000942022        0.0717734       0.0621527
281704                -0.0732284       0.0625258     -0.000100539     0.000801311        -0.985787      0.00955859       8.5589e-06    -0.000459021
                    -6.34317e-06     0.000829469       -0.0731863       0.0623205      4.03777e-05    -0.000546922        -0.986001      0.00991818
                       -0.985646      0.00955667      0.000114344    -0.000439301        0.0718518       0.0623421      5.03209e-05     0.000933639
                     3.08302e-05    -0.000426013        -0.985749      0.00986126      8.98911e-05     0.000942114        0.0717951       0.0620773
281706                -0.0731848       0.0625332      -0.00010004     0.000801445        -0.985785       0.0100844      6.49919e-06    -0.000457524
                    -5.84808e-06     0.000829514       -0.0731429       0.0623277      4.00568e-05    -0.000547374        -0.985975       0.0104405
                       -0.985643        0.010081      0.000114065    -0.000439377        0.0718738       0.0622731      5.02611e-05     0.000933056
                     3.05781e-05    -0.000426096        -0.985746       0.0103856      9.03534e-05     0.000942206         0.071819       0.0620059
281708                -0.0731412       0.0625406     -9.95417e-05     0.000801578        -0.985783       0.0106102      5.15692e-06    -0.000456901
                    -5.35259e-06     0.000829558       -0.0730995       0.0623348      3.97357e-05    -0.000547829        -0.985958        0.010964
                       -0.985641       0.0106054      0.000113786    -0.000439453        0.0718958       0.0622041      5.04137e-05     0.000932813
                     3.03258e-05    -0.000426179        -0.985743       0.0109099      9.08159e-05     0.000942298        0.0718422        0.061936
281710                -0.0730976        0.062548     -9.90429e-05     0.000801711         -0.98578       0.0111361      4.16986e-06    -0.000456586
                    -4.85666e-06     0.000829602       -0.0730561       0.0623419      3.94143e-05    -0.000548285        -0.985946        0.011488
                       -0.985638       0.0111298      0.000113506    -0.000439527        0.0719177        0.062135       5.0643e-05     0.000932707
                     3.00734e-05    -0.000426262         -0.98574       0.0114343      9.12785e-05     0.000942389        0.0718649       0.0618665
281712                 -0.073054       0.0625554      -9.8544e-05     0.000801842        -0.985777       0.0116619       3.3777e-06    -0.000456411
                    -4.36029e-06     0.000829646       -0.0730128        0.062349      3.90927e-05    -0.000548743        -0.985936       0.0120123
                       -0.985634       0.0116541      0.000113225    -0.000439602        0.0719396       0.0620659      5.09085e-05     0.000932669
                     2.98208e-05    -0.000426344        -0.985737       0.0119586      9.17414e-05     0.000942479        0.0718873       0.0617971
281714                -0.0730104       0.0625627      -9.8045e-05     0.000801972        -0.985774       0.0121878      2.70273e-06    -0.000456308
                    -3.86343e-06     0.000829689       -0.0729694       0.0623561      3.87709e-05    -0.000549204        -0.985928       0.0125368
                       -0.985631       0.0121785      0.000112944    -0.000439676        0.0719614       0.0619969      5.11939e-05      0.00093267
                     2.95682e-05    -0.000426426        -0.985733        0.012483      9.22045e-05      0.00094257        0.0719094       0.0617278
281716                -0.0729668         0.06257      -9.7546e-05     0.000802101         -0.98577       0.0127136      2.10333e-06    -0.000456248
                    -3.36608e-06     0.000829732        -0.072926       0.0623631      3.84488e-05    -0.000549666         -0.98592       0.0130614
                       -0.985627       0.0127029      0.000112663    -0.000439749        0.0719832       0.0619278      5.14915e-05     0.000932696
                     2.93153e-05    -0.000426507        -0.985729       0.0130073      9.26677e-05      0.00094266        0.0719314       0.0616586
281718                -0.0729232       0.0625773     -9.70471e-05     0.000802229        -0.985767       0.0132395       1.5554e-06    -0.000456214
                    -2.86819e-06     0.000829775       -0.0728827       0.0623701      3.81265e-05    -0.000550131        -0.985913        0.013586
                       -0.985622       0.0132272       0.00011238    -0.000439822        0.0720049       0.0618587       5.1797e-05     0.000932737
                     2.90624e-05    -0.000426588        -0.985724       0.0135317      9.31312e-05     0.000942749        0.0719533       0.0615894
281720                -0.0728796       0.0625845     -9.65484e-05     0.000802356        -0.985762       0.0137654      1.04404e-06    -0.000456198
                    -2.36974e-06     0.000829817       -0.0728393       0.0623771       3.7804e-05    -0.000550598        -0.985906       0.0141107
                       -0.985618       0.0137516      0.000112098    -0.000439894        0.0720265       0.0617897      5.21081e-05      0.00093279
                     2.88093e-05    -0.000426669         -0.98572        0.014056      9.35948e-05     0.000942839        0.0719751       0.0615201
281722                 -0.072836       0.0625918     -9.60499e-05     0.000802483        -0.985758       0.0142912      5.59586e-07    -0.000456194
                    -1.87069e-06     0.000829859        -0.072796       0.0623841      3.74811e-05    -0.000551066        -0.985899       0.0146354
                       -0.985613       0.0142759      0.000111814    -0.000439966        0.0720481       0.0617206      5.24232e-05     0.000932851
                     2.85561e-05    -0.000426749        -0.985715       0.0145804      9.40587e-05     0.000942928        0.0719968       0.0614509
281724                -0.0727924        0.062599     -9.55518e-05     0.000802608        -0.985753       0.0148171      9.54793e-08    -0.000456199
                    -1.37098e-06     0.000829901       -0.0727527        0.062391      3.71581e-05    -0.000551537        -0.985893       0.0151602
                       -0.985608       0.0148003       0.00011153    -0.000440038        0.0720696       0.0616515      5.27412e-05     0.000932918
                     2.83028e-05    -0.000426829         -0.98571       0.0151047      9.45227e-05     0.000943017        0.0720184       0.0613817
281726                -0.0727488       0.0626061     -9.50542e-05     0.000802732        -0.985748        0.015343     -3.52858e-07    -0.000456209
                    -8.70577e-07     0.000829942       -0.0727093       0.0623979      3.68348e-05     -0.00055201        -0.985886       0.0156849
                       -0.985603       0.0153247      0.000111246     -0.00044011         0.072091       0.0615824      5.30616e-05     0.000932989
                     2.80494e-05    -0.000426909        -0.985704        0.015629      9.49869e-05     0.000943105          0.07204       0.0613124
281728                -0.0727053       0.0626133     -9.45572e-05     0.000802855        -0.985743       0.0158689     -7.88725e-07    -0.000456225
                    -3.69398e-07     0.000829983        -0.072666       0.0624048      3.65112e-05    -0.000552485        -0.985879       0.0162097
                       -0.985597        0.015849      0.000110961    -0.000440182        0.0721124       0.0615133      5.33839e-05     0.000933064
                     2.77959e-05    -0.000426988        -0.985699       0.0161534      9.54513e-05     0.000943193        0.0720614       0.0612432
281730                -0.0726617       0.0626204     -9.40609e-05     0.000802977        -0.985738       0.0163947     -1.21455e-06    -0.000456244
                     1.32635e-07     0.000830023       -0.0726227       0.0624117      3.61873e-05    -0.000552962        -0.985872       0.0167345
                       -0.985591       0.0163734      0.000110675    -0.000440253        0.0721337       0.0614442      5.37077e-05     0.000933142
                     2.75423e-05    -0.000427067        -0.985693       0.0166777      9.59159e-05     0.000943281        0.0720828       0.0611739
281732                -0.0726181       0.0626275     -9.35654e-05     0.000803099        -0.985732       0.0169206     -1.63217e-06    -0.000456266
                     6.35631e-07     0.000830064       -0.0725794       0.0624185      3.58632e-05    -0.000553441        -0.985864       0.0172593
                       -0.985585       0.0168977      0.000110389    -0.000440325         0.072155       0.0613751      5.40326e-05     0.000933222
                     2.72887e-05    -0.000427145        -0.985686        0.017202      9.63807e-05     0.000943368        0.0721041       0.0611047
281734                -0.0725746       0.0626345     -9.30707e-05     0.000803221        -0.985726       0.0174465     -2.04298e-06     -0.00045629
                     1.13973e-06     0.000830104        -0.072536       0.0624253      3.55388e-05    -0.000553922        -0.985857        0.017784
                       -0.985579        0.017422      0.000110102    -0.000440397        0.0721762        0.061306      5.43587e-05     0.000933304
                     2.70349e-05    -0.000427223         -0.98568       0.0177264      9.68456e-05     0.000943455        0.0721254       0.0610354
281736                 -0.072531       0.0626415     -9.25767e-05     0.000803342        -0.985719       0.0179724     -2.44805e-06    -0.000456315
                     1.64515e-06     0.000830144       -0.0724927       0.0624321      3.52141e-05    -0.000554405        -0.985849       0.0183088
                       -0.985572       0.0179464      0.000109815    -0.000440469        0.0721974       0.0612369      5.46856e-05     0.000933387
                     2.67811e-05      -0.0004273        -0.985673       0.0182507      9.73107e-05     0.000943541        0.0721466       0.0609662
281738                -0.0724875       0.0626485     -9.20835e-05     0.000803464        -0.985713       0.0184983     -2.84824e-06    -0.000456342
                     2.15219e-06     0.000830184       -0.0724494       0.0624388      3.48892e-05    -0.000554891        -0.985841       0.0188336
                       -0.985565       0.0184707      0.000109528    -0.000440541        0.0722184       0.0611678      5.50132e-05     0.000933472
                     2.65273e-05    -0.000427377        -0.985666        0.018775       9.7776e-05     0.000943628        0.0721677       0.0608969
281740                 -0.072444       0.0626555     -9.15908e-05     0.000803586        -0.985706       0.0190242     -3.24423e-06    -0.000456369
                     2.66134e-06     0.000830223       -0.0724061       0.0624455      3.45639e-05    -0.000555378        -0.985833       0.0193584
                       -0.985558        0.018995      0.000109241    -0.000440613        0.0722395       0.0610986      5.53416e-05     0.000933557
                     2.62735e-05    -0.000427453        -0.985658       0.0192993      9.82415e-05     0.000943714        0.0721888       0.0608277
281742                -0.0724004       0.0626624     -9.10984e-05     0.000803709        -0.985699       0.0195501     -3.63657e-06    -0.000456397
                     3.17348e-06     0.000830263       -0.0723629       0.0624522      3.42384e-05    -0.000555868        -0.985825       0.0198831
                        -0.98555       0.0195193      0.000108954    -0.000440686        0.0722604       0.0610295      5.56705e-05     0.000933644
                     2.60197e-05    -0.000427527        -0.985651       0.0198237      9.87071e-05     0.000943799        0.0722098       0.0607584
281744                -0.0723569       0.0626693     -9.06058e-05     0.000803832        -0.985691        0.020076     -4.02571e-06    -0.000456424
                     3.69039e-06     0.000830303       -0.0723196       0.0624589      3.39126e-05    -0.000556359        -0.985816       0.0204079
                       -0.985542       0.0200436      0.000108667    -0.000440758        0.0722813       0.0609604      5.59999e-05     0.000933731
                     2.57661e-05    -0.000427601        -0.985643        0.020348      9.91729e-05     0.000943885        0.0722307       0.0606891
281746                -0.0723134       0.0626762     -9.01126e-05     0.000803957        -0.985683        0.020602     -4.41207e-06    -0.000456452
                     4.21631e-06     0.000830344       -0.0722763       0.0624655      3.35865e-05    -0.000556853        -0.985807       0.0209326
                       -0.985534       0.0205679       0.00010838    -0.000440831        0.0723022       0.0608912      5.63298e-05     0.000933818
                     2.55131e-05    -0.000427671        -0.985634       0.0208723      9.96389e-05      0.00094397        0.0722516       0.0606198
281748                -0.0722698        0.062683     -8.96178e-05     0.000804084        -0.985675       0.0211279     -4.79607e-06    -0.000456479
                      4.7651e-06     0.000830388        -0.072233       0.0624721      3.32602e-05    -0.000557349        -0.985798       0.0214574
                       -0.985526       0.0210922      0.000108094    -0.000440903        0.0723229       0.0608221      5.66601e-05     0.000933906
                     2.52616e-05    -0.000427736        -0.985626       0.0213966      0.000100105     0.000944054        0.0722724       0.0605505
281750                -0.0722262       0.0626897     -8.91202e-05     0.000804215        -0.985667       0.0216538     -5.17819e-06    -0.000456506
                     5.42379e-06     0.000830451       -0.0721898       0.0624786      3.29336e-05    -0.000557848        -0.985788       0.0219821
                       -0.985517       0.0216162      0.000107809    -0.000440976        0.0723437       0.0607529      5.69908e-05     0.000933994
                     2.50191e-05    -0.000427771        -0.985617       0.0219208      0.000100572     0.000944139        0.0722931       0.0604813
281752                -0.0721829       0.0626969     -8.86186e-05     0.000804353        -0.985658       0.0221797     -5.55897e-06    -0.000456531
                     4.90564e-06     0.000830505       -0.0721465       0.0624852      3.26072e-05    -0.000558351        -0.985778       0.0225068
                       -0.985508        0.022141      0.000107527     -0.00044105        0.0723643       0.0606838      5.73219e-05     0.000934083
                     2.47409e-05    -0.000428188        -0.985608       0.0224451      0.000101038     0.000944224        0.0723138        0.060412
281754                -0.0721393       0.0627035     -8.81198e-05     0.000804513        -0.985649       0.0227057     -5.93907e-06    -0.000456556
                     6.02573e-06     0.000830482       -0.0721032       0.0624917      3.22757e-05    -0.000558827        -0.985768       0.0230315
                       -0.985499       0.0226652      0.000107251     -0.00044113        0.0723849       0.0606146      5.76532e-05     0.000934172
                     2.44817e-05    -0.000428039        -0.985599       0.0229693      0.000101503     0.000944307        0.0723345       0.0603427
281756                -0.0720958       0.0627102     -8.76797e-05     0.000804678         -0.98564       0.0232316     -6.31915e-06     -0.00045658
                      6.6084e-06     0.000830522       -0.0720599        0.062498      3.19503e-05    -0.000559349        -0.985758       0.0235562
                        -0.98549       0.0231894      0.000106948     -0.00044124        0.0724055       0.0605455      5.79848e-05     0.000934261
                     2.42307e-05    -0.000428091        -0.985589       0.0234933       0.00010197      0.00094439         0.072355       0.0602734
281758                -0.0720523       0.0627169     -8.72239e-05     0.000804762        -0.985631       0.0237575     -6.69969e-06    -0.000456603
                     7.14963e-06     0.000830562       -0.0720168       0.0625048      3.16226e-05    -0.000559857        -0.985747       0.0240809
                        -0.98548       0.0237136      0.000106636    -0.000441287        0.0724259       0.0604763      5.83167e-05      0.00093435
                     2.39776e-05    -0.000428156        -0.985579       0.0240182      0.000102437     0.000944473        0.0723755       0.0602041
281760                -0.0720088       0.0627236     -8.67214e-05     0.000804864        -0.985621       0.0242835     -7.08082e-06    -0.000456627
                     7.67984e-06     0.000830601       -0.0719735       0.0625112      3.12944e-05    -0.000560366        -0.985737       0.0246056
                        -0.98547       0.0242379      0.000106353    -0.000441349        0.0724464       0.0604072      5.86489e-05      0.00093444
                     2.37239e-05    -0.000428224        -0.985569       0.0245423      0.000102904     0.000944555         0.072396       0.0601347
281762                -0.0719653       0.0627302     -8.62161e-05     0.000804981        -0.985611       0.0248094     -7.46226e-06    -0.000456651
                     8.20638e-06      0.00083064       -0.0719303       0.0625176      3.09658e-05    -0.000560877        -0.985725       0.0251303
                       -0.985459       0.0247621      0.000106069    -0.000441417        0.0724667        0.060338      5.89812e-05     0.000934529
