! TOUCHSTONE file generated by CST MICROWAVE STUDIO
! Date and time: Tue Oct 14 07:28:29 2025
! Project name: Teste_Macro_Metasurface_Nanopilar.cst
! Parameters = {H=600; L_x=125; L_y=185; Lambda=1064; Max_L=200; Min_L=70; PathPara=1; Phi=0; Step_L=10; Theta=0; p=520; phaseX=180; phaseY=0}
! Header version: 2018
! Port assignment regex: !\s*Touchstone port\s*([0-9]+)\s*=\s*(CST MWS port|CST DS port)\s*([0-9]+|Zmin|Zmax)\s*\(\"(.*)\"\)(\s*mode\s*([0-9]+))?.*
! Touchstone port assignment:
! Touchstone port 1 = CST MWS port Zmax ("") mode 1
! Touchstone port 2 = CST MWS port Zmax ("") mode 2
! Touchstone port 3 = CST MWS port Zmin ("") mode 1
! Touchstone port 4 = CST MWS port Zmin ("") mode 2
! S-Parameters are not renormalized. Each port impedance will be approximated by the real part at minimum frequency. The values are described via the [Reference] keyword.
! Default impedance is overridden by [Reference]
[Version] 2.0
# GHz S RI R 376.73
[Number of Ports] 4
[Reference]
376.73 376.73 259.814 259.814 
[Number of Frequencies] 51
[Network Data]
281700                 -0.161067         0.05528      0.000373658      0.00084329         0.718247        0.667657     -0.000331792     0.000585701
                     0.000289972     0.000923496        -0.103787       -0.142076      -0.00043766     0.000349381         0.232478        0.952103
                        0.719007        0.667071     -0.000293911     0.000279852       -0.0433485         0.15858     -0.000890956      -0.0005787
                    -0.000372288     0.000493779         0.232631        0.951159     -0.000860655    -0.000717982       -0.0253664        0.172992
281702                 -0.161048       0.0552841       0.00037409     0.000843521         0.718538        0.667348     -0.000328897     0.000585111
                     0.000289798     0.000922274        -0.103835       -0.142069     -0.000437829     0.000349975         0.232902           0.952
                        0.719307        0.666747     -0.000292803     0.000279232       -0.0432117        0.158603     -0.000888185    -0.000579148
                    -0.000376739     0.000502837         0.233052        0.951055     -0.000860705    -0.000717152        -0.025251        0.173027
281704                 -0.161029       0.0552881       0.00037453     0.000843755         0.718829        0.667038     -0.000325591      0.00058415
                     0.000289843      0.00092104        -0.103883       -0.142061     -0.000437994     0.000350577         0.233326        0.951897
                        0.719605        0.666424     -0.000291672     0.000278719        -0.043075        0.158625     -0.000884901    -0.000579973
                    -0.000377318     0.000511299         0.233473         0.95095     -0.000860769    -0.000716326       -0.0251377        0.173062
281706                  -0.16101       0.0552919       0.00037498     0.000843995         0.719119        0.666727      -0.00032176     0.000582679
                     0.000290083     0.000919844         -0.10393       -0.142053     -0.000438155     0.000351186          0.23375        0.951794
                        0.719903        0.666101     -0.000290525     0.000278319       -0.0429383        0.158647     -0.000880951    -0.000581355
                    -0.000375644     0.000517945         0.233893        0.950844     -0.000860846    -0.000715506        -0.025026        0.173097
281708                 -0.160992       0.0552957      0.000375443      0.00084424          0.71941        0.666416     -0.000317247     0.000580485
                      0.00029049     0.000918719        -0.103978       -0.142046     -0.000438311     0.000351804         0.234174        0.951691
                          0.7202         0.66578     -0.000289369     0.000278038       -0.0428017        0.158669     -0.000876129    -0.000583595
                    -0.000373046     0.000522764         0.234313        0.950738     -0.000860937    -0.000714693       -0.0249154        0.173133
281710                 -0.160973       0.0552993      0.000375922     0.000844492         0.719701        0.666104     -0.000311834      0.00057722
                     0.000291029     0.000917686        -0.104025       -0.142038     -0.000438461      0.00035243         0.234597        0.951588
                        0.720497        0.665458     -0.000288215      0.00027788       -0.0426651        0.158691     -0.000870162     -0.00058722
                    -0.000370258     0.000526157         0.234733        0.950631     -0.000861044    -0.000713888       -0.0248058        0.173168
281712                 -0.160954       0.0553029       0.00037642     0.000844753         0.719992        0.665791     -0.000305215     0.000572291
                     0.000291667     0.000916756        -0.104073        -0.14203     -0.000438603     0.000353065         0.235021        0.951485
                        0.720792        0.665138      -0.00028707      0.00027785       -0.0425285        0.158713     -0.000862733    -0.000593204
                    -0.000367604     0.000528542         0.235153        0.950524     -0.000861167    -0.000713092       -0.0246967        0.173205
281714                 -0.160936       0.0553064      0.000376943     0.000845024         0.720283        0.665477     -0.000296976     0.000564613
                     0.000292375     0.000915931         -0.10412       -0.142023     -0.000438736      0.00035371         0.235444        0.951383
                        0.721088        0.664818     -0.000285946     0.000277952        -0.042392        0.158735      -0.00085366    -0.000603464
                    -0.000365198     0.000530237         0.235573        0.950416     -0.000861306    -0.000712308       -0.0245881        0.173241
281716                 -0.160917       0.0553098      0.000377499     0.000845309         0.720574        0.665163     -0.000286657     0.000552032
                     0.000293129     0.000915206        -0.104168       -0.142015     -0.000438858     0.000354365         0.235866         0.95128
                        0.721382        0.664499     -0.000284854      0.00027819       -0.0422554        0.158756     -0.000843817    -0.000621871
                    -0.000363057     0.000531461         0.235992        0.950307     -0.000861462    -0.000711538       -0.0244799        0.173277
281718                 -0.160899       0.0553132      0.000378101     0.000845611         0.720866        0.664849     -0.000274321     0.000529868
                      0.00029391     0.000914573        -0.104216       -0.142007     -0.000438964     0.000355029         0.236288        0.951179
                        0.721677         0.66418     -0.000283806     0.000278566       -0.0421189        0.158778     -0.000839108    -0.000655391
                    -0.000361163     0.000532365         0.236411        0.950197     -0.000861636    -0.000710783       -0.0243719        0.173314
281720                 -0.160881       0.0553165      0.000378767     0.000845937         0.721158        0.664534     -0.000264128      0.00048727
                     0.000294703     0.000914023        -0.104263       -0.141999     -0.000439053     0.000355703         0.236708        0.951077
                        0.721971        0.663861     -0.000282815     0.000279081       -0.0419825        0.158799     -0.000862072    -0.000706307
                    -0.000359483     0.000533047          0.23683        0.950087     -0.000861828    -0.000710047       -0.0242641        0.173351
281722                 -0.160862       0.0553198      0.000379528     0.000846293          0.72145        0.664219     -0.000285129     0.000405131
                     0.000295498     0.000913548        -0.104311       -0.141991     -0.000439119     0.000356384         0.237126        0.950976
                        0.722265        0.663543     -0.000281897     0.000279736        -0.041846         0.15882     -0.000937017    -0.000729902
                    -0.000357987     0.000533574         0.237249        0.949976     -0.000862038    -0.000709332       -0.0241565        0.173388
281724                 -0.160844       0.0553231      0.000380437     0.000846691         0.721743        0.663903     -0.000429236     0.000343409
                     0.000296288     0.000913136        -0.104358       -0.141983     -0.000439157     0.000357072         0.237542        0.950874
                        0.722559        0.663225     -0.000281064      0.00028053       -0.0417096        0.158841     -0.000996836     -0.00068422
                    -0.000356643     0.000533992         0.237668        0.949864     -0.000862266    -0.000708642        -0.024049        0.173425
281726                 -0.160826       0.0553264      0.000381595     0.000847144         0.722035        0.663588     -0.000542529     0.000473079
                     0.000297066      0.00091278        -0.104406       -0.141976     -0.000439161     0.000357763         0.237955        0.950769
                        0.722852        0.662908     -0.000280333      0.00028146       -0.0415732        0.158862      -0.00100453    -0.000633687
                    -0.000355428     0.000534331         0.238087        0.949752     -0.000862511     -0.00070798       -0.0239416        0.173462
281728                 -0.160809       0.0553297      0.000383218     0.000847663         0.722328        0.663272     -0.000511334     0.000571201
                     0.000297831     0.000912472        -0.104453       -0.141967     -0.000439123      0.00035845         0.238367        0.950661
                        0.723145        0.662591      -0.00027972     0.000282524       -0.0414369        0.158883     -0.000994333    -0.000604049
                    -0.000354318     0.000534615         0.238505        0.949639     -0.000862773    -0.000707349       -0.0238343        0.173499
281730                 -0.160791       0.0553329      0.000385858     0.000848194         0.722621        0.662956     -0.000471223     0.000606047
                     0.000298579     0.000912205          -0.1045       -0.141959     -0.000439034     0.000359125          0.23878        0.950549
                        0.723438        0.662274      -0.00027924     0.000283714       -0.0413005        0.158903     -0.000982765    -0.000587806
                    -0.000353296     0.000534859         0.238924        0.949525      -0.00086305    -0.000706753        -0.023727        0.173536
281732                 -0.160773       0.0553362      0.000391286     0.000848037         0.722915         0.66264     -0.000443724     0.000618972
                     0.000299309     0.000911972        -0.104548       -0.141951     -0.000438884     0.000359775         0.239196        0.950435
                        0.723731        0.661958     -0.000278911     0.000285025       -0.0411642        0.158924      -0.00097311    -0.000578344
                    -0.000352345     0.000535076         0.239343        0.949411      -0.00086334    -0.000706197       -0.0236197        0.173574
281734                 -0.160756       0.0553395      0.000404175     0.000837041         0.723208        0.662324     -0.000425158     0.000624498
                     0.000300022     0.000911769        -0.104595       -0.141943     -0.000438666     0.000360379         0.239613         0.95032
                        0.724024        0.661641     -0.000278749     0.000286447       -0.0410279        0.158944     -0.000965463    -0.000572372
                    -0.000351451     0.000535274         0.239762        0.949297     -0.000863642    -0.000705685       -0.0235125        0.173611
281736                 -0.160738       0.0553427      0.000375212     0.000820531         0.723501        0.662008     -0.000412034     0.000627217
                     0.000300718     0.000911591        -0.104642       -0.141935     -0.000438373     0.000360909         0.240032        0.950206
                        0.724316        0.661325     -0.000278768      0.00028797       -0.0408916        0.158965     -0.000959406    -0.000568306
                    -0.000350601     0.000535461         0.240181        0.949182     -0.000863951     -0.00070522       -0.0234054        0.173648
281738                 -0.160721        0.055346      0.000372048      0.00083627         0.723794        0.661692     -0.000402302     0.000628764
                     0.000301396     0.000911435        -0.104689       -0.141927     -0.000438007     0.000361326         0.240453        0.950092
                        0.724608        0.661009     -0.000278986     0.000289582       -0.0407554        0.158985      -0.00095454    -0.000565347
                    -0.000349782     0.000535644         0.240601        0.949068     -0.000864266    -0.000704808       -0.0232983        0.173685
281740                 -0.160703       0.0553494      0.000374325     0.000840975         0.724088        0.661376     -0.000394782      0.00062979
                     0.000302059     0.000911297        -0.104736       -0.141919     -0.000437583     0.000361582         0.240874        0.949979
                        0.724901        0.660693     -0.000279417     0.000291269       -0.0406191        0.159005     -0.000950562    -0.000563069
                    -0.000348983      0.00053583         0.241021        0.948953      -0.00086458    -0.000704451       -0.0231913        0.173722
281742                 -0.160686       0.0553527      0.000375968     0.000843012         0.724381        0.661061     -0.000388769     0.000630582
                     0.000302705     0.000911174        -0.104783        -0.14191     -0.000437138     0.000361625         0.241295        0.949866
                        0.725193        0.660377     -0.000280075     0.000293016       -0.0404829        0.159025     -0.000947254    -0.000561229
                    -0.000348188     0.000536025         0.241441         0.94884     -0.000864891    -0.000704153       -0.0230843        0.173759
281744                 -0.160669       0.0553561      0.000377157     0.000844176         0.724674        0.660745     -0.000383822     0.000631272
                     0.000303336     0.000911064         -0.10483       -0.141902     -0.000436739     0.000361407         0.241715        0.949753
                        0.725485        0.660061     -0.000280973     0.000294808       -0.0403466        0.159045     -0.000944459     -0.00055968
                    -0.000347379     0.000536241         0.241861        0.948727     -0.000865192    -0.000703918       -0.0229775        0.173796
281746                 -0.160651       0.0553595      0.000378084     0.000844963         0.724966        0.660429     -0.000379654     0.000631924
                     0.000303953     0.000910966        -0.104877       -0.141894     -0.000436477     0.000360904         0.242136        0.949641
                        0.725776        0.659745     -0.000282123     0.000296628       -0.0402104        0.159065     -0.000942065    -0.000558334
                    -0.000346532      0.00053649         0.242281        0.948615     -0.000865479    -0.000703748       -0.0228707        0.173833
281748                 -0.160634        0.055363       0.00037885     0.000845557         0.725259        0.660114      -0.00037607     0.000632573
                     0.000304557     0.000910877        -0.104923       -0.141886      -0.00043646     0.000360134         0.242557        0.949529
                        0.726068        0.659429     -0.000283535      0.00029846       -0.0400742        0.159085     -0.000939987    -0.000557131
                    -0.000345611     0.000536798         0.242701        0.948504     -0.000865746    -0.000703644       -0.0227641         0.17387
281750                 -0.160617       0.0553664      0.000379512     0.000846038         0.725551        0.659798     -0.000372935     0.000633233
                     0.000305148     0.000910797         -0.10497       -0.141877     -0.000436778     0.000359162         0.242977        0.949417
                         0.72636        0.659113     -0.000285218     0.000300286        -0.039938        0.159104     -0.000938162    -0.000556033
                    -0.000344553     0.000537212          0.24312        0.948395     -0.000865988    -0.000703608       -0.0226575        0.173906
281752                   -0.1606       0.0553699      0.000380101      0.00084645         0.725843        0.659483     -0.000370151     0.000633914
                     0.000305728     0.000910723        -0.105016       -0.141869     -0.000437472     0.000358083         0.243397        0.949305
                        0.726651        0.658797     -0.000287182     0.000302093       -0.0398018        0.159124     -0.000936543    -0.000555012
                    -0.000343244     0.000537832         0.243538        0.948287     -0.000866203     -0.00070364        -0.022551        0.173942
281754                 -0.160583       0.0553735      0.000380638     0.000846815         0.726134        0.659168     -0.000367646     0.000634618
                     0.000306295     0.000910655        -0.105061       -0.141862     -0.000438521     0.000356983         0.243817        0.949192
                        0.726942        0.658481     -0.000289432     0.000303867       -0.0396655        0.159144     -0.000935092     -0.00055405
                    -0.000341441     0.000538929         0.243955         0.94818     -0.000866388    -0.000703739       -0.0224443        0.173977
281756                 -0.160566        0.055377      0.000381133     0.000847148         0.726425        0.658853     -0.000365367     0.000635347
                     0.000306852     0.000910592        -0.105107       -0.141854     -0.000439853     0.000355902         0.244237         0.94908
                        0.727234        0.658165     -0.000291976     0.000305596       -0.0395293        0.159163      -0.00093378    -0.000553132
                    -0.000338581     0.000541467         0.244371        0.948074     -0.000866542    -0.000703902       -0.0223373        0.174012
281758                 -0.160549       0.0553806      0.000381595     0.000847458         0.726715        0.658538     -0.000363271     0.000636102
                     0.000307399     0.000910533        -0.105152       -0.141848     -0.000441365     0.000354814         0.244656        0.948968
                        0.727525        0.657849     -0.000294817     0.000307275       -0.0393931        0.159182     -0.000932584    -0.000552249
                    -0.000334389     0.000551011         0.244786        0.947969      -0.00086667    -0.000704128       -0.0222298        0.174046
281760                 -0.160531       0.0553842      0.000382029      0.00084775         0.727005        0.658224     -0.000361326     0.000636882
                     0.000307935     0.000910478        -0.105197       -0.141842     -0.000442937     0.000353633         0.245075        0.948855
                        0.727815        0.657533     -0.000297961     0.000308902       -0.0392568        0.159202     -0.000931484    -0.000551393
                    -0.000365604     0.000561728           0.2452        0.947864     -0.000866777    -0.000704412       -0.0221217        0.174081
281762                 -0.160514       0.0553879      0.000382436     0.000848029         0.727293        0.657911     -0.000359505     0.000637688
                     0.000308462     0.000910425        -0.105242       -0.141839      -0.00044442     0.000352226         0.245494        0.948742
                        0.728106        0.657217      -0.00030141     0.000310482       -0.0391205        0.159221     -0.000930465    -0.000550556
