! TOUCHSTONE file generated by CST MICROWAVE STUDIO
! Date and time: Tue Oct 14 07:27:14 2025
! Project name: Teste_Macro_Metasurface_Nanopilar.cst
! Parameters = {H=600; L_x=105; L_y=185; Lambda=1064; Max_L=200; Min_L=70; PathPara=1; Phi=0; Step_L=10; Theta=0; p=520; phaseX=180; phaseY=0}
! Header version: 2018
! Port assignment regex: !\s*Touchstone port\s*([0-9]+)\s*=\s*(CST MWS port|CST DS port)\s*([0-9]+|Zmin|Zmax)\s*\(\"(.*)\"\)(\s*mode\s*([0-9]+))?.*
! Touchstone port assignment:
! Touchstone port 1 = CST MWS port Zmax ("") mode 1
! Touchstone port 2 = CST MWS port Zmax ("") mode 2
! Touchstone port 3 = CST MWS port Zmin ("") mode 1
! Touchstone port 4 = CST MWS port Zmin ("") mode 2
! S-Parameters are not renormalized. Each port impedance will be approximated by the real part at minimum frequency. The values are described via the [Reference] keyword.
! Default impedance is overridden by [Reference]
[Version] 2.0
# GHz S RI R 376.73
[Number of Ports] 4
[Reference]
376.73 376.73 259.814 259.814 
[Number of Frequencies] 51
[Network Data]
281700                 -0.470382        0.375635       0.00036991    -4.49934e-05        0.0353869         0.77854      3.91643e-05     0.000702022
                     0.000216464    -9.89566e-05        -0.157694       0.0102143      0.000558366    -6.17135e-05        -0.977892       0.0349427
                       0.0346975         0.77876      0.000472421     0.000268437        -0.473158        -0.35707     -0.000660761     0.000452966
                    -0.000172712     0.000388827        -0.977976       0.0352873     -0.000426449     7.14353e-05         0.156039     0.000661113
281702                 -0.470001        0.375718      0.000370337    -4.53988e-05        0.0359479        0.778714      3.99429e-05     0.000702261
                     0.000216273    -9.89882e-05        -0.157672       0.0102651       0.00055818    -6.23677e-05        -0.977876       0.0354498
                       0.0352589        0.778934      0.000472823     0.000268709          -0.4733       -0.356477     -0.000660533     0.000453624
                     -0.00017227     0.000388814         -0.97796       0.0357944     -0.000426174     7.18412e-05          0.15602     0.000550984
281704                  -0.46962        0.375801      0.000370763    -4.58056e-05         0.036509        0.778887      4.07204e-05       0.0007025
                     0.000216083    -9.90192e-05         -0.15765       0.0103158      0.000557994    -6.30213e-05         -0.97786        0.035957
                       0.0358204        0.779108      0.000473225     0.000268981        -0.473442       -0.355883     -0.000660305     0.000454279
                    -0.000171827     0.000388801        -0.977944       0.0363015       -0.0004259     7.22459e-05         0.156001     0.000440877
281706                 -0.469239        0.375884      0.000371188    -4.62137e-05        0.0370703        0.779059      4.14967e-05     0.000702739
                     0.000215893    -9.90495e-05        -0.157627       0.0103666      0.000557807    -6.36741e-05        -0.977844       0.0364641
                        0.036382         0.77928      0.000473628     0.000269252        -0.473582        -0.35529     -0.000660077      0.00045493
                    -0.000171383     0.000388789        -0.977928       0.0368085     -0.000425625     7.26496e-05         0.155982     0.000330792
281708                 -0.468858        0.375966      0.000371612    -4.66231e-05        0.0376316        0.779231      4.22718e-05     0.000702977
                     0.000215704     -9.9079e-05        -0.157605       0.0104173      0.000557621    -6.43263e-05        -0.977828       0.0369712
                       0.0369437        0.779452      0.000474031     0.000269522        -0.473722       -0.354697     -0.000659849     0.000455578
                    -0.000170939     0.000388777        -0.977912       0.0373156      -0.00042535     7.30522e-05         0.155963     0.000220729
281710                 -0.468478        0.376048      0.000372035    -4.70337e-05        0.0381929        0.779402      4.30459e-05     0.000703215
                     0.000215514    -9.91079e-05        -0.157583       0.0104679      0.000557434    -6.49779e-05        -0.977811       0.0374783
                       0.0375054        0.779624      0.000474436     0.000269791        -0.473861       -0.354104     -0.000659622     0.000456223
                    -0.000170494     0.000388765        -0.977895       0.0378226     -0.000425075     7.34537e-05         0.155944     0.000110688
281712                 -0.468097        0.376129      0.000372457    -4.74457e-05        0.0387544        0.779573      4.38188e-05     0.000703452
                     0.000215325    -9.91363e-05         -0.15756       0.0105186      0.000557247    -6.56287e-05        -0.977794       0.0379854
                       0.0380673        0.779795      0.000474841     0.000270058           -0.474       -0.353512     -0.000659395     0.000456865
                     -0.00017005     0.000388753        -0.977878       0.0383296       -0.0004248     7.38541e-05         0.155925     6.70054e-07
281714                 -0.467717        0.376211      0.000372878    -4.78589e-05         0.039316        0.779743      4.45906e-05     0.000703689
                     0.000215135    -9.91643e-05        -0.157538       0.0105692      0.000557059    -6.62789e-05        -0.977777       0.0384924
                       0.0386293        0.779965      0.000475246     0.000270325        -0.474138        -0.35292     -0.000659169     0.000457503
                    -0.000169605     0.000388741        -0.977861       0.0388366     -0.000424525     7.42534e-05         0.155905    -0.000109326
281716                 -0.467338        0.376292      0.000373298    -4.82733e-05        0.0398777        0.779912      4.53613e-05     0.000703926
                     0.000214945    -9.91919e-05        -0.157515       0.0106199      0.000556871    -6.69285e-05         -0.97776       0.0389995
                       0.0391913        0.780134      0.000475652      0.00027059        -0.474275       -0.352327     -0.000658943     0.000458138
                    -0.000169161     0.000388729        -0.977843       0.0393436      -0.00042425     7.46516e-05         0.155886    -0.000219299
281718                 -0.466958        0.376372      0.000373718    -4.86888e-05        0.0404394        0.780081       4.6131e-05     0.000704162
                     0.000214755    -9.92193e-05        -0.157493       0.0106705      0.000556683    -6.75773e-05        -0.977742       0.0395066
                       0.0397535        0.780303      0.000476059     0.000270854        -0.474411       -0.351736     -0.000658717      0.00045877
                    -0.000168717     0.000388717        -0.977825       0.0398506     -0.000423975     7.50487e-05         0.155866     -0.00032925
281720                 -0.466579        0.376453      0.000374136    -4.91056e-05        0.0410013        0.780249      4.68996e-05     0.000704398
                     0.000214564    -9.92467e-05         -0.15747        0.010721      0.000556495    -6.82255e-05        -0.977724       0.0400136
                       0.0403157        0.780472      0.000476466     0.000271117        -0.474547       -0.351144     -0.000658492     0.000459399
                    -0.000168273     0.000388704        -0.977807       0.0403576     -0.000423699     7.54448e-05         0.155847    -0.000439178
281722                 -0.466199        0.376533      0.000374554    -4.95234e-05        0.0415632        0.780416      4.76671e-05     0.000704633
                     0.000214374    -9.92739e-05        -0.157448       0.0107716      0.000556307    -6.88731e-05        -0.977706       0.0405207
                        0.040878        0.780639      0.000476874     0.000271379        -0.474683       -0.350552     -0.000658267     0.000460024
                    -0.000167829     0.000388692        -0.977789       0.0408645     -0.000423423     7.58397e-05         0.155827    -0.000549083
281724                  -0.46582        0.376612       0.00037497    -4.99424e-05        0.0421252        0.780583      4.84336e-05     0.000704868
                     0.000214184    -9.93011e-05        -0.157425       0.0108222      0.000556118      -6.952e-05        -0.977687       0.0410277
                       0.0414405        0.780807      0.000477282      0.00027164        -0.474817       -0.349961     -0.000658043     0.000460646
                    -0.000167386     0.000388679         -0.97777       0.0413715     -0.000423148     7.62335e-05         0.155808    -0.000658966
281726                 -0.465442        0.376692      0.000375386    -5.03625e-05        0.0426873         0.78075      4.91992e-05     0.000705102
                     0.000213994    -9.93282e-05        -0.157403       0.0108727      0.000555929    -7.01662e-05        -0.977668       0.0415347
                        0.042003        0.780973      0.000477691       0.0002719        -0.474951        -0.34937     -0.000657819     0.000461265
                    -0.000166943     0.000388665        -0.977751       0.0418784     -0.000422872     7.66262e-05         0.155788    -0.000768826
281728                 -0.465063        0.376771      0.000375801    -5.07836e-05        0.0432495        0.780915      4.99637e-05     0.000705336
                     0.000213804    -9.93553e-05         -0.15738       0.0109232       0.00055574    -7.08117e-05        -0.977649       0.0420417
                       0.0425656        0.781139        0.0004781     0.000272158        -0.475084       -0.348779     -0.000657595      0.00046188
                      -0.0001665     0.000388651        -0.977732       0.0423853     -0.000422595     7.70178e-05         0.155768    -0.000878663
281730                 -0.464685        0.376849      0.000376215    -5.12058e-05        0.0438118         0.78108      5.07272e-05     0.000705569
                     0.000213614    -9.93824e-05        -0.157358       0.0109737       0.00055555    -7.14567e-05         -0.97763       0.0425487
                       0.0431282        0.781304       0.00047851     0.000272416        -0.475216       -0.348189     -0.000657372     0.000462492
                    -0.000166058     0.000388637        -0.977712       0.0428923     -0.000422319     7.74083e-05         0.155748    -0.000988477
281732                 -0.464307        0.376928      0.000376627    -5.16289e-05        0.0443742        0.781245      5.14898e-05     0.000705802
                     0.000213425    -9.94095e-05        -0.157335       0.0110242       0.00055536    -7.21009e-05         -0.97761       0.0430557
                        0.043691        0.781469      0.000478919     0.000272672        -0.475348       -0.347598     -0.000657149     0.000463101
                    -0.000165616     0.000388623        -0.977693       0.0433992     -0.000422042     7.77978e-05         0.155728     -0.00109827
281734                 -0.463929        0.377006       0.00037704    -5.20531e-05        0.0449366        0.781409      5.22514e-05     0.000706034
                     0.000213235    -9.94365e-05        -0.157313       0.0110746       0.00055517    -7.27445e-05        -0.977591       0.0435627
                       0.0442539        0.781633       0.00047933     0.000272927        -0.475479       -0.347008     -0.000656927     0.000463707
                    -0.000165175     0.000388608        -0.977673       0.0439061     -0.000421766     7.81861e-05         0.155708     -0.00120804
281736                 -0.463551        0.377083      0.000377451    -5.24782e-05        0.0454992        0.781572      5.30121e-05     0.000706266
                     0.000213046    -9.94635e-05         -0.15729        0.011125      0.000554979    -7.33874e-05         -0.97757       0.0440697
                       0.0448168        0.781797      0.000479741      0.00027318         -0.47561       -0.346418     -0.000656705      0.00046431
                    -0.000164734     0.000388592        -0.977653       0.0444129     -0.000421489     7.85733e-05         0.155688     -0.00131778
281738                 -0.463174        0.377161      0.000377861    -5.29042e-05        0.0460618        0.781735      5.37718e-05     0.000706497
                     0.000212857    -9.94904e-05        -0.157267       0.0111755      0.000554788    -7.40297e-05         -0.97755       0.0445767
                       0.0453798         0.78196      0.000480152     0.000273433         -0.47574       -0.345828     -0.000656484     0.000464909
                    -0.000164293     0.000388577        -0.977632       0.0449198     -0.000421211     7.89595e-05         0.155668      -0.0014275
281740                 -0.462796        0.377238       0.00037827    -5.33311e-05        0.0466245        0.781897      5.45306e-05     0.000706727
                     0.000212668    -9.95173e-05        -0.157245       0.0112259      0.000554597    -7.46714e-05         -0.97753       0.0450836
                       0.0459429        0.782122      0.000480563     0.000273684        -0.475869       -0.345239     -0.000656263     0.000465505
                    -0.000163853      0.00038856        -0.977611       0.0454266     -0.000420934     7.93445e-05         0.155647      -0.0015372
281742                 -0.462419        0.377315      0.000378679    -5.37589e-05        0.0471872        0.782058      5.52885e-05     0.000706957
                     0.000212479    -9.95441e-05        -0.157222       0.0112762      0.000554405    -7.53123e-05        -0.977509       0.0455905
                       0.0465061        0.782283      0.000480974     0.000273934        -0.475997       -0.344649     -0.000656043     0.000466098
                    -0.000163413     0.000388544         -0.97759       0.0459335     -0.000420656     7.97284e-05         0.155627     -0.00164688
281744                 -0.462042        0.377391      0.000379087    -5.41876e-05        0.0477501        0.782219      5.60456e-05     0.000707186
                     0.000212291    -9.95708e-05        -0.157199       0.0113266      0.000554213    -7.59527e-05        -0.977488       0.0460975
                       0.0470694        0.782445      0.000481386     0.000274183        -0.476125        -0.34406     -0.000655823     0.000466688
                    -0.000162973     0.000388527        -0.977569       0.0464403     -0.000420379     8.01113e-05         0.155607     -0.00175653
281746                 -0.461666        0.377467      0.000379493    -5.46171e-05         0.048313        0.782379      5.68018e-05     0.000707415
                     0.000212103    -9.95974e-05        -0.157177       0.0113769      0.000554021    -7.65924e-05        -0.977466       0.0466044
                       0.0476327        0.782605      0.000481798      0.00027443        -0.476252       -0.343471     -0.000655604     0.000467275
                    -0.000162534     0.000388509        -0.977547       0.0469471       -0.0004201     8.04931e-05         0.155586     -0.00186616
281748                 -0.461289        0.377543      0.000379899    -5.50474e-05        0.0488761        0.782539      5.75571e-05     0.000707643
                     0.000211915     -9.9624e-05        -0.157154       0.0114273      0.000553829    -7.72314e-05        -0.977444       0.0471113
                       0.0481962        0.782765       0.00048221     0.000274677        -0.476379       -0.342883     -0.000655385     0.000467858
                    -0.000162095     0.000388491        -0.977525       0.0474539     -0.000419822     8.08738e-05         0.155565     -0.00197576
281750                 -0.460913        0.377618      0.000380305    -5.54785e-05        0.0494392        0.782698      5.83115e-05      0.00070787
                     0.000211727    -9.96505e-05        -0.157131       0.0114776      0.000553636    -7.78698e-05        -0.977423       0.0476182
                       0.0487597        0.782924      0.000482623     0.000274922        -0.476504       -0.342294     -0.000655167     0.000468438
                    -0.000161657     0.000388473        -0.977503       0.0479607     -0.000419543     8.12534e-05         0.155545     -0.00208534
281752                 -0.460537        0.377693      0.000380709    -5.59104e-05        0.0500023        0.782856      5.90652e-05     0.000708097
                      0.00021154    -9.96768e-05        -0.157108       0.0115278      0.000553442    -7.85075e-05          -0.9774       0.0481251
                       0.0493233        0.783083      0.000483035     0.000275166        -0.476629       -0.341706     -0.000654949     0.000469015
                    -0.000161219     0.000388454        -0.977481       0.0484675     -0.000419265     8.16319e-05         0.155524      -0.0021949
281754                 -0.460161        0.377768      0.000381113    -5.63429e-05        0.0505656        0.783014       5.9818e-05     0.000708323
                     0.000211352    -9.97031e-05        -0.157086       0.0115781      0.000553249    -7.91446e-05        -0.977378       0.0486319
                       0.0498869        0.783241      0.000483448     0.000275408        -0.476754       -0.341118     -0.000654732     0.000469589
                    -0.000160781     0.000388435        -0.977458       0.0489742     -0.000418985     8.20093e-05         0.155503     -0.00230444
281756                 -0.459786        0.377843      0.000381515    -5.67763e-05        0.0511289        0.783171        6.057e-05     0.000708548
                     0.000211165    -9.97294e-05        -0.157063       0.0116283      0.000553055    -7.97811e-05        -0.977355       0.0491388
                       0.0504507        0.783398      0.000483861      0.00027565        -0.476878        -0.34053     -0.000654516      0.00047016
                    -0.000160344     0.000388415        -0.977435        0.049481     -0.000418706     8.23857e-05         0.155482     -0.00241395
281758                  -0.45941        0.377917      0.000381917    -5.72102e-05        0.0516923        0.783328      6.13212e-05     0.000708772
                     0.000210978    -9.97555e-05         -0.15704       0.0116786       0.00055286    -8.04169e-05        -0.977332       0.0496456
                       0.0510145        0.783555      0.000484273      0.00027589        -0.477001       -0.339942       -0.0006543     0.000470728
                    -0.000159907     0.000388395        -0.977412       0.0499877     -0.000418426      8.2761e-05         0.155461     -0.00252343
281760                 -0.459035         0.37799      0.000382319    -5.76449e-05        0.0522558        0.783484      6.20717e-05     0.000708996
                     0.000210792    -9.97815e-05        -0.157017       0.0117288      0.000552665    -8.10521e-05        -0.977309       0.0501525
                       0.0515784        0.783711      0.000484686     0.000276129        -0.477123       -0.339355     -0.000654084     0.000471292
                    -0.000159471     0.000388374        -0.977389       0.0504944     -0.000418146     8.31353e-05          0.15544      -0.0026329
281762                  -0.45866        0.378064      0.000382719    -5.80802e-05        0.0528194        0.783639      6.28213e-05     0.000709219
                     0.000210605    -9.98075e-05        -0.156994        0.011779       0.00055247    -8.16866e-05        -0.977285       0.0506593
                       0.0521424        0.783867      0.000485099     0.000276367        -0.477245       -0.338768     -0.000653869     0.000471853
