! TOUCHSTONE file generated by CST MICROWAVE STUDIO
! Date and time: Tue Oct 14 07:30:25 2025
! Project name: Teste_Macro_Metasurface_Nanopilar.cst
! Parameters = {H=600; L_x=160; L_y=70; Lambda=1064; Max_L=200; Min_L=70; PathPara=1; Phi=0; Step_L=10; Theta=0; p=520; phaseX=180; phaseY=0}
! Header version: 2018
! Port assignment regex: !\s*Touchstone port\s*([0-9]+)\s*=\s*(CST MWS port|CST DS port)\s*([0-9]+|Zmin|Zmax)\s*\(\"(.*)\"\)(\s*mode\s*([0-9]+))?.*
! Touchstone port assignment:
! Touchstone port 1 = CST MWS port Zmax ("") mode 1
! Touchstone port 2 = CST MWS port Zmax ("") mode 2
! Touchstone port 3 = CST MWS port Zmin ("") mode 1
! Touchstone port 4 = CST MWS port Zmin ("") mode 2
! S-Parameters are not renormalized. Each port impedance will be approximated by the real part at minimum frequency. The values are described via the [Reference] keyword.
! Default impedance is overridden by [Reference]
[Version] 2.0
# GHz S RI R 376.73
[Number of Ports] 4
[Reference]
376.73 376.73 259.814 259.814 
[Number of Frequencies] 51
[Network Data]
281700                -0.0181868           0.106      5.92286e-05     3.89511e-05         0.992174      -0.0544997      0.000113664     0.000123801
                    -3.29723e-05    -2.03346e-05        0.0635297        0.098381     -6.24717e-05    -0.000195489         -0.96568        0.187503
                        0.991968      -0.0542661      1.23035e-05    -7.65873e-05         0.029596        0.103525     -4.20484e-05    -5.36897e-05
                     0.000151576      3.2107e-06        -0.965705        0.187986     -9.92274e-05    -3.02657e-05       -0.0247908        0.116392
281702                -0.0181484        0.106002      5.93018e-05     3.89099e-05         0.992155      -0.0548624      0.000113589     0.000124449
                    -3.29347e-05    -2.02755e-05        0.0635807       0.0983205     -6.26704e-05    -0.000195347        -0.965585        0.188004
                        0.991948      -0.0546289      1.21928e-05    -7.65873e-05        0.0296337         0.10351     -4.22794e-05    -5.37977e-05
                     0.000151603     3.15125e-06        -0.965609        0.188488     -9.91891e-05    -3.01835e-05       -0.0247408         0.11638
281704                -0.0181101        0.106005      5.93751e-05     3.88687e-05         0.992135      -0.0552252      0.000113512     0.000125098
                    -3.28969e-05    -2.02164e-05        0.0636317         0.09826     -6.28689e-05    -0.000195206        -0.965491        0.188505
                        0.991929      -0.0549917      1.20822e-05    -7.65872e-05        0.0296715        0.103495     -4.25106e-05    -5.39064e-05
                     0.000151629     3.09181e-06        -0.965514        0.188989     -9.91507e-05    -3.01015e-05       -0.0246908        0.116368
281706                -0.0180717        0.106007      5.94483e-05     3.88276e-05         0.992115      -0.0555879      0.000113435     0.000125748
                    -3.28589e-05    -2.01574e-05        0.0636827       0.0981995     -6.30672e-05    -0.000195064        -0.965396        0.189006
                        0.991909      -0.0553545      1.19714e-05     -7.6587e-05        0.0297092         0.10348      -4.2742e-05    -5.40156e-05
                     0.000151656     3.03239e-06        -0.965418        0.189491     -9.91122e-05    -3.00195e-05       -0.0246409        0.116356
281708                -0.0180334         0.10601      5.95216e-05     3.87864e-05         0.992095      -0.0559507      0.000113357     0.000126401
                    -3.28209e-05    -2.00985e-05        0.0637337        0.098139     -6.32652e-05    -0.000194921          -0.9653        0.189506
                        0.991889      -0.0557173      1.18607e-05    -7.65868e-05        0.0297469        0.103465     -4.29737e-05    -5.41255e-05
                     0.000151683     2.97299e-06        -0.965323        0.189992     -9.90735e-05    -2.99377e-05        -0.024591        0.116344
281710                 -0.017995        0.106012      5.95948e-05     3.87452e-05         0.992075      -0.0563134      0.000113278     0.000127054
                    -3.27827e-05    -2.00397e-05        0.0637846       0.0980784      -6.3463e-05    -0.000194779        -0.965205        0.190007
                        0.991869      -0.0560801      1.17498e-05    -7.65866e-05        0.0297847         0.10345     -4.32055e-05     -5.4236e-05
                      0.00015171     2.91362e-06        -0.965226        0.190493     -9.90347e-05    -2.98559e-05       -0.0245411        0.116331
281712                -0.0179566        0.106015       5.9668e-05      3.8704e-05         0.992054      -0.0566761      0.000113198     0.000127709
                    -3.27444e-05    -1.99809e-05        0.0638354       0.0980178     -6.36605e-05    -0.000194636        -0.965109        0.190508
                        0.991849      -0.0564428       1.1639e-05    -7.65863e-05        0.0298224        0.103435     -4.34375e-05    -5.43472e-05
                     0.000151737     2.85426e-06         -0.96513        0.190994     -9.89957e-05    -2.97743e-05       -0.0244913        0.116319
281714                -0.0179183        0.106017      5.97413e-05     3.86628e-05         0.992034      -0.0570388      0.000113117     0.000128366
                     -3.2706e-05    -1.99223e-05        0.0638862       0.0979572     -6.38578e-05    -0.000194494        -0.965013        0.191008
                        0.991829      -0.0568056       1.1528e-05     -7.6586e-05        0.0298601         0.10342     -4.36697e-05     -5.4459e-05
                     0.000151764     2.79492e-06        -0.965033        0.191496     -9.89566e-05    -2.96927e-05       -0.0244414        0.116307
281716                -0.0178799         0.10602      5.98145e-05     3.86216e-05         0.992013      -0.0574015      0.000113035     0.000129024
                    -3.26674e-05    -1.98637e-05         0.063937       0.0978965     -6.40549e-05    -0.000194351        -0.964916        0.191509
                        0.991809      -0.0571684      1.14171e-05    -7.65856e-05        0.0298978        0.103405     -4.39021e-05    -5.45715e-05
                     0.000151791      2.7356e-06        -0.964936        0.191997     -9.89173e-05    -2.96112e-05       -0.0243916        0.116294
281718                -0.0178415        0.106022      5.98878e-05     3.85804e-05         0.991993      -0.0577642      0.000112953     0.000129683
                    -3.26287e-05    -1.98052e-05        0.0639878       0.0978358     -6.42517e-05    -0.000194208         -0.96482         0.19201
                        0.991788      -0.0575312      1.13061e-05    -7.65852e-05        0.0299355         0.10339     -4.41346e-05    -5.46846e-05
                     0.000151818      2.6763e-06        -0.964839        0.192498     -9.88779e-05    -2.95299e-05       -0.0243419        0.116282
281720                -0.0178032        0.106024       5.9961e-05     3.85392e-05         0.991972      -0.0581269      0.000112869     0.000130344
                      -3.259e-05    -1.97468e-05        0.0640385       0.0977751     -6.44482e-05    -0.000194064        -0.964723         0.19251
                        0.991768      -0.0578939       1.1195e-05    -7.65847e-05        0.0299731        0.103374     -4.43672e-05    -5.47984e-05
                     0.000151845     2.61702e-06        -0.964742        0.192999     -9.88383e-05    -2.94486e-05       -0.0242921         0.11627
281722                -0.0177648        0.106027      6.00343e-05     3.84979e-05         0.991951      -0.0584896      0.000112785     0.000131007
                     -3.2551e-05    -1.96885e-05        0.0640891       0.0977144     -6.46445e-05    -0.000193921        -0.964626        0.193011
                        0.991747      -0.0582567      1.10839e-05    -7.65842e-05        0.0300108        0.103359        -4.46e-05    -5.49128e-05
                     0.000151872     2.55776e-06        -0.964644          0.1935     -9.87986e-05    -2.93675e-05       -0.0242424        0.116257
281724                -0.0177265        0.106029      6.01075e-05     3.84567e-05          0.99193      -0.0588523      0.000112699      0.00013167
                     -3.2512e-05    -1.96302e-05        0.0641398       0.0976537     -6.48405e-05    -0.000193777        -0.964528        0.193511
                        0.991726      -0.0586194      1.09727e-05    -7.65836e-05        0.0300485        0.103344     -4.48329e-05    -5.50279e-05
                     0.000151899     2.49852e-06        -0.964546        0.194001     -9.87588e-05    -2.92864e-05       -0.0241927        0.116245
281726                -0.0176881        0.106032      6.01808e-05     3.84155e-05         0.991909       -0.059215      0.000112613     0.000132335
                    -3.24729e-05    -1.95721e-05        0.0641903       0.0975929     -6.50363e-05    -0.000193633        -0.964431        0.194011
                        0.991705      -0.0589821      1.08615e-05     -7.6583e-05        0.0300861        0.103329     -4.50659e-05    -5.51437e-05
                     0.000151926      2.4393e-06        -0.964448        0.194502     -9.87188e-05    -2.92055e-05        -0.024143        0.116233
281728                -0.0176497        0.106034       6.0254e-05     3.83743e-05         0.991887      -0.0595776      0.000112526     0.000133001
                    -3.24336e-05     -1.9514e-05        0.0642409       0.0975321     -6.52318e-05    -0.000193489        -0.964333        0.194512
                        0.991684      -0.0593449      1.07503e-05    -7.65824e-05        0.0301238        0.103314      -4.5299e-05    -5.52601e-05
                     0.000151953      2.3801e-06        -0.964349        0.195003     -9.86787e-05    -2.91246e-05       -0.0240934         0.11622
281730                -0.0176114        0.106036      6.03272e-05     3.83331e-05         0.991866      -0.0599403      0.000112438     0.000133668
                    -3.23942e-05     -1.9456e-05        0.0642914       0.0974712     -6.54271e-05    -0.000193345        -0.964235        0.195012
                        0.991663      -0.0597076       1.0639e-05    -7.65817e-05        0.0301614        0.103299     -4.55322e-05    -5.53772e-05
                      0.00015198     2.32091e-06         -0.96425        0.195504     -9.86384e-05    -2.90439e-05       -0.0240438        0.116208
281732                 -0.017573        0.106039      6.04005e-05     3.82919e-05         0.991844      -0.0603029      0.000112349     0.000134337
                    -3.23547e-05    -1.93981e-05        0.0643419       0.0974104     -6.56221e-05    -0.000193201        -0.964136        0.195512
                        0.991641      -0.0600703      1.05276e-05     -7.6581e-05        0.0301991        0.103284     -4.57654e-05    -5.54951e-05
                     0.000152007     2.26175e-06        -0.964151        0.196004      -9.8598e-05    -2.89633e-05       -0.0239942        0.116195
281734                -0.0175347        0.106041      6.04737e-05     3.82506e-05         0.991822      -0.0606656      0.000112259     0.000135006
                    -3.23151e-05    -1.93402e-05        0.0643923       0.0973495     -6.58168e-05    -0.000193056        -0.964038        0.196012
                         0.99162       -0.060433      1.04162e-05    -7.65802e-05        0.0302367        0.103268     -4.59987e-05    -5.56136e-05
                     0.000152034      2.2026e-06        -0.964052        0.196505     -9.85574e-05    -2.88827e-05       -0.0239446        0.116183
281736                -0.0174963        0.106043       6.0547e-05     3.82094e-05           0.9918      -0.0610282      0.000112168     0.000135677
                    -3.22753e-05    -1.92825e-05        0.0644427       0.0972886     -6.60112e-05    -0.000192912        -0.963939        0.196512
                        0.991598      -0.0607957      1.03048e-05    -7.65794e-05        0.0302743        0.103253      -4.6232e-05    -5.57327e-05
                     0.000152061     2.14347e-06        -0.963953        0.197006     -9.85167e-05    -2.88023e-05       -0.0238951        0.116171
281738                -0.0174579        0.106045      6.06203e-05     3.81682e-05         0.991778      -0.0613908      0.000112076     0.000136349
                    -3.22354e-05    -1.92249e-05        0.0644931       0.0972276     -6.62053e-05    -0.000192767        -0.963839        0.197012
                        0.991576      -0.0611584      1.01933e-05    -7.65786e-05        0.0303119        0.103238     -4.64654e-05    -5.58526e-05
                     0.000152088     2.08436e-06        -0.963853        0.197506     -9.84758e-05     -2.8722e-05       -0.0238456        0.116158
281740                -0.0174196        0.106048      6.06935e-05      3.8127e-05         0.991756      -0.0617534      0.000111983     0.000137022
                    -3.21955e-05    -1.91673e-05        0.0645434       0.0971667     -6.63991e-05    -0.000192622         -0.96374        0.197512
                        0.991554      -0.0615211      1.00817e-05    -7.65777e-05        0.0303496        0.103223     -4.66987e-05    -5.59732e-05
                     0.000152115     2.02527e-06        -0.963753        0.198007     -9.84348e-05    -2.86418e-05       -0.0237961        0.116146
281742                -0.0173812         0.10605      6.07668e-05     3.80858e-05         0.991734      -0.0621161      0.000111889     0.000137696
                    -3.21554e-05    -1.91098e-05        0.0645936       0.0971057     -6.65926e-05    -0.000192477         -0.96364        0.198012
                        0.991532      -0.0618838      9.97015e-06    -7.65767e-05        0.0303872        0.103207     -4.69321e-05    -5.60945e-05
                     0.000152142      1.9662e-06        -0.963652        0.198507     -9.83936e-05    -2.85618e-05       -0.0237466        0.116133
281744                -0.0173429        0.106052        6.084e-05     3.80445e-05         0.991711      -0.0624787      0.000111794     0.000138371
                    -3.21151e-05    -1.90524e-05        0.0646439       0.0970446     -6.67857e-05    -0.000192331         -0.96354        0.198512
                         0.99151      -0.0622464      9.85852e-06    -7.65758e-05        0.0304247        0.103192     -4.71655e-05    -5.62165e-05
                     0.000152169     1.90714e-06        -0.963552        0.199008     -9.83522e-05    -2.84819e-05       -0.0236972         0.11612
281746                -0.0173045        0.106054      6.09133e-05     3.80033e-05         0.991689      -0.0628413      0.000111698     0.000139047
                    -3.20748e-05    -1.89951e-05        0.0646941       0.0969836     -6.69783e-05    -0.000192186         -0.96344        0.199012
                        0.991488      -0.0626091      9.74683e-06    -7.65747e-05        0.0304623        0.103177     -4.73989e-05    -5.63391e-05
                     0.000152196     1.84811e-06        -0.963451        0.199508     -9.83106e-05    -2.84021e-05       -0.0236478        0.116108
281748                -0.0172661        0.106057      6.09865e-05     3.79621e-05         0.991666      -0.0632038      0.000111602     0.000139724
                    -3.20343e-05    -1.89379e-05        0.0647442       0.0969225     -6.71696e-05     -0.00019204         -0.96334        0.199512
                        0.991465      -0.0629718       9.6351e-06    -7.65737e-05        0.0304999        0.103161     -4.76323e-05    -5.64624e-05
                     0.000152223     1.78909e-06         -0.96335        0.200009     -9.82685e-05    -2.83228e-05       -0.0235984        0.116095
281750                -0.0172278        0.106059      6.10598e-05     3.79209e-05         0.991643      -0.0635664      0.000111509     0.000140401
                    -3.19935e-05    -1.88807e-05        0.0647943       0.0968614     -6.73517e-05    -0.000191894        -0.963239        0.200011
                        0.991443      -0.0633344      9.52333e-06    -7.65726e-05        0.0305375        0.103146     -4.78663e-05     -5.6586e-05
                     0.000152251     1.73011e-06        -0.963248        0.200509     -9.82233e-05    -2.82459e-05        -0.023549        0.116083
281752                -0.0171894        0.106061       6.1133e-05     3.78797e-05          0.99162       -0.063929      0.000111389     0.000141062
                    -3.19487e-05    -1.88258e-05        0.0648444       0.0968003      -6.7566e-05    -0.000191748        -0.963138        0.200511
                         0.99142      -0.0636971      9.41153e-06    -7.65715e-05         0.030575        0.103131     -4.81208e-05    -5.67205e-05
                     0.000152281     1.67232e-06        -0.963147        0.201009     -9.81887e-05    -2.81602e-05       -0.0234998         0.11607
281754                -0.0171511        0.106063      6.12062e-05     3.78384e-05         0.991597      -0.0642916      0.000111295     0.000141756
                     -3.1913e-05     -1.8767e-05        0.0648945       0.0967392     -6.77533e-05    -0.000191602        -0.963037        0.201011
                        0.991397      -0.0640597      9.29971e-06    -7.65703e-05        0.0306126        0.103115     -4.83292e-05     -5.6839e-05
                     0.000152304     1.61207e-06        -0.963045        0.201509     -9.81451e-05    -2.80821e-05       -0.0234504        0.116057
281756                -0.0171127        0.106065      6.12791e-05     3.77972e-05         0.991574      -0.0646541      0.000111196     0.000142438
                    -3.18719e-05      -1.871e-05        0.0649445        0.096678      -6.7944e-05    -0.000191455        -0.962935         0.20151
                        0.991374      -0.0644223        9.188e-06    -7.65691e-05        0.0306501          0.1031     -4.85628e-05    -5.69647e-05
                     0.000152331     1.55314e-06        -0.962943        0.202009     -9.81026e-05    -2.80031e-05       -0.0234011        0.116045
281758                -0.0170744        0.106067      6.13493e-05     3.77517e-05         0.991551      -0.0650167      0.000111094     0.000143119
                    -3.18308e-05    -1.86532e-05        0.0649944       0.0966168      -6.8135e-05    -0.000191309        -0.962833         0.20201
                        0.991351      -0.0647849      9.07837e-06    -7.65642e-05        0.0306877        0.103085     -4.87957e-05    -5.70915e-05
                     0.000152359     1.49421e-06         -0.96284        0.202509     -9.80601e-05     -2.7924e-05       -0.0233519        0.116032
281760                 -0.017036         0.10607       6.1427e-05     3.77146e-05         0.991527      -0.0653792       0.00011099     0.000143801
                    -3.17897e-05    -1.85965e-05        0.0650444       0.0965556     -6.83259e-05    -0.000191162        -0.962731        0.202509
                        0.991328      -0.0651475      8.96298e-06    -7.65663e-05        0.0307252        0.103069     -4.90285e-05    -5.72192e-05
                     0.000152386     1.43529e-06        -0.962738        0.203009     -9.80176e-05     -2.7845e-05       -0.0233027        0.116019
281762                -0.0169976        0.106072         6.15e-05     3.76735e-05         0.991504      -0.0657418      0.000110885     0.000144483
                    -3.17484e-05    -1.85399e-05        0.0650942       0.0964943     -6.85167e-05    -0.000191015        -0.962629        0.203008
                        0.991304      -0.0655101      8.85114e-06    -7.65651e-05        0.0307627        0.103054     -4.92609e-05    -5.73477e-05
