! TOUCHSTONE file generated by CST MICROWAVE STUDIO
! Date and time: Tue Oct 14 07:26:10 2025
! Project name: Teste_Macro_Metasurface_Nanopilar.cst
! Parameters = {H=600; L_x=90; L_y=130; Lambda=1064; Max_L=200; Min_L=70; PathPara=1; Phi=0; Step_L=10; Theta=0; p=520; phaseX=180; phaseY=0}
! Header version: 2018
! Port assignment regex: !\s*Touchstone port\s*([0-9]+)\s*=\s*(CST MWS port|CST DS port)\s*([0-9]+|Zmin|Zmax)\s*\(\"(.*)\"\)(\s*mode\s*([0-9]+))?.*
! Touchstone port assignment:
! Touchstone port 1 = CST MWS port Zmax ("") mode 1
! Touchstone port 2 = CST MWS port Zmax ("") mode 2
! Touchstone port 3 = CST MWS port Zmin ("") mode 1
! Touchstone port 4 = CST MWS port Zmin ("") mode 2
! S-Parameters are not renormalized. Each port impedance will be approximated by the real part at minimum frequency. The values are described via the [Reference] keyword.
! Default impedance is overridden by [Reference]
[Version] 2.0
# GHz S RI R 376.73
[Number of Ports] 4
[Reference]
376.73 376.73 259.814 259.814 
[Number of Frequencies] 51
[Network Data]
281700                  -0.12815        0.105563       0.00028002    -0.000317319        -0.817861        -0.53321      0.000188016    -0.000280043
                     0.000248002    -0.000364727        0.0257289       0.0197112      8.55729e-05     0.000276136         0.863146       -0.500592
                       -0.818267       -0.533843      0.000127171     0.000263891        -0.046395        0.159068      0.000137918     0.000349742
                     0.000194045    -0.000316373         0.863076       -0.500465      0.000143509     0.000336412       0.00422692       0.0327065
281702                 -0.128091        0.105609       0.00027983    -0.000317517        -0.818143       -0.532781      0.000187927    -0.000280149
                      0.00024781    -0.000364876        0.0257418       0.0196919      8.56605e-05      0.00027601          0.86295        -0.50093
                        -0.81855       -0.533413      0.000127279     0.000263922       -0.0462938         0.15908      0.000137985      0.00034968
                     0.000193894    -0.000316495          0.86288       -0.500803      0.000143659     0.000336397       0.00422917       0.0327048
281704                 -0.128032        0.105655       0.00027964    -0.000317715        -0.818425       -0.532352      0.000187839    -0.000280256
                     0.000247618    -0.000365026        0.0257547       0.0196726       8.5748e-05     0.000275884         0.862754       -0.501267
                       -0.818832       -0.532984      0.000127388     0.000263953       -0.0461927        0.159093      0.000138051     0.000349619
                     0.000193743    -0.000316617         0.862684        -0.50114      0.000143809     0.000336382       0.00423141       0.0327031
281706                 -0.127972        0.105701       0.00027945    -0.000317912        -0.818706       -0.531922       0.00018775    -0.000280362
                     0.000247426    -0.000365175        0.0257676       0.0196533      8.58355e-05     0.000275757         0.862558       -0.501605
                       -0.819115       -0.532554      0.000127497     0.000263984       -0.0460915        0.159105      0.000138118     0.000349557
                     0.000193592    -0.000316739         0.862487       -0.501478       0.00014396     0.000336367       0.00423365       0.0327015
281708                 -0.127913        0.105746      0.000279259    -0.000318109        -0.818988       -0.531493      0.000187662    -0.000280468
                     0.000247234    -0.000365325        0.0257805        0.019634       8.5923e-05      0.00027563         0.862361       -0.501942
                       -0.819397       -0.532125      0.000127606     0.000264015       -0.0459903        0.159117      0.000138185     0.000349496
                     0.000193441     -0.00031686         0.862291       -0.501815       0.00014411     0.000336351       0.00423589       0.0326998
281710                 -0.127854        0.105792      0.000279067    -0.000318306        -0.819269       -0.531064      0.000187573    -0.000280575
                     0.000247041    -0.000365474        0.0257934       0.0196146      8.60104e-05     0.000275504         0.862165        -0.50228
                       -0.819679       -0.531695      0.000127715     0.000264046       -0.0458892        0.159129      0.000138251     0.000349434
                      0.00019329    -0.000316982         0.862094       -0.502153       0.00014426     0.000336336       0.00423813       0.0326981
281712                 -0.127794        0.105838      0.000278875    -0.000318502         -0.81955       -0.530634      0.000187484    -0.000280681
                     0.000246848    -0.000365623        0.0258062       0.0195953      8.60978e-05     0.000275377         0.861968       -0.502617
                        -0.81996       -0.531265      0.000127824     0.000264077        -0.045788        0.159141      0.000138318     0.000349373
                     0.000193139    -0.000317104         0.861898        -0.50249      0.000144411     0.000336321       0.00424037       0.0326965
281714                 -0.127735        0.105883      0.000278683    -0.000318699        -0.819831       -0.530204      0.000187396    -0.000280788
                     0.000246656    -0.000365772        0.0258191       0.0195759      8.61852e-05      0.00027525         0.861771       -0.502954
                       -0.820242       -0.530835      0.000127933     0.000264108       -0.0456869        0.159153      0.000138384     0.000349312
                     0.000192988    -0.000317225         0.861701       -0.502827      0.000144561     0.000336305       0.00424261       0.0326948
281716                 -0.127675        0.105929       0.00027849    -0.000318895        -0.820112       -0.529774      0.000187307    -0.000280894
                     0.000246462    -0.000365921        0.0258319       0.0195566      8.62725e-05     0.000275123         0.861574       -0.503292
                       -0.820523       -0.530404      0.000128042     0.000264138       -0.0455857        0.159165      0.000138451     0.000349251
                     0.000192836    -0.000317347         0.861504       -0.503164      0.000144712      0.00033629       0.00424485       0.0326932
281718                 -0.127616        0.105975      0.000278297    -0.000319091        -0.820392       -0.529344      0.000187218       -0.000281
                     0.000246269     -0.00036607        0.0258447       0.0195372      8.63598e-05     0.000274995         0.861377       -0.503629
                       -0.820804       -0.529974      0.000128151     0.000264169       -0.0454846        0.159177      0.000138517      0.00034919
                     0.000192685    -0.000317468         0.861307       -0.503501      0.000144862     0.000336275       0.00424708       0.0326916
281720                 -0.127557         0.10602      0.000278104    -0.000319287        -0.820672       -0.528914      0.000187129    -0.000281107
                     0.000246076    -0.000366219        0.0258575       0.0195179       8.6447e-05     0.000274868          0.86118       -0.503966
                       -0.821085       -0.529543       0.00012826       0.0002642       -0.0453834        0.159188      0.000138583     0.000349129
                     0.000192534     -0.00031759         0.861109       -0.503838      0.000145013     0.000336259       0.00424932       0.0326899
281722                 -0.127497        0.106066       0.00027791    -0.000319483        -0.820952       -0.528483       0.00018704    -0.000281213
                     0.000245882    -0.000366367        0.0258704       0.0194985      8.65342e-05      0.00027474         0.860983       -0.504303
                       -0.821365       -0.529113       0.00012837      0.00026423       -0.0452823          0.1592       0.00013865     0.000349068
                     0.000192383    -0.000317711         0.860912       -0.504175      0.000145164     0.000336244       0.00425156       0.0326883
281724                 -0.127438        0.106111      0.000277716    -0.000319679        -0.821232       -0.528053      0.000186952    -0.000281319
                     0.000245688    -0.000366516        0.0258832       0.0194791      8.66214e-05     0.000274613         0.860785       -0.504639
                       -0.821646       -0.528682      0.000128479     0.000264261       -0.0451811        0.159212      0.000138716     0.000349007
                     0.000192231    -0.000317832         0.860714       -0.504512      0.000145314     0.000336229       0.00425379       0.0326867
281726                 -0.127378        0.106157      0.000277521    -0.000319875        -0.821511       -0.527622      0.000186863    -0.000281426
                     0.000245494    -0.000366664        0.0258959       0.0194597      8.67085e-05     0.000274485         0.860588       -0.504976
                       -0.821926       -0.528251      0.000128589     0.000264291         -0.04508        0.159223      0.000138782     0.000348947
                      0.00019208    -0.000317953         0.860517       -0.504849      0.000145465     0.000336213       0.00425602        0.032685
281728                 -0.127319        0.106202      0.000277327     -0.00032007        -0.821791       -0.527191      0.000186773    -0.000281532
                       0.0002453    -0.000366813        0.0259087       0.0194403      8.67956e-05     0.000274357          0.86039       -0.505313
                       -0.822206       -0.527819      0.000128698     0.000264322       -0.0449788        0.159235      0.000138848     0.000348886
                     0.000191928    -0.000318074         0.860319       -0.505185      0.000145616     0.000336198       0.00425826       0.0326834
281730                 -0.127259        0.106248      0.000277132    -0.000320266         -0.82207        -0.52676      0.000186684    -0.000281638
                     0.000245106    -0.000366961        0.0259215       0.0194209      8.68826e-05     0.000274229         0.860192        -0.50565
                       -0.822485       -0.527388      0.000128808     0.000264352       -0.0448777        0.159246      0.000138914     0.000348825
                     0.000191777    -0.000318195         0.860121       -0.505522      0.000145767     0.000336182       0.00426049       0.0326818
281732                 -0.127199        0.106293      0.000276937    -0.000320461        -0.822348       -0.526329      0.000186595    -0.000281744
                     0.000244912    -0.000367109        0.0259343       0.0194015      8.69696e-05     0.000274101         0.859994       -0.505986
                       -0.822765       -0.526956      0.000128917     0.000264383       -0.0447765        0.159257       0.00013898     0.000348765
                     0.000191625    -0.000318316         0.859923       -0.505858      0.000145917     0.000336167       0.00426272       0.0326802
281734                  -0.12714        0.106338      0.000276741    -0.000320657        -0.822627       -0.525898      0.000186506    -0.000281851
                     0.000244717    -0.000367257         0.025947       0.0193821      8.70565e-05     0.000273973         0.859796       -0.506323
                       -0.823044       -0.526525      0.000129027     0.000264413       -0.0446754        0.159269      0.000139046     0.000348705
                     0.000191473    -0.000318437         0.859725       -0.506195      0.000146068     0.000336151       0.00426495       0.0326786
281736                  -0.12708        0.106384      0.000276546    -0.000320852        -0.822905       -0.525466      0.000186417    -0.000281957
                     0.000244522    -0.000367405        0.0259597       0.0193627      8.71434e-05     0.000273844         0.859598       -0.506659
                       -0.823323       -0.526093      0.000129137     0.000264443       -0.0445743         0.15928      0.000139112     0.000348644
                     0.000191322    -0.000318557         0.859527       -0.506531      0.000146219     0.000336136       0.00426718        0.032677
281738                 -0.127021        0.106429       0.00027635    -0.000321047        -0.823184       -0.525034      0.000186327    -0.000282063
                     0.000244327    -0.000367553        0.0259725       0.0193433      8.72303e-05     0.000273716         0.859399       -0.506995
                       -0.823602       -0.525661      0.000129247     0.000264474       -0.0444731        0.159291      0.000139178     0.000348584
                      0.00019117    -0.000318678         0.859328       -0.506868       0.00014637     0.000336121       0.00426941       0.0326754
281740                 -0.126961        0.106474      0.000276154    -0.000321241        -0.823461       -0.524603      0.000186238    -0.000282169
                     0.000244132    -0.000367701        0.0259852       0.0193238      8.73171e-05     0.000273587         0.859201       -0.507332
                        -0.82388       -0.525229      0.000129357     0.000264504        -0.044372        0.159302      0.000139244     0.000348524
                     0.000191018    -0.000318799          0.85913       -0.507204      0.000146521     0.000336105       0.00427163       0.0326738
281742                 -0.126901        0.106519      0.000275958    -0.000321436        -0.823739       -0.524171      0.000186149    -0.000282276
                     0.000243937    -0.000367848        0.0259979       0.0193044      8.74039e-05     0.000273458         0.859002       -0.507668
                       -0.824159       -0.524796      0.000129467     0.000264534       -0.0442709        0.159313      0.000139309     0.000348464
                     0.000190867    -0.000318919         0.858931        -0.50754      0.000146672      0.00033609       0.00427386       0.0326722
281744                 -0.126842        0.106565      0.000275761     -0.00032163        -0.824017       -0.523739      0.000186059    -0.000282382
                     0.000243742    -0.000367996        0.0260106        0.019285      8.74906e-05     0.000273329         0.858803       -0.508004
                       -0.824437       -0.524364      0.000129577     0.000264564       -0.0441698        0.159324      0.000139375     0.000348404
                     0.000190715    -0.000319039         0.858732       -0.507876      0.000146823     0.000336074       0.00427609       0.0326706
281746                 -0.126782         0.10661      0.000275565    -0.000321824        -0.824294       -0.523306       0.00018597    -0.000282488
                     0.000243546    -0.000368143        0.0260233       0.0192655      8.75773e-05       0.0002732         0.858604        -0.50834
                       -0.824715       -0.523931      0.000129688     0.000264594       -0.0440687        0.159335      0.000139441     0.000348344
                     0.000190563     -0.00031916         0.858533       -0.508212      0.000146974     0.000336058       0.00427831       0.0326691
281748                 -0.126722        0.106655      0.000275368    -0.000322018        -0.824571       -0.522874       0.00018588    -0.000282594
                      0.00024335    -0.000368291         0.026036       0.0192461       8.7664e-05     0.000273071         0.858405       -0.508676
                       -0.824992       -0.523499      0.000129798     0.000264624       -0.0439675        0.159345      0.000139506     0.000348284
                     0.000190411     -0.00031928         0.858334       -0.508548      0.000147126     0.000336043       0.00428054       0.0326675
281750                 -0.126662          0.1067      0.000275171    -0.000322212        -0.824848       -0.522441       0.00018579      -0.0002827
                     0.000243154    -0.000368438        0.0260487       0.0192266      8.77506e-05     0.000272942         0.858206       -0.509012
                        -0.82527       -0.523066      0.000129909     0.000264653       -0.0438664        0.159356      0.000139572     0.000348224
                     0.000190259      -0.0003194         0.858135       -0.508884      0.000147277     0.000336027       0.00428276       0.0326659
281752                 -0.126602        0.106745      0.000274974    -0.000322405        -0.825124       -0.522009        0.0001857    -0.000282806
                     0.000242958    -0.000368585        0.0260613       0.0192071      8.78371e-05     0.000272813         0.858007       -0.509348
                       -0.825547       -0.522633      0.000130019     0.000264683       -0.0437653        0.159367      0.000139637     0.000348164
                     0.000190107     -0.00031952         0.857936        -0.50922      0.000147428     0.000336012       0.00428498       0.0326644
281754                 -0.126543         0.10679      0.000274777    -0.000322598        -0.825401       -0.521576      0.000185611    -0.000282913
                     0.000242761    -0.000368732         0.026074       0.0191876      8.79236e-05     0.000272683         0.857807       -0.509683
                       -0.825824       -0.522199       0.00013013     0.000264712       -0.0436642        0.159377      0.000139703     0.000348105
                     0.000189955    -0.000319639         0.857736       -0.509555      0.000147579     0.000335996       0.00428721       0.0326628
281756                 -0.126483        0.106835      0.000274579    -0.000322791        -0.825677       -0.521143      0.000185521    -0.000283019
                     0.000242564     -0.00036888        0.0260866       0.0191682      8.80101e-05     0.000272553         0.857607       -0.510019
                       -0.826101       -0.521766      0.000130241     0.000264741       -0.0435631        0.159388      0.000139768     0.000348045
                     0.000189803    -0.000319758         0.857536       -0.509891      0.000147731     0.000335981       0.00428943       0.0326613
281758                 -0.126423         0.10688      0.000274381    -0.000322984        -0.825953        -0.52071      0.000185431    -0.000283125
                     0.000242364    -0.000369028        0.0260992       0.0191487      8.80965e-05     0.000272424         0.857408       -0.510355
                       -0.826377       -0.521333      0.000130352      0.00026477        -0.043462        0.159398      0.000139834     0.000347985
                     0.000189651    -0.000319875         0.857337       -0.510226      0.000147882     0.000335965       0.00429165       0.0326597
281760                 -0.126363        0.106925      0.000274183    -0.000323176        -0.826229       -0.520276      0.000185341    -0.000283231
                     0.000242228    -0.000368966        0.0261119       0.0191292      8.81829e-05     0.000272294         0.857208        -0.51069
                       -0.826654       -0.520899      0.000130463     0.000264799       -0.0433609        0.159408      0.000139899     0.000347926
                     0.000189537    -0.000319967         0.857137       -0.510562      0.000148034     0.000335949       0.00429387       0.0326582
281762                 -0.126303         0.10697      0.000273985    -0.000323368        -0.826504       -0.519843       0.00018525    -0.000283337
                     0.000241985    -0.000369314        0.0261245       0.0191097      8.82693e-05     0.000272164         0.857008       -0.511026
                        -0.82693       -0.520465      0.000130574     0.000264827       -0.0432598        0.159419      0.000139964     0.000347866
