! TOUCHSTONE file generated by CST MICROWAVE STUDIO
! Date and time: Tue Oct 14 07:26:57 2025
! Project name: Teste_Macro_Metasurface_Nanopilar.cst
! Parameters = {H=600; L_x=100; L_y=200; Lambda=1064; Max_L=200; Min_L=70; PathPara=1; Phi=0; Step_L=10; Theta=0; p=520; phaseX=180; phaseY=0}
! Header version: 2018
! Port assignment regex: !\s*Touchstone port\s*([0-9]+)\s*=\s*(CST MWS port|CST DS port)\s*([0-9]+|Zmin|Zmax)\s*\(\"(.*)\"\)(\s*mode\s*([0-9]+))?.*
! Touchstone port assignment:
! Touchstone port 1 = CST MWS port Zmax ("") mode 1
! Touchstone port 2 = CST MWS port Zmax ("") mode 2
! Touchstone port 3 = CST MWS port Zmin ("") mode 1
! Touchstone port 4 = CST MWS port Zmin ("") mode 2
! S-Parameters are not renormalized. Each port impedance will be approximated by the real part at minimum frequency. The values are described via the [Reference] keyword.
! Default impedance is overridden by [Reference]
[Version] 2.0
# GHz S RI R 376.73
[Number of Ports] 4
[Reference]
376.73 376.73 259.814 259.814 
[Number of Frequencies] 51
[Network Data]
281700                 -0.268887        0.317352      8.39155e-05     0.000245934         0.329099        0.837551     -0.000589857    -0.000295268
                    -5.71125e-05      0.00029459        -0.203879      -0.0498616     -0.000383185    -0.000735976         -0.88841       -0.386957
                         0.32927        0.837821     -0.000231247    -0.000658049        -0.404923      -0.0633454      0.000511238    -5.88835e-05
                    -0.000625395    -0.000342911        -0.888373       -0.387117      0.000561788    -5.17152e-06         0.173757        0.115166
281702                 -0.268703        0.317349      8.46933e-05     0.000245992         0.329573        0.837433     -0.000590166    -0.000294819
                    -5.84472e-05     0.000293645         -0.20389      -0.0497826     -0.000382567    -0.000735772        -0.888609       -0.386498
                        0.329741        0.837703     -0.000231099    -0.000657222         -0.40485      -0.0630194        0.0005105    -5.92494e-05
                    -0.000624846    -0.000342829        -0.888573       -0.386662      0.000562913    -6.86465e-06         0.173824        0.115049
281704                 -0.268519        0.317346      8.54768e-05     0.000246046         0.330047        0.837315     -0.000590473    -0.000294373
                    -5.98472e-05     0.000292734        -0.203901      -0.0497036     -0.000381782    -0.000735685        -0.888808       -0.386039
                        0.330211        0.837584     -0.000230953    -0.000656397        -0.404777      -0.0626939      0.000509768    -5.96134e-05
                    -0.000624286    -0.000342745        -0.888773       -0.386207      0.000564031    -8.60135e-06         0.173891        0.114932
281706                 -0.268335        0.317343      8.62663e-05     0.000246096         0.330522        0.837196     -0.000590778    -0.000293929
                    -6.13151e-05     0.000291864        -0.203911      -0.0496247     -0.000380801    -0.000735746        -0.889007        -0.38558
                        0.330681        0.837464     -0.000230808    -0.000655576        -0.404702      -0.0623689      0.000509041    -5.99755e-05
                    -0.000623713     -0.00034266        -0.888973       -0.385752      0.000565142    -1.03841e-05         0.173957        0.114815
281708                 -0.268152        0.317339      8.70623e-05     0.000246141         0.330996        0.837077     -0.000591079    -0.000293488
                    -6.28527e-05     0.000291043        -0.203922      -0.0495457     -0.000379591    -0.000735997        -0.889205       -0.385121
                        0.331151        0.837344     -0.000230664    -0.000654759        -0.404628      -0.0620443      0.000508321    -6.03358e-05
                    -0.000623127    -0.000342573        -0.889173       -0.385297      0.000566246    -1.22157e-05         0.174024        0.114698
281710                 -0.267969        0.317335      8.78651e-05     0.000246182          0.33147        0.836957     -0.000591376     -0.00029305
                    -6.44616e-05     0.000290279        -0.203932      -0.0494667     -0.000378111    -0.000736494        -0.889404       -0.384662
                         0.33162        0.837223     -0.000230521    -0.000653945        -0.404552      -0.0617204      0.000507608    -6.06943e-05
                    -0.000622524    -0.000342487        -0.889372       -0.384841      0.000567344    -1.40986e-05         0.174091        0.114581
281712                 -0.267786         0.31733      8.86753e-05     0.000246217         0.331944        0.836837      -0.00059167    -0.000292616
                    -6.61426e-05     0.000289583        -0.203942      -0.0493877     -0.000376312    -0.000737315        -0.889602       -0.384203
                         0.33209        0.837101     -0.000230379    -0.000653135        -0.404476      -0.0613969      0.000506902    -6.10508e-05
                    -0.000621903    -0.000342402        -0.889572       -0.384385      0.000568434    -1.60359e-05         0.174157        0.114464
281714                 -0.267602        0.317326      8.94933e-05     0.000246246         0.332418        0.836716     -0.000591958    -0.000292187
                    -6.78955e-05     0.000288964        -0.203953      -0.0493087     -0.000374134    -0.000738572        -0.889799       -0.383744
                        0.332559        0.836979      -0.00023024     -0.00065233          -0.4044      -0.0610741      0.000506204    -6.14054e-05
                    -0.000621261    -0.000342321         -0.88977       -0.383929      0.000569517    -1.80303e-05         0.174224        0.114347
281716                 -0.267419        0.317321      9.03198e-05     0.000246269         0.332891        0.836594     -0.000592241    -0.000291762
                     -6.9719e-05     0.000288434        -0.203963      -0.0492297     -0.000371513    -0.000740426        -0.889997       -0.383285
                        0.333028        0.836857     -0.000230102     -0.00065153        -0.404323      -0.0607519      0.000505516    -6.17578e-05
                    -0.000620595    -0.000342245        -0.889969       -0.383473      0.000570594    -2.00846e-05          0.17429        0.114229
281718                 -0.267236        0.317315      9.11553e-05     0.000246285         0.333365        0.836472     -0.000592518    -0.000291343
                    -7.16106e-05     0.000288005        -0.203973      -0.0491506     -0.000368381    -0.000743114        -0.890194       -0.382826
                        0.333496        0.836734     -0.000229966    -0.000650736        -0.404246      -0.0604302      0.000504838    -6.21079e-05
                    -0.000619902    -0.000342178        -0.890167       -0.383017      0.000571662     -2.2201e-05         0.174357        0.114112
281720                 -0.267053        0.317309      9.20007e-05     0.000246293         0.333838         0.83635     -0.000592786    -0.000290931
                    -7.35661e-05     0.000287691        -0.203984      -0.0490716     -0.000364687    -0.000746993        -0.890392       -0.382366
                        0.333964         0.83661     -0.000229832    -0.000649948        -0.404168      -0.0601093      0.000504171    -6.24555e-05
                    -0.000619177    -0.000342126        -0.890365       -0.382561      0.000572722    -2.43817e-05         0.174423        0.113995
281722                  -0.26687        0.317303      9.28567e-05     0.000246292         0.334312        0.836227     -0.000593044    -0.000290527
                    -7.55792e-05     0.000287506        -0.203994      -0.0489926     -0.000360442    -0.000752605        -0.890589       -0.381907
                        0.334432        0.836486       -0.0002297    -0.000649169         -0.40409       -0.059789      0.000503518    -6.27999e-05
                    -0.000618418    -0.000342095        -0.890563       -0.382104      0.000573773    -2.66275e-05         0.174489        0.113877
281724                 -0.266687        0.317297       9.3724e-05     0.000246279         0.334785        0.836103     -0.000593289    -0.000290131
                    -7.76417e-05     0.000287463        -0.204004      -0.0489136      -0.00035584    -0.000760778        -0.890785       -0.381447
                          0.3349        0.836361     -0.000229571    -0.000648399        -0.404011      -0.0594694       0.00050288    -6.31406e-05
                    -0.000617619    -0.000342096         -0.89076       -0.381648      0.000574812     -2.8938e-05         0.174555         0.11376
281726                 -0.266503         0.31729      9.46033e-05     0.000246254         0.335257        0.835979     -0.000593519    -0.000289745
                    -7.97428e-05     0.000287578        -0.204014      -0.0488345     -0.000351539    -0.000772728        -0.890982       -0.380988
                        0.335367        0.836236     -0.000229445    -0.000647642        -0.403932      -0.0591504      0.000502259    -6.34766e-05
                    -0.000616777    -0.000342143        -0.890957       -0.381191      0.000575835    -3.13105e-05         0.174621        0.113643
281728                 -0.266319        0.317283      9.54955e-05     0.000246213          0.33573        0.835855     -0.000593729    -0.000289369
                    -8.18691e-05     0.000287865        -0.204024      -0.0487555     -0.000349278    -0.000790004        -0.891178       -0.380528
                        0.335834        0.836111     -0.000229322    -0.000646902        -0.403853      -0.0588322      0.000501658    -6.38064e-05
                    -0.000615893    -0.000342255        -0.891154       -0.380734      0.000576836    -3.37387e-05         0.174687        0.113525
281730                 -0.266135        0.317277      9.64007e-05     0.000246153         0.336202         0.83573     -0.000593913    -0.000289003
                    -8.40042e-05     0.000288339        -0.204034      -0.0486765     -0.000352954    -0.000813677        -0.891374       -0.380068
                        0.336301        0.835985     -0.000229202    -0.000646185        -0.403773      -0.0585147      0.000501079    -6.41282e-05
                    -0.000614971    -0.000342459        -0.891351       -0.380277      0.000577804     -3.6211e-05         0.174753        0.113408
281732                 -0.265951         0.31727      9.73189e-05     0.000246069         0.336674        0.835604     -0.000594065    -0.000288648
                    -8.61287e-05     0.000289013        -0.204044      -0.0485974     -0.000369146    -0.000841391         -0.89157       -0.379608
                        0.336767        0.835858     -0.000229085    -0.000645502        -0.403694      -0.0581979      0.000500526     -6.4439e-05
                    -0.000614026    -0.000342788        -0.891547        -0.37982      0.000578721    -3.87072e-05         0.174818         0.11329
281734                 -0.265766        0.317263      9.82489e-05     0.000245956         0.337145        0.835478     -0.000594175    -0.000288298
                      -8.822e-05     0.000289901        -0.204054      -0.0485184     -0.000402618    -0.000862866        -0.891766       -0.379148
                        0.337233        0.835731     -0.000228968    -0.000644872        -0.403614      -0.0578817      0.000500001    -6.47349e-05
                    -0.000613093    -0.000343284        -0.891744       -0.379362      0.000579556    -4.11936e-05         0.174884        0.113173
281736                 -0.265581        0.317257      9.91876e-05     0.000245804         0.337615        0.835352     -0.000594232    -0.000287949
                    -9.02517e-05     0.000291013        -0.204064      -0.0484393     -0.000445377    -0.000864446        -0.891961       -0.378688
                        0.337698        0.835604     -0.000228846    -0.000644335        -0.403534      -0.0575662      0.000499509    -6.50103e-05
                    -0.000612234    -0.000343983         -0.89194       -0.378905      0.000580262    -4.36154e-05          0.17495        0.113055
281738                 -0.265397        0.317252      0.000100128     0.000245605         0.338084        0.835225     -0.000594224    -0.000287587
                    -9.21939e-05     0.000292362        -0.204073      -0.0483603     -0.000479698    -0.000846576        -0.892156       -0.378227
                        0.338163        0.835477     -0.000228695    -0.000643981        -0.403454      -0.0572513       0.00049905    -6.52578e-05
                    -0.000611553      -0.0003449        -0.892135       -0.378447      0.000580759    -4.58809e-05         0.175015        0.112937
281740                 -0.265213        0.317246      0.000101059     0.000245345         0.338551        0.835098     -0.000594142    -0.000287191
                    -9.40118e-05     0.000293957        -0.204083      -0.0482812      -0.00049819     -0.00082311        -0.892351       -0.377767
                        0.338628        0.835349     -0.000228404    -0.000644073        -0.403375      -0.0569369      0.000498626    -6.54679e-05
                    -0.000611185    -0.000345992        -0.892331       -0.377989      0.000580921    -4.78344e-05          0.17508        0.112819
281742                 -0.265029        0.317241      0.000101955     0.000245012         0.339016         0.83497     -0.000593989    -0.000286727
                    -9.56639e-05     0.000295809        -0.204093      -0.0482022     -0.000505497    -0.000804659        -0.892546       -0.377306
                        0.339092        0.835221     -0.000227027     -0.00064565        -0.403295      -0.0566228       0.00049823    -6.56296e-05
                    -0.000611254     -0.00034712        -0.892526       -0.377532      0.000580546    -4.91977e-05         0.175146        0.112702
281744                 -0.264846        0.317236      0.000102775     0.000244595         0.339477         0.83484     -0.000593788    -0.000286161
                    -9.70985e-05     0.000297929        -0.204103      -0.0481231     -0.000507857    -0.000795755         -0.89274       -0.376845
                        0.339555        0.835092     -0.000215788    -0.000638735        -0.403216      -0.0563091      0.000497853    -6.57325e-05
                    -0.000611793    -0.000348059        -0.892721       -0.377074      0.000579327    -4.94411e-05         0.175211        0.112584
281746                 -0.264663         0.31723      0.000103448     0.000244106         0.339932        0.834708     -0.000593594     -0.00028547
                     -9.8245e-05     0.000300332        -0.204112      -0.0480441     -0.000507803    -0.000802269        -0.892935       -0.376385
                        0.340019        0.834964     -0.000226248    -0.000634922        -0.403137      -0.0559954      0.000497471    -6.57718e-05
                    -0.000612682    -0.000348584        -0.892916       -0.376616      0.000576872    -4.74743e-05         0.175276        0.112466
281748                  -0.26448        0.317224      0.000103874     0.000243608         0.340377        0.834568     -0.000593482    -0.000284676
                    -9.89989e-05     0.000303027        -0.204122       -0.047965     -0.000483459      -0.0008456        -0.893129       -0.375923
                        0.340481        0.834835     -0.000227564    -0.000635769        -0.403059      -0.0556815      0.000497052    -6.57573e-05
                    -0.000613686    -0.000348589        -0.893111       -0.376158      0.000573071    -4.09046e-05         0.175341        0.112348
281750                 -0.264298        0.317218      0.000103958     0.000243284         0.340812        0.834408     -0.000593517    -0.000283857
                    -9.91913e-05     0.000306007        -0.204132       -0.047886     -0.000353673    -0.000784831        -0.893323       -0.375462
                        0.340944        0.834705     -0.000227902    -0.000635668        -0.402983      -0.0553669      0.000496558    -6.57243e-05
                    -0.000614578    -0.000348127        -0.893305         -0.3757      0.000570355    -2.47701e-05         0.175406         0.11223
281752                 -0.264116        0.317211      0.000103757     0.000243476         0.341253        0.834204     -0.000593718    -0.000283131
                    -9.85434e-05     0.000309183        -0.204141      -0.0478069     -0.000408338    -0.000710191        -0.893516          -0.375
                        0.341406        0.834575     -0.000228066     -0.00063523        -0.402908      -0.0550513      0.000495958    -6.57397e-05
                    -0.000615229     -0.00034734        -0.893499       -0.375242      0.000581901     4.78476e-06         0.175471        0.112112
281754                 -0.263934        0.317205        0.0001037     0.000244496         0.341768         0.83397      -0.00059407     -0.00028261
                    -9.66526e-05     0.000312199        -0.204151      -0.0477279     -0.000433721      -0.0007053         -0.89371       -0.374538
                        0.341867        0.834443     -0.000228203    -0.000634632        -0.402839      -0.0547344      0.000495238    -6.58944e-05
                    -0.000615615    -0.000346377        -0.893694       -0.374783       0.00062462     2.29126e-05         0.175536        0.111994
281756                 -0.263752        0.317197      0.000104467     0.000246194         0.342338         0.83381     -0.000594589    -0.000282376
                    -9.32822e-05     0.000314076         -0.20416      -0.0476489     -0.000443176    -0.000704876        -0.893903       -0.374076
                        0.342329        0.834307     -0.000228369    -0.000633937        -0.402784      -0.0544237      0.000494398    -6.62801e-05
                    -0.000615772    -0.000345341        -0.893888       -0.374325      0.000662357     4.60018e-06           0.1756        0.111876
281758                  -0.26357         0.31719      0.000106409     0.000247909         0.342869        0.833707     -0.000595393    -0.000282437
                    -8.94551e-05     0.000313356         -0.20417      -0.0475698     -0.000447358     -0.00070444        -0.894096       -0.373613
                        0.342794        0.834164     -0.000228607     -0.00063316        -0.402725      -0.0541492      0.000493421    -6.69547e-05
                    -0.000615757    -0.000344291        -0.894083       -0.373867       0.00067492    -1.79991e-05         0.175665        0.111758
281760                 -0.263388        0.317182       0.00010936     0.000249018         0.343363        0.833603     -0.000596707    -0.000282577
                    -8.77829e-05     0.000310347         -0.20418      -0.0474908     -0.000449401    -0.000703764        -0.894289       -0.373149
                        0.343282        0.834016     -0.000228969    -0.000632286        -0.402619      -0.0538618      0.000492243    -6.78992e-05
                    -0.000615625     -0.00034325        -0.894279        -0.37341      0.000677455    -3.17177e-05          0.17573        0.111639
281762                 -0.263206        0.317174      0.000113009     0.000249167         0.343841        0.833488     -0.000598493    -0.000282243
                    -8.89844e-05     0.000307881         -0.20419      -0.0474119     -0.000450455    -0.000702931        -0.894481       -0.372684
                        0.343783        0.833913     -0.000229544    -0.000631252        -0.402524      -0.0535469      0.000490779     -6.8972e-05
