! TOUCHSTONE file generated by CST MICROWAVE STUDIO
! Date and time: Tue Oct 14 07:26:43 2025
! Project name: Teste_Macro_Metasurface_Nanopilar.cst
! Parameters = {H=600; L_x=100; L_y=100; Lambda=1064; Max_L=200; Min_L=70; PathPara=1; Phi=0; Step_L=10; Theta=0; p=520; phaseX=180; phaseY=0}
! Header version: 2018
! Port assignment regex: !\s*Touchstone port\s*([0-9]+)\s*=\s*(CST MWS port|CST DS port)\s*([0-9]+|Zmin|Zmax)\s*\(\"(.*)\"\)(\s*mode\s*([0-9]+))?.*
! Touchstone port assignment:
! Touchstone port 1 = CST MWS port Zmax ("") mode 1
! Touchstone port 2 = CST MWS port Zmax ("") mode 2
! Touchstone port 3 = CST MWS port Zmin ("") mode 1
! Touchstone port 4 = CST MWS port Zmin ("") mode 2
! S-Parameters are not renormalized. Each port impedance will be approximated by the real part at minimum frequency. The values are described via the [Reference] keyword.
! Default impedance is overridden by [Reference]
[Version] 2.0
# GHz S RI R 376.73
[Number of Ports] 4
[Reference]
376.73 376.73 259.814 259.814 
[Number of Frequencies] 51
[Network Data]
281700                0.00713203      0.00869259      2.79572e-05     -0.00102374          0.83451       -0.547298     -0.000101003      -0.0001639
                    -1.14582e-05    -0.000890568       0.00847811      0.00896896     -8.29986e-05    -0.000231778         0.834906       -0.546725
                        0.834256       -0.547372     -0.000102372    -0.000227755       0.00492609       0.0106564     -0.000884226    -0.000289887
                    -9.93438e-05    -0.000122122         0.835117       -0.546592     -0.000799492    -0.000488604       0.00461231        0.012016
281702                0.00713929      0.00867785      2.74576e-05     -0.00102383         0.834293       -0.547629     -0.000101077    -0.000163818
                    -1.20735e-05    -0.000890599       0.00848525       0.0089539     -8.31336e-05    -0.000231771         0.834689       -0.547056
                        0.834039       -0.547703     -0.000102398    -0.000227802       0.00491789       0.0106534     -0.000884294    -0.000289576
                    -9.95318e-05    -0.000122199         0.834901       -0.546923     -0.000799654    -0.000488394       0.00460494       0.0120129
281704                0.00714654      0.00866311      2.69575e-05     -0.00102393         0.834076       -0.547959     -0.000101152    -0.000163736
                    -1.26891e-05     -0.00089063       0.00849238      0.00893884     -8.32686e-05    -0.000231764         0.834472       -0.547386
                        0.833822       -0.548033     -0.000102424    -0.000227849       0.00490969       0.0106503     -0.000884362    -0.000289266
                    -9.97202e-05    -0.000122277         0.834684       -0.547254     -0.000799815    -0.000488184       0.00459757       0.0120098
281706                0.00715378      0.00864836      2.64568e-05     -0.00102402         0.833859        -0.54829     -0.000101226    -0.000163653
                     -1.3305e-05     -0.00089066       0.00849951      0.00892377     -8.34035e-05    -0.000231757         0.834255       -0.547717
                        0.833605       -0.548364     -0.000102451    -0.000227895       0.00490149       0.0106472      -0.00088443    -0.000288954
                    -9.99088e-05    -0.000122355         0.834467       -0.547585     -0.000799976    -0.000487974        0.0045902       0.0120067
281708                0.00716102      0.00863361      2.59555e-05     -0.00102411         0.833641        -0.54862     -0.000101301    -0.000163571
                    -1.39213e-05     -0.00089069       0.00850662       0.0089087     -8.35384e-05     -0.00023175         0.834037       -0.548048
                        0.833387       -0.548695     -0.000102478    -0.000227941       0.00489329       0.0106442     -0.000884497    -0.000288643
                    -0.000100098    -0.000122433          0.83425       -0.547916     -0.000800137    -0.000487764       0.00458282       0.0120037
281710                0.00716824      0.00861886      2.54537e-05      -0.0010242         0.833423       -0.548951     -0.000101375    -0.000163488
                    -1.45378e-05    -0.000890719       0.00851373      0.00889362     -8.36732e-05    -0.000231743          0.83382       -0.548378
                        0.833169       -0.549025     -0.000102506    -0.000227987       0.00488508       0.0106411     -0.000884564    -0.000288331
                    -0.000100287    -0.000122511         0.834032       -0.548246     -0.000800297    -0.000487554       0.00457545       0.0120006
281712                0.00717546       0.0086041      2.49514e-05     -0.00102429         0.833206       -0.549281     -0.000101449    -0.000163405
                    -1.51547e-05    -0.000890749       0.00852082      0.00887854     -8.38079e-05    -0.000231735         0.833603       -0.548708
                        0.832951       -0.549356     -0.000102535    -0.000228033       0.00487687       0.0106381     -0.000884631    -0.000288019
                    -0.000100477    -0.000122589         0.833815       -0.548577     -0.000800458    -0.000487343       0.00456807       0.0119976
281714                0.00718267      0.00858933      2.44484e-05     -0.00102438         0.832988       -0.549611     -0.000101524    -0.000163321
                    -1.57719e-05    -0.000890778       0.00852791      0.00886346     -8.39426e-05    -0.000231728         0.833385       -0.549039
                        0.832733       -0.549686     -0.000102563    -0.000228078       0.00486866       0.0106351     -0.000884697    -0.000287706
                    -0.000100667    -0.000122668         0.833597       -0.548907     -0.000800618    -0.000487132       0.00456069       0.0119945
281716                0.00718986      0.00857456      2.39449e-05     -0.00102447          0.83277       -0.549941     -0.000101598    -0.000163237
                    -1.63894e-05    -0.000890807       0.00853499      0.00884837     -8.40772e-05     -0.00023172         0.833167       -0.549369
                        0.832515       -0.550017     -0.000102593    -0.000228123       0.00486045       0.0106321     -0.000884763    -0.000287393
                    -0.000100857    -0.000122746         0.833379       -0.549238     -0.000800778    -0.000486922       0.00455331       0.0119915
281718                0.00719705      0.00855979      2.34408e-05     -0.00102456         0.832552       -0.550271     -0.000101672    -0.000163153
                    -1.70072e-05    -0.000890835       0.00854206      0.00883328     -8.42118e-05    -0.000231712         0.832949       -0.549699
                        0.832297       -0.550347     -0.000102623    -0.000228167       0.00485223       0.0106291     -0.000884829     -0.00028708
                    -0.000101047    -0.000122825         0.833162       -0.549568     -0.000800938     -0.00048671       0.00454592       0.0119885
281720                0.00720423      0.00854501      2.29361e-05     -0.00102464         0.832333       -0.550601     -0.000101746    -0.000163069
                    -1.76254e-05    -0.000890863       0.00854912      0.00881818     -8.43463e-05    -0.000231704         0.832731       -0.550029
                        0.832079       -0.550677     -0.000102653    -0.000228212       0.00484402       0.0106261     -0.000884894    -0.000286767
                    -0.000101238    -0.000122904         0.832944       -0.549898     -0.000801097    -0.000486499       0.00453854       0.0119855
281722                 0.0072114      0.00853023      2.24309e-05     -0.00102473         0.832115       -0.550931      -0.00010182    -0.000162985
                    -1.82438e-05    -0.000890891       0.00855617      0.00880308     -8.44807e-05    -0.000231696         0.832513       -0.550359
                         0.83186       -0.551007     -0.000102684    -0.000228255        0.0048358       0.0106231     -0.000884959    -0.000286453
                    -0.000101429    -0.000122983         0.832726       -0.550229     -0.000801257    -0.000486288       0.00453115       0.0119825
281724                0.00721857      0.00851545       2.1925e-05     -0.00102482         0.831896       -0.551261     -0.000101893      -0.0001629
                    -1.88626e-05    -0.000890919       0.00856322      0.00878797     -8.46151e-05    -0.000231688         0.832295       -0.550689
                        0.831642       -0.551337     -0.000102715    -0.000228299       0.00482758       0.0106201     -0.000885023    -0.000286139
                    -0.000101621    -0.000123062         0.832507       -0.550559     -0.000801416    -0.000486076       0.00452376       0.0119795
281726                0.00722572      0.00850066      2.14186e-05      -0.0010249         0.831678       -0.551591     -0.000101967    -0.000162815
                    -1.94816e-05    -0.000890946       0.00857025      0.00877286     -8.47494e-05    -0.000231679         0.832076       -0.551018
                        0.831423       -0.551667     -0.000102747    -0.000228342       0.00481935       0.0106172     -0.000885087    -0.000285824
                    -0.000101812    -0.000123141         0.832289       -0.550889     -0.000801575    -0.000485865       0.00451636       0.0119765
281728                0.00723286      0.00848586      2.09116e-05     -0.00102499         0.831459        -0.55192     -0.000102041     -0.00016273
                     -2.0101e-05    -0.000890973       0.00857727      0.00875775     -8.48837e-05    -0.000231671         0.831858       -0.551348
                        0.831204       -0.551997      -0.00010278    -0.000228386       0.00481113       0.0106142     -0.000885151    -0.000285509
                    -0.000102004     -0.00012322          0.83207       -0.551219     -0.000801734    -0.000485653       0.00450897       0.0119735
281730                   0.00724      0.00847106      2.04039e-05     -0.00102508          0.83124        -0.55225     -0.000102114    -0.000162644
                    -2.07207e-05       -0.000891       0.00858429      0.00874263     -8.50178e-05    -0.000231662         0.831639       -0.551678
                        0.830985       -0.552326     -0.000102813    -0.000228428        0.0048029       0.0106113     -0.000885214    -0.000285194
                    -0.000102197      -0.0001233         0.831852       -0.551549     -0.000801893    -0.000485441       0.00450157       0.0119706
281732                0.00724713      0.00845626      1.98957e-05     -0.00102516         0.831021       -0.552579     -0.000102187    -0.000162558
                    -2.13407e-05    -0.000891026        0.0085913      0.00872751      -8.5152e-05    -0.000231653          0.83142       -0.552007
                        0.830766       -0.552656     -0.000102846    -0.000228471       0.00479467       0.0106083     -0.000885277    -0.000284878
                    -0.000102389    -0.000123379         0.831633       -0.551878     -0.000802051    -0.000485229       0.00449417       0.0119676
281734                0.00725424      0.00844145      1.93869e-05     -0.00102525         0.830802       -0.552909     -0.000102261    -0.000162472
                    -2.19609e-05    -0.000891052        0.0085983      0.00871238      -8.5286e-05    -0.000231644         0.831201       -0.552337
                        0.830547       -0.552986      -0.00010288    -0.000228513       0.00478644       0.0106054      -0.00088534    -0.000284563
                    -0.000102582    -0.000123459         0.831414       -0.552208      -0.00080221    -0.000485016       0.00448677       0.0119647
281736                0.00726135      0.00842664      1.88774e-05     -0.00102533         0.830582       -0.553238     -0.000102334    -0.000162386
                    -2.25815e-05    -0.000891078       0.00860528      0.00869725       -8.542e-05    -0.000231635         0.830982       -0.552666
                        0.830327       -0.553315     -0.000102915    -0.000228555       0.00477821       0.0106025     -0.000885402    -0.000284247
                    -0.000102775    -0.000123539         0.831195       -0.552538     -0.000802368    -0.000484804       0.00447937       0.0119617
281738                0.00726845      0.00841182      1.83674e-05     -0.00102541         0.830363       -0.553567     -0.000102407      -0.0001623
                    -2.32024e-05    -0.000891103       0.00861226      0.00868212     -8.55539e-05    -0.000231626         0.830763       -0.552995
                        0.830108       -0.553645      -0.00010295    -0.000228596       0.00476997       0.0105996     -0.000885464     -0.00028393
                    -0.000102969    -0.000123619         0.830976       -0.552867     -0.000802526    -0.000484591       0.00447196       0.0119588
281740                0.00727554        0.008397      1.78568e-05      -0.0010255         0.830143       -0.553896     -0.000102479    -0.000162213
                    -2.38236e-05    -0.000891129       0.00861923      0.00866698     -8.56878e-05    -0.000231617         0.830543       -0.553324
                        0.829888       -0.553974     -0.000102986    -0.000228637       0.00476173       0.0105967     -0.000885525    -0.000283614
                    -0.000103163    -0.000123699         0.830756       -0.553197     -0.000802683    -0.000484378       0.00446455       0.0119559
281742                0.00728263      0.00838217      1.73455e-05     -0.00102558         0.829924       -0.554225     -0.000102552    -0.000162126
                    -2.44451e-05    -0.000891153        0.0086262      0.00865184     -8.58216e-05    -0.000231608         0.830324       -0.553654
                        0.829668       -0.554303     -0.000103022    -0.000228678       0.00475349       0.0105938     -0.000885585    -0.000283297
                    -0.000103357    -0.000123779         0.830537       -0.553526     -0.000802841    -0.000484165       0.00445714        0.011953
281744                 0.0072897      0.00836734      1.68337e-05     -0.00102566         0.829704       -0.554554     -0.000102624    -0.000162039
                    -2.50669e-05    -0.000891178       0.00863315      0.00863669     -8.59553e-05    -0.000231598         0.830104       -0.553983
                        0.829448       -0.554632     -0.000103059    -0.000228719       0.00474525       0.0105909     -0.000885645    -0.000282981
                    -0.000103551    -0.000123859         0.830317       -0.553855     -0.000802998    -0.000483952       0.00444973       0.0119501
281746                0.00729676      0.00835251      1.63213e-05     -0.00102574         0.829484       -0.554883     -0.000102695    -0.000161952
                     -2.5689e-05    -0.000891202       0.00864009      0.00862154     -8.60889e-05    -0.000231588         0.829885       -0.554311
                        0.829228       -0.554961     -0.000103097    -0.000228759         0.004737       0.0105881     -0.000885704    -0.000282664
                    -0.000103746     -0.00012394         0.830098       -0.554184     -0.000803155    -0.000483739       0.00444232       0.0119472
281748                0.00730382      0.00833767      1.58084e-05     -0.00102582         0.829264       -0.555212     -0.000102766    -0.000161866
                    -2.63115e-05    -0.000891226       0.00864703      0.00860638     -8.62224e-05    -0.000231579         0.829665        -0.55464
                        0.829008        -0.55529     -0.000103135    -0.000228799       0.00472876       0.0105852     -0.000885762    -0.000282348
                    -0.000103941     -0.00012402         0.829878       -0.554513     -0.000803312    -0.000483526        0.0044349       0.0119443
281750                0.00731086      0.00832283      1.52949e-05      -0.0010259         0.829043       -0.555541     -0.000102835     -0.00016178
                    -2.69344e-05     -0.00089125       0.00865395      0.00859122     -8.63557e-05    -0.000231569         0.829445       -0.554969
                        0.828787       -0.555619     -0.000103173    -0.000228838       0.00472051       0.0105824     -0.000885817    -0.000282034
                    -0.000104137    -0.000124101         0.829658       -0.554842     -0.000803469    -0.000483313       0.00442748       0.0119415
281752                 0.0073179      0.00830798      1.47811e-05     -0.00102598         0.828823       -0.555869     -0.000102898    -0.000161697
                    -2.75578e-05    -0.000891273       0.00866087      0.00857606     -8.64883e-05    -0.000231558         0.829225       -0.555298
                        0.828567       -0.555948     -0.000103211    -0.000228877       0.00471226       0.0105795     -0.000885864    -0.000281728
                    -0.000104333    -0.000124182         0.829438       -0.555171     -0.000803625      -0.0004831       0.00442006       0.0119386
281754                0.00732493      0.00829313       1.4267e-05     -0.00102606         0.828602       -0.556198     -0.000102849    -0.000161662
                    -2.81834e-05    -0.000891294       0.00866778      0.00856089     -8.66202e-05    -0.000231555         0.829004       -0.555626
                        0.828346       -0.556277      -0.00010325    -0.000228916         0.004704       0.0105767     -0.000885767    -0.000281526
                     -0.00010453    -0.000124264         0.829217         -0.5555      -0.00080377    -0.000482896       0.00441263       0.0119357
281756                0.00733195      0.00827827       1.3753e-05     -0.00102614         0.828382       -0.556526     -0.000103093    -0.000161485
                    -2.87968e-05     -0.00089132       0.00867468      0.00854572     -8.67585e-05    -0.000231539         0.828784       -0.555955
                        0.828126       -0.556605     -0.000103288    -0.000228954       0.00469575       0.0105739     -0.000886045    -0.000281018
                    -0.000104717    -0.000124347         0.828997       -0.555829     -0.000803937    -0.000482663       0.00440522       0.0119329
281758                0.00733896      0.00826341      1.32402e-05     -0.00102622         0.828161       -0.556855     -0.000103149    -0.000161407
                    -2.94249e-05    -0.000891342       0.00868157      0.00853054     -8.68912e-05    -0.000231528         0.828563       -0.556283
                        0.827905       -0.556934     -0.000103324    -0.000228991       0.00468749       0.0105711     -0.000886083    -0.000280723
                    -0.000104917    -0.000124424         0.828777       -0.556158     -0.000804094    -0.000482452        0.0043978       0.0119301
281760                0.00734596      0.00824855      1.27326e-05      -0.0010263          0.82794       -0.557183     -0.000103216    -0.000161321
                    -3.00497e-05    -0.000891363       0.00868845      0.00851536     -8.70242e-05    -0.000231518         0.828342       -0.556612
                        0.827684       -0.557262     -0.000103351    -0.000229026       0.00467923       0.0105683     -0.000886134     -0.00028041
                    -0.000105115    -0.000124505         0.828556       -0.556486      -0.00080425    -0.000482238       0.00439037       0.0119272
281762                0.00735295      0.00823368      1.22851e-05     -0.00102638         0.827719       -0.557511     -0.000103286    -0.000161233
                    -3.06743e-05    -0.000891385       0.00869535      0.00850014     -8.71573e-05    -0.000231507         0.828122        -0.55694
                        0.827463       -0.557591     -0.000103287    -0.000229062       0.00467097       0.0105655     -0.000886189    -0.000280092
