! TOUCHSTONE file generated by CST MICROWAVE STUDIO
! Date and time: Tue Oct 14 07:29:18 2025
! Project name: Teste_Macro_Metasurface_Nanopilar.cst
! Parameters = {H=600; L_x=140; L_y=130; Lambda=1064; Max_L=200; Min_L=70; PathPara=1; Phi=0; Step_L=10; Theta=0; p=520; phaseX=180; phaseY=0}
! Header version: 2018
! Port assignment regex: !\s*Touchstone port\s*([0-9]+)\s*=\s*(CST MWS port|CST DS port)\s*([0-9]+|Zmin|Zmax)\s*\(\"(.*)\"\)(\s*mode\s*([0-9]+))?.*
! Touchstone port assignment:
! Touchstone port 1 = CST MWS port Zmax ("") mode 1
! Touchstone port 2 = CST MWS port Zmax ("") mode 2
! Touchstone port 3 = CST MWS port Zmin ("") mode 1
! Touchstone port 4 = CST MWS port Zmin ("") mode 2
! S-Parameters are not renormalized. Each port impedance will be approximated by the real part at minimum frequency. The values are described via the [Reference] keyword.
! Default impedance is overridden by [Reference]
[Version] 2.0
# GHz S RI R 376.73
[Number of Ports] 4
[Reference]
376.73 376.73 259.814 259.814 
[Number of Frequencies] 51
[Network Data]
281700                -0.0733059       -0.111208      0.000611789     -0.00025332       -0.0846114        0.981923      7.08657e-05      0.00011201
                     0.000580623    -0.000310012        -0.100057       -0.155352     -2.92447e-05    -0.000187789         0.217943        0.953607
                      -0.0840727        0.982137      6.64405e-05    -0.000140996       -0.0898244       0.0976166      0.000585418     0.000284407
                     9.80802e-05      0.00013604         0.218137         0.95366      0.000705098     0.000341728       -0.0214621        0.182667
281702                -0.0733474       -0.111203      0.000611888    -0.000253609       -0.0841659        0.981959      7.10018e-05     0.000111993
                     0.000580528    -0.000310303        -0.100111       -0.155342     -2.95552e-05     -0.00018778         0.218367        0.953506
                      -0.0836274        0.982173      6.62632e-05    -0.000140976       -0.0897762       0.0976862       0.00058567     0.000283898
                     9.80667e-05     0.000136066         0.218561        0.953559      0.000705701     0.000341467        -0.021352        0.182701
281704                -0.0733889       -0.111198      0.000611987    -0.000253899       -0.0837203        0.981994      7.11375e-05     0.000111975
                     0.000580432    -0.000310591        -0.100165       -0.155333     -2.99109e-05    -0.000187768         0.218791        0.953405
                      -0.0831821        0.982208      6.60863e-05    -0.000140955        -0.089728       0.0977558      0.000585923     0.000283389
                     9.80504e-05     0.000136091         0.218985        0.953457       0.00070636     0.000341226       -0.0212418        0.182736
281706                -0.0734304       -0.111192      0.000612085    -0.000254189       -0.0832746         0.98203      7.12728e-05     0.000111958
                     0.000580336    -0.000310878         -0.10022       -0.155324     -3.03117e-05    -0.000187752         0.219214        0.953303
                      -0.0827368        0.982244      6.59099e-05    -0.000140935       -0.0896797       0.0978253      0.000586176      0.00028288
                     9.80333e-05     0.000136114         0.219409        0.953356      0.000707076     0.000341004       -0.0211317        0.182771
281708                -0.0734719       -0.111187      0.000612183    -0.000254479       -0.0828288        0.982065      7.14076e-05      0.00011194
                     0.000580239    -0.000311164        -0.100274       -0.155315     -3.07554e-05    -0.000187733         0.219638        0.953201
                      -0.0822914        0.982279      6.57338e-05    -0.000140915       -0.0896314       0.0978948      0.000586429     0.000282371
                     9.80155e-05     0.000136138         0.219833        0.953254      0.000707845       0.0003408       -0.0210214        0.182805
281710                -0.0735134       -0.111182      0.000612281    -0.000254769       -0.0823828          0.9821      7.15419e-05     0.000111922
                      0.00058014    -0.000311449        -0.100329       -0.155306     -3.12365e-05    -0.000187709         0.220061        0.953099
                      -0.0818459        0.982314      6.55582e-05    -0.000140894        -0.089583       0.0979643      0.000586683     0.000281861
                     9.79972e-05      0.00013616         0.220256        0.953152      0.000708663     0.000340611       -0.0209112        0.182839
281712                -0.0735549       -0.111177      0.000612378    -0.000255059       -0.0819369        0.982134      7.16759e-05     0.000111904
                     0.000580031    -0.000311731        -0.100383       -0.155297     -3.17449e-05     -0.00018768         0.220485        0.952997
                      -0.0814007        0.982349       6.5383e-05    -0.000140874       -0.0895345       0.0980338      0.000586936     0.000281351
                     9.79785e-05     0.000136182          0.22068        0.953049      0.000709514     0.000340432       -0.0208009        0.182874
281714                -0.0735964       -0.111171      0.000612474     -0.00025535       -0.0814909        0.982169      7.18093e-05     0.000111886
                     0.000579941    -0.000311949        -0.100437       -0.155288     -3.22624e-05    -0.000187647         0.220908        0.952895
                      -0.0809553        0.982383      6.52083e-05    -0.000140854        -0.089486       0.0981032      0.000587191      0.00028084
                     9.79594e-05     0.000136203         0.221104        0.952947      0.000710379     0.000340254       -0.0206906        0.182908
281716                -0.0736379       -0.111166       0.00061257    -0.000255641        -0.081045        0.982203      7.19424e-05     0.000111868
                     0.000579881    -0.000312261        -0.100492       -0.155278     -3.27602e-05    -0.000187611         0.221331        0.952793
                      -0.0805099        0.982418       6.5034e-05    -0.000140835       -0.0894375       0.0981726      0.000587445      0.00028033
                     9.79398e-05     0.000136224         0.221528        0.952844       0.00071122     0.000340062       -0.0205802        0.182942
281718                -0.0736794       -0.111161      0.000612666    -0.000255931       -0.0805992        0.982237       7.2075e-05     0.000111849
                     0.000579785    -0.000312547        -0.100546       -0.155269     -3.31926e-05    -0.000187574         0.221755         0.95269
                      -0.0800646        0.982452      6.48601e-05    -0.000140815       -0.0893889        0.098242        0.0005877     0.000279818
                     9.79199e-05     0.000136244         0.221951        0.952741       0.00071198     0.000339836       -0.0204698        0.182976
281720                -0.0737209       -0.111156      0.000612761    -0.000256223       -0.0801538        0.982271      7.22072e-05      0.00011183
                      0.00057969    -0.000312825        -0.100601        -0.15526     -3.34906e-05    -0.000187541         0.222178        0.952587
                      -0.0796192        0.982486      6.46868e-05    -0.000140795       -0.0893403       0.0983114      0.000587955     0.000279307
                     9.78996e-05     0.000136264         0.222375        0.952638      0.000712572     0.000339544       -0.0203594         0.18301
281722                -0.0737625        -0.11115      0.000612856    -0.000256514       -0.0797089        0.982305      7.23389e-05     0.000111811
                     0.000579597      -0.0003131        -0.100655       -0.155251     -3.35524e-05    -0.000187518         0.222601        0.952484
                      -0.0791738         0.98252       6.4514e-05    -0.000140776       -0.0892916       0.0983808      0.000588209     0.000278795
                      9.7879e-05     0.000136282         0.222798        0.952535       0.00071287      0.00033914       -0.0202489        0.183044
281724                 -0.073804       -0.111145       0.00061295    -0.000256805       -0.0792647        0.982339      7.24703e-05     0.000111793
                     0.000579504    -0.000313372        -0.100709       -0.155241     -3.32341e-05    -0.000187514         0.223024        0.952381
                      -0.0787284        0.982553      6.43418e-05    -0.000140756        -0.089243       0.0984502      0.000588463     0.000278281
                     9.78579e-05       0.0001363         0.223222        0.952432      0.000712692     0.000338558       -0.0201384        0.183078
281726                -0.0738455       -0.111139      0.000613044    -0.000257097       -0.0788216        0.982374      7.25998e-05     0.000111773
                     0.000579412    -0.000313643        -0.100764       -0.155232     -3.23423e-05    -0.000187537         0.223447        0.952277
                       -0.078283        0.982586      6.41704e-05    -0.000140737       -0.0891943       0.0985196      0.000588728     0.000277771
                     9.78366e-05     0.000136318         0.223645        0.952328      0.000711795     0.000337713       -0.0200279        0.183112
281728                -0.0738871       -0.111134      0.000613136    -0.000257389       -0.0783804         0.98241      7.27307e-05     0.000111753
                      0.00057932    -0.000313912        -0.100818       -0.155223     -3.06373e-05    -0.000187586          0.22387        0.952174
                      -0.0778375         0.98262          6.4e-05    -0.000140717       -0.0891456       0.0985891      0.000588981     0.000277259
                      9.7815e-05     0.000136335         0.224068        0.952224      0.000709883     0.000336492       -0.0199173        0.183146
281730                -0.0739286       -0.111129      0.000613228    -0.000257681       -0.0779421        0.982447      7.28607e-05     0.000111733
                     0.000579229    -0.000314179        -0.100873       -0.155214     -2.78602e-05    -0.000187633         0.224294         0.95207
                      -0.0773921        0.982652      6.38313e-05    -0.000140697       -0.0890971       0.0986587      0.000589237     0.000276746
                      9.7793e-05     0.000136351         0.224492         0.95212      0.000706636     0.000334771       -0.0198067         0.18318
281732                -0.0739701       -0.111123      0.000613319    -0.000257973       -0.0775086        0.982488      7.29901e-05     0.000111713
                     0.000579138    -0.000314444        -0.100927       -0.155204     -2.38015e-05    -0.000187609         0.224716        0.951966
                      -0.0769467        0.982685      6.36656e-05    -0.000140677       -0.0890488       0.0987286      0.000589494     0.000276233
                     9.77707e-05     0.000136366         0.224915        0.952016      0.000701802     0.000332434       -0.0196961        0.183213
281734                -0.0740117       -0.111118      0.000613406    -0.000258265       -0.0770829        0.982541      7.31191e-05     0.000111693
                     0.000579047    -0.000314708        -0.100981       -0.155195     -1.84124e-05     -0.00018739         0.225139        0.951862
                      -0.0765012        0.982718       6.3508e-05    -0.000140653       -0.0890012       0.0987989      0.000589751      0.00027572
                     9.77482e-05      0.00013638         0.225338        0.951912      0.000695325     0.000329427       -0.0195854        0.183247
281736                -0.0740532       -0.111112      0.000613483    -0.000258556       -0.0766642        0.982625      7.32475e-05     0.000111673
                     0.000578957     -0.00031497        -0.101036       -0.155186     -1.19228e-05    -0.000186831         0.225562        0.951757
                      -0.0760558         0.98275      6.33971e-05    -0.000140598       -0.0889555       0.0988706      0.000590009     0.000275206
                     9.77254e-05     0.000136394         0.225762        0.951807       0.00068748     0.000325808       -0.0194747         0.18328
281738                -0.0740948       -0.111107       0.00061345    -0.000258798        -0.076186        0.982786      7.33756e-05     0.000111652
                     0.000578868    -0.000315231         -0.10109       -0.155176     -4.87172e-06    -0.000185845         0.225985        0.951653
                      -0.0756103        0.982782      6.30139e-05    -0.000140626       -0.0889234       0.0989457      0.000590267     0.000274691
                     9.77024e-05     0.000136407         0.226184        0.951703      0.000678902     0.000321791       -0.0193639        0.183314
281740                -0.0741363       -0.111101      0.000613754    -0.000259139       -0.0755446        0.982821      7.35031e-05     0.000111632
                     0.000578779     -0.00031549        -0.101145       -0.155167      2.02427e-06    -0.000184483         0.226408        0.951548
                      -0.0751649        0.982814      6.29213e-05    -0.000140616        -0.088843       0.0989629      0.000590526     0.000274177
                     9.76791e-05      0.00013642         0.226608        0.951598       0.00067044     0.000317716       -0.0192532        0.183347
281742                -0.0741779       -0.111096      0.000613816    -0.000259436       -0.0750604        0.982735      7.36302e-05     0.000111611
                     0.000578691    -0.000315747        -0.101199       -0.155157      8.11818e-06    -0.000182939         0.226831        0.951443
                      -0.0747194        0.982846      6.27668e-05    -0.000140596       -0.0887928       0.0990584      0.000590785     0.000273662
                     9.76556e-05     0.000136431         0.227031        0.951493      0.000662886     0.000313943       -0.0191423        0.183381
281744                -0.0742194       -0.111091      0.000613898     -0.00025973       -0.0746338        0.982715      7.37568e-05      0.00011159
                     0.000578603    -0.000316003        -0.101254       -0.155148      1.30288e-05    -0.000181449         0.227253        0.951338
                      -0.0742739        0.982877      6.26036e-05    -0.000140577       -0.0887455       0.0991322      0.000591044     0.000273147
                     9.76318e-05     0.000136442         0.227454        0.951387      0.000656739     0.000310736       -0.0190315        0.183414
281746                 -0.074261       -0.111085      0.000613985    -0.000260024        -0.074204        0.982726      7.38829e-05     0.000111568
                     0.000578515    -0.000316258        -0.101308       -0.155139       1.6676e-05     -0.00018019         0.227676        0.951233
                      -0.0738284        0.982909      6.24378e-05    -0.000140559       -0.0886971        0.099203      0.000591303     0.000272631
                     9.76079e-05     0.000136452         0.227877        0.951282       0.00065215     0.000308208       -0.0189206        0.183447
281748                -0.0743025       -0.111079      0.000614073    -0.000260317       -0.0737682        0.982747      7.40086e-05     0.000111547
                     0.000578428    -0.000316511        -0.101362       -0.155129      1.91904e-05    -0.000179241         0.228099        0.951127
                      -0.0733829         0.98294       6.2271e-05    -0.000140541       -0.0886482       0.0992729      0.000591563     0.000272116
                     9.75838e-05     0.000136462         0.228299        0.951176      0.000648995     0.000306336       -0.0188097         0.18348
281750                -0.0743441       -0.111074      0.000614162    -0.000260611       -0.0733284        0.982773      7.41337e-05     0.000111525
                     0.000578342    -0.000316762        -0.101417        -0.15512      2.07955e-05    -0.000178594         0.228521        0.951022
                      -0.0729374        0.982971      6.21038e-05    -0.000140523       -0.0885991       0.0993423      0.000591824     0.000271599
                     9.75596e-05      0.00013647         0.228722         0.95107       0.00064702     0.000305017       -0.0186987        0.183513
281752                -0.0743856       -0.111068       0.00061425    -0.000260905       -0.0728861        0.982801      7.42585e-05     0.000111504
                     0.000578256    -0.000317012        -0.101471        -0.15511      2.17236e-05      -0.0001782         0.228944        0.950916
                      -0.0724919        0.983001      6.19365e-05    -0.000140506       -0.0885497       0.0994116      0.000592084     0.000271083
                     9.75352e-05     0.000136478         0.229145        0.950964      0.000645937     0.000304121       -0.0185877        0.183546
281754                -0.0744272       -0.111063      0.000614339      -0.0002612       -0.0724421         0.98283      7.43827e-05     0.000111482
                      0.00057817     -0.00031726        -0.101526       -0.155101      2.21744e-05    -0.000177996         0.229366         0.95081
                      -0.0720464        0.983032      6.17693e-05    -0.000140489       -0.0885003       0.0994806      0.000592345     0.000270566
                     9.75107e-05     0.000136485         0.229568        0.950858       0.00064549     0.000303529       -0.0184767        0.183579
281756                -0.0744688       -0.111057      0.000614427    -0.000261494       -0.0719969         0.98286      7.45064e-05      0.00011146
                     0.000578085    -0.000317507         -0.10158       -0.155091      2.23037e-05    -0.000177925         0.229788        0.950703
                      -0.0716009        0.983062      6.16022e-05    -0.000140472       -0.0884507       0.0995496      0.000592607     0.000270049
                     9.74861e-05     0.000136491         0.229991        0.950751      0.000645477     0.000303142       -0.0183656        0.183612
281758                -0.0745103       -0.111052      0.000614516    -0.000261789       -0.0715511         0.98289      7.46297e-05     0.000111437
                     0.000578001    -0.000317753        -0.101635       -0.155082       2.2226e-05     -0.00017794         0.230211        0.950597
                      -0.0711554        0.983092      6.14353e-05    -0.000140455       -0.0884011       0.0996185      0.000592868     0.000269531
                     9.74614e-05     0.000136496         0.230413        0.950645      0.000645743     0.000302886       -0.0182545        0.183645
281760                -0.0745519       -0.111046      0.000614604    -0.000262084       -0.0711047         0.98292      7.47525e-05     0.000111415
                     0.000577917    -0.000317997        -0.101689       -0.155072      2.20223e-05    -0.000178008         0.230633         0.95049
                      -0.0707098        0.983122      6.12686e-05    -0.000140438       -0.0883514       0.0996874       0.00059313     0.000269014
                     9.74366e-05     0.000136501         0.230836        0.950538      0.000646181     0.000302708       -0.0181434        0.183678
281762                -0.0745935        -0.11104      0.000614691    -0.000262379        -0.070658         0.98295      7.48748e-05     0.000111392
                     0.000577834     -0.00031824        -0.101744       -0.155063      2.17484e-05    -0.000178105         0.231055        0.950384
                      -0.0702643        0.983152      6.11022e-05    -0.000140421       -0.0883016       0.0997562      0.000593393     0.000268495
