! TOUCHSTONE file generated by CST MICROWAVE STUDIO
! Date and time: Tue Oct 14 07:28:57 2025
! Project name: Teste_Macro_Metasurface_Nanopilar.cst
! Parameters = {H=600; L_x=135; L_y=115; Lambda=1064; Max_L=200; Min_L=70; PathPara=1; Phi=0; Step_L=10; Theta=0; p=520; phaseX=180; phaseY=0}
! Header version: 2018
! Port assignment regex: !\s*Touchstone port\s*([0-9]+)\s*=\s*(CST MWS port|CST DS port)\s*([0-9]+|Zmin|Zmax)\s*\(\"(.*)\"\)(\s*mode\s*([0-9]+))?.*
! Touchstone port assignment:
! Touchstone port 1 = CST MWS port Zmax ("") mode 1
! Touchstone port 2 = CST MWS port Zmax ("") mode 2
! Touchstone port 3 = CST MWS port Zmin ("") mode 1
! Touchstone port 4 = CST MWS port Zmin ("") mode 2
! S-Parameters are not renormalized. Each port impedance will be approximated by the real part at minimum frequency. The values are described via the [Reference] keyword.
! Default impedance is overridden by [Reference]
[Version] 2.0
# GHz S RI R 376.73
[Number of Ports] 4
[Reference]
376.73 376.73 259.814 259.814 
[Number of Frequencies] 51
[Network Data]
281700                -0.0992692       0.0481031      0.000453261     0.000303507        -0.984607        -0.01244     -0.000300497    -0.000420098
                     0.000263332     0.000379854         -0.02864      -0.0946968     -0.000386645    -0.000444872        -0.380702        0.912375
                       -0.984352      -0.0124351     -0.000266807    -0.000506864        0.0955766       0.0519065       0.00026079     0.000426538
                    -0.000270547    -0.000389949        -0.380386        0.912089      0.000286908     0.000449866       -0.0867115        0.047908
281702                -0.0992309       0.0481236      0.000453497     0.000303308        -0.984616      -0.0119188     -0.000300591    -0.000419891
                     0.000263551     0.000379675       -0.0286808      -0.0947098     -0.000387109    -0.000444873        -0.380269        0.912553
                       -0.984361      -0.0119141     -0.000267075    -0.000506689        0.0955919       0.0518242      0.000260853     0.000426382
                    -0.000270703    -0.000389836        -0.379952        0.912268      0.000287113     0.000449818       -0.0867045       0.0479705
281704                -0.0991926       0.0481442      0.000453733     0.000303111        -0.984625      -0.0113975     -0.000300686    -0.000419683
                      0.00026377     0.000379497       -0.0287217      -0.0947227     -0.000387573    -0.000444874        -0.379835        0.912731
                        -0.98437      -0.0113931     -0.000267342    -0.000506513        0.0956072       0.0517419      0.000260918     0.000426227
                    -0.000270859    -0.000389722        -0.379518        0.912447      0.000287318     0.000449771       -0.0866974        0.048033
281706                -0.0991542       0.0481647      0.000453968     0.000302914        -0.984633      -0.0108762     -0.000300781    -0.000419475
                     0.000263988     0.000379319       -0.0287626      -0.0947356     -0.000388039    -0.000444875        -0.379401        0.912909
                       -0.984379       -0.010872     -0.000267609    -0.000506337        0.0956224       0.0516596      0.000260983     0.000426071
                    -0.000271015    -0.000389608        -0.379084        0.912625      0.000287524     0.000449725       -0.0866903       0.0480955
281708                -0.0991159       0.0481852      0.000454204     0.000302719        -0.984641       -0.010355     -0.000300877    -0.000419266
                     0.000264206      0.00037914       -0.0288034      -0.0947485     -0.000388505    -0.000444878        -0.378967        0.913087
                       -0.984387       -0.010351     -0.000267876    -0.000506161        0.0956376       0.0515773      0.000261048     0.000425915
                     -0.00027117    -0.000389494         -0.37865        0.912803      0.000287731     0.000449681       -0.0866832        0.048158
281710                -0.0990776       0.0482056      0.000454438     0.000302525        -0.984649     -0.00983368     -0.000300974    -0.000419057
                     0.000264424     0.000378961       -0.0288443      -0.0947614     -0.000388973     -0.00044488        -0.378533        0.913265
                       -0.984396     -0.00982994     -0.000268142    -0.000505985        0.0956526        0.051495      0.000261115     0.000425759
                    -0.000271326     -0.00038938        -0.378216        0.912981      0.000287939     0.000449638       -0.0866759       0.0482205
281712                -0.0990393       0.0482261      0.000454673     0.000302332        -0.984657     -0.00931239     -0.000301071    -0.000418848
                     0.000264642     0.000378782       -0.0288852      -0.0947742     -0.000389441    -0.000444883        -0.378099        0.913442
                       -0.984404     -0.00930888     -0.000268408    -0.000505809        0.0956676       0.0514127      0.000261182     0.000425602
                    -0.000271482    -0.000389266        -0.377782        0.913158      0.000288147     0.000449596       -0.0866687       0.0482831
281714                -0.0990009       0.0482465      0.000454907      0.00030214        -0.984665      -0.0087911     -0.000301168    -0.000418638
                      0.00026486     0.000378603       -0.0289261       -0.094787      -0.00038991    -0.000444887        -0.377665        0.913619
                       -0.984411     -0.00878782     -0.000268674    -0.000505633        0.0956826       0.0513304       0.00026125     0.000425445
                    -0.000271638    -0.000389152        -0.377347        0.913336      0.000288356     0.000449555       -0.0866614       0.0483456
281716                -0.0989626       0.0482668      0.000455141      0.00030195        -0.984672      -0.0082698     -0.000301266    -0.000418429
                     0.000265077     0.000378424        -0.028967      -0.0947999      -0.00039038    -0.000444891        -0.377231        0.913796
                       -0.984419     -0.00826676     -0.000268939    -0.000505456        0.0956974       0.0512481      0.000261318     0.000425288
                    -0.000271794    -0.000389038        -0.376913        0.913513      0.000288565     0.000449515        -0.086654       0.0484081
281718                -0.0989243       0.0482872      0.000455374     0.000301761        -0.984679      -0.0077485     -0.000301365    -0.000418219
                     0.000265294     0.000378244       -0.0290079      -0.0948127     -0.000390851    -0.000444895        -0.376797        0.913973
                       -0.984426     -0.00774569     -0.000269204     -0.00050528        0.0957122       0.0511658      0.000261387     0.000425131
                     -0.00027195    -0.000388923        -0.376479         0.91369      0.000288775     0.000449477       -0.0866466       0.0484707
281720                -0.0988859       0.0483075      0.000455607     0.000301574        -0.984685      -0.0072272     -0.000301463    -0.000418008
                     0.000265511     0.000378064       -0.0290488      -0.0948254     -0.000391323      -0.0004449        -0.376363        0.914149
                       -0.984433     -0.00722462     -0.000269468    -0.000505102         0.095727       0.0510835      0.000261457     0.000424973
                    -0.000272106    -0.000388809        -0.376044        0.913867      0.000288986      0.00044944       -0.0866392       0.0485332
281722                -0.0988476       0.0483278       0.00045584     0.000301388        -0.984692     -0.00670589     -0.000301562    -0.000417798
                     0.000265727     0.000377884       -0.0290897      -0.0948382     -0.000391795    -0.000444905        -0.375928        0.914326
                       -0.984439     -0.00670354     -0.000269731    -0.000504925        0.0957416       0.0510012      0.000261527     0.000424815
                    -0.000272262    -0.000388694        -0.375609        0.914043      0.000289198     0.000449404       -0.0866317       0.0485958
281724                -0.0988092       0.0483481      0.000456072     0.000301203        -0.984698     -0.00618458     -0.000301662    -0.000417587
                     0.000265944     0.000377704       -0.0291307      -0.0948509     -0.000392269     -0.00044491        -0.375494        0.914502
                       -0.984445     -0.00618247     -0.000269995    -0.000504747        0.0957562       0.0509189      0.000261598     0.000424656
                    -0.000272418    -0.000388579        -0.375175         0.91422       0.00028941     0.000449369       -0.0866242       0.0486584
281726                -0.0987709       0.0483683      0.000456303     0.000301019        -0.984704     -0.00566327     -0.000301761    -0.000417376
                      0.00026616     0.000377523       -0.0291716      -0.0948636     -0.000392743    -0.000444916        -0.375059        0.914678
                       -0.984451     -0.00566138     -0.000270257    -0.000504568        0.0957708       0.0508366       0.00026167     0.000424497
                    -0.000272574    -0.000388464         -0.37474        0.914396      0.000289622     0.000449335       -0.0866166       0.0487209
281728                -0.0987325       0.0483885      0.000456534     0.000300837        -0.984709     -0.00514195     -0.000301861    -0.000417165
                     0.000266376     0.000377343       -0.0292126      -0.0948763     -0.000393218    -0.000444923        -0.374625        0.914854
                       -0.984457      -0.0051403      -0.00027052    -0.000504389        0.0957852       0.0507543      0.000261743     0.000424338
                    -0.000272729    -0.000388349        -0.374305        0.914572      0.000289835     0.000449302        -0.086609       0.0487835
281730                -0.0986942       0.0484087      0.000456764     0.000300657        -0.984714     -0.00462063     -0.000301961    -0.000416954
                     0.000266591     0.000377162       -0.0292536       -0.094889     -0.000393693    -0.000444929         -0.37419        0.915029
                       -0.984463     -0.00461921     -0.000270782    -0.000504209        0.0957996        0.050672      0.000261816     0.000424178
                    -0.000272885    -0.000388234         -0.37387        0.914748      0.000290049      0.00044927       -0.0866013       0.0488461
281732                -0.0986558       0.0484289      0.000456994     0.000300478        -0.984719     -0.00409931     -0.000302061    -0.000416742
                     0.000266807     0.000376981       -0.0292946      -0.0949017      -0.00039417    -0.000444936        -0.373755        0.915204
                       -0.984468     -0.00409812     -0.000271043    -0.000504029        0.0958139       0.0505896       0.00026189     0.000424018
                    -0.000273041    -0.000388119        -0.373435        0.914923      0.000290264      0.00044924       -0.0865936       0.0489087
281734                -0.0986175        0.048449      0.000457223     0.000300301        -0.984724     -0.00357799     -0.000302161     -0.00041653
                     0.000267022       0.0003768       -0.0293356      -0.0949143     -0.000394647    -0.000444943        -0.373321        0.915379
                       -0.984473     -0.00357703     -0.000271305    -0.000503848        0.0958282       0.0505073      0.000261965     0.000423858
                    -0.000273197    -0.000388003           -0.373        0.915099      0.000290479     0.000449211       -0.0865858       0.0489713
281736                -0.0985791       0.0484691      0.000457452     0.000300125        -0.984728     -0.00305666     -0.000302261    -0.000416319
                     0.000267237     0.000376618       -0.0293766       -0.094927     -0.000395125    -0.000444951        -0.372886        0.915554
                       -0.984477     -0.00305593     -0.000271566    -0.000503666        0.0958424        0.050425       0.00026204     0.000423697
                    -0.000273353    -0.000387888        -0.372565        0.915274      0.000290694     0.000449182        -0.086578       0.0490339
281738                -0.0985408       0.0484892      0.000457679      0.00029995        -0.984733     -0.00253533     -0.000302362    -0.000416107
                     0.000267452     0.000376436       -0.0294176      -0.0949396     -0.000395604    -0.000444958        -0.372451        0.915729
                       -0.984482     -0.00253484     -0.000271827    -0.000503484        0.0958565       0.0503427      0.000262116     0.000423535
                     -0.00027351    -0.000387772         -0.37213        0.915449      0.000290911     0.000449155       -0.0865701       0.0490965
281740                -0.0985024       0.0485093      0.000457906     0.000299778        -0.984736     -0.00201399     -0.000302462    -0.000415895
                     0.000267667     0.000376255       -0.0294586      -0.0949522     -0.000396083    -0.000444966        -0.372016        0.915903
                       -0.984486     -0.00201374     -0.000272087    -0.000503301        0.0958705       0.0502604      0.000262192     0.000423373
                    -0.000273666    -0.000387656        -0.371695        0.915623      0.000291128     0.000449129       -0.0865622       0.0491592
281742                -0.0984641       0.0485293      0.000458132     0.000299606         -0.98474     -0.00149266     -0.000302563    -0.000415683
                     0.000267881     0.000376073       -0.0294997      -0.0949647     -0.000396563    -0.000444974        -0.371581        0.916078
                        -0.98449     -0.00149264     -0.000272348    -0.000503117        0.0958845       0.0501781       0.00026227     0.000423211
                    -0.000273822     -0.00038754         -0.37126        0.915798      0.000291345     0.000449103       -0.0865543       0.0492218
281744                -0.0984257       0.0485493      0.000458357     0.000299437        -0.984743    -0.000971318     -0.000302663    -0.000415471
                     0.000268095      0.00037589       -0.0295407      -0.0949773     -0.000397044    -0.000444983        -0.371145        0.916252
                       -0.984493    -0.000971532     -0.000272608    -0.000502933        0.0958984       0.0500958      0.000262348     0.000423048
                    -0.000273978    -0.000387424        -0.370824        0.915972      0.000291563     0.000449079       -0.0865463       0.0492844
281746                -0.0983873       0.0485693      0.000458581      0.00029927        -0.984746    -0.000449977     -0.000302764    -0.000415258
                     0.000268309     0.000375708       -0.0295818      -0.0949898     -0.000397525    -0.000444991         -0.37071        0.916425
                       -0.984496    -0.000450426     -0.000272868    -0.000502748        0.0959123       0.0500135      0.000262426     0.000422885
                    -0.000274134    -0.000387308        -0.370389        0.916146      0.000291781     0.000449056       -0.0865382       0.0493471
281748                 -0.098349       0.0485892      0.000458805     0.000299104        -0.984749     7.13653e-05     -0.000302865    -0.000415046
                     0.000268523     0.000375525       -0.0296228      -0.0950023     -0.000398008       -0.000445        -0.370275        0.916599
                       -0.984499     7.06812e-05     -0.000273128    -0.000502562        0.0959261       0.0499312      0.000262506     0.000422721
                     -0.00027429    -0.000387192        -0.369953         0.91632         0.000292     0.000449034       -0.0865302       0.0494097
281750                -0.0983106       0.0486092      0.000459027      0.00029894        -0.984752      0.00059271     -0.000302966    -0.000414834
                     0.000268736     0.000375343       -0.0296639      -0.0950148     -0.000398491    -0.000445009        -0.369839        0.916773
                       -0.984502      0.00059179     -0.000273388    -0.000502376        0.0959398       0.0498489      0.000262586     0.000422557
                    -0.000274446    -0.000387075        -0.369518        0.916494       0.00029222     0.000449013        -0.086522       0.0494724
281752                -0.0982722       0.0486291      0.000459249     0.000298779        -0.984754      0.00111406     -0.000303066    -0.000414621
                      0.00026895     0.000375159        -0.029705      -0.0950273     -0.000398974    -0.000445018        -0.369404        0.916946
                       -0.984505       0.0011129     -0.000273648    -0.000502189        0.0959534       0.0497665      0.000262667     0.000422392
                    -0.000274602    -0.000386959        -0.369082        0.916667       0.00029244     0.000448992       -0.0865138        0.049535
281754                -0.0982339       0.0486489      0.000459469     0.000298619        -0.984756       0.0016354     -0.000303167    -0.000414409
                     0.000269163     0.000374976       -0.0297461      -0.0950398     -0.000399459    -0.000445027        -0.368968        0.917119
                       -0.984507      0.00163401     -0.000273908    -0.000502001         0.095967       0.0496842      0.000262748     0.000422226
                    -0.000274759    -0.000386842        -0.368647         0.91684      0.000292661     0.000448973       -0.0865056       0.0495977
281756                -0.0981955       0.0486688      0.000459689     0.000298461        -0.984757      0.00215675     -0.000303268    -0.000414196
                     0.000269376     0.000374793       -0.0297872      -0.0950522     -0.000399944    -0.000445036        -0.368533        0.917292
                       -0.984509      0.00215512     -0.000274168    -0.000501812        0.0959805       0.0496019       0.00026283     0.000422061
                    -0.000274915    -0.000386725        -0.368211        0.917013      0.000292882     0.000448955       -0.0864973       0.0496604
281758                -0.0981571       0.0486886      0.000459908     0.000298305        -0.984759       0.0026781     -0.000303369    -0.000413983
                     0.000269588     0.000374609       -0.0298283      -0.0950646     -0.000400429    -0.000445046        -0.368097        0.917464
                        -0.98451      0.00267624     -0.000274428    -0.000501623        0.0959939       0.0495196      0.000262913     0.000421894
                    -0.000275071    -0.000386608        -0.367775        0.917186      0.000293104     0.000448938        -0.086489        0.049723
281760                -0.0981187       0.0487084      0.000460125     0.000298152         -0.98476      0.00319946      -0.00030347     -0.00041377
                     0.000269801     0.000374425       -0.0298694       -0.095077     -0.000400916    -0.000445055        -0.367661        0.917636
                       -0.984511      0.00319735     -0.000274688    -0.000501433        0.0960073       0.0494373      0.000262996     0.000421727
                    -0.000275227    -0.000386491        -0.367339        0.917359      0.000293327     0.000448921       -0.0864807       0.0497857
281762                -0.0980804       0.0487282      0.000460342        0.000298        -0.984761      0.00372081     -0.000303571    -0.000413558
                     0.000270013     0.000374241       -0.0299106      -0.0950894     -0.000401403    -0.000445064        -0.367225        0.917809
                       -0.984512      0.00371846     -0.000274948    -0.000501243        0.0960206        0.049355       0.00026308      0.00042156
