! TOUCHSTONE file generated by CST MICROWAVE STUDIO
! Date and time: Tue Oct 14 07:32:59 2025
! Project name: Teste_Macro_Metasurface_Nanopilar.cst
! Parameters = {H=600; L_x=200; L_y=85; Lambda=1064; Max_L=200; Min_L=70; PathPara=1; Phi=0; Step_L=10; Theta=0; p=520; phaseX=180; phaseY=0}
! Header version: 2018
! Port assignment regex: !\s*Touchstone port\s*([0-9]+)\s*=\s*(CST MWS port|CST DS port)\s*([0-9]+|Zmin|Zmax)\s*\(\"(.*)\"\)(\s*mode\s*([0-9]+))?.*
! Touchstone port assignment:
! Touchstone port 1 = CST MWS port Zmax ("") mode 1
! Touchstone port 2 = CST MWS port Zmax ("") mode 2
! Touchstone port 3 = CST MWS port Zmin ("") mode 1
! Touchstone port 4 = CST MWS port Zmin ("") mode 2
! S-Parameters are not renormalized. Each port impedance will be approximated by the real part at minimum frequency. The values are described via the [Reference] keyword.
! Default impedance is overridden by [Reference]
[Version] 2.0
# GHz S RI R 376.73
[Number of Ports] 4
[Reference]
376.73 376.73 259.814 259.814 
[Number of Frequencies] 51
[Network Data]
281700                 0.0402497      -0.0631388     -0.000129621    -0.000347816         0.598502       -0.794152     -0.000169638    -0.000366865
                    -0.000348112    -0.000160664        -0.797874       -0.415074     -0.000300107     0.000210031         0.403676      -0.0180599
                        0.598284       -0.794558     -0.000239767     4.10126e-05       -0.0489598       0.0570712     -0.000548801    -3.77445e-05
                      4.3789e-05    -0.000693076         0.403635      -0.0186471     -0.000393285    -7.90703e-05         0.715037        -0.53521
281702                 0.0402331      -0.0631693     -0.000129955     -0.00034804         0.598174       -0.794397     -0.000169848     -0.00036675
                    -0.000348353    -0.000160659        -0.798264        -0.41464       -0.0003001     0.000210263         0.403327       -0.018342
                        0.597956       -0.794803     -0.000239767     4.12612e-05       -0.0489469       0.0571042     -0.000549216    -3.70239e-05
                     4.32432e-05    -0.000693664         0.403286      -0.0189287     -0.000393422     -7.9089e-05         0.714659       -0.535956
281704                 0.0402164      -0.0631997      -0.00013029    -0.000348266         0.597846       -0.794642     -0.000170058    -0.000366634
                    -0.000348593    -0.000160654        -0.798654       -0.414205     -0.000300094     0.000210496         0.402978      -0.0186236
                        0.597628       -0.795047     -0.000239767     4.15096e-05       -0.0489341       0.0571372     -0.000549631    -3.63022e-05
                     4.26961e-05    -0.000694251         0.402936      -0.0192098     -0.000393557    -7.91092e-05         0.714279       -0.536702
281706                 0.0401997      -0.0632302     -0.000130626    -0.000348491         0.597518       -0.794886     -0.000170267    -0.000366517
                    -0.000348832    -0.000160649        -0.799043        -0.41377     -0.000300088     0.000210728         0.402629      -0.0189048
                          0.5973       -0.795292     -0.000239766     4.17578e-05       -0.0489212       0.0571702     -0.000550044    -3.55792e-05
                     4.21476e-05    -0.000694838         0.402587      -0.0194904      -0.00039369    -7.91308e-05         0.713899       -0.537447
281708                  0.040183      -0.0632607     -0.000130963    -0.000348717          0.59719       -0.795131     -0.000170477      -0.0003664
                     -0.00034907    -0.000160645        -0.799433       -0.413334     -0.000300083      0.00021096         0.402279      -0.0191854
                        0.596972       -0.795536     -0.000239766     4.20057e-05       -0.0489083       0.0572032     -0.000550457     -3.4855e-05
                     4.15978e-05    -0.000695424         0.402237      -0.0197704     -0.000393822    -7.91538e-05         0.713518       -0.538192
281710                 0.0401663      -0.0632911     -0.000131301    -0.000348943         0.596862       -0.795375     -0.000170687    -0.000366281
                    -0.000349306    -0.000160641        -0.799822       -0.412898     -0.000300078     0.000211192         0.401929      -0.0194656
                        0.596643        -0.79578     -0.000239765     4.22535e-05       -0.0488954       0.0572361     -0.000550868    -3.41296e-05
                     4.10467e-05     -0.00069601         0.401886        -0.02005     -0.000393952    -7.91784e-05         0.713137       -0.538937
281712                 0.0401495      -0.0633216     -0.000131639    -0.000349169         0.596534        -0.79562     -0.000170896    -0.000366161
                    -0.000349541    -0.000160637         -0.80021       -0.412462     -0.000300073     0.000211424         0.401579      -0.0197452
                        0.596315       -0.796024     -0.000239763      4.2501e-05       -0.0488825       0.0572691     -0.000551279    -3.34031e-05
                     4.04943e-05    -0.000696596         0.401536      -0.0203291     -0.000394081    -7.92044e-05         0.712754       -0.539682
281714                 0.0401328       -0.063352     -0.000131979    -0.000349395         0.596206       -0.795864     -0.000171106     -0.00036604
                    -0.000349775    -0.000160634        -0.800599       -0.412025     -0.000300069     0.000211655         0.401228      -0.0200244
                        0.595986       -0.796268     -0.000239762     4.27484e-05       -0.0488695       0.0573021     -0.000551689    -3.26753e-05
                     3.99407e-05    -0.000697182         0.401185      -0.0206077     -0.000394207    -7.92319e-05          0.71237       -0.540427
281716                  0.040116      -0.0633825     -0.000132319    -0.000349622         0.595877       -0.796108     -0.000171315    -0.000365918
                    -0.000350008    -0.000160631        -0.800987       -0.411587     -0.000300065     0.000211887         0.400877       -0.020303
                        0.595658       -0.796512      -0.00023976     4.29955e-05       -0.0488565       0.0573351     -0.000552097    -3.19463e-05
                     3.93857e-05    -0.000697767         0.400833      -0.0208858     -0.000394332    -7.92608e-05         0.711986       -0.541171
281718                 0.0400992      -0.0634129      -0.00013266    -0.000349849         0.595549       -0.796352     -0.000171525    -0.000365795
                    -0.000350239    -0.000160628        -0.801375        -0.41115     -0.000300062     0.000212118         0.400526      -0.0205811
                        0.595329       -0.796755     -0.000239758     4.32424e-05       -0.0488435       0.0573681     -0.000552505    -3.12161e-05
                     3.88295e-05    -0.000698352         0.400481      -0.0211633     -0.000394455    -7.92913e-05           0.7116       -0.541915
281720                 0.0400824      -0.0634434     -0.000133002    -0.000350077          0.59522       -0.796596     -0.000171734    -0.000365671
                    -0.000350469    -0.000160625        -0.801763       -0.410711     -0.000300059     0.000212349         0.400174      -0.0208588
                           0.595       -0.796999     -0.000239755     4.34891e-05       -0.0488305       0.0574011     -0.000552911    -3.04847e-05
                      3.8272e-05    -0.000698937         0.400129      -0.0214404     -0.000394577    -7.93233e-05         0.711214       -0.542659
281722                 0.0400656      -0.0634738     -0.000133344    -0.000350304         0.594891       -0.796839     -0.000171943    -0.000365546
                    -0.000350698    -0.000160623        -0.802151       -0.410273     -0.000300057      0.00021258         0.399822      -0.0211359
                        0.594671       -0.797242     -0.000239752     4.37356e-05       -0.0488175       0.0574341     -0.000553317    -2.97521e-05
                     3.77133e-05    -0.000699521         0.399777      -0.0217169     -0.000394696    -7.93568e-05         0.710827       -0.543403
281724                 0.0400487      -0.0635043     -0.000133688    -0.000350532         0.594562       -0.797083     -0.000172152     -0.00036542
                    -0.000350926    -0.000160621        -0.802538       -0.409833     -0.000300055     0.000212811          0.39947      -0.0214125
                        0.594342       -0.797485     -0.000239749     4.39818e-05       -0.0488044       0.0574671     -0.000553721    -2.90183e-05
                     3.71533e-05    -0.000700105         0.399424       -0.021993     -0.000394814    -7.93919e-05         0.710439       -0.544146
281726                 0.0400319      -0.0635347     -0.000134032     -0.00035076         0.594233       -0.797326     -0.000172362    -0.000365293
                    -0.000351152    -0.000160619        -0.802925       -0.409394     -0.000300054     0.000213042         0.399117      -0.0216886
                        0.594013       -0.797729     -0.000239746     4.42279e-05       -0.0487913       0.0575001     -0.000554125    -2.82833e-05
                     3.65921e-05    -0.000700688         0.399071      -0.0222685     -0.000394931    -7.94284e-05          0.71005       -0.544889
281728                  0.040015      -0.0635651     -0.000134378    -0.000350989         0.593904       -0.797569     -0.000172571    -0.000365165
                    -0.000351377    -0.000160617        -0.803312       -0.408953     -0.000300053     0.000213273         0.398764      -0.0219642
                        0.593684       -0.797972     -0.000239742     4.44737e-05       -0.0487782       0.0575331     -0.000554527    -2.75472e-05
                     3.60296e-05    -0.000701272         0.398717      -0.0225435     -0.000395045    -7.94666e-05          0.70966       -0.545632
281730                 0.0399981      -0.0635955     -0.000134724    -0.000351218         0.593575       -0.797812      -0.00017278    -0.000365036
                      -0.0003516    -0.000160616        -0.803698       -0.408513     -0.000300053     0.000213503          0.39841      -0.0222393
                        0.593355       -0.798214     -0.000239738     4.47194e-05       -0.0487651       0.0575661     -0.000554929    -2.68098e-05
                      3.5466e-05    -0.000701854         0.398363       -0.022818     -0.000395158    -7.95062e-05          0.70927       -0.546375
281732                 0.0399812       -0.063626     -0.000135071    -0.000351447         0.593246       -0.798055     -0.000172988    -0.000364906
                    -0.000351822    -0.000160616        -0.804085       -0.408072     -0.000300053     0.000213733         0.398056      -0.0225139
                        0.593025       -0.798457     -0.000239734     4.49648e-05        -0.048752       0.0575991     -0.000555329    -2.60712e-05
                     3.49012e-05    -0.000702437         0.398009      -0.0230921     -0.000395269    -7.95475e-05         0.708878       -0.547117
281734                 0.0399643      -0.0636564     -0.000135419    -0.000351676         0.592916       -0.798298     -0.000173197    -0.000364775
                    -0.000352043    -0.000160615        -0.804471        -0.40763     -0.000300053     0.000213964         0.397702       -0.022788
                        0.592696         -0.7987     -0.000239729       4.521e-05       -0.0487388       0.0576321     -0.000555729    -2.53315e-05
                     3.43351e-05    -0.000703019         0.397655      -0.0233655     -0.000395379    -7.95902e-05         0.708485        -0.54786
281736                 0.0399473      -0.0636868     -0.000135767    -0.000351905         0.592587       -0.798541     -0.000173406    -0.000364643
                    -0.000352263    -0.000160615        -0.804856       -0.407188     -0.000300054     0.000214194         0.397348      -0.0230616
                        0.592366       -0.798942     -0.000239725      4.5455e-05       -0.0487257       0.0576651     -0.000556127    -2.45906e-05
                     3.37679e-05      -0.0007036           0.3973      -0.0236385     -0.000395487    -7.96346e-05         0.708092       -0.548602
281738                 0.0399304      -0.0637172     -0.000136117    -0.000352135         0.592257       -0.798783     -0.000173615     -0.00036451
                    -0.000352481    -0.000160615        -0.805242       -0.406746     -0.000300055     0.000214424         0.396993      -0.0233347
                        0.592036       -0.799184      -0.00023972     4.56998e-05       -0.0487125       0.0576981     -0.000556524    -2.38485e-05
                     3.31996e-05    -0.000704181         0.396945       -0.023911     -0.000395593    -7.96805e-05         0.707698       -0.549344
281740                 0.0399134      -0.0637476     -0.000136467    -0.000352365         0.591927       -0.799026     -0.000173824    -0.000364376
                    -0.000352697    -0.000160615        -0.805627       -0.406303     -0.000300057     0.000214654         0.396637      -0.0236073
                        0.591706       -0.799427     -0.000239714     4.59444e-05       -0.0486992       0.0577311      -0.00055692    -2.31052e-05
                       3.263e-05    -0.000704762         0.396589       -0.024183     -0.000395697    -7.97281e-05         0.707303       -0.550085
281742                 0.0398964       -0.063778     -0.000136819    -0.000352596         0.591597       -0.799268     -0.000174032    -0.000364241
                    -0.000352912    -0.000160616        -0.806012        -0.40586      -0.00030006     0.000214883         0.396282      -0.0238793
                        0.591376       -0.799669     -0.000239709     4.61887e-05        -0.048686       0.0577641     -0.000557316    -2.23607e-05
                     3.20594e-05    -0.000705342         0.396233      -0.0244544     -0.000395799    -7.97772e-05         0.706907       -0.550827
281744                 0.0398794      -0.0638084     -0.000137171    -0.000352826         0.591267        -0.79951     -0.000174241    -0.000364105
                    -0.000353126    -0.000160618        -0.806397       -0.405416     -0.000300063     0.000215113         0.395926      -0.0241508
                        0.591046        -0.79991     -0.000239703     4.64329e-05       -0.0486728       0.0577971      -0.00055771     -2.1615e-05
                     3.14876e-05    -0.000705921         0.395877      -0.0247253       -0.0003959    -7.98279e-05          0.70651       -0.551568
281746                 0.0398624      -0.0638388     -0.000137524    -0.000353057         0.590937       -0.799752     -0.000174449    -0.000363967
                    -0.000353339    -0.000160619        -0.806781       -0.404972     -0.000300066     0.000215342          0.39557      -0.0244219
                        0.590716       -0.800152     -0.000239697     4.66768e-05       -0.0486595       0.0578301     -0.000558103    -2.08682e-05
                     3.09147e-05    -0.000706501          0.39552      -0.0249958     -0.000395999    -7.98803e-05         0.706112       -0.552309
281748                 0.0398454      -0.0638692     -0.000137879    -0.000353288         0.590607       -0.799994     -0.000174658    -0.000363829
                     -0.00035355    -0.000160621        -0.807165       -0.404527      -0.00030007     0.000215572         0.395213      -0.0246924
                        0.590386       -0.800394      -0.00023969     4.69205e-05       -0.0486462       0.0578631     -0.000558495    -2.01202e-05
                     3.03407e-05    -0.000707079         0.395163      -0.0252657     -0.000396097    -7.99342e-05         0.705713        -0.55305
281750                 0.0398283      -0.0638996     -0.000138234    -0.000353519         0.590277       -0.800236     -0.000174866     -0.00036369
                    -0.000353759    -0.000160623        -0.807549       -0.404082     -0.000300074     0.000215801         0.394856      -0.0249624
                        0.590056       -0.800635     -0.000239684      4.7164e-05       -0.0486329       0.0578961     -0.000558886     -1.9371e-05
                     2.97656e-05    -0.000707657         0.394806       -0.025535     -0.000396192    -7.99898e-05         0.705313        -0.55379
281752                 0.0398112        -0.06393     -0.000138589    -0.000353751         0.589947       -0.800477     -0.000175074     -0.00036355
                    -0.000353967    -0.000160626        -0.807933       -0.403637     -0.000300079      0.00021603         0.394499      -0.0252319
                        0.589725       -0.800877     -0.000239677     4.74073e-05       -0.0486195       0.0579292     -0.000559276    -1.86207e-05
                     2.91894e-05    -0.000708235         0.394448      -0.0258039     -0.000396286     -8.0047e-05         0.704913        -0.55453
281754                 0.0397942      -0.0639603     -0.000138946    -0.000353983         0.589616       -0.800719     -0.000175282    -0.000363408
                    -0.000354174    -0.000160629        -0.808316       -0.403191     -0.000300084      0.00021626         0.394141      -0.0255009
                        0.589395       -0.801118      -0.00023967     4.76504e-05       -0.0486062       0.0579622     -0.000559664    -1.78692e-05
                     2.86122e-05    -0.000708812          0.39409      -0.0260723     -0.000396378    -8.01058e-05         0.704512        -0.55527
281756                 0.0397771      -0.0639907     -0.000139304    -0.000354215         0.589286        -0.80096      -0.00017549    -0.000363266
                    -0.000354379    -0.000160632        -0.808699       -0.402744      -0.00030009     0.000216488         0.393783      -0.0257693
                        0.589064       -0.801359     -0.000239662     4.78932e-05       -0.0485928       0.0579952     -0.000560052    -1.71165e-05
                     2.80339e-05    -0.000709388         0.393732      -0.0263401     -0.000396468    -8.01663e-05         0.704109        -0.55601
281758                 0.0397599      -0.0640211     -0.000139663    -0.000354447         0.588955       -0.801201     -0.000175698    -0.000363123
                    -0.000354583    -0.000160636        -0.809082       -0.402298     -0.000300096     0.000216717         0.393425      -0.0260373
                        0.588733         -0.8016     -0.000239654     4.81359e-05       -0.0485794       0.0580282     -0.000560439    -1.63626e-05
                     2.74546e-05    -0.000709964         0.393373      -0.0266074     -0.000396556    -8.02284e-05         0.703706       -0.556749
281760                 0.0397428      -0.0640515     -0.000140023     -0.00035468         0.588624       -0.801443     -0.000175905    -0.000362979
                    -0.000354785     -0.00016064        -0.809464        -0.40185     -0.000300102     0.000216946         0.393066      -0.0263047
                        0.588402       -0.801841     -0.000239647     4.83783e-05        -0.048566       0.0580612     -0.000560824    -1.56076e-05
                     2.68742e-05     -0.00071054         0.393014      -0.0268742     -0.000396642    -8.02922e-05         0.703302       -0.557489
281762                 0.0397257      -0.0640818     -0.000140383    -0.000354913         0.588293       -0.801683     -0.000176112    -0.000362834
                    -0.000354986    -0.000160644        -0.809847       -0.401402      -0.00030011     0.000217174         0.392707      -0.0265716
                        0.588071       -0.802081     -0.000239638     4.86205e-05       -0.0485525       0.0580942     -0.000561209    -1.48514e-05
