! TOUCHSTONE file generated by CST MICROWAVE STUDIO
! Date and time: Tue Oct 14 07:30:28 2025
! Project name: Teste_Macro_Metasurface_Nanopilar.cst
! Parameters = {H=600; L_x=160; L_y=90; Lambda=1064; Max_L=200; Min_L=70; PathPara=1; Phi=0; Step_L=10; Theta=0; p=520; phaseX=180; phaseY=0}
! Header version: 2018
! Port assignment regex: !\s*Touchstone port\s*([0-9]+)\s*=\s*(CST MWS port|CST DS port)\s*([0-9]+|Zmin|Zmax)\s*\(\"(.*)\"\)(\s*mode\s*([0-9]+))?.*
! Touchstone port assignment:
! Touchstone port 1 = CST MWS port Zmax ("") mode 1
! Touchstone port 2 = CST MWS port Zmax ("") mode 2
! Touchstone port 3 = CST MWS port Zmin ("") mode 1
! Touchstone port 4 = CST MWS port Zmin ("") mode 2
! S-Parameters are not renormalized. Each port impedance will be approximated by the real part at minimum frequency. The values are described via the [Reference] keyword.
! Default impedance is overridden by [Reference]
[Version] 2.0
# GHz S RI R 376.73
[Number of Ports] 4
[Reference]
376.73 376.73 259.814 259.814 
[Number of Frequencies] 51
[Network Data]
281700                 0.0225319      -0.0492072       0.00024313    -5.82015e-05         0.638639       -0.764029      -7.8266e-05     6.44785e-05
                     4.58454e-06    -0.000107879        -0.045474       -0.158884      4.51334e-05     0.000148607       -0.0504243        0.979135
                        0.638648       -0.763894      0.000149438     0.000110868       -0.0440529       0.0318703      -2.4485e-05    -0.000122257
                    -0.000187645     8.67853e-05       -0.0507326        0.978976     -3.95979e-05    -0.000134608       -0.0602577        0.153848
281702                 0.0225188      -0.0492321      0.000242984    -5.81124e-05         0.638323       -0.764292     -7.82996e-05     6.45401e-05
                     4.54779e-06    -0.000107852        -0.045535       -0.158892      4.51169e-05     0.000148615       -0.0499713        0.979154
                        0.638332       -0.764157      0.000149328     0.000111033       -0.0440537       0.0318984     -2.46061e-05    -0.000122067
                    -0.000187708     8.68569e-05       -0.0502798        0.978995     -3.96094e-05    -0.000134444        -0.060177        0.153906
281704                 0.0225058       -0.049257      0.000242838     -5.8023e-05         0.638007       -0.764555      -7.8334e-05     6.46003e-05
                     4.51185e-06    -0.000107825        -0.045596         -0.1589      4.51005e-05     0.000148623       -0.0495183        0.979173
                        0.638016       -0.764419      0.000149218     0.000111198       -0.0440544       0.0319266     -2.47269e-05    -0.000121878
                     -0.00018777     8.69294e-05        -0.049827        0.979014     -3.96208e-05    -0.000134281       -0.0600963        0.153963
281706                 0.0224927      -0.0492818      0.000242691    -5.79336e-05         0.637691       -0.764817     -7.83687e-05     6.46596e-05
                     4.47675e-06    -0.000107797        -0.045657       -0.158908      4.50845e-05     0.000148631       -0.0490652        0.979192
                          0.6377       -0.764681      0.000149108     0.000111364       -0.0440552       0.0319548     -2.48472e-05    -0.000121689
                    -0.000187832     8.70029e-05       -0.0493742        0.979033      -3.9632e-05    -0.000134118       -0.0600156        0.154021
281708                 0.0224796      -0.0493067      0.000242545    -5.78439e-05         0.637375       -0.765079     -7.84035e-05      6.4718e-05
                     4.44248e-06    -0.000107768       -0.0457181       -0.158917      4.50686e-05      0.00014864       -0.0486122        0.979211
                        0.637383       -0.764944      0.000148998     0.000111529       -0.0440559       0.0319829     -2.49671e-05    -0.000121499
                    -0.000187892     8.70772e-05       -0.0489214        0.979052     -3.96431e-05    -0.000133955       -0.0599348        0.154078
281710                 0.0224665      -0.0493316      0.000242398    -5.77541e-05         0.637058       -0.765342     -7.84383e-05     6.47757e-05
                     4.40905e-06    -0.000107738       -0.0457791       -0.158925       4.5053e-05     0.000148649       -0.0481592        0.979229
                        0.637067       -0.765206      0.000148887     0.000111695       -0.0440566       0.0320111     -2.50867e-05     -0.00012131
                    -0.000187952     8.71525e-05       -0.0484686         0.97907     -3.96542e-05    -0.000133792       -0.0598539        0.154136
281712                 0.0224534      -0.0493564       0.00024225    -5.76641e-05         0.636742       -0.765604      -7.8473e-05      6.4833e-05
                     4.37646e-06    -0.000107708       -0.0458402       -0.158933      4.50376e-05     0.000148658       -0.0477062        0.979248
                        0.636751       -0.765467      0.000148777      0.00011186       -0.0440573       0.0320393      -2.5206e-05    -0.000121121
                    -0.000188011     8.72287e-05       -0.0480158        0.979088     -3.96651e-05    -0.000133629        -0.059773        0.154193
281714                 0.0224403      -0.0493813      0.000242103     -5.7574e-05         0.636425       -0.765866     -7.85075e-05     6.48899e-05
                     4.34471e-06    -0.000107676       -0.0459012       -0.158941      4.50224e-05     0.000148668       -0.0472531        0.979266
                        0.636434       -0.765729      0.000148666     0.000112026       -0.0440579       0.0320675     -2.53249e-05    -0.000120932
                    -0.000188068     8.73059e-05        -0.047563        0.979107     -3.96759e-05    -0.000133465       -0.0596921        0.154251
281716                 0.0224271      -0.0494062      0.000241955    -5.74838e-05         0.636108       -0.766127      -7.8542e-05     6.49465e-05
                     4.31381e-06    -0.000107643       -0.0459623       -0.158948      4.50074e-05     0.000148677       -0.0468001        0.979284
                        0.636117       -0.765991      0.000148556     0.000112192       -0.0440586       0.0320957     -2.54435e-05    -0.000120743
                    -0.000188125      8.7384e-05       -0.0471102        0.979124     -3.96867e-05    -0.000133302       -0.0596111        0.154308
281718                  0.022414       -0.049431      0.000241808    -5.73936e-05         0.635792       -0.766389     -7.85762e-05      6.5003e-05
                     4.28377e-06     -0.00010761       -0.0460233       -0.158956      4.49926e-05     0.000148687       -0.0463471        0.979301
                          0.6358       -0.766252      0.000148446     0.000112358       -0.0440592       0.0321239     -2.55618e-05    -0.000120554
                    -0.000188182      8.7463e-05       -0.0466573        0.979142     -3.96973e-05    -0.000133139         -0.05953        0.154365
281720                 0.0224008      -0.0494559       0.00024166    -5.73034e-05         0.635475       -0.766651     -7.86104e-05     6.50593e-05
                     4.25458e-06    -0.000107575       -0.0460844       -0.158964      4.49781e-05     0.000148698        -0.045894        0.979319
                        0.635483       -0.766513      0.000148335     0.000112525       -0.0440598       0.0321522     -2.56799e-05    -0.000120365
                    -0.000188237      8.7543e-05       -0.0462045        0.979159     -3.97079e-05    -0.000132977        -0.059449        0.154422
281722                 0.0223876      -0.0494807      0.000241512    -5.72133e-05         0.635158       -0.766912     -7.86445e-05     6.51154e-05
                     4.22626e-06     -0.00010754       -0.0461455       -0.158972      4.49637e-05     0.000148708        -0.045441        0.979336
                        0.635166       -0.766775      0.000148225     0.000112691       -0.0440604       0.0321804     -2.57977e-05    -0.000120175
                    -0.000188291     8.76239e-05       -0.0457517        0.979176     -3.97184e-05    -0.000132814       -0.0593678         0.15448
281724                 0.0223744      -0.0495056      0.000241364    -5.71232e-05          0.63484       -0.767173     -7.86784e-05     6.51716e-05
                      4.1988e-06    -0.000107504       -0.0462066        -0.15898      4.49496e-05     0.000148719       -0.0449879        0.979353
                        0.634849       -0.767036      0.000148114     0.000112857        -0.044061       0.0322086     -2.59153e-05    -0.000119986
                    -0.000188345     8.77058e-05       -0.0452989        0.979193     -3.97288e-05    -0.000132651       -0.0592866        0.154537
281726                 0.0223612      -0.0495304      0.000241217    -5.70325e-05         0.634523       -0.767434     -7.87122e-05     6.52276e-05
                     4.17222e-06    -0.000107466       -0.0462677       -0.158988      4.49357e-05      0.00014873       -0.0445349         0.97937
                        0.634532       -0.767297      0.000148004     0.000113024       -0.0440616       0.0322369     -2.60327e-05    -0.000119796
                    -0.000188398     8.77886e-05        -0.044846         0.97921     -3.97391e-05    -0.000132488       -0.0592054        0.154594
281728                  0.022348      -0.0495553      0.000241069    -5.69412e-05         0.634206       -0.767695      -7.8746e-05     6.52836e-05
                      4.1465e-06    -0.000107428       -0.0463288       -0.158996       4.4922e-05     0.000148741       -0.0440818        0.979387
                        0.634215       -0.767557      0.000147893      0.00011319       -0.0440621       0.0322651     -2.61498e-05    -0.000119607
                    -0.000188449     8.78724e-05       -0.0443932        0.979227     -3.97494e-05    -0.000132325       -0.0591241        0.154651
281730                 0.0223348      -0.0495801      0.000240921    -5.68496e-05         0.633888       -0.767956     -7.87796e-05     6.53396e-05
                     4.12167e-06    -0.000107389       -0.0463899       -0.159004      4.49084e-05     0.000148752       -0.0436288        0.979403
                        0.633897       -0.767818      0.000147783     0.000113357       -0.0440627       0.0322934     -2.62668e-05    -0.000119417
                      -0.0001885     8.79571e-05       -0.0439403        0.979243     -3.97595e-05    -0.000132162       -0.0590428        0.154708
281732                 0.0223215       -0.049605      0.000240773    -5.67578e-05         0.633571       -0.768217     -7.88132e-05     6.53956e-05
                     4.09772e-06    -0.000107349        -0.046451       -0.159011      4.48951e-05     0.000148764       -0.0431757        0.979419
                        0.633579       -0.768079      0.000147673     0.000113523       -0.0440632       0.0323217     -2.63836e-05    -0.000119227
                     -0.00018855     8.80428e-05       -0.0434875        0.979259     -3.97696e-05       -0.000132       -0.0589614        0.154765
281734                 0.0223082      -0.0496298      0.000240624    -5.66659e-05         0.633253       -0.768478     -7.88467e-05     6.54516e-05
                     4.07465e-06    -0.000107308       -0.0465122       -0.159019       4.4882e-05     0.000148775       -0.0427227        0.979435
                        0.633262       -0.768339      0.000147563      0.00011369       -0.0440637         0.03235     -2.65002e-05    -0.000119036
                    -0.000188599     8.81295e-05       -0.0430347        0.979275     -3.97797e-05    -0.000131837         -0.05888        0.154822
281736                 0.0222949      -0.0496546      0.000240476     -5.6574e-05         0.632935       -0.768738     -7.88802e-05     6.55076e-05
                     4.05247e-06    -0.000107266       -0.0465733       -0.159027       4.4869e-05     0.000148787       -0.0422696        0.979451
                        0.632944       -0.768599      0.000147453     0.000113856       -0.0440641       0.0323783     -2.66166e-05    -0.000118846
                    -0.000188647     8.82171e-05       -0.0425818        0.979291     -3.97896e-05    -0.000131674       -0.0587985        0.154879
281738                 0.0222816      -0.0496795      0.000240327    -5.64819e-05         0.632617       -0.768999     -7.89135e-05     6.55636e-05
                     4.03118e-06    -0.000107223       -0.0466345       -0.159034      4.48563e-05     0.000148799       -0.0418166        0.979467
                        0.632626        -0.76886      0.000147343     0.000114023       -0.0440646       0.0324066     -2.67329e-05    -0.000118655
                    -0.000188694     8.83057e-05        -0.042129        0.979306     -3.97996e-05    -0.000131512        -0.058717        0.154936
281740                 0.0222683      -0.0497043      0.000240178    -5.63897e-05         0.632299       -0.769259     -7.89468e-05     6.56196e-05
                     4.01079e-06    -0.000107179       -0.0466956       -0.159042      4.48437e-05     0.000148811       -0.0413635        0.979482
                        0.632308        -0.76912      0.000147233     0.000114189       -0.0440651       0.0324349      -2.6849e-05    -0.000118464
                    -0.000188741     8.83952e-05       -0.0416761        0.979321     -3.98094e-05    -0.000131349       -0.0586354        0.154993
281742                  0.022255      -0.0497291      0.000240029    -5.62975e-05         0.631981       -0.769519     -7.89801e-05     6.56756e-05
                      3.9913e-06    -0.000107134       -0.0467568        -0.15905      4.48313e-05     0.000148823       -0.0409104        0.979497
                         0.63199        -0.76938      0.000147125     0.000114356       -0.0440655       0.0324632      -2.6965e-05    -0.000118272
                    -0.000188786     8.84857e-05       -0.0412232        0.979337     -3.98192e-05    -0.000131187       -0.0585538         0.15505
281744                 0.0222417       -0.049754       0.00023988    -5.62051e-05         0.631663       -0.769779     -7.90133e-05     6.57317e-05
                     3.97271e-06    -0.000107088        -0.046818       -0.159057      4.48191e-05     0.000148835       -0.0404574        0.979512
                        0.631671       -0.769639      0.000147016     0.000114523       -0.0440659       0.0324915     -2.70809e-05     -0.00011808
                     -0.00018883     8.85772e-05       -0.0407704        0.979351      -3.9829e-05    -0.000131024       -0.0584721        0.155106
281746                 0.0222283      -0.0497788      0.000239731    -5.61126e-05         0.631344       -0.770039     -7.90464e-05     6.57877e-05
                     3.95503e-06    -0.000107041       -0.0468791       -0.159065      4.48071e-05     0.000148848       -0.0400043        0.979527
                        0.631353       -0.769899      0.000146908      0.00011469       -0.0440663       0.0325198     -2.71966e-05    -0.000117888
                    -0.000188874     8.86697e-05       -0.0403175        0.979366     -3.98387e-05    -0.000130862       -0.0583904        0.155163
281748                 0.0222149      -0.0498036      0.000239582    -5.60199e-05         0.631026       -0.770299     -7.90795e-05     6.58438e-05
                     3.93826e-06    -0.000106993       -0.0469403       -0.159073      4.47952e-05      0.00014886       -0.0395512        0.979541
                        0.631035       -0.770158        0.0001468     0.000114858       -0.0440667       0.0325482     -2.73121e-05    -0.000117696
                    -0.000188916     8.87632e-05       -0.0398647         0.97938     -3.98484e-05    -0.000130699       -0.0583087         0.15522
281750                 0.0222016      -0.0498284      0.000239432    -5.59272e-05         0.630707       -0.770558     -7.91125e-05     6.58998e-05
                      3.9224e-06    -0.000106944       -0.0470015        -0.15908      4.47835e-05     0.000148873       -0.0390982        0.979556
                        0.630716       -0.770418      0.000146691     0.000115027       -0.0440671       0.0325765     -2.74276e-05    -0.000117503
                    -0.000188958     8.88576e-05       -0.0394118        0.979395      -3.9858e-05    -0.000130537       -0.0582269        0.155276
281752                 0.0221882      -0.0498532      0.000239283    -5.58343e-05         0.630389       -0.770818     -7.91455e-05     6.59559e-05
                     3.90745e-06    -0.000106894       -0.0470627       -0.159088      4.47719e-05     0.000148886       -0.0386451         0.97957
                        0.630397       -0.770677      0.000146582     0.000115195       -0.0440674       0.0326049     -2.75429e-05     -0.00011731
                    -0.000188998      8.8953e-05       -0.0389589        0.979409     -3.98676e-05    -0.000130375        -0.058145        0.155333
281754                 0.0221747       -0.049878      0.000239133    -5.57414e-05          0.63007       -0.771077     -7.91785e-05      6.6012e-05
                     3.89343e-06    -0.000106843       -0.0471239       -0.159095      4.47606e-05     0.000148899        -0.038192        0.979584
                        0.630078       -0.770936      0.000146473     0.000115364       -0.0440677       0.0326333     -2.76581e-05    -0.000117117
                    -0.000189038     8.90494e-05       -0.0385061        0.979423     -3.98772e-05    -0.000130213       -0.0580631         0.15539
281756                 0.0221613      -0.0499029      0.000238984    -5.56483e-05         0.629751       -0.771336     -7.92113e-05     6.60681e-05
                     3.88032e-06    -0.000106791       -0.0471852       -0.159103      4.47493e-05     0.000148911        -0.037739        0.979597
                         0.62976       -0.771195      0.000146364     0.000115532        -0.044068       0.0326617     -2.77731e-05    -0.000116923
                    -0.000189076     8.91468e-05       -0.0380532        0.979436     -3.98867e-05     -0.00013005       -0.0579811        0.155446
281758                 0.0221479      -0.0499277      0.000238834    -5.55551e-05         0.629432       -0.771595     -7.92442e-05     6.61242e-05
                     3.86814e-06    -0.000106738       -0.0472464        -0.15911      4.47382e-05     0.000148924       -0.0372859        0.979611
                        0.629441       -0.771454      0.000146255     0.000115701       -0.0440683         0.03269      -2.7888e-05    -0.000116729
                    -0.000189114     8.92452e-05       -0.0376003         0.97945     -3.98963e-05    -0.000129888       -0.0578991        0.155503
281760                 0.0221344      -0.0499525      0.000238685    -5.54618e-05         0.629113       -0.771854     -7.92769e-05     6.61803e-05
                     3.85689e-06    -0.000106684       -0.0473076       -0.159118      4.47273e-05     0.000148938       -0.0368328        0.979624
                        0.629121       -0.771713      0.000146146     0.000115869       -0.0440686       0.0327184     -2.80028e-05    -0.000116535
                     -0.00018915     8.93446e-05       -0.0371475        0.979463     -3.99058e-05    -0.000129726       -0.0578171        0.155559
281762                 0.0221209      -0.0499773      0.000238535    -5.53684e-05         0.628793       -0.772113     -7.93097e-05     6.62364e-05
                     3.84657e-06    -0.000106629       -0.0473689       -0.159125      4.47165e-05     0.000148951       -0.0363798        0.979637
                        0.628802       -0.771971      0.000146037     0.000116037       -0.0440689       0.0327468     -2.81174e-05     -0.00011634
