! TOUCHSTONE file generated by CST MICROWAVE STUDIO
! Date and time: Tue Oct 14 07:28:26 2025
! Project name: Teste_Macro_Metasurface_Nanopilar.cst
! Parameters = {H=600; L_x=125; L_y=165; Lambda=1064; Max_L=200; Min_L=70; PathPara=1; Phi=0; Step_L=10; Theta=0; p=520; phaseX=180; phaseY=0}
! Header version: 2018
! Port assignment regex: !\s*Touchstone port\s*([0-9]+)\s*=\s*(CST MWS port|CST DS port)\s*([0-9]+|Zmin|Zmax)\s*\(\"(.*)\"\)(\s*mode\s*([0-9]+))?.*
! Touchstone port assignment:
! Touchstone port 1 = CST MWS port Zmax ("") mode 1
! Touchstone port 2 = CST MWS port Zmax ("") mode 2
! Touchstone port 3 = CST MWS port Zmin ("") mode 1
! Touchstone port 4 = CST MWS port Zmin ("") mode 2
! S-Parameters are not renormalized. Each port impedance will be approximated by the real part at minimum frequency. The values are described via the [Reference] keyword.
! Default impedance is overridden by [Reference]
[Version] 2.0
# GHz S RI R 376.73
[Number of Ports] 4
[Reference]
376.73 376.73 259.814 259.814 
[Number of Frequencies] 51
[Network Data]
281700                 -0.453928        0.325098     -0.000204097     0.000130224        0.0374968        0.804749     -0.000147613    -3.94331e-05
                    -0.000226652     0.000225249       -0.0868448       -0.108276     -0.000143956    -0.000220975         0.010558        0.985438
                        0.036944        0.804915     -4.48416e-05    -0.000263385        -0.444478       -0.315297     -0.000170596    -0.000435514
                    -0.000113915    -1.55982e-05        0.0107129        0.984449     -0.000236407    -0.000391058       -0.0831369        0.110211
281702                 -0.453471        0.325144     -0.000203411     0.000130152        0.0381696        0.804977     -0.000147471    -3.91597e-05
                    -0.000226142     0.000225755       -0.0868828       -0.108267     -0.000144158    -0.000220499        0.0109974        0.985431
                       0.0376183        0.805143     -4.53176e-05    -0.000262899        -0.444569       -0.314583      -0.00017107    -0.000435277
                    -0.000113895     -1.5587e-05        0.0111514        0.984444     -0.000236353    -0.000390934       -0.0830772        0.110277
281704                 -0.453015        0.325189     -0.000202727     0.000130104        0.0388425        0.805204      -0.00014733    -3.88904e-05
                    -0.000225632      0.00022626       -0.0869207       -0.108257     -0.000144359    -0.000220023        0.0114368        0.985423
                       0.0382926         0.80537      -4.5801e-05    -0.000262428        -0.444658        -0.31387     -0.000171538     -0.00043504
                    -0.000113873    -1.55762e-05        0.0115899        0.984439     -0.000236298    -0.000390811       -0.0830173        0.110343
281706                  -0.45256        0.325234     -0.000202045      0.00013008        0.0395153         0.80543      -0.00014719     -3.8625e-05
                    -0.000225122     0.000226765       -0.0869587       -0.108248     -0.000144559    -0.000219547        0.0118762        0.985415
                       0.0389669        0.805596     -4.62936e-05    -0.000261972        -0.444747       -0.313157     -0.000172001    -0.000434801
                    -0.000113851     -1.5566e-05        0.0120283        0.984433     -0.000236243    -0.000390688       -0.0829574        0.110409
281708                 -0.452104        0.325278     -0.000201365      0.00013008        0.0401882        0.805655      -0.00014705    -3.83635e-05
                    -0.000224612     0.000227268       -0.0869967       -0.108238     -0.000144758    -0.000219071        0.0123155        0.985407
                       0.0396412        0.805821     -4.67967e-05    -0.000261527        -0.444834       -0.312444     -0.000172458    -0.000434563
                    -0.000113827    -1.55562e-05        0.0124667        0.984427     -0.000236189    -0.000390566       -0.0828975        0.110474
281710                  -0.45165        0.325322     -0.000200689     0.000130102        0.0408611        0.805879     -0.000146911    -3.81055e-05
                    -0.000224103     0.000227771       -0.0870347       -0.108228     -0.000144956    -0.000218595        0.0127549        0.985399
                       0.0403155        0.806045     -4.73115e-05    -0.000261093         -0.44492       -0.311732     -0.000172911    -0.000434323
                    -0.000113803    -1.55468e-05        0.0129051        0.984421     -0.000236134    -0.000390443       -0.0828375         0.11054
281712                 -0.451196        0.325366     -0.000200016      0.00013015         0.041534        0.806102     -0.000146773    -3.78509e-05
                    -0.000223593     0.000228273       -0.0870727       -0.108219     -0.000145153     -0.00021812        0.0131942        0.985391
                       0.0409899        0.806268     -4.78386e-05    -0.000260667        -0.445006       -0.311021     -0.000173359    -0.000434083
                    -0.000113778    -1.55379e-05        0.0133435        0.984414     -0.000236079    -0.000390321       -0.0827775        0.110606
281714                 -0.450742        0.325409     -0.000199346     0.000130222         0.042207        0.806325     -0.000146636    -3.75995e-05
                    -0.000223084     0.000228774       -0.0871107       -0.108209     -0.000145349    -0.000217644        0.0136335        0.985382
                       0.0416642         0.80649     -4.83787e-05     -0.00026025         -0.44509        -0.31031     -0.000173803    -0.000433843
                    -0.000113752    -1.55295e-05        0.0137819        0.984408     -0.000236025    -0.000390199       -0.0827174        0.110671
281716                 -0.450289        0.325451     -0.000198676      0.00013032        0.0428799        0.806546     -0.000146499    -3.73512e-05
                    -0.000222574     0.000229274       -0.0871487         -0.1082     -0.000145545    -0.000217169        0.0140728        0.985373
                       0.0423386        0.806711      -4.8932e-05    -0.000259839        -0.445174         -0.3096     -0.000174242    -0.000433601
                    -0.000113725    -1.55215e-05        0.0142202        0.984401      -0.00023597    -0.000390078       -0.0826573        0.110737
281718                 -0.449836        0.325493     -0.000198003     0.000130444        0.0435529        0.806766     -0.000146363    -3.71058e-05
                    -0.000222065     0.000229773       -0.0871867        -0.10819     -0.000145739    -0.000216694        0.0145121        0.985364
                        0.043013        0.806931     -4.94987e-05    -0.000259433        -0.445257       -0.308891     -0.000174676    -0.000433359
                    -0.000113697    -1.55138e-05        0.0146585        0.984394     -0.000235916    -0.000389956       -0.0825971        0.110802
281720                 -0.449384        0.325535     -0.000197322     0.000130588        0.0442258        0.806985     -0.000146229    -3.68631e-05
                    -0.000221556     0.000230272       -0.0872247        -0.10818     -0.000145932     -0.00021622        0.0149514        0.985355
                       0.0436874         0.80715     -5.00787e-05    -0.000259032        -0.445338       -0.308182     -0.000175106    -0.000433117
                    -0.000113668    -1.55066e-05        0.0150967        0.984386     -0.000235861    -0.000389835       -0.0825369        0.110868
281722                 -0.448932        0.325576      -0.00019663     0.000130743        0.0448988        0.807203     -0.000146095    -3.66231e-05
                    -0.000221047      0.00023077       -0.0872628       -0.108171     -0.000146125    -0.000215745        0.0153906        0.985345
                       0.0443618        0.807368     -5.06718e-05    -0.000258635        -0.445419       -0.307474     -0.000175532    -0.000432874
                    -0.000113639    -1.54999e-05         0.015535        0.984379     -0.000235807    -0.000389714       -0.0824766        0.110933
281724                 -0.448481        0.325617     -0.000195937       0.0001309        0.0455718         0.80742     -0.000145962    -3.63857e-05
                    -0.000220538     0.000231266       -0.0873008       -0.108161     -0.000146316    -0.000215271        0.0158299        0.985336
                       0.0450362        0.807586     -5.12777e-05    -0.000258242        -0.445499       -0.306766     -0.000175954     -0.00043263
                    -0.000113608    -1.54935e-05        0.0159732        0.984371     -0.000235752    -0.000389594       -0.0824163        0.110999
281726                  -0.44803        0.325657     -0.000195254     0.000131059        0.0462447        0.807637     -0.000145829    -3.61506e-05
                    -0.000220029     0.000231762       -0.0873388       -0.108151     -0.000146507    -0.000214797        0.0162691        0.985326
                       0.0457106        0.807802     -5.18959e-05    -0.000257851        -0.445577       -0.306059     -0.000176372    -0.000432386
                    -0.000113577    -1.54874e-05        0.0164114        0.984363     -0.000235698    -0.000389474       -0.0823559        0.111064
281728                  -0.44758        0.325697     -0.000194584     0.000131228        0.0469177        0.807852     -0.000145698    -3.59177e-05
                     -0.00021952     0.000232257       -0.0873768       -0.108142     -0.000146696    -0.000214323        0.0167083        0.985316
                        0.046385        0.808017     -5.25259e-05    -0.000257463        -0.445655       -0.305352     -0.000176787    -0.000432141
                    -0.000113544    -1.54818e-05        0.0168495        0.984354     -0.000235644    -0.000389354       -0.0822955         0.11113
281730                  -0.44713        0.325736     -0.000193929     0.000131411        0.0475907        0.808066     -0.000145568    -3.56871e-05
                    -0.000219012     0.000232751       -0.0874149       -0.108132     -0.000146885    -0.000213849        0.0171475        0.985306
                       0.0470594        0.808231     -5.31672e-05    -0.000257077        -0.445732       -0.304646     -0.000177197    -0.000431895
                    -0.000113511    -1.54765e-05        0.0172877        0.984346     -0.000235589    -0.000389234        -0.082235        0.111195
281732                 -0.446681        0.325775     -0.000193284     0.000131611        0.0482637        0.808279     -0.000145438    -3.54585e-05
                    -0.000218503     0.000233244       -0.0874529       -0.108122     -0.000147073    -0.000213376        0.0175867        0.985295
                       0.0477338        0.808444     -5.38191e-05    -0.000256693        -0.445808       -0.303941     -0.000177604    -0.000431649
                    -0.000113477    -1.54716e-05        0.0177258        0.984337     -0.000235535    -0.000389114       -0.0821745         0.11126
281734                 -0.446232        0.325813     -0.000192649     0.000131828        0.0489367        0.808492      -0.00014531    -3.52319e-05
                    -0.000217995     0.000233737       -0.0874909       -0.108113      -0.00014726    -0.000212903        0.0180258        0.985285
                       0.0484082        0.808656     -5.44809e-05    -0.000256311        -0.445883       -0.303236     -0.000178007    -0.000431402
                    -0.000113442    -1.54671e-05        0.0181639        0.984328     -0.000235481    -0.000388995       -0.0821139        0.111325
281736                 -0.445784        0.325851     -0.000192022     0.000132061        0.0496096        0.808703     -0.000145182    -3.50072e-05
                    -0.000217487     0.000234228        -0.087529       -0.108103     -0.000147446     -0.00021243         0.018465        0.985274
                       0.0490826        0.808868     -5.51519e-05     -0.00025593        -0.445957       -0.302532     -0.000178406    -0.000431155
                    -0.000113406    -1.54628e-05         0.018602        0.984319     -0.000235426    -0.000388876       -0.0820533        0.111391
281738                 -0.445336        0.325888     -0.000191401      0.00013231        0.0502826        0.808913     -0.000145055    -3.47843e-05
                    -0.000216979     0.000234718        -0.087567       -0.108093     -0.000147631    -0.000211957        0.0189041        0.985263
                        0.049757        0.809078     -5.58312e-05    -0.000255551         -0.44603       -0.301828     -0.000178803    -0.000430907
                    -0.000113369    -1.54588e-05          0.01904         0.98431     -0.000235372    -0.000388757       -0.0819927        0.111456
281740                 -0.444888        0.325925     -0.000190787     0.000132574        0.0509556        0.809123     -0.000144928    -3.45631e-05
                    -0.000216471     0.000235208       -0.0876051       -0.108083     -0.000147815    -0.000211484        0.0193432        0.985252
                       0.0504314        0.809287     -5.65182e-05    -0.000255173        -0.446102       -0.301125     -0.000179195    -0.000430658
                    -0.000113332    -1.54551e-05         0.019478          0.9843     -0.000235318    -0.000388639       -0.0819319        0.111521
281742                 -0.444442        0.325962     -0.000190179     0.000132852        0.0516285        0.809331     -0.000144803    -3.43437e-05
                    -0.000215963     0.000235696       -0.0876431       -0.108074     -0.000147998    -0.000211012        0.0197823         0.98524
                       0.0511058        0.809496      -5.7212e-05    -0.000254797        -0.446174       -0.300423     -0.000179585    -0.000430409
                    -0.000113293    -1.54515e-05         0.019916        0.984291     -0.000235264    -0.000388521       -0.0818712        0.111586
281744                 -0.443995        0.325998     -0.000189577     0.000133143        0.0523015        0.809539     -0.000144678    -3.41258e-05
                    -0.000215456     0.000236183       -0.0876812       -0.108064     -0.000148181     -0.00021054        0.0202214        0.985229
                       0.0517801        0.809703     -5.79119e-05    -0.000254421        -0.446244       -0.299721     -0.000179971     -0.00043016
                    -0.000113253    -1.54478e-05         0.020354        0.984281     -0.000235209    -0.000388403       -0.0818104        0.111651
281746                 -0.443549        0.326034     -0.000188981     0.000133447        0.0529744        0.809745     -0.000144555    -3.39095e-05
                     -0.00021495     0.000236668       -0.0877193       -0.108054     -0.000148362    -0.000210068        0.0206605        0.985217
                       0.0524545        0.809909      -5.8617e-05    -0.000254047        -0.446313        -0.29902     -0.000180354    -0.000429909
                    -0.000113212     -1.5443e-05        0.0207919         0.98427     -0.000235155    -0.000388285       -0.0817495        0.111716
281748                 -0.443104        0.326069     -0.000188391     0.000133763        0.0536474        0.809951     -0.000144431    -3.36947e-05
                    -0.000214442     0.000237145       -0.0877573       -0.108044     -0.000148543    -0.000209596        0.0210996        0.985205
                       0.0531287        0.810115     -5.93267e-05    -0.000253674        -0.446382       -0.298319     -0.000180735    -0.000429658
                    -0.000113172    -1.54271e-05        0.0212299         0.98426       -0.0002351    -0.000388168       -0.0816886        0.111781
281750                 -0.442659        0.326104     -0.000187808      0.00013409        0.0543203        0.810155     -0.000144309    -3.34813e-05
                     -0.00021392     0.000237645       -0.0877954       -0.108034     -0.000148723    -0.000209124        0.0215386        0.985193
                       0.0538032        0.810319     -6.00401e-05    -0.000253302        -0.446449       -0.297619     -0.000181112    -0.000429407
                    -0.000113144    -1.54532e-05        0.0216678        0.984249     -0.000235045    -0.000388051       -0.0816276        0.111846
281752                 -0.442215        0.326138      -0.00018723     0.000134429        0.0549932        0.810359     -0.000144187    -3.32694e-05
                     -0.00021342     0.000238129       -0.0878335       -0.108025     -0.000148904    -0.000208652        0.0219777         0.98518
                       0.0544775        0.810523     -6.07565e-05     -0.00025293        -0.446516        -0.29692     -0.000181486    -0.000429155
                    -0.000113093    -1.54474e-05        0.0221056        0.984238     -0.000234989    -0.000387934       -0.0815666        0.111911
281754                 -0.441771        0.326172     -0.000186658     0.000134778         0.055666        0.810561     -0.000144066    -3.30588e-05
                    -0.000212915     0.000238611       -0.0878716       -0.108015     -0.000149086    -0.000208179        0.0224167        0.985168
                       0.0551518        0.810725     -6.14753e-05    -0.000252559        -0.446581       -0.296221     -0.000181857    -0.000428903
                    -0.000113048    -1.54448e-05        0.0225435        0.984227     -0.000234928    -0.000387817       -0.0815056        0.111976
281756                 -0.441327        0.326205     -0.000186092     0.000135138        0.0563394        0.810763     -0.000143945    -3.28496e-05
                    -0.000212409     0.000239093       -0.0879096       -0.108005     -0.000149132      -0.0002078        0.0228557        0.985155
                       0.0558261        0.810927     -6.21958e-05    -0.000252188        -0.446646       -0.295522     -0.000182226     -0.00042865
                    -0.000113004    -1.54431e-05        0.0229813        0.984216     -0.000235093    -0.000387689       -0.0814445        0.112041
281758                 -0.440884        0.326238     -0.000185532     0.000135508         0.057012        0.810964     -0.000143825    -3.26417e-05
                    -0.000211902     0.000239574       -0.0879477       -0.107995     -0.000149421    -0.000207244        0.0232947        0.985142
                       0.0565004        0.811127     -6.29174e-05    -0.000251818         -0.44671       -0.294825     -0.000182592    -0.000428396
                    -0.000112958    -1.54421e-05        0.0234191        0.984205     -0.000234847    -0.000387584       -0.0813833        0.112106
281760                 -0.440442        0.326271     -0.000184977     0.000135887        0.0576848        0.811163     -0.000143705     -3.2435e-05
                    -0.000211396     0.000240054       -0.0879858       -0.107985       -0.0001496    -0.000206772        0.0237337        0.985129
                       0.0571746        0.811327     -6.36395e-05    -0.000251448        -0.446773       -0.294128     -0.000182955    -0.000428142
                    -0.000112912    -1.54415e-05        0.0238569        0.984193     -0.000234787    -0.000387468       -0.0813221        0.112171
281762                     -0.44        0.326303     -0.000184429     0.000136275        0.0583576        0.811362     -0.000143586    -3.22296e-05
                     -0.00021089     0.000240532       -0.0880239       -0.107975     -0.000149775    -0.000206301        0.0241727        0.985116
                       0.0578488        0.811525     -6.43615e-05    -0.000251078        -0.446835       -0.293431     -0.000183315    -0.000427887
