! TOUCHSTONE file generated by CST MICROWAVE STUDIO
! Date and time: Tue Oct 14 07:27:29 2025
! Project name: Teste_Macro_Metasurface_Nanopilar.cst
! Parameters = {H=600; L_x=110; L_y=160; Lambda=1064; Max_L=200; Min_L=70; PathPara=1; Phi=0; Step_L=10; Theta=0; p=520; phaseX=180; phaseY=0}
! Header version: 2018
! Port assignment regex: !\s*Touchstone port\s*([0-9]+)\s*=\s*(CST MWS port|CST DS port)\s*([0-9]+|Zmin|Zmax)\s*\(\"(.*)\"\)(\s*mode\s*([0-9]+))?.*
! Touchstone port assignment:
! Touchstone port 1 = CST MWS port Zmax ("") mode 1
! Touchstone port 2 = CST MWS port Zmax ("") mode 2
! Touchstone port 3 = CST MWS port Zmin ("") mode 1
! Touchstone port 4 = CST MWS port Zmin ("") mode 2
! S-Parameters are not renormalized. Each port impedance will be approximated by the real part at minimum frequency. The values are described via the [Reference] keyword.
! Default impedance is overridden by [Reference]
[Version] 2.0
# GHz S RI R 376.73
[Number of Ports] 4
[Reference]
376.73 376.73 259.814 259.814 
[Number of Frequencies] 51
[Network Data]
281700                 -0.154532       -0.276006     -0.000555913     -0.00051536         0.535425        0.776291      0.000210299     4.75922e-05
                    -0.000401555     -0.00051033         -0.11826       0.0307075      3.93483e-06    -0.000195979        -0.977133         0.10852
                        0.535593        0.776216     -5.02041e-05    -0.000155698         0.204622        0.237678     -0.000705551     0.000150744
                     0.000226488     0.000254057        -0.977752         0.10892     -0.000526721      -0.0002809         0.120007      0.00595644
281702                 -0.154645       -0.276019     -0.000556284    -0.000515039         0.535788        0.776012      0.000210602     4.71222e-05
                    -0.000402019    -0.000510211        -0.118229       0.0307351       3.6397e-06     -0.00019619        -0.977079         0.10903
                        0.535956        0.775937     -5.04962e-05    -0.000155607         0.204827        0.237587     -0.000705266      0.00015144
                     0.000226648     0.000253966        -0.977698        0.109431     -0.000526901    -0.000280977         0.119988      0.00586427
281704                 -0.154758       -0.276032     -0.000556654    -0.000514716          0.53615        0.775733      0.000210903     4.66507e-05
                    -0.000402483    -0.000510092        -0.118198       0.0307626      3.34421e-06    -0.000196401        -0.977024        0.109541
                        0.536319        0.775658     -5.07889e-05    -0.000155514         0.205032        0.237496     -0.000704982     0.000152137
                     0.000226807     0.000253876        -0.977643        0.109941     -0.000527081    -0.000281054         0.119969      0.00577212
281706                 -0.154871       -0.276044     -0.000557021    -0.000514394         0.536513        0.775453      0.000211204     4.61779e-05
                    -0.000402948    -0.000509973        -0.118167       0.0307901      3.04834e-06    -0.000196612         -0.97697        0.110051
                        0.536682        0.775379     -5.10823e-05    -0.000155419         0.205238        0.237405     -0.000704696     0.000152834
                     0.000226966     0.000253785        -0.977589        0.110452     -0.000527262    -0.000281131          0.11995      0.00567999
281708                 -0.154983       -0.276057     -0.000557387    -0.000514072         0.536875        0.775173      0.000211505     4.57039e-05
                    -0.000403412    -0.000509854        -0.118136       0.0308176       2.7521e-06    -0.000196823        -0.976915        0.110561
                        0.537045        0.775099     -5.13763e-05    -0.000155322         0.205443        0.237314     -0.000704411     0.000153533
                     0.000227125     0.000253694        -0.977534        0.110962     -0.000527444    -0.000281207         0.119931      0.00558789
281710                 -0.155096        -0.27607     -0.000557751     -0.00051375         0.537237        0.774894      0.000211807     4.52289e-05
                    -0.000403877    -0.000509735        -0.118105        0.030845       2.4555e-06    -0.000197034         -0.97686        0.111072
                        0.537408         0.77482      -5.1671e-05    -0.000155223         0.205648        0.237222     -0.000704126     0.000154233
                     0.000227283     0.000253603        -0.977479        0.111472     -0.000527626    -0.000281282         0.119912       0.0054958
281712                 -0.155209       -0.276083     -0.000558114    -0.000513427         0.537599        0.774614      0.000212109     4.47528e-05
                    -0.000404342    -0.000509615        -0.118074       0.0308725      2.15853e-06    -0.000197244        -0.976804        0.111582
                         0.53777         0.77454     -5.19664e-05    -0.000155122         0.205853        0.237131      -0.00070384     0.000154934
                     0.000227442     0.000253512        -0.977423        0.111983     -0.000527809    -0.000281357         0.119893      0.00540374
281714                 -0.155322       -0.276096     -0.000558474    -0.000513105         0.537961        0.774333      0.000212413     4.42758e-05
                    -0.000404807    -0.000509496        -0.118043       0.0308999      1.86121e-06    -0.000197454        -0.976748        0.112092
                        0.538133         0.77426     -5.22624e-05    -0.000155019         0.206059        0.237039     -0.000703554     0.000155638
                       0.0002276     0.000253421        -0.977368        0.112493     -0.000527993    -0.000281431         0.119873       0.0053117
281716                 -0.155435       -0.276108     -0.000558833    -0.000512783         0.538323        0.774053      0.000212719     4.37979e-05
                    -0.000405272    -0.000509376        -0.118012       0.0309272      1.56354e-06    -0.000197664        -0.976692        0.112602
                        0.538495         0.77398      -5.2559e-05    -0.000154914         0.206264        0.236947     -0.000703268     0.000156344
                     0.000227758      0.00025333        -0.977312        0.113003     -0.000528177    -0.000281505         0.119854      0.00521969
281718                 -0.155548       -0.276121     -0.000559189    -0.000512461         0.538684        0.773772      0.000213027     4.33191e-05
                    -0.000405737    -0.000509256        -0.117981       0.0309546      1.26551e-06    -0.000197874        -0.976636        0.113113
                        0.538857        0.773699     -5.28564e-05    -0.000154807         0.206469        0.236855     -0.000702982     0.000157052
                     0.000227916      0.00025324        -0.977256        0.113514     -0.000528361    -0.000281578         0.119835       0.0051277
281720                 -0.155661       -0.276134     -0.000559545    -0.000512139         0.539046        0.773491      0.000213337     4.28394e-05
                    -0.000406203    -0.000509136         -0.11795       0.0309819      9.67147e-07    -0.000198083         -0.97658        0.113623
                         0.53922        0.773419     -5.31544e-05    -0.000154698         0.206674        0.236762     -0.000702694     0.000157764
                     0.000228073     0.000253149        -0.977199        0.114024     -0.000528546    -0.000281651         0.119815      0.00503573
281722                 -0.155774       -0.276146     -0.000559898    -0.000511817         0.539407         0.77321       0.00021365     4.23589e-05
                    -0.000406668    -0.000509016        -0.117919       0.0310093      6.68452e-07    -0.000198292        -0.976523        0.114133
                        0.539582        0.773138      -5.3453e-05    -0.000154587          0.20688         0.23667     -0.000702407     0.000158478
                     0.000228231     0.000253058        -0.977142        0.114534     -0.000528732    -0.000281723         0.119796      0.00494379
281724                 -0.155887       -0.276159      -0.00056025    -0.000511495         0.539768        0.772929      0.000213965     4.18775e-05
                    -0.000407134    -0.000508895        -0.117888       0.0310366      3.69441e-07    -0.000198501        -0.976466        0.114643
                        0.539943        0.772857     -5.37524e-05    -0.000154474         0.207085        0.236577     -0.000702119     0.000159195
                     0.000228388     0.000252968        -0.977086        0.115044     -0.000528919    -0.000281795         0.119776      0.00485188
281726                 -0.156001       -0.276172       -0.0005606    -0.000511174         0.540129        0.772647      0.000214283     4.13952e-05
                      -0.0004076    -0.000508775        -0.117857       0.0310638      7.01347e-08     -0.00019871        -0.976409        0.115153
                        0.540305        0.772576     -5.40524e-05    -0.000154359          0.20729        0.236485      -0.00070183     0.000159916
                     0.000228545     0.000252877        -0.977028        0.115554     -0.000529106    -0.000281865         0.119756      0.00475999
281728                 -0.156114       -0.276184     -0.000560948    -0.000510853          0.54049        0.772366      0.000214604     4.09121e-05
                    -0.000408066    -0.000508654        -0.117826       0.0310911     -2.29435e-07    -0.000198919        -0.976351        0.115663
                        0.540667        0.772294     -5.43531e-05    -0.000154242         0.207496        0.236392      -0.00070154     0.000160639
                     0.000228702     0.000252786        -0.976971        0.116065     -0.000529294    -0.000281936         0.119737      0.00466812
281730                 -0.156227       -0.276197     -0.000561294    -0.000510532         0.540851        0.772084      0.000214928     4.04281e-05
                    -0.000408532    -0.000508534        -0.117795       0.0311183     -5.29218e-07    -0.000199127        -0.976294        0.116173
                        0.541028        0.772013     -5.46544e-05    -0.000154123         0.207701        0.236299      -0.00070125     0.000161366
                     0.000228859     0.000252696        -0.976913        0.116575     -0.000529482    -0.000282005         0.119717      0.00457628
281732                  -0.15634       -0.276209     -0.000561639    -0.000510211         0.541212        0.771802      0.000215255     3.99434e-05
                    -0.000408999    -0.000508413        -0.117764       0.0311455     -8.29123e-07    -0.000199335        -0.976235        0.116683
                        0.541389        0.771731     -5.49564e-05    -0.000154002         0.207906        0.236205     -0.000700959     0.000162097
                     0.000229016     0.000252605        -0.976855        0.117085     -0.000529672    -0.000282075         0.119697      0.00448447
281734                 -0.156454       -0.276222     -0.000561983    -0.000509891         0.541573        0.771519      0.000215586     3.94578e-05
                    -0.000409465    -0.000508292        -0.117733       0.0311727     -1.12898e-06    -0.000199542        -0.976177        0.117193
                        0.541751        0.771449     -5.52592e-05    -0.000153879         0.208112        0.236112     -0.000700667     0.000162831
                     0.000229172     0.000252515        -0.976797        0.117595     -0.000529863    -0.000282143         0.119677      0.00439268
281736                 -0.156567       -0.276235     -0.000562324    -0.000509571         0.541933        0.771237      0.000215919     3.89714e-05
                    -0.000409932    -0.000508171        -0.117702       0.0311998     -1.42839e-06    -0.000199748        -0.976119        0.117702
                        0.542112        0.771167     -5.55626e-05    -0.000153754         0.208317        0.236018     -0.000700375     0.000163569
                     0.000229328     0.000252424        -0.976738        0.118105     -0.000530057    -0.000282211         0.119657      0.00430092
281738                 -0.156681       -0.276247     -0.000562664    -0.000509251         0.542293        0.770954      0.000216256     3.84843e-05
                    -0.000410399     -0.00050805        -0.117671        0.031227     -1.72627e-06    -0.000199953         -0.97606        0.118212
                        0.542473        0.770884     -5.58667e-05    -0.000153627         0.208522        0.235925     -0.000700081      0.00016431
                     0.000229485     0.000252334        -0.976679        0.118615     -0.000530255    -0.000282279         0.119637      0.00420918
281740                 -0.156794        -0.27626     -0.000563003    -0.000508932         0.542654        0.770671      0.000216597     3.79964e-05
                    -0.000410866    -0.000507928         -0.11764       0.0312541     -2.01798e-06    -0.000200151        -0.976001        0.118722
                        0.542833        0.770602     -5.61714e-05    -0.000153498         0.208728        0.235831     -0.000699787     0.000165055
                      0.00022964     0.000252244         -0.97662        0.119125     -0.000530466    -0.000282349         0.119617      0.00411748
281742                 -0.156908       -0.276272      -0.00056334    -0.000508614         0.543014        0.770388      0.000216941     3.75077e-05
                    -0.000411333    -0.000507807        -0.117608       0.0312812     -2.21811e-06    -0.000200281        -0.975941        0.119232
                        0.543194        0.770319     -5.64769e-05    -0.000153368         0.208933        0.235737     -0.000699492     0.000165803
                     0.000229796     0.000252154        -0.976561        0.119634     -0.000530862    -0.000282501         0.119596      0.00402579
281744                 -0.157021       -0.276285     -0.000563676    -0.000508296         0.543373        0.770105      0.000217289     3.70184e-05
                      -0.0004118    -0.000507687        -0.117577       0.0313082     -2.68413e-06    -0.000200624        -0.975881        0.119742
                        0.543555        0.770036     -5.67831e-05    -0.000153235         0.209138        0.235643     -0.000699196     0.000166555
                     0.000229951     0.000252065        -0.976501        0.120144     -0.000530728    -0.000282476         0.119576      0.00393413
281746                 -0.157135       -0.276297     -0.000564011     -0.00050798         0.543733        0.769821       0.00021764     3.65283e-05
                    -0.000412266    -0.000507565        -0.117546       0.0313353     -2.96657e-06    -0.000200811        -0.975821        0.120251
                        0.543915        0.769753     -5.70901e-05    -0.000153101         0.209344        0.235548     -0.000698899     0.000167311
                     0.000230104     0.000251974        -0.976441        0.120654      -0.00053096    -0.000282539         0.119556       0.0038425
281748                 -0.157248       -0.276309     -0.000564346    -0.000507663         0.544093        0.769538      0.000217995     3.60376e-05
                    -0.000412733    -0.000507442        -0.117515       0.0313623     -3.26442e-06    -0.000201012        -0.975761        0.120761
                        0.544275        0.769469     -5.73978e-05    -0.000152964         0.209549        0.235454     -0.000698602     0.000168071
                     0.000230259     0.000251882        -0.976381        0.121164     -0.000531164    -0.000282603         0.119535       0.0037509
281750                 -0.157362       -0.276322      -0.00056468    -0.000507345         0.544452        0.769254      0.000218353     3.55462e-05
                      -0.0004132     -0.00050732        -0.117484       0.0313893     -3.56573e-06    -0.000201217        -0.975701        0.121271
                        0.544635        0.769186     -5.77062e-05    -0.000152826         0.209754        0.235359     -0.000698304     0.000168834
                     0.000230415     0.000251792        -0.976321        0.121674     -0.000531363    -0.000282666         0.119515      0.00365932
281752                 -0.157476       -0.276334     -0.000565012    -0.000507026         0.544812         0.76897      0.000218715     3.50542e-05
                    -0.000413668    -0.000507198        -0.117453       0.0314162     -3.86855e-06    -0.000201422         -0.97564         0.12178
                        0.544995        0.768902     -5.80154e-05    -0.000152686          0.20996        0.235264     -0.000698005     0.000169601
                      0.00023057     0.000251702         -0.97626        0.122183     -0.000531559    -0.000282728         0.119494      0.00356777
281754                  -0.15759       -0.276347     -0.000565341    -0.000506707         0.545171        0.768685      0.000219081     3.45616e-05
                    -0.000414136    -0.000507076        -0.117422       0.0314432     -4.17227e-06    -0.000201628        -0.975579         0.12229
                        0.545355        0.768618     -5.83254e-05    -0.000152543         0.210165        0.235169     -0.000697706     0.000170372
                     0.000230724     0.000251612        -0.976199        0.122693     -0.000531756     -0.00028279         0.119473      0.00347625
281756                 -0.157703       -0.276359     -0.000565668     -0.00050639          0.54553        0.768401       0.00021945     3.40684e-05
                    -0.000414603    -0.000506953        -0.117391       0.0314701     -4.47667e-06    -0.000201834        -0.975518        0.122799
                        0.545715        0.768334     -5.86361e-05    -0.000152399          0.21037        0.235074     -0.000697406     0.000171147
                     0.000230878     0.000251522        -0.976138        0.123203     -0.000531952    -0.000282852         0.119453      0.00338475
281758                 -0.157817       -0.276371     -0.000565994    -0.000506073         0.545889        0.768116      0.000219823     3.35747e-05
                    -0.000415071    -0.000506831         -0.11736        0.031497     -4.78161e-06     -0.00020204        -0.975456        0.123309
                        0.546075        0.768049     -5.89474e-05    -0.000152253         0.210576        0.234979     -0.000697106     0.000171925
                     0.000231032     0.000251432        -0.976076        0.123712     -0.000532148    -0.000282912         0.119432      0.00329328
281760                 -0.157931       -0.276384     -0.000566318    -0.000505757         0.546248        0.767831        0.0002202     3.30805e-05
                    -0.000415539    -0.000506708        -0.117329       0.0315239     -5.08703e-06    -0.000202246        -0.975394        0.123818
                        0.546434        0.767765     -5.92593e-05    -0.000152104         0.210781        0.234883     -0.000696805     0.000172707
                     0.000231186     0.000251342        -0.976015        0.124222     -0.000532344    -0.000282972         0.119411      0.00320183
281762                 -0.158045       -0.276396      -0.00056664    -0.000505442         0.546607        0.767546       0.00022058     3.25858e-05
                    -0.000416008    -0.000506585        -0.117298       0.0315507     -5.39289e-06    -0.000202451        -0.975332        0.124328
                        0.546793         0.76748     -5.95716e-05    -0.000151954         0.210986        0.234788     -0.000696504     0.000173492
