! TOUCHSTONE file generated by CST MICROWAVE STUDIO
! Date and time: Tue Oct 14 07:31:51 2025
! Project name: Teste_Macro_Metasurface_Nanopilar.cst
! Parameters = {H=600; L_x=180; L_y=140; Lambda=1064; Max_L=200; Min_L=70; PathPara=1; Phi=0; Step_L=10; Theta=0; p=520; phaseX=180; phaseY=0}
! Header version: 2018
! Port assignment regex: !\s*Touchstone port\s*([0-9]+)\s*=\s*(CST MWS port|CST DS port)\s*([0-9]+|Zmin|Zmax)\s*\(\"(.*)\"\)(\s*mode\s*([0-9]+))?.*
! Touchstone port assignment:
! Touchstone port 1 = CST MWS port Zmax ("") mode 1
! Touchstone port 2 = CST MWS port Zmax ("") mode 2
! Touchstone port 3 = CST MWS port Zmin ("") mode 1
! Touchstone port 4 = CST MWS port Zmin ("") mode 2
! S-Parameters are not renormalized. Each port impedance will be approximated by the real part at minimum frequency. The values are described via the [Reference] keyword.
! Default impedance is overridden by [Reference]
[Version] 2.0
# GHz S RI R 376.73
[Number of Ports] 4
[Reference]
376.73 376.73 259.814 259.814 
[Number of Frequencies] 51
[Network Data]
281700                 -0.302167        0.182566      0.000317965    -0.000340148          0.20949        0.894588      6.81678e-05    -4.29204e-05
                     0.000303006      -0.0003522        -0.171931      -0.0159557     -5.59624e-05     2.99469e-05         0.802835        0.563831
                        0.209988         0.89465      2.05058e-06     9.11491e-06        -0.331932       -0.056479      0.000461268    -0.000349268
                     0.000120303     6.33682e-05         0.802794        0.563815      0.000406328    -0.000217682        0.0724931         0.15234
281702                 -0.301901        0.182495       0.00031782    -0.000340998         0.210154        0.894556      6.88014e-05    -4.31135e-05
                     0.000302828    -0.000352683         -0.17194      -0.0159332     -5.53933e-05     2.95797e-05          0.80307        0.563494
                        0.210644        0.894606      2.72183e-06     8.94689e-06        -0.331755      -0.0560071       0.00046178    -0.000348822
                     0.000120869     6.32947e-05         0.803029        0.563477      0.000406793    -0.000217734        0.0726043        0.152296
281704                 -0.301635        0.182424      0.000317695    -0.000341838         0.210817        0.894524      6.94337e-05    -4.33164e-05
                     0.000302624    -0.000353163         -0.17195      -0.0159107     -5.48216e-05     2.92184e-05         0.803305        0.563156
                        0.211301        0.894562      3.39209e-06     8.77303e-06        -0.331578       -0.055536      0.000462293    -0.000348374
                     0.000121445     6.32315e-05         0.803264        0.563139       0.00040726    -0.000217782        0.0727154        0.152252
281706                 -0.301369        0.182352      0.000317585    -0.000342669          0.21148        0.894491      7.00642e-05    -4.35288e-05
                     0.000302387    -0.000353639         -0.17196      -0.0158881     -5.42473e-05     2.88628e-05         0.803539        0.562819
                        0.211959        0.894518      4.06129e-06     8.59351e-06          -0.3314      -0.0550657      0.000462806    -0.000347925
                     0.000122033     6.31813e-05         0.803499        0.562801      0.000407729    -0.000217827        0.0728265        0.152208
281708                 -0.301105        0.182281      0.000317486     -0.00034349         0.212142        0.894458      7.06926e-05    -4.37501e-05
                     0.000302108    -0.000354117        -0.171969      -0.0158656     -5.36703e-05     2.85126e-05         0.803773        0.562482
                        0.212619        0.894475      4.72932e-06     8.40851e-06        -0.331222      -0.0545962      0.000463319    -0.000347476
                     0.000122637     6.31479e-05         0.803734        0.562463        0.0004082    -0.000217867        0.0729376        0.152164
281710                  -0.30084         0.18221      0.000317395    -0.000344301         0.212805        0.894423      7.13187e-05      -4.398e-05
                     0.000301775    -0.000354603        -0.171979      -0.0158431     -5.30904e-05     2.81678e-05         0.804008        0.562144
                        0.213279        0.894432      5.39613e-06     8.21822e-06        -0.331044      -0.0541275      0.000463833    -0.000347025
                      0.00012326      6.3136e-05         0.803968        0.562125      0.000408673    -0.000217904        0.0730486         0.15212
281712                 -0.300577        0.182138      0.000317309    -0.000345104         0.213466        0.894389      7.19422e-05    -4.42178e-05
                     0.000301374     -0.00035511        -0.171989      -0.0158205     -5.25077e-05     2.78281e-05         0.804242        0.561807
                        0.213939        0.894389      6.06163e-06     8.02281e-06        -0.330865      -0.0536597      0.000464347    -0.000346573
                     0.000123909     6.31521e-05         0.804203        0.561786      0.000409149    -0.000217936        0.0731596        0.152076
281714                 -0.300313        0.182067      0.000317226    -0.000345899         0.214127        0.894353       7.2563e-05    -4.44633e-05
                      0.00030089    -0.000355661        -0.171998      -0.0157979     -5.19221e-05     2.74934e-05         0.804476        0.561469
                        0.214601        0.894348      6.72578e-06     7.82248e-06        -0.330686      -0.0531926      0.000464861     -0.00034612
                     0.000124593     6.32048e-05         0.804437        0.561448      0.000409627    -0.000217964        0.0732705        0.152031
281716                 -0.300051        0.181995      0.000317146    -0.000346687         0.214788        0.894317      7.31808e-05    -4.47159e-05
                     0.000300309    -0.000356295        -0.172008      -0.0157754     -5.13333e-05     2.71635e-05          0.80471        0.561131
                        0.215263        0.894307       7.3885e-06     7.61742e-06        -0.330507      -0.0527263      0.000465376    -0.000345665
                     0.000125324     6.33059e-05         0.804671         0.56111      0.000410108    -0.000217987        0.0733814        0.151987
281718                 -0.299788        0.181924      0.000317066     -0.00034747         0.215448         0.89428      7.37957e-05    -4.49751e-05
                     0.000299631    -0.000357073        -0.172018      -0.0157528     -5.07412e-05     2.68381e-05         0.804943        0.560793
                        0.215925        0.894266      8.04975e-06      7.4078e-06        -0.330328      -0.0522608      0.000465892     -0.00034521
                     0.000126127     6.34716e-05         0.804905        0.560771      0.000410593    -0.000218005        0.0734923        0.151942
281720                 -0.299527        0.181852      0.000316986    -0.000348247         0.216108        0.894242      7.44074e-05    -4.52407e-05
                     0.000298894    -0.000358085        -0.172028      -0.0157302     -5.01458e-05     2.65172e-05         0.805177        0.560455
                        0.216587        0.894227      8.70948e-06     7.19382e-06        -0.330148       -0.051796      0.000466408    -0.000344755
                     0.000127037     6.37248e-05         0.805139        0.560432      0.000411081    -0.000218019        0.0736032        0.151898
281722                 -0.299266        0.181781      0.000316906     -0.00034902         0.216767        0.894204      7.50159e-05    -4.55122e-05
                     0.000298214    -0.000359417        -0.172037      -0.0157076     -4.95468e-05     2.62005e-05          0.80541        0.560117
                        0.217249        0.894188      9.36766e-06     6.97565e-06        -0.329968      -0.0513321      0.000466925    -0.000344298
                     0.000128121     6.40962e-05         0.805373        0.560093      0.000411574    -0.000218027         0.073714        0.151853
281724                 -0.299005        0.181709      0.000316825     -0.00034979         0.217426        0.894165      7.56213e-05    -4.57892e-05
                     0.000297799    -0.000361077        -0.172047       -0.015685      -4.8944e-05     2.58878e-05         0.805643        0.559779
                         0.21791        0.894149      1.00242e-05     6.75347e-06        -0.329788      -0.0508689      0.000467443     -0.00034384
                     0.000129509     6.46221e-05         0.805606        0.559755      0.000412071     -0.00021803        0.0738248        0.151809
281726                 -0.298745        0.181638      0.000316742    -0.000350556         0.218085        0.894126      7.62235e-05    -4.60716e-05
                     0.000297863    -0.000362891        -0.172057      -0.0156624     -4.83371e-05     2.55789e-05         0.805876        0.559441
                        0.218572        0.894111      1.06792e-05     6.52747e-06        -0.329607      -0.0504066      0.000467961    -0.000343381
                     0.000131464     6.53178e-05         0.805839        0.559416      0.000412574    -0.000218028        0.0739355        0.151764
281728                 -0.298486        0.181566      0.000316657     -0.00035132         0.218743        0.894086      7.68225e-05     -4.6359e-05
                     0.000298439    -0.000364537        -0.172067      -0.0156398     -4.77259e-05     2.52735e-05         0.806109        0.559103
                        0.219232        0.894074      1.13325e-05      6.2978e-06        -0.329426       -0.049945      0.000468481    -0.000342922
                     0.000134566     6.60221e-05         0.806073        0.559076      0.000413082    -0.000218021        0.0740462        0.151719
281730                 -0.298227        0.181495       0.00031657    -0.000352081         0.219401        0.894045      7.74183e-05    -4.66515e-05
                     0.000299315    -0.000365775        -0.172076      -0.0156172       -4.711e-05     2.49714e-05         0.806342        0.558764
                        0.219893        0.894037      1.19842e-05     6.06463e-06        -0.329245      -0.0494842      0.000469001    -0.000342462
                     0.000139902     6.55966e-05         0.806306        0.558737      0.000413598    -0.000218008        0.0741569        0.151674
281732                 -0.297968        0.181423      0.000316482    -0.000352841         0.220058        0.894003      7.80107e-05     -4.6949e-05
                     0.000300216    -0.000366588        -0.172086      -0.0155946      -4.6489e-05     2.46723e-05         0.806575        0.558426
                        0.220552           0.894      1.26343e-05     5.82811e-06        -0.329064      -0.0490241      0.000469522    -0.000342001
                     0.000146711     5.96138e-05         0.806539        0.558398      0.000414121     -0.00021799        0.0742675        0.151629
281734                  -0.29771        0.181351      0.000316391    -0.000353599         0.220715        0.893961      7.85997e-05    -4.72518e-05
                      0.00030098    -0.000367101        -0.172096      -0.0155719     -4.58623e-05     2.43758e-05         0.806807        0.558087
                        0.221211        0.893964      1.32827e-05     5.58836e-06        -0.328882      -0.0485649      0.000470045    -0.000341538
                     0.000144721     4.86013e-05         0.806772        0.558059      0.000414654    -0.000217966        0.0743781        0.151584
281736                 -0.297453         0.18128      0.000316297    -0.000354356         0.221371        0.893918      7.91845e-05    -4.75605e-05
                     0.000301565     -0.00036745        -0.172105      -0.0155493     -4.52292e-05     2.40817e-05          0.80704        0.557748
                        0.221868        0.893928      1.39296e-05     5.34549e-06          -0.3287      -0.0481064      0.000470568    -0.000341075
                     0.000137216     4.59996e-05         0.807004        0.557719      0.000415198    -0.000217936        0.0744887        0.151539
281738                 -0.297196        0.181208      0.000316201    -0.000355113         0.222027        0.893875      7.97643e-05    -4.78758e-05
                     0.000301991    -0.000367723        -0.172115      -0.0155266     -4.45889e-05     2.37896e-05         0.807272         0.55741
                        0.222525        0.893892      1.45749e-05     5.09957e-06        -0.328518      -0.0476487      0.000471093    -0.000340611
                     0.000133442     4.76313e-05         0.807237         0.55738      0.000415755    -0.000217901        0.0745992        0.151494
281740                  -0.29694        0.181136      0.000316102    -0.000355868         0.222683        0.893831      8.03368e-05    -4.81991e-05
                     0.000302296     -0.00036797        -0.172125       -0.015504       -4.394e-05      2.3499e-05         0.807504        0.557071
                        0.223181        0.893856      1.52189e-05      4.8506e-06        -0.328335      -0.0471917      0.000471621    -0.000340145
                     0.000132125     4.92964e-05         0.807469         0.55704      0.000416328     -0.00021786        0.0747097        0.151449
281742                 -0.296684        0.181064      0.000316001    -0.000356624         0.223338        0.893786      8.08976e-05    -4.85316e-05
                     0.000302515    -0.000368207        -0.172135      -0.0154813     -4.32809e-05     2.32097e-05         0.807736        0.556732
                        0.223836         0.89382      1.58617e-05     4.59851e-06        -0.328152      -0.0467355       0.00047215    -0.000339677
                     0.000131824     5.04612e-05         0.807701          0.5567      0.000416921    -0.000217813        0.0748202        0.151404
281744                 -0.296428        0.180992      0.000315896    -0.000357379         0.223993         0.89374       8.1438e-05    -4.88729e-05
                     0.000302677    -0.000368438        -0.172144      -0.0154586     -4.26091e-05     2.29211e-05         0.807968        0.556393
                        0.224489        0.893785      1.65037e-05     4.34307e-06        -0.327969        -0.04628      0.000472684    -0.000339206
                     0.000131962      5.1229e-05         0.807933        0.556361      0.000417539     -0.00021776        0.0749306        0.151358
281746                 -0.296174         0.18092      0.000315789    -0.000358134         0.224648        0.893694      8.19428e-05     -4.9215e-05
                     0.000302805    -0.000368652        -0.172154      -0.0154359     -4.19207e-05     2.26331e-05         0.808199        0.556054
                        0.225141         0.89375      1.71457e-05     4.08384e-06        -0.327786      -0.0458253      0.000473223     -0.00033873
                     0.000132312     5.17264e-05         0.808165        0.556021       0.00041819      -0.0002177         0.075041        0.151313
281748                 -0.295919        0.180849      0.000315678     -0.00035889         0.225302        0.893647      8.23979e-05    -4.95266e-05
                     0.000302921    -0.000368826        -0.172164      -0.0154132     -4.12098e-05     2.23462e-05         0.808431        0.555715
                        0.225792        0.893716      1.77891e-05     3.82005e-06        -0.327602      -0.0453713      0.000473774    -0.000338249
                     0.000132779     5.20415e-05         0.808397        0.555681      0.000418887     -0.00021763        0.0751514        0.151268
281750                 -0.295666        0.180777      0.000315563    -0.000359647         0.225956          0.8936      8.28326e-05    -4.97515e-05
                     0.000303049    -0.000368922        -0.172174      -0.0153905     -4.04665e-05     2.20626e-05         0.808662        0.555375
                        0.226441        0.893684      1.84376e-05     3.55057e-06        -0.327418      -0.0449181      0.000474345    -0.000337761
                     0.000133328     5.22333e-05         0.808629        0.555341      0.000419648    -0.000217543        0.0752617        0.151222
281752                 -0.295413        0.180705      0.000315444    -0.000360405          0.22661        0.893551      8.33416e-05    -4.98949e-05
                     0.000303227    -0.000368858        -0.172183      -0.0153678     -3.96739e-05     2.17897e-05         0.808894        0.555036
                        0.227087        0.893656      1.91001e-05     3.27534e-06        -0.327234      -0.0444655      0.000474962    -0.000337274
                      0.00013395     5.23443e-05          0.80886        0.555001      0.000420506    -0.000217423         0.075372        0.151177
281754                  -0.29516        0.180633       0.00031532    -0.000361167         0.227264        0.893503      8.39501e-05    -5.00557e-05
                     0.000303537    -0.000368441        -0.172193       -0.015345     -3.88025e-05     2.15511e-05         0.809125        0.554697
                         0.22773        0.893638      1.97987e-05     3.00761e-06         -0.32705      -0.0440136      0.000475662    -0.000336852
                     0.000134675     5.24145e-05         0.809092        0.554661      0.000421514    -0.000217221        0.0754825        0.151131
281756                 -0.294909        0.180561      0.000315191    -0.000361934         0.227918        0.893454      8.45935e-05    -5.02782e-05
                     0.000304243    -0.000367068        -0.172203      -0.0153222     -3.78116e-05     2.14233e-05         0.809356        0.554357
                        0.228366        0.893646       2.0533e-05      2.8279e-06        -0.326865      -0.0435622       0.00047632     -0.00033664
                     0.000135618     5.25091e-05         0.809323         0.55432      0.000422746    -0.000216797        0.0755929        0.151085
281758                  -0.29466        0.180492      0.000315056    -0.000362712         0.228572        0.893405      8.52299e-05    -5.05429e-05
                     0.000307059    -0.000361267        -0.172213      -0.0152995     -3.67369e-05     2.16291e-05         0.809587        0.554017
                           0.229        0.893779      2.11198e-05     2.72615e-06        -0.326681      -0.0431114      0.000476704    -0.000336408
                     0.000137402     5.29024e-05         0.809554         0.55398      0.000424168    -0.000215747        0.0757032        0.151039
281760                 -0.294401        0.180436      0.000314921     -0.00036351         0.229225        0.893357      8.58513e-05    -5.08273e-05
                     0.000297969    -0.000426704        -0.172222      -0.0152767     -3.61315e-05     2.23642e-05         0.809817        0.553677
                        0.230724        0.893255      2.16431e-05     2.49348e-06        -0.326497      -0.0426611      0.000477076    -0.000335982
                     6.67731e-05     8.10229e-05         0.809785        0.553639      0.000424843    -0.000213517        0.0758134        0.150993
281762                 -0.294142        0.180347       0.00031481    -0.000364339         0.229876        0.893309      8.64601e-05    -5.11193e-05
                     0.000299492    -0.000382154        -0.172232       -0.015254     -3.64288e-05      2.2604e-05         0.810048        0.553338
                        0.230517        0.893177      2.22168e-05     2.21584e-06        -0.326313      -0.0422125      0.000477525    -0.000335507
