! TOUCHSTONE file generated by CST MICROWAVE STUDIO
! Date and time: Tue Oct 14 07:31:31 2025
! Project name: Teste_Macro_Metasurface_Nanopilar.cst
! Parameters = {H=600; L_x=175; L_y=130; Lambda=1064; Max_L=200; Min_L=70; PathPara=1; Phi=0; Step_L=10; Theta=0; p=520; phaseX=180; phaseY=0}
! Header version: 2018
! Port assignment regex: !\s*Touchstone port\s*([0-9]+)\s*=\s*(CST MWS port|CST DS port)\s*([0-9]+|Zmin|Zmax)\s*\(\"(.*)\"\)(\s*mode\s*([0-9]+))?.*
! Touchstone port assignment:
! Touchstone port 1 = CST MWS port Zmax ("") mode 1
! Touchstone port 2 = CST MWS port Zmax ("") mode 2
! Touchstone port 3 = CST MWS port Zmin ("") mode 1
! Touchstone port 4 = CST MWS port Zmin ("") mode 2
! S-Parameters are not renormalized. Each port impedance will be approximated by the real part at minimum frequency. The values are described via the [Reference] keyword.
! Default impedance is overridden by [Reference]
[Version] 2.0
# GHz S RI R 376.73
[Number of Ports] 4
[Reference]
376.73 376.73 259.814 259.814 
[Number of Frequencies] 51
[Network Data]
281700                 -0.115646       -0.176912     -0.000177448    -0.000632158         0.373216        0.898577     -5.98444e-05     0.000192932
                    -0.000342612    -0.000722551        -0.169339        0.078528     -0.000184032    -0.000204929         0.631604        0.745381
                        0.372325        0.897885     -0.000227089    -5.22416e-05        0.0450206        0.204685      0.000524283     0.000315093
                    -0.000107279     0.000347665         0.631887        0.744819      0.000586893     0.000404972        -0.104138        0.147091
281702                 -0.115707       -0.176913      -0.00017762    -0.000632245         0.373619        0.898401      -5.9584e-05     0.000192807
                    -0.000342435    -0.000722604        -0.169307       0.0785265     -0.000183854    -0.000205568         0.631944        0.745102
                        0.372726         0.89771     -0.000227041    -5.20948e-05        0.0451655        0.204688      0.000524537     0.000314901
                    -0.000107115     0.000347691         0.632226         0.74454      0.000586651      0.00040438        -0.103997        0.147156
281704                 -0.115767       -0.176915     -0.000177791    -0.000632333         0.374023        0.898225     -5.93238e-05     0.000192682
                    -0.000342254    -0.000722658        -0.169275        0.078525     -0.000183672    -0.000206207         0.632284        0.744822
                        0.373128        0.897535     -0.000226994    -5.19487e-05        0.0453104        0.204691      0.000524792     0.000314709
                    -0.000106949     0.000347714         0.632565         0.74426      0.000586407     0.000403783        -0.103855         0.14722
281706                 -0.115828       -0.176917     -0.000177963     -0.00063242         0.374426        0.898048     -5.90637e-05     0.000192556
                    -0.000342069    -0.000722715        -0.169242       0.0785235     -0.000183485    -0.000206846         0.632624        0.744543
                        0.373529         0.89736     -0.000226946    -5.18031e-05        0.0454554        0.204694      0.000525046     0.000314516
                    -0.000106781     0.000347733         0.632904         0.74398       0.00058616     0.000403181        -0.103714        0.147285
281708                 -0.115889       -0.176919     -0.000178135    -0.000632508         0.374829        0.897871     -5.88038e-05      0.00019243
                    -0.000341879    -0.000722774         -0.16921       0.0785221     -0.000183293    -0.000207485         0.632963        0.744263
                         0.37393        0.897185     -0.000226898    -5.16581e-05        0.0456004        0.204696      0.000525301     0.000314323
                     -0.00010661     0.000347748         0.633242          0.7437      0.000585909     0.000402574        -0.103572        0.147349
281710                 -0.115949       -0.176921     -0.000178306    -0.000632595         0.375233        0.897694      -5.8544e-05     0.000192303
                    -0.000341685    -0.000722834        -0.169178       0.0785206     -0.000183097    -0.000208124         0.633302        0.743983
                        0.374331         0.89701     -0.000226849    -5.15139e-05        0.0457455        0.204699      0.000525556      0.00031413
                    -0.000106438      0.00034776         0.633581         0.74342      0.000585656     0.000401962        -0.103431        0.147414
281712                  -0.11601       -0.176923     -0.000178478    -0.000632682         0.375636        0.897517     -5.82843e-05     0.000192176
                    -0.000341487    -0.000722896        -0.169146        0.078519     -0.000182895    -0.000208762         0.633642        0.743703
                        0.374733        0.896834     -0.000226801    -5.13703e-05        0.0458906        0.204701      0.000525811     0.000313937
                    -0.000106263     0.000347769         0.633919        0.743139        0.0005854     0.000401345        -0.103289        0.147478
281714                 -0.116071       -0.176925      -0.00017865     -0.00063277         0.376039         0.89734     -5.80249e-05     0.000192048
                    -0.000341285     -0.00072296        -0.169114       0.0785176     -0.000182689    -0.000209401         0.633981        0.743423
                        0.375134        0.896658     -0.000226752    -5.12275e-05        0.0460357        0.204703      0.000526066     0.000313743
                    -0.000106087     0.000347774         0.634257        0.742859      0.000585141     0.000400723        -0.103148        0.147542
281716                 -0.116131       -0.176927     -0.000178822    -0.000632857         0.376442        0.897162     -5.77656e-05      0.00019192
                    -0.000341078    -0.000723026        -0.169082       0.0785161     -0.000182478    -0.000210038          0.63432        0.743143
                        0.375535        0.896482     -0.000226702    -5.10856e-05        0.0461809        0.204706      0.000526321     0.000313548
                    -0.000105908     0.000347775         0.634594        0.742578      0.000584879     0.000400097        -0.103006        0.147606
281718                 -0.116192       -0.176929     -0.000178993    -0.000632944         0.376845        0.896984     -5.75064e-05     0.000191792
                    -0.000340867    -0.000723093         -0.16905       0.0785147     -0.000182263    -0.000210676         0.634658        0.742862
                        0.375936        0.896306     -0.000226653    -5.09445e-05        0.0463261        0.204708      0.000526576     0.000313353
                    -0.000105728     0.000347773         0.634932        0.742298      0.000584613     0.000399465        -0.102864        0.147669
281720                 -0.116253        -0.17693     -0.000179165    -0.000633031         0.377248        0.896806     -5.72474e-05     0.000191663
                    -0.000340652    -0.000723161        -0.169017       0.0785132     -0.000182042    -0.000211313         0.634997        0.742582
                        0.376336         0.89613     -0.000226603    -5.08043e-05        0.0464713         0.20471      0.000526831     0.000313158
                    -0.000105545     0.000347768          0.63527        0.742017      0.000584345     0.000398828        -0.102723        0.147733
281722                 -0.116314       -0.176932     -0.000179336    -0.000633118         0.377651        0.896628     -5.69886e-05     0.000191534
                    -0.000340433    -0.000723232        -0.168985       0.0785118     -0.000181815    -0.000211949         0.635335        0.742301
                        0.376737        0.895953     -0.000226554    -5.06649e-05        0.0466166        0.204712      0.000527087     0.000312963
                    -0.000105361      0.00034776         0.635608        0.741735      0.000584074     0.000398187        -0.102581        0.147796
281724                 -0.116374       -0.176934     -0.000179507    -0.000633205         0.378053         0.89645       -5.673e-05     0.000191404
                     -0.00034021    -0.000723303        -0.168953       0.0785103     -0.000181584    -0.000212585         0.635674         0.74202
                        0.377138        0.895777     -0.000226504    -5.05264e-05        0.0467619        0.204714      0.000527342     0.000312767
                    -0.000105175     0.000347748         0.635945        0.741454        0.0005838      0.00039754        -0.102439         0.14786
281726                 -0.116435       -0.176936     -0.000179678    -0.000633291         0.378456        0.896271     -5.64715e-05     0.000191274
                    -0.000339982    -0.000723376        -0.168922       0.0785089     -0.000181347     -0.00021322         0.636012        0.741739
                        0.377538          0.8956     -0.000226454    -5.03887e-05        0.0469073        0.204715      0.000527598     0.000312571
                    -0.000104987     0.000347732         0.636282        0.741173      0.000583523     0.000396888        -0.102298        0.147923
281728                 -0.116496       -0.176938     -0.000179849    -0.000633378         0.378859        0.896092     -5.62132e-05     0.000191143
                    -0.000339751    -0.000723451         -0.16889       0.0785074     -0.000181105    -0.000213855          0.63635        0.741458
                        0.377939        0.895423     -0.000226405    -5.02516e-05        0.0470526        0.204717      0.000527854     0.000312375
                    -0.000104797     0.000347714         0.636619        0.740891      0.000583243     0.000396231        -0.102156        0.147986
281730                 -0.116557        -0.17694      -0.00018002    -0.000633464         0.379261        0.895913      -5.5955e-05     0.000191012
                    -0.000339516    -0.000723527        -0.168858        0.078506     -0.000180858    -0.000214489         0.636688        0.741177
                        0.378339        0.895245     -0.000226355    -5.01151e-05        0.0471981        0.204719      0.000528109     0.000312178
                    -0.000104605     0.000347692         0.636956         0.74061       0.00058296     0.000395569        -0.102014         0.14805
281732                 -0.116617       -0.176941     -0.000180191     -0.00063355         0.379664        0.895734     -5.56971e-05     0.000190881
                    -0.000339276    -0.000723604        -0.168826       0.0785045     -0.000180605    -0.000215122         0.637026        0.740895
                         0.37874        0.895068     -0.000226306    -4.99793e-05        0.0473435         0.20472      0.000528365      0.00031198
                    -0.000104411     0.000347667         0.637293        0.740328      0.000582674     0.000394902        -0.101872        0.148112
281734                 -0.116678       -0.176943     -0.000180361    -0.000633636         0.380066        0.895555     -5.54393e-05     0.000190749
                    -0.000339033    -0.000723682        -0.168794       0.0785031     -0.000180346    -0.000215754         0.637363        0.740614
                         0.37914         0.89489     -0.000226256     -4.9844e-05         0.047489        0.204722      0.000528621     0.000311783
                    -0.000104216     0.000347638          0.63763        0.740046      0.000582385     0.000394229        -0.101731        0.148175
281736                 -0.116739       -0.176945     -0.000180531    -0.000633722         0.380469        0.895375     -5.51817e-05     0.000190616
                    -0.000338786    -0.000723762        -0.168762       0.0785016     -0.000180082    -0.000216386         0.637701        0.740332
                         0.37954        0.894713     -0.000226206    -4.97093e-05        0.0476345        0.204723      0.000528877     0.000311585
                    -0.000104019     0.000347607         0.637966        0.739764      0.000582093     0.000393552        -0.101589        0.148238
281738                   -0.1168       -0.176947     -0.000180701    -0.000633807         0.380871        0.895195     -5.49242e-05     0.000190483
                    -0.000338535    -0.000723843         -0.16873       0.0785002     -0.000179811    -0.000217016         0.638038         0.74005
                         0.37994        0.894535     -0.000226157    -4.95752e-05        0.0477801        0.204724      0.000529133     0.000311386
                     -0.00010382     0.000347572         0.638303        0.739481      0.000581798     0.000392869        -0.101447        0.148301
281740                 -0.116861       -0.176949      -0.00018087    -0.000633893         0.381273        0.895015      -5.4667e-05      0.00019035
                    -0.000338281    -0.000723925        -0.168699       0.0784988     -0.000179535    -0.000217645         0.638375        0.739768
                         0.38034        0.894357     -0.000226107    -4.94417e-05        0.0479257        0.204725       0.00052939     0.000311188
                    -0.000103619     0.000347534         0.638639        0.739199        0.0005815     0.000392182        -0.101305        0.148363
281742                 -0.116922        -0.17695      -0.00018104    -0.000633978         0.381676        0.894835     -5.44099e-05     0.000190216
                    -0.000338022    -0.000724008        -0.168667       0.0784974     -0.000179253    -0.000218273         0.638712        0.739486
                         0.38074        0.894178     -0.000226056    -4.93088e-05        0.0480713        0.204726      0.000529646     0.000310989
                    -0.000103417     0.000347493         0.638975        0.738916      0.000581199     0.000391488        -0.101164        0.148426
281744                 -0.116983       -0.176952     -0.000181209    -0.000634063         0.382078        0.894654      -5.4153e-05     0.000190082
                     -0.00033776    -0.000724092        -0.168635       0.0784959     -0.000178965    -0.000218901         0.639049        0.739204
                         0.38114           0.894     -0.000226006    -4.91765e-05         0.048217        0.204727      0.000529902     0.000310789
                    -0.000103214     0.000347449         0.639311        0.738634      0.000580895      0.00039079        -0.101022        0.148488
281746                 -0.117044       -0.176954     -0.000181378    -0.000634148          0.38248        0.894474     -5.38963e-05     0.000189947
                    -0.000337494    -0.000724177        -0.168603       0.0784945     -0.000178671    -0.000219527         0.639386        0.738921
                         0.38154        0.893821     -0.000225955    -4.90449e-05        0.0483627        0.204728      0.000530159     0.000310589
                    -0.000103008     0.000347401         0.639647        0.738351      0.000580588     0.000390087         -0.10088         0.14855
281748                 -0.117105       -0.176956     -0.000181546    -0.000634233         0.382882        0.894293     -5.36397e-05     0.000189812
                    -0.000337224    -0.000724263        -0.168572       0.0784931     -0.000178371    -0.000220151         0.639722        0.738638
                         0.38194        0.893642     -0.000225904     -4.8914e-05        0.0485084        0.204729      0.000530415     0.000310389
                    -0.000102801     0.000347351         0.639982        0.738068      0.000580279     0.000389378        -0.100738        0.148612
281750                 -0.117165       -0.176958     -0.000181715    -0.000634317         0.383284        0.894112     -5.33834e-05     0.000189677
                    -0.000336951     -0.00072435         -0.16854       0.0784917     -0.000178064    -0.000220775         0.640059        0.738356
                         0.38234        0.893463     -0.000225853    -4.87838e-05        0.0486542         0.20473      0.000530672     0.000310189
                    -0.000102593     0.000347298         0.640318        0.737785      0.000579966     0.000388664        -0.100596        0.148674
281752                 -0.117226       -0.176959     -0.000181883    -0.000634402         0.383686        0.893931     -5.31272e-05     0.000189541
                    -0.000336674    -0.000724438        -0.168508       0.0784903     -0.000177751    -0.000221397         0.640395        0.738073
                        0.382739        0.893284     -0.000225802    -4.86542e-05           0.0488         0.20473      0.000530929     0.000309988
                    -0.000102383     0.000347241         0.640653        0.737501       0.00057965     0.000387944        -0.100454        0.148736
281754                 -0.117287       -0.176961     -0.000182051    -0.000634486         0.384087        0.893749     -5.28713e-05     0.000189404
                    -0.000336393    -0.000724527        -0.168477       0.0784889     -0.000177431    -0.000222018         0.640731         0.73779
                        0.383139        0.893105      -0.00022575    -4.85254e-05        0.0489458        0.204731      0.000531185     0.000309786
                    -0.000102172     0.000347181         0.640988        0.737218      0.000579332      0.00038722        -0.100312        0.148798
281756                 -0.117348       -0.176963     -0.000182219     -0.00063457         0.384489        0.893568     -5.26155e-05     0.000189268
                    -0.000336109    -0.000724617        -0.168445       0.0784875     -0.000177105    -0.000222637         0.641067        0.737507
                        0.383538        0.892925     -0.000225698    -4.83973e-05        0.0490917        0.204731      0.000531442     0.000309585
                    -0.000101959     0.000347119         0.641323        0.736935       0.00057901      0.00038649         -0.10017        0.148859
281758                 -0.117409       -0.176965     -0.000182387    -0.000634654         0.384891        0.893386     -5.23599e-05      0.00018913
                    -0.000335821    -0.000724707        -0.168414       0.0784861     -0.000176772    -0.000223255         0.641403        0.737223
                        0.383938        0.892746     -0.000225646    -4.82699e-05        0.0492376        0.204732      0.000531699     0.000309383
                    -0.000101745     0.000347053         0.641658        0.736651      0.000578685     0.000385754        -0.100028        0.148921
281760                  -0.11747       -0.176966     -0.000182555    -0.000634738         0.385293        0.893204     -5.21045e-05     0.000188992
                     -0.00033553    -0.000724799        -0.168382       0.0784847     -0.000176432    -0.000223871         0.641739         0.73694
                        0.384337        0.892566     -0.000225594    -4.81433e-05        0.0493836        0.204732      0.000531956      0.00030918
                    -0.000101529     0.000346985         0.641993        0.736367      0.000578358     0.000385013       -0.0998865        0.148982
281762                 -0.117532       -0.176968     -0.000182723    -0.000634822         0.385694        0.893022     -5.18494e-05     0.000188854
                    -0.000335236     -0.00072489        -0.168351       0.0784833     -0.000176086    -0.000224487         0.642074        0.736656
                        0.384736        0.892386     -0.000225541    -4.80173e-05        0.0495296        0.204732      0.000532213     0.000308977
