! TOUCHSTONE file generated by CST MICROWAVE STUDIO
! Date and time: Tue Oct 14 07:32:33 2025
! Project name: Teste_Macro_Metasurface_Nanopilar.cst
! Parameters = {H=600; L_x=190; L_y=175; Lambda=1064; Max_L=200; Min_L=70; PathPara=1; Phi=0; Step_L=10; Theta=0; p=520; phaseX=180; phaseY=0}
! Header version: 2018
! Port assignment regex: !\s*Touchstone port\s*([0-9]+)\s*=\s*(CST MWS port|CST DS port)\s*([0-9]+|Zmin|Zmax)\s*\(\"(.*)\"\)(\s*mode\s*([0-9]+))?.*
! Touchstone port assignment:
! Touchstone port 1 = CST MWS port Zmax ("") mode 1
! Touchstone port 2 = CST MWS port Zmax ("") mode 2
! Touchstone port 3 = CST MWS port Zmin ("") mode 1
! Touchstone port 4 = CST MWS port Zmin ("") mode 2
! S-Parameters are not renormalized. Each port impedance will be approximated by the real part at minimum frequency. The values are described via the [Reference] keyword.
! Default impedance is overridden by [Reference]
[Version] 2.0
# GHz S RI R 376.73
[Number of Ports] 4
[Reference]
376.73 376.73 259.814 259.814 
[Number of Frequencies] 51
[Network Data]
281700                 -0.306713       -0.176389     -0.000119754    -0.000218775         0.870452        0.329997     -0.000504935     0.000699162
                    -0.000133588    -0.000231035        -0.196011      -0.0725207      0.000110421     0.000775142         0.972142      0.00760828
                        0.870592        0.330187      0.000130457     0.000739446         0.344913       0.0721864      0.000108419     0.000269311
                    -0.000506503     0.000656911         0.972188      0.00750635      0.000148918     0.000369072         0.195732      -0.0653104
281702                 -0.306762       -0.176284     -0.000119951    -0.000218606         0.870597        0.329628      -0.00050468      0.00069956
                    -0.000133666    -0.000230707        -0.195996      -0.0724584      0.000110657     0.000774905         0.972151      0.00715909
                        0.870737        0.329817      0.000130814     0.000739687          0.34494       0.0720011      0.000108979     0.000269607
                    -0.000506186     0.000657394         0.972197      0.00705763      0.000149029     0.000368977         0.195654       -0.065425
281704                  -0.30681       -0.176178     -0.000120148    -0.000218437         0.870743        0.329259     -0.000504425     0.000699959
                    -0.000133743    -0.000230381         -0.19598      -0.0723961      0.000110896      0.00077467          0.97216      0.00670985
                        0.870882        0.329448      0.000131172     0.000739928         0.344968       0.0718158      0.000109539     0.000269902
                    -0.000505868     0.000657877         0.972206      0.00660887      0.000149142     0.000368881         0.195576      -0.0655394
281706                 -0.306859       -0.176073     -0.000120343    -0.000218267         0.870888         0.32889     -0.000504171     0.000700357
                    -0.000133819    -0.000230055        -0.195964      -0.0723338      0.000111137     0.000774438         0.972169      0.00626056
                        0.871027        0.329078      0.000131528     0.000740169         0.344996       0.0716304      0.000110098     0.000270195
                     -0.00050555      0.00065836         0.972214      0.00616005      0.000149256     0.000368784         0.195498      -0.0656538
281708                 -0.306907       -0.175968     -0.000120538    -0.000218098         0.871034         0.32852     -0.000503917     0.000700754
                    -0.000133894     -0.00022973        -0.195948      -0.0722715       0.00011138     0.000774209         0.972177      0.00581122
                        0.871171        0.328708      0.000131885     0.000740411         0.345023       0.0714451      0.000110656     0.000270487
                     -0.00050523     0.000658842         0.972223      0.00571119      0.000149373     0.000368687         0.195419      -0.0657681
281710                 -0.306956       -0.175862     -0.000120732    -0.000217927         0.871179        0.328151     -0.000503665     0.000701151
                    -0.000133968    -0.000229406        -0.195932      -0.0722093      0.000111625     0.000773981         0.972185      0.00536183
                        0.871316        0.328339      0.000132241     0.000740652         0.345051       0.0712598      0.000111213     0.000270777
                     -0.00050491     0.000659323         0.972231      0.00526228       0.00014949     0.000368589         0.195341      -0.0658824
281712                 -0.307004       -0.175757     -0.000120925    -0.000217757         0.871324        0.327782     -0.000503413     0.000701548
                    -0.000134041    -0.000229084        -0.195916       -0.072147      0.000111872     0.000773756         0.972193      0.00491239
                         0.87146        0.327969      0.000132597     0.000740894         0.345078       0.0710745      0.000111769     0.000271066
                    -0.000504589     0.000659804         0.972239      0.00481332       0.00014961      0.00036849         0.195262      -0.0659965
281714                 -0.307053       -0.175651     -0.000121117    -0.000217586         0.871468        0.327412     -0.000503162     0.000701945
                    -0.000134113    -0.000228762          -0.1959      -0.0720848      0.000112121     0.000773533         0.972201       0.0044629
                        0.871604        0.327599      0.000132953     0.000741136         0.345106       0.0708892      0.000112325     0.000271353
                    -0.000504267     0.000660285         0.972247      0.00436431      0.000149731      0.00036839         0.195184      -0.0661107
281716                 -0.307101       -0.175546     -0.000121309    -0.000217414         0.871613        0.327043     -0.000502913     0.000702341
                    -0.000134183    -0.000228442        -0.195883      -0.0720226      0.000112373     0.000773312         0.972209      0.00401336
                        0.871748        0.327229      0.000133309     0.000741378         0.345133       0.0707038       0.00011288     0.000271638
                    -0.000503944     0.000660764         0.972255      0.00391524      0.000149853      0.00036829         0.195105      -0.0662247
281718                 -0.307149        -0.17544       -0.0001215    -0.000217242         0.871757        0.326673     -0.000502664     0.000702737
                    -0.000134253    -0.000228123        -0.195867      -0.0719603      0.000112626     0.000773094         0.972216      0.00356377
                        0.871892        0.326859      0.000133664     0.000741621          0.34516       0.0705185      0.000113434     0.000271922
                     -0.00050362     0.000661243         0.972263      0.00346613      0.000149978      0.00036819         0.195026      -0.0663387
281720                 -0.307198       -0.175335      -0.00012169     -0.00021707         0.871901        0.326304     -0.000502415     0.000703133
                    -0.000134321    -0.000227805        -0.195851      -0.0718981      0.000112881     0.000772877         0.972223      0.00311413
                        0.872036        0.326489      0.000134019     0.000741864         0.345187       0.0703332      0.000113987     0.000272205
                    -0.000503295     0.000661722          0.97227      0.00301697      0.000150103     0.000368088         0.194947      -0.0664527
281722                 -0.307246        -0.17523     -0.000121879    -0.000216898         0.872045        0.325934     -0.000502168     0.000703528
                    -0.000134389    -0.000227488        -0.195834      -0.0718359      0.000113139     0.000772663          0.97223      0.00266444
                        0.872179        0.326119      0.000134373     0.000742107         0.345214       0.0701479       0.00011454     0.000272486
                    -0.000502969       0.0006622         0.972277      0.00256776       0.00015023     0.000367986         0.194868      -0.0665665
281724                 -0.307295       -0.175124     -0.000122068    -0.000216725         0.872189        0.325565     -0.000501922     0.000703923
                    -0.000134455    -0.000227172        -0.195818      -0.0717737      0.000113398     0.000772451         0.972237       0.0022147
                        0.872322        0.325749      0.000134728      0.00074235         0.345241       0.0699626      0.000115092     0.000272765
                    -0.000502642     0.000662677         0.972284       0.0021185      0.000150359     0.000367883         0.194789      -0.0666803
281726                 -0.307343       -0.175019     -0.000122255    -0.000216551         0.872333        0.325195     -0.000501676     0.000704318
                    -0.000134521    -0.000226857        -0.195801      -0.0717116       0.00011366     0.000772241         0.972243      0.00176491
                        0.872466        0.325379      0.000135082     0.000742594         0.345268       0.0697772      0.000115643     0.000273043
                    -0.000502314     0.000663153         0.972291      0.00166919      0.000150489     0.000367779         0.194709      -0.0667941
281728                 -0.307391       -0.174913     -0.000122442    -0.000216377         0.872477        0.324825     -0.000501431     0.000704713
                    -0.000134585    -0.000226544        -0.195785      -0.0716494      0.000113923     0.000772033          0.97225      0.00131507
                        0.872609        0.325009      0.000135436     0.000742838         0.345295       0.0695919      0.000116193     0.000273319
                    -0.000501986     0.000663629         0.972297      0.00121983      0.000150621     0.000367675          0.19463      -0.0669077
281730                 -0.307439       -0.174808     -0.000122629    -0.000216203          0.87262        0.324455     -0.000501188     0.000705108
                    -0.000134649    -0.000226231        -0.195768      -0.0715872      0.000114188     0.000771827         0.972256     0.000865176
                        0.872751        0.324639       0.00013579     0.000743083         0.345322       0.0694066      0.000116743     0.000273594
                    -0.000501656     0.000664105         0.972303     0.000770423      0.000150754      0.00036757          0.19455      -0.0670213
281732                 -0.307487       -0.174703     -0.000122814    -0.000216028         0.872763        0.324086     -0.000500945     0.000705502
                    -0.000134711     -0.00022592        -0.195751      -0.0715251      0.000114456     0.000771623         0.972262     0.000415235
                        0.872894        0.324269      0.000136144     0.000743328         0.345348       0.0692213      0.000117291     0.000273867
                    -0.000501326     0.000664579         0.972309     0.000320962      0.000150888     0.000367464          0.19447      -0.0671349
281734                 -0.307536       -0.174597     -0.000122999    -0.000215853         0.872906        0.323716     -0.000500703     0.000705896
                    -0.000134773     -0.00022561        -0.195735       -0.071463      0.000114725     0.000771421         0.972268    -3.47548e-05
                        0.873036        0.323899      0.000136498     0.000743573         0.345375        0.069036       0.00011784     0.000274138
                    -0.000500995     0.000665053         0.972315    -0.000128549      0.000151024     0.000367357          0.19439      -0.0672483
281736                 -0.307584       -0.174492     -0.000123183    -0.000215677         0.873049        0.323346     -0.000500462      0.00070629
                    -0.000134833    -0.000225301        -0.195718      -0.0714008      0.000114997     0.000771221         0.972273    -0.000484795
                        0.873179        0.323528      0.000136851     0.000743819         0.345401       0.0688507      0.000118387     0.000274408
                    -0.000500663     0.000665526         0.972321     -0.00057811      0.000151161      0.00036725         0.194311      -0.0673617
281738                 -0.307632       -0.174387     -0.000123366      -0.0002155         0.873191        0.322976     -0.000500222     0.000706684
                    -0.000134893    -0.000224993        -0.195701      -0.0713387       0.00011527     0.000771023         0.972279    -0.000934885
                        0.873321        0.323158      0.000137204     0.000744065         0.345427       0.0686654      0.000118934     0.000274677
                     -0.00050033     0.000665998         0.972327     -0.00102772        0.0001513     0.000367142          0.19423      -0.0674751
281740                  -0.30768       -0.174281     -0.000123549    -0.000215323         0.873334        0.322606     -0.000499982     0.000707078
                    -0.000134952    -0.000224687        -0.195684      -0.0712766      0.000115546     0.000770827         0.972284     -0.00138502
                        0.873462        0.322788      0.000137558     0.000744312         0.345454         0.06848       0.00011948     0.000274943
                    -0.000499996      0.00066647         0.972332     -0.00147738      0.000151439     0.000367033          0.19415      -0.0675884
281742                 -0.307728       -0.174176     -0.000123731    -0.000215145         0.873476        0.322236     -0.000499744     0.000707471
                     -0.00013501    -0.000224381        -0.195667      -0.0712145      0.000115823     0.000770633         0.972289     -0.00183521
                        0.873604        0.322417      0.000137911     0.000744559          0.34548       0.0682947      0.000120025     0.000275208
                    -0.000499662     0.000666941         0.972337      -0.0019271      0.000151581     0.000366923          0.19407      -0.0677016
281744                 -0.307776       -0.174071     -0.000123913    -0.000214966         0.873618        0.321866     -0.000499507     0.000707865
                    -0.000135067    -0.000224077         -0.19565      -0.0711524      0.000116103      0.00077044         0.972293     -0.00228545
                        0.873746        0.322047      0.000138264     0.000744807         0.345506       0.0681094       0.00012057     0.000275472
                    -0.000499327     0.000667411         0.972342     -0.00237686      0.000151723     0.000366813          0.19399      -0.0678147
281746                 -0.307824       -0.173965     -0.000124094    -0.000214786          0.87376        0.321496      -0.00049927     0.000708258
                    -0.000135123    -0.000223774        -0.195632      -0.0710904      0.000116384     0.000770249         0.972298     -0.00273574
                        0.873887        0.321676      0.000138616     0.000745055         0.345532       0.0679241      0.000121113     0.000275734
                     -0.00049899     0.000667881         0.972346     -0.00282667      0.000151867     0.000366701         0.193909      -0.0679278
281748                 -0.307872        -0.17386     -0.000124275    -0.000214605         0.873902        0.321125     -0.000499035     0.000708652
                    -0.000135178    -0.000223472        -0.195615      -0.0710283      0.000116667      0.00077006         0.972302     -0.00318608
                        0.874028        0.321305      0.000138969     0.000745304         0.345558       0.0677388      0.000121657     0.000275994
                    -0.000498653     0.000668349         0.972351     -0.00327654      0.000152011     0.000366589         0.193828      -0.0680408
281750                  -0.30792       -0.173755     -0.000124454    -0.000214423         0.874044        0.320755       -0.0004988     0.000709045
                    -0.000135233    -0.000223172        -0.195598      -0.0709663      0.000116952     0.000769873         0.972306     -0.00363647
                        0.874169        0.320935      0.000139322     0.000745553         0.345584       0.0675535      0.000122199     0.000276253
                    -0.000498315     0.000668817         0.972355     -0.00372645      0.000152158     0.000366476         0.193748      -0.0681537
281752                 -0.307968       -0.173649     -0.000124634     -0.00021424         0.874185        0.320385     -0.000498566     0.000709438
                    -0.000135286    -0.000222872        -0.195581      -0.0709042       0.00011724     0.000769687          0.97231     -0.00408691
                         0.87431        0.320564      0.000139675     0.000745803          0.34561       0.0673682      0.000122741      0.00027651
                    -0.000497977     0.000669284         0.972359     -0.00417642      0.000152305     0.000366363         0.193667      -0.0682666
281754                 -0.308016       -0.173544     -0.000124813    -0.000214056         0.874326        0.320015     -0.000498334     0.000709831
                    -0.000135339    -0.000222574        -0.195563      -0.0708422      0.000117529     0.000769504         0.972314      -0.0045374
                        0.874451        0.320193      0.000140028     0.000746054         0.345635       0.0671829      0.000123282     0.000276766
                    -0.000497637     0.000669751         0.972363     -0.00462644      0.000152453     0.000366248         0.193586      -0.0683794
281756                 -0.308064       -0.173439     -0.000124991     -0.00021387         0.874467        0.319644     -0.000498102     0.000710225
                    -0.000135391    -0.000222277        -0.195546      -0.0707802       0.00011782     0.000769321         0.972318     -0.00498794
                        0.874592        0.319823      0.000140381     0.000746305         0.345661       0.0669976      0.000123823      0.00027702
                    -0.000497297     0.000670216         0.972367     -0.00507651      0.000152603     0.000366133         0.193504      -0.0684921
281758                 -0.308112       -0.173333     -0.000125168    -0.000213683         0.874608        0.319274     -0.000497871     0.000710618
                    -0.000135442    -0.000221981        -0.195528      -0.0707182      0.000118112     0.000769141         0.972321     -0.00543852
                        0.874732        0.319452      0.000140734     0.000746557         0.345687       0.0668123      0.000124362     0.000277272
                    -0.000496956     0.000670681          0.97237     -0.00552663      0.000152754     0.000366017         0.193423      -0.0686048
281760                  -0.30816       -0.173228     -0.000125345    -0.000213494         0.874749        0.318903     -0.000497641     0.000711011
                    -0.000135493    -0.000221687         -0.19551      -0.0706562      0.000118407     0.000768962         0.972324     -0.00588916
                        0.874872        0.319081      0.000141087     0.000746809         0.345712        0.066627      0.000124901     0.000277523
                    -0.000496614     0.000671145         0.972373      -0.0059768      0.000152905       0.0003659         0.193342      -0.0687174
281762                 -0.308207       -0.173123     -0.000125522    -0.000213303          0.87489        0.318533     -0.000497412     0.000711405
                    -0.000135542    -0.000221393        -0.195493      -0.0705942      0.000118704     0.000768784         0.972327     -0.00633985
                        0.875012         0.31871       0.00014144     0.000747062         0.345737       0.0664417      0.000125439     0.000277772
