! TOUCHSTONE file generated by CST MICROWAVE STUDIO
! Date and time: Tue Oct 14 07:26:41 2025
! Project name: Teste_Macro_Metasurface_Nanopilar.cst
! Parameters = {H=600; L_x=100; L_y=85; Lambda=1064; Max_L=200; Min_L=70; PathPara=1; Phi=0; Step_L=10; Theta=0; p=520; phaseX=180; phaseY=0}
! Header version: 2018
! Port assignment regex: !\s*Touchstone port\s*([0-9]+)\s*=\s*(CST MWS port|CST DS port)\s*([0-9]+|Zmin|Zmax)\s*\(\"(.*)\"\)(\s*mode\s*([0-9]+))?.*
! Touchstone port assignment:
! Touchstone port 1 = CST MWS port Zmax ("") mode 1
! Touchstone port 2 = CST MWS port Zmax ("") mode 2
! Touchstone port 3 = CST MWS port Zmin ("") mode 1
! Touchstone port 4 = CST MWS port Zmin ("") mode 2
! S-Parameters are not renormalized. Each port impedance will be approximated by the real part at minimum frequency. The values are described via the [Reference] keyword.
! Default impedance is overridden by [Reference]
[Version] 2.0
# GHz S RI R 376.73
[Number of Ports] 4
[Reference]
376.73 376.73 259.814 259.814 
[Number of Frequencies] 51
[Network Data]
281700                 -0.014709       0.0959948      0.000479491     0.000124827         0.989785      -0.0967515      0.000138096     0.000240104
                     0.000471951     0.000108589      0.000492725       0.0504176      0.000163727     0.000376166         0.938367       -0.338829
                        0.989769      -0.0968497      0.000274994     0.000440285        0.0328355       0.0915141     -0.000380236     0.000315384
                     3.77262e-06     0.000415751         0.938045        -0.33842     -0.000473092     0.000222848         0.031584       0.0394833
281702                -0.0146733       0.0959956      0.000479716     0.000124552          0.98975      -0.0971167      0.000138063     0.000239819
                     0.000472001     0.000108394      0.000514455       0.0504096      0.000163834      0.00037613         0.938238       -0.339187
                        0.989734      -0.0972149      0.000275213     0.000440324        0.0328681       0.0914975     -0.000380258     0.000315482
                     3.92017e-06     0.000415732         0.937916       -0.338778     -0.000473045     0.000223042        0.0315922       0.0394669
281704                -0.0146377       0.0959964      0.000479941     0.000124276         0.989714      -0.0974819       0.00013803     0.000239534
                     0.000472051     0.000108199      0.000536179       0.0504016       0.00016394     0.000376093         0.938108       -0.339545
                        0.989698      -0.0975801      0.000275433     0.000440363        0.0329007       0.0914809     -0.000380279     0.000315579
                      4.0675e-06     0.000415712         0.937787       -0.339136     -0.000472999     0.000223236        0.0316005       0.0394505
281706                 -0.014602       0.0959971      0.000480166     0.000123999         0.989678      -0.0978471      0.000137997     0.000239249
                     0.000472102     0.000108003      0.000557899       0.0503936      0.000164046     0.000376056         0.937979       -0.339903
                        0.989662      -0.0979453      0.000275653     0.000440401        0.0329333       0.0914643       -0.0003803     0.000315677
                     4.21463e-06     0.000415693         0.937658       -0.339494     -0.000472952      0.00022343        0.0316087        0.039434
281708                -0.0145664       0.0959979       0.00048039     0.000123723         0.989643      -0.0982123      0.000137963     0.000238965
                     0.000472153     0.000107806      0.000579614       0.0503856      0.000164152      0.00037602          0.93785       -0.340261
                        0.989626      -0.0983104      0.000275873     0.000440439        0.0329659       0.0914476     -0.000380322     0.000315774
                     4.36154e-06     0.000415674         0.937528       -0.339853     -0.000472905     0.000223624        0.0316169       0.0394176
281710                -0.0145307       0.0959986      0.000480614     0.000123445         0.989607      -0.0985774      0.000137929     0.000238681
                     0.000472204      0.00010761      0.000601324       0.0503776      0.000164258     0.000375983          0.93772       -0.340619
                         0.98959      -0.0986756      0.000276093     0.000440477        0.0329985        0.091431     -0.000380343     0.000315872
                     4.50824e-06     0.000415655         0.937399       -0.340211     -0.000472859     0.000223818         0.031625       0.0394012
281712                 -0.014495       0.0959993      0.000480838     0.000123168         0.989571      -0.0989426      0.000137894     0.000238396
                     0.000472255     0.000107412      0.000623029       0.0503695      0.000164364     0.000375946          0.93759       -0.340977
                        0.989554      -0.0990408      0.000276314     0.000440514        0.0330311       0.0914143     -0.000380365     0.000315969
                     4.65471e-06     0.000415636         0.937269       -0.340569     -0.000472812     0.000224013        0.0316332       0.0393848
281714                -0.0144594           0.096      0.000481062      0.00012289         0.989535      -0.0993078      0.000137859     0.000238112
                     0.000472306     0.000107214      0.000644729       0.0503615       0.00016447     0.000375909          0.93746       -0.341335
                        0.989518      -0.0994059      0.000276535     0.000440551        0.0330636       0.0913977     -0.000380386     0.000316066
                     4.80096e-06     0.000415617         0.937139       -0.340927     -0.000472765     0.000224207        0.0316414       0.0393684
281716                -0.0144237       0.0960007      0.000481285     0.000122612         0.989498      -0.0996729      0.000137824     0.000237828
                     0.000472357     0.000107016      0.000666424       0.0503534      0.000164576     0.000375872          0.93733       -0.341693
                        0.989481       -0.099771      0.000276756     0.000440588        0.0330962        0.091381     -0.000380407     0.000316164
                     4.94698e-06     0.000415598          0.93701       -0.341285     -0.000472717     0.000224401        0.0316495       0.0393519
281718                -0.0143881       0.0960014      0.000481508     0.000122333         0.989462       -0.100038      0.000137788     0.000237544
                     0.000472409     0.000106817      0.000688114       0.0503453      0.000164682     0.000375835           0.9372        -0.34205
                        0.989445       -0.100136      0.000276977     0.000440624        0.0331287       0.0913643     -0.000380429     0.000316261
                     5.09276e-06      0.00041558          0.93688       -0.341642      -0.00047267     0.000224595        0.0316577       0.0393355
281720                -0.0143524        0.096002      0.000481731     0.000122054         0.989425       -0.100403      0.000137752     0.000237261
                     0.000472461     0.000106618        0.0007098       0.0503373      0.000164788     0.000375798          0.93707       -0.342408
                        0.989408       -0.100501      0.000277199      0.00044066        0.0331613       0.0913476      -0.00038045     0.000316359
                     5.23831e-06     0.000415561         0.936749          -0.342     -0.000472623     0.000224788        0.0316658       0.0393191
281722                -0.0143167       0.0960027      0.000481954     0.000121775         0.989389       -0.100768      0.000137715     0.000236977
                     0.000472513     0.000106418       0.00073148       0.0503292      0.000164894      0.00037576         0.936939       -0.342766
                        0.989371       -0.100866       0.00027742     0.000440695        0.0331938       0.0913309     -0.000380472     0.000316456
                     5.38361e-06     0.000415543         0.936619       -0.342358     -0.000472575     0.000224982         0.031674       0.0393027
281724                -0.0142811       0.0960033      0.000482177     0.000121495         0.989352       -0.101133      0.000137679     0.000236693
                     0.000472566     0.000106218      0.000753156       0.0503211         0.000165     0.000375723         0.936808       -0.343123
                        0.989334       -0.101231      0.000277642     0.000440731        0.0332264       0.0913142     -0.000380493     0.000316554
                     5.52867e-06     0.000415525         0.936489       -0.342716     -0.000472528     0.000225176        0.0316821       0.0392863
281726                -0.0142454       0.0960039      0.000482399     0.000121215         0.989315       -0.101498      0.000137641      0.00023641
                     0.000472618     0.000106017      0.000774827        0.050313      0.000165106     0.000375685         0.936678       -0.343481
                        0.989297       -0.101596      0.000277863     0.000440765        0.0332589       0.0912974     -0.000380514     0.000316651
                     5.67347e-06     0.000415508         0.936358       -0.343073      -0.00047248      0.00022537        0.0316902       0.0392698
281728                -0.0142098       0.0960045      0.000482621     0.000120935         0.989278       -0.101863      0.000137604     0.000236127
                     0.000472671     0.000105816      0.000796493       0.0503049      0.000165212     0.000375648         0.936547       -0.343838
                         0.98926       -0.101962      0.000278085       0.0004408        0.0332914       0.0912807     -0.000380536     0.000316748
                     5.81802e-06      0.00041549         0.936227       -0.343431     -0.000472432     0.000225564        0.0316983       0.0392534
281730                -0.0141741       0.0960051      0.000482843     0.000120654         0.989241       -0.102228      0.000137566     0.000235844
                     0.000472724     0.000105614      0.000818154       0.0502968      0.000165318      0.00037561         0.936416       -0.344196
                        0.989223       -0.102327      0.000278306     0.000440834        0.0333239       0.0912639     -0.000380557     0.000316845
                     5.96231e-06     0.000415473         0.936097       -0.343789     -0.000472385     0.000225757        0.0317064        0.039237
281732                -0.0141385       0.0960057      0.000483065     0.000120373         0.989203       -0.102593      0.000137527     0.000235561
                     0.000472777     0.000105411      0.000839811       0.0502886      0.000165424     0.000375572         0.936285       -0.344553
                        0.989185       -0.102692      0.000278527     0.000440868        0.0333564       0.0912472     -0.000380578     0.000316943
                     6.10633e-06     0.000415456         0.935966       -0.344146     -0.000472337     0.000225951        0.0317145       0.0392206
281734                -0.0141028       0.0960063      0.000483287     0.000120092         0.989166       -0.102959      0.000137488     0.000235278
                     0.000472831     0.000105208      0.000861462       0.0502805       0.00016553     0.000375534         0.936153       -0.344911
                        0.989147       -0.103057      0.000278749     0.000440902        0.0333889       0.0912304       -0.0003806      0.00031704
                     6.25008e-06     0.000415439         0.935835       -0.344504     -0.000472289     0.000226145        0.0317226       0.0392042
281736                -0.0140672       0.0960068      0.000483509     0.000119811         0.989128       -0.103324      0.000137449     0.000234995
                     0.000472884     0.000105005      0.000883109       0.0502723      0.000165636     0.000375496         0.936022       -0.345268
                         0.98911       -0.103422       0.00027897     0.000440935        0.0334213       0.0912136     -0.000380621     0.000317137
                     6.39355e-06     0.000415423         0.935703       -0.344861     -0.000472241     0.000226338        0.0317307       0.0391877
281738                -0.0140315       0.0960074       0.00048373     0.000119529          0.98909       -0.103689      0.000137409     0.000234712
                     0.000472938       0.0001048       0.00090475       0.0502642      0.000165742     0.000375458          0.93589       -0.345625
                        0.989072       -0.103787      0.000279192     0.000440968        0.0334538       0.0911968     -0.000380643     0.000317234
                     6.53674e-06     0.000415406         0.935572       -0.345218     -0.000472192     0.000226532        0.0317387       0.0391713
281740                -0.0139959       0.0960079      0.000483951     0.000119247         0.989052       -0.104053      0.000137369     0.000234429
                     0.000472992     0.000104595      0.000926387        0.050256      0.000165848      0.00037542         0.935759       -0.345982
                        0.989034       -0.104152      0.000279413     0.000441001        0.0334863         0.09118     -0.000380664     0.000317331
                     6.67966e-06      0.00041539          0.93544       -0.345576     -0.000472144     0.000226725        0.0317468       0.0391549
281742                -0.0139602       0.0960084      0.000484172     0.000118965         0.989014       -0.104418      0.000137329     0.000234147
                     0.000473047     0.000104389      0.000948019       0.0502478      0.000165954     0.000375382         0.935627        -0.34634
                        0.988995       -0.104517      0.000279635     0.000441034        0.0335187       0.0911631     -0.000380685     0.000317428
                     6.82229e-06     0.000415374         0.935309       -0.345933     -0.000472096     0.000226918        0.0317548       0.0391385
281744                -0.0139246       0.0960089      0.000484393     0.000118682         0.988976       -0.104783      0.000137288     0.000233865
                     0.000473101     0.000104183      0.000969646       0.0502397      0.000166059     0.000375343         0.935495       -0.346697
                        0.988957       -0.104882      0.000279856     0.000441067        0.0335512       0.0911463     -0.000380707     0.000317525
                     6.96463e-06     0.000415359         0.935177        -0.34629     -0.000472047     0.000227112        0.0317629       0.0391221
281746                -0.0138889       0.0960094      0.000484614       0.0001184         0.988938       -0.105148      0.000137247     0.000233582
                     0.000473156     0.000103975      0.000991268       0.0502315      0.000166165     0.000375304         0.935363       -0.347054
                        0.988918       -0.105246      0.000280077     0.000441099        0.0335836       0.0911294     -0.000380728     0.000317622
                     7.10669e-06     0.000415344         0.935045       -0.346647     -0.000471998     0.000227305        0.0317709       0.0391057
281748                -0.0138533       0.0960099      0.000484834     0.000118117         0.988899       -0.105513      0.000137205       0.0002333
                     0.000473211     0.000103767       0.00101289       0.0502233      0.000166271     0.000375265          0.93523       -0.347411
                         0.98888       -0.105611      0.000280298     0.000441131         0.033616       0.0911126     -0.000380749     0.000317719
                     7.24846e-06     0.000415329         0.934913       -0.347005      -0.00047195     0.000227498        0.0317789       0.0390893
281750                -0.0138176       0.0960104      0.000485054     0.000117833         0.988861       -0.105878      0.000137163     0.000233018
                     0.000473266     0.000103559        0.0010345        0.050215      0.000166376     0.000375224         0.935098       -0.347768
                        0.988841       -0.105976       0.00028052     0.000441163        0.0336484       0.0910957      -0.00038077     0.000317816
                     7.38994e-06     0.000415314         0.934781       -0.347362     -0.000471902     0.000227689        0.0317869       0.0390728
281752                 -0.013782       0.0960108      0.000485275      0.00011755         0.988822       -0.106243       0.00013712     0.000232736
                     0.000473321     0.000103349       0.00105611       0.0502068      0.000166486     0.000375202         0.934965       -0.348125
                        0.988802       -0.106341      0.000280741     0.000441195        0.0336809       0.0910788     -0.000380791     0.000317913
                     7.53113e-06       0.0004153         0.934649       -0.347719     -0.000471853     0.000227887        0.0317949       0.0390564
281754                -0.0137463       0.0960113      0.000485494     0.000117266         0.988783       -0.106608      0.000137077     0.000232454
                     0.000473377     0.000103138       0.00107771       0.0501986      0.000166589     0.000375153         0.934833       -0.348482
                        0.988763       -0.106706      0.000280962     0.000441226        0.0337133       0.0910619     -0.000380812     0.000318009
                       7.672e-06     0.000415286         0.934516       -0.348076     -0.000471804     0.000228079        0.0318029         0.03904
281756                -0.0137107       0.0960117      0.000485714     0.000116982         0.988744       -0.106973      0.000137034     0.000232172
                     0.000473433     0.000102927       0.00109931       0.0501904      0.000166694     0.000375113           0.9347       -0.348838
                        0.988724       -0.107071      0.000281183     0.000441257        0.0337457        0.091045     -0.000380832     0.000318105
                     7.81252e-06     0.000415272         0.934384       -0.348433     -0.000471754     0.000228272        0.0318109       0.0390236
281758                 -0.013675       0.0960121      0.000485934     0.000116698         0.988705       -0.107338       0.00013699      0.00023189
                     0.000473489     0.000102715        0.0011209       0.0501821        0.0001668     0.000375074         0.934567       -0.349195
                        0.988685       -0.107436      0.000281405     0.000441288         0.033778       0.0910281     -0.000380852     0.000318201
                     7.95264e-06     0.000415258         0.934251        -0.34879     -0.000471705     0.000228465        0.0318189       0.0390072
281760                -0.0136394       0.0960125      0.000486153     0.000116414         0.988666       -0.107703      0.000136946     0.000231609
                     0.000473546     0.000102502       0.00114249       0.0501739      0.000166906     0.000375035         0.934434       -0.349552
                        0.988645       -0.107801      0.000281626     0.000441319        0.0338104       0.0910112      -0.00038087     0.000318295
                     8.09234e-06     0.000415245         0.934118       -0.349147     -0.000471656     0.000228658        0.0318269       0.0389908
281762                -0.0136038       0.0960129      0.000486373     0.000116129         0.988626       -0.108067      0.000136901     0.000231327
                     0.000473603     0.000102288       0.00116407       0.0501656      0.000167011     0.000374995         0.934301       -0.349909
                        0.988606       -0.108165      0.000281847     0.000441349        0.0338428       0.0909943     -0.000380887     0.000318386
