! TOUCHSTONE file generated by CST MICROWAVE STUDIO
! Date and time: Tue Oct 14 07:30:41 2025
! Project name: Teste_Macro_Metasurface_Nanopilar.cst
! Parameters = {H=600; L_x=160; L_y=180; Lambda=1064; Max_L=200; Min_L=70; PathPara=1; Phi=0; Step_L=10; Theta=0; p=520; phaseX=180; phaseY=0}
! Header version: 2018
! Port assignment regex: !\s*Touchstone port\s*([0-9]+)\s*=\s*(CST MWS port|CST DS port)\s*([0-9]+|Zmin|Zmax)\s*\(\"(.*)\"\)(\s*mode\s*([0-9]+))?.*
! Touchstone port assignment:
! Touchstone port 1 = CST MWS port Zmax ("") mode 1
! Touchstone port 2 = CST MWS port Zmax ("") mode 2
! Touchstone port 3 = CST MWS port Zmin ("") mode 1
! Touchstone port 4 = CST MWS port Zmin ("") mode 2
! S-Parameters are not renormalized. Each port impedance will be approximated by the real part at minimum frequency. The values are described via the [Reference] keyword.
! Default impedance is overridden by [Reference]
[Version] 2.0
# GHz S RI R 376.73
[Number of Ports] 4
[Reference]
376.73 376.73 259.814 259.814 
[Number of Frequencies] 51
[Network Data]
281700                 -0.201339      -0.0704021       0.00031299     7.51547e-06         0.898905        0.374473      -0.00017059     0.000314406
                     0.000348031     3.47974e-05        -0.176531      -0.0397822      5.64482e-05     0.000430226         0.807994        0.554546
                        0.898985        0.374163     -4.08948e-05      0.00039868         0.190355       0.0909665     -0.000272574    -0.000198782
                    -0.000191778     0.000337868         0.808073        0.554165     -0.000336193    -0.000244831        0.0997688        0.148195
281702                 -0.201367       -0.070359       0.00031313     7.39159e-06         0.899055        0.374103     -0.000170465     0.000314498
                     0.000348115     3.46579e-05        -0.176543      -0.0397433      5.63614e-05     0.000430101         0.808222        0.554212
                        0.899136        0.373793     -4.07084e-05     0.000398712         0.190419        0.090861     -0.000272834    -0.000198721
                     -0.00019158     0.000337946         0.808301        0.553831     -0.000336243     -0.00024469        0.0998596        0.148138
281704                 -0.201396      -0.0703158      0.000313269     7.26747e-06         0.899206        0.373732     -0.000170339     0.000314589
                     0.000348198     3.45183e-05        -0.176555      -0.0397043      5.62754e-05     0.000429975         0.808451        0.553878
                        0.899286        0.373423     -4.05211e-05     0.000398744         0.190484       0.0907554     -0.000273094    -0.000198658
                    -0.000191382     0.000338024         0.808529        0.553498     -0.000336293     -0.00024455        0.0999503        0.148081
281706                 -0.201424      -0.0702726      0.000313409      7.1431e-06         0.899356        0.373362     -0.000170213     0.000314679
                     0.000348281     3.43786e-05        -0.176566      -0.0396653      5.61902e-05     0.000429849         0.808679        0.553544
                        0.899435        0.373054     -4.03329e-05     0.000398775         0.190549       0.0906498     -0.000273354    -0.000198595
                    -0.000191183     0.000338102         0.808757        0.553164     -0.000336343    -0.000244409         0.100041        0.148024
281708                 -0.201453      -0.0702294      0.000313548     7.01849e-06         0.899506        0.372992     -0.000170087      0.00031477
                     0.000348364     3.42387e-05        -0.176578      -0.0396263      5.61058e-05     0.000429724         0.808907         0.55321
                        0.899586        0.372684     -4.01439e-05     0.000398806         0.190614       0.0905442     -0.000273614     -0.00019853
                    -0.000190985     0.000338178         0.808985         0.55283     -0.000336393    -0.000244268         0.100132        0.147967
281710                 -0.201482      -0.0701862      0.000313687     6.89364e-06         0.899656        0.372621      -0.00016996     0.000314861
                     0.000348447     3.40986e-05         -0.17659      -0.0395873      5.60221e-05     0.000429599         0.809134        0.552876
                        0.899736        0.372314     -3.99541e-05     0.000398836         0.190678       0.0904385     -0.000273873    -0.000198464
                    -0.000190786     0.000338255         0.809212        0.552497     -0.000336444    -0.000244127         0.100222        0.147909
281712                  -0.20151       -0.070143      0.000313826     6.76857e-06         0.899806        0.372251     -0.000169834     0.000314951
                      0.00034853     3.39583e-05        -0.176602      -0.0395483      5.59393e-05     0.000429474         0.809362        0.552542
                        0.899886        0.371944     -3.97636e-05     0.000398866         0.190743       0.0903327     -0.000274133    -0.000198397
                    -0.000190587      0.00033833          0.80944        0.552163     -0.000336495    -0.000243987         0.100313        0.147852
281714                 -0.201539      -0.0700997      0.000313965     6.64327e-06         0.899956         0.37188     -0.000169707     0.000315041
                     0.000348613     3.38179e-05        -0.176613      -0.0395093      5.58573e-05     0.000429349          0.80959        0.552208
                        0.900036        0.371574     -3.95726e-05     0.000398895         0.190807       0.0902269     -0.000274393    -0.000198329
                    -0.000190388     0.000338406         0.809667        0.551829     -0.000336546    -0.000243846         0.100403        0.147795
281716                 -0.201567      -0.0700565      0.000314103     6.51775e-06         0.900105         0.37151     -0.000169581     0.000315131
                     0.000348695     3.36772e-05        -0.176625      -0.0394703      5.57761e-05     0.000429225         0.809817        0.551874
                        0.900186        0.371204      -3.9381e-05     0.000398924         0.190872       0.0901211     -0.000274652    -0.000198259
                    -0.000190189      0.00033848         0.809894        0.551495     -0.000336598    -0.000243705         0.100494        0.147737
281718                 -0.201596      -0.0700132      0.000314241     6.39202e-06         0.900255        0.371139     -0.000169454     0.000315221
                     0.000348777     3.35363e-05        -0.176637      -0.0394313      5.56956e-05       0.0004291         0.810044        0.551539
                        0.900335        0.370834     -3.91889e-05     0.000398952         0.190936       0.0900153     -0.000274911    -0.000198189
                    -0.000189989     0.000338554         0.810122         0.55116      -0.00033665    -0.000243564         0.100584         0.14768
281720                 -0.201624      -0.0699699      0.000314379     6.26609e-06         0.900404        0.370768     -0.000169327     0.000315311
                     0.000348859     3.33951e-05        -0.176648      -0.0393922       5.5616e-05     0.000428976         0.810271        0.551205
                        0.900484        0.370463     -3.89963e-05     0.000398979            0.191       0.0899094     -0.000275171    -0.000198118
                    -0.000189788     0.000338628         0.810348        0.550826     -0.000336703    -0.000243423         0.100675        0.147622
281722                 -0.201653      -0.0699266      0.000314517     6.13998e-06         0.900553        0.370398     -0.000169199       0.0003154
                     0.000348941     3.32537e-05         -0.17666      -0.0393532      5.55371e-05     0.000428852         0.810498         0.55087
                        0.900634        0.370093     -3.88034e-05     0.000399006         0.191065       0.0898034      -0.00027543    -0.000198045
                    -0.000189587     0.000338702         0.810575        0.550492     -0.000336755    -0.000243282         0.100765        0.147565
281724                 -0.201681      -0.0698833      0.000314654     6.01371e-06         0.900702        0.370027     -0.000169072     0.000315489
                     0.000349023     3.31119e-05        -0.176672      -0.0393141       5.5459e-05     0.000428728         0.810725        0.550536
                        0.900783        0.369723       -3.861e-05     0.000399032         0.191129       0.0896975     -0.000275689    -0.000197972
                    -0.000189385     0.000338776         0.810802        0.550157     -0.000336808    -0.000243141         0.100855        0.147507
281726                  -0.20171        -0.06984      0.000314791     5.88729e-06         0.900851        0.369656     -0.000168945     0.000315578
                     0.000349105     3.29698e-05        -0.176683      -0.0392751      5.53817e-05     0.000428604         0.810952        0.550201
                        0.900931        0.369352     -3.84163e-05     0.000399057         0.191193       0.0895914     -0.000275947    -0.000197897
                    -0.000189182     0.000338851         0.811029        0.549823     -0.000336861       -0.000243         0.100946         0.14745
281728                 -0.201738      -0.0697967      0.000314928     5.76077e-06            0.901        0.369285     -0.000168817     0.000315667
                     0.000349186     3.28273e-05        -0.176695       -0.039236      5.53052e-05     0.000428481         0.811178        0.549866
                         0.90108        0.368982     -3.82223e-05     0.000399082         0.191257       0.0894854     -0.000276206    -0.000197822
                     -0.00018898     0.000338926         0.811255        0.549488     -0.000336915    -0.000242859         0.101036        0.147392
281730                 -0.201767      -0.0697533      0.000315064     5.63419e-06         0.901148        0.368914     -0.000168689     0.000315756
                     0.000349268     3.26843e-05        -0.176707      -0.0391969      5.52295e-05     0.000428357         0.811405        0.549531
                        0.901229        0.368611      -3.8028e-05     0.000399107         0.191321       0.0893793     -0.000276464    -0.000197745
                    -0.000188778     0.000339002         0.811481        0.549153     -0.000336969    -0.000242718         0.101126        0.147334
281732                 -0.201795        -0.06971      0.000315201     5.50763e-06         0.901296        0.368543     -0.000168561     0.000315844
                     0.000349349     3.25408e-05        -0.176718      -0.0391578      5.51545e-05     0.000428234         0.811631        0.549196
                        0.901377        0.368241     -3.78334e-05     0.000399131         0.191385       0.0892731     -0.000276723    -0.000197667
                    -0.000188576     0.000339079         0.811707        0.548818     -0.000337023    -0.000242577         0.101216        0.147276
281734                 -0.201824      -0.0696666      0.000315337     5.38121e-06         0.901444        0.368172     -0.000168433     0.000315932
                     0.000349431     3.23968e-05         -0.17673      -0.0391187      5.50803e-05     0.000428111         0.811857        0.548861
                        0.901525         0.36787     -3.76386e-05     0.000399154         0.191449        0.089167     -0.000276981    -0.000197589
                    -0.000188375     0.000339155         0.811933        0.548484     -0.000337077    -0.000242436         0.101307        0.147218
281736                 -0.201852      -0.0696232      0.000315473     5.25511e-06         0.901593        0.367801     -0.000168305      0.00031602
                     0.000349513     3.22524e-05        -0.176741      -0.0390796      5.50069e-05     0.000427988         0.812083        0.548526
                        0.901673        0.367499     -3.74435e-05     0.000399177         0.191513       0.0890607     -0.000277239    -0.000197509
                    -0.000188175     0.000339231         0.812159        0.548149     -0.000337132    -0.000242295         0.101397         0.14716
281738                 -0.201881      -0.0695798      0.000315609      5.1295e-06          0.90174         0.36743     -0.000168177     0.000316107
                     0.000349596      3.2108e-05        -0.176753      -0.0390405      5.49343e-05     0.000427866         0.812309         0.54819
                        0.901821        0.367129     -3.72482e-05     0.000399199         0.191577       0.0889545     -0.000277497    -0.000197429
                    -0.000187976     0.000339307         0.812385        0.547813     -0.000337187    -0.000242153         0.101487        0.147102
281740                 -0.201909      -0.0695364      0.000315747      5.0042e-06         0.901888        0.367058     -0.000168048     0.000316195
                      0.00034968     3.19638e-05        -0.176765      -0.0390014      5.48624e-05     0.000427743         0.812534        0.547855
                        0.901969        0.366758     -3.70526e-05     0.000399221          0.19164       0.0888482     -0.000277754    -0.000197348
                    -0.000187777     0.000339383         0.812611        0.547478     -0.000337243    -0.000242012         0.101577        0.147044
281742                 -0.201937       -0.069493      0.000315888     4.87698e-06         0.902036        0.366687      -0.00016792     0.000316282
                     0.000349764     3.18202e-05        -0.176776      -0.0389623      5.47913e-05     0.000427621          0.81276        0.547519
                        0.902117        0.366387     -3.68569e-05     0.000399243         0.191704       0.0887418     -0.000278012    -0.000197266
                    -0.000187578     0.000339458         0.812836        0.547143     -0.000337298    -0.000241871         0.101667        0.146986
281744                 -0.201966      -0.0694496      0.000316029     4.74365e-06         0.902183        0.366316     -0.000167791     0.000316369
                     0.000349849     3.16776e-05        -0.176788      -0.0389231       5.4721e-05     0.000427499         0.812985        0.547184
                        0.902264        0.366016      -3.6661e-05     0.000399263         0.191768       0.0886355     -0.000278269    -0.000197183
                     -0.00018738     0.000339533         0.813061        0.546808     -0.000337354     -0.00024173         0.101757        0.146928
281746                 -0.201994      -0.0694061      0.000316164     4.60769e-06          0.90233        0.365944     -0.000167663     0.000316455
                     0.000349933      3.1536e-05        -0.176799       -0.038884      5.46514e-05     0.000427377         0.813211        0.546848
                        0.902412        0.365645     -3.64649e-05     0.000399284         0.191831        0.088529     -0.000278526      -0.0001971
                    -0.000187182     0.000339608         0.813286        0.546472     -0.000337411    -0.000241589         0.101847         0.14687
281748                 -0.202023      -0.0693626      0.000316295     4.47471e-06         0.902477        0.365573     -0.000167534     0.000316541
                     0.000350016     3.13952e-05        -0.176811      -0.0388449      5.45826e-05     0.000427255         0.813436        0.546512
                        0.902559        0.365274     -3.62686e-05     0.000399304         0.191895       0.0884226     -0.000278784    -0.000197015
                    -0.000186984     0.000339682         0.813511        0.546136     -0.000337467    -0.000241447         0.101937        0.146812
281750                 -0.202051      -0.0693192      0.000316425     4.34411e-06         0.902624        0.365201     -0.000167405     0.000316627
                     0.000350099      3.1255e-05        -0.176822      -0.0388057      5.45146e-05     0.000427134         0.813661        0.546176
                        0.902706        0.364903     -3.60721e-05     0.000399323         0.191958       0.0883161      -0.00027904     -0.00019693
                    -0.000186786     0.000339756         0.813736        0.545801     -0.000337524    -0.000241306         0.102027        0.146753
281752                  -0.20208      -0.0692757      0.000316556     4.21447e-06         0.902771         0.36483     -0.000167276     0.000316713
                     0.000350181     3.11151e-05        -0.176834      -0.0387665      5.44474e-05     0.000427013         0.813885         0.54584
                        0.902853        0.364532     -3.58754e-05     0.000399342         0.192021       0.0882095     -0.000279297    -0.000196845
                    -0.000186589     0.000339829         0.813961        0.545465     -0.000337582    -0.000241166         0.102116        0.146695
281754                 -0.202108      -0.0692322      0.000316687     4.08515e-06         0.902918        0.364458     -0.000167147     0.000316798
                     0.000350262     3.09753e-05        -0.176845      -0.0387274        5.437e-05     0.000426941          0.81411        0.545504
                        0.902999        0.364161     -3.56786e-05     0.000399361         0.192085        0.088103     -0.000279554    -0.000196759
                    -0.000186392     0.000339902         0.814186        0.545129     -0.000337644    -0.000241031         0.102206        0.146637
281756                 -0.202136      -0.0691887      0.000316818     3.95587e-06         0.903064        0.364086     -0.000167018     0.000316883
                     0.000350343     3.08356e-05        -0.176857      -0.0386882      5.43146e-05     0.000426767         0.814335        0.545168
                        0.903146         0.36379     -3.54816e-05     0.000399379         0.192148       0.0879963      -0.00027981    -0.000196672
                    -0.000186195     0.000339975          0.81441        0.544793     -0.000337695    -0.000240878         0.102296        0.146578
281758                 -0.202165      -0.0691451      0.000316949     3.82655e-06         0.903211        0.363714     -0.000166889     0.000316968
                     0.000350423      3.0696e-05        -0.176868       -0.038649      5.42497e-05     0.000426647         0.814559        0.544832
                        0.903292        0.363418     -3.52845e-05     0.000399397         0.192211       0.0878897     -0.000280067    -0.000196585
                    -0.000185998     0.000340048         0.814634        0.544457     -0.000337753    -0.000240738         0.102386         0.14652
281760                 -0.202193      -0.0691016       0.00031708     3.69716e-06         0.903357        0.363343      -0.00016676     0.000317053
                     0.000350502     3.05565e-05         -0.17688      -0.0386098      5.41854e-05     0.000426526         0.814783        0.544496
                        0.903438        0.363047     -3.50871e-05     0.000399415         0.192274        0.087783     -0.000280323    -0.000196498
                    -0.000185801     0.000340121         0.814859        0.544121     -0.000337812    -0.000240597         0.102475        0.146461
281762                 -0.202221      -0.0690581       0.00031721     3.56771e-06         0.903503        0.362971     -0.000166631     0.000317137
                     0.000350582     3.04171e-05        -0.176891      -0.0385706      5.41219e-05     0.000426406         0.815007        0.544159
                        0.903585        0.362675     -3.48896e-05     0.000399432         0.192337       0.0876762     -0.000280579     -0.00019641
