! TOUCHSTONE file generated by CST MICROWAVE STUDIO
! Date and time: Tue Oct 14 07:30:27 2025
! Project name: Teste_Macro_Metasurface_Nanopilar.cst
! Parameters = {H=600; L_x=160; L_y=85; Lambda=1064; Max_L=200; Min_L=70; PathPara=1; Phi=0; Step_L=10; Theta=0; p=520; phaseX=180; phaseY=0}
! Header version: 2018
! Port assignment regex: !\s*Touchstone port\s*([0-9]+)\s*=\s*(CST MWS port|CST DS port)\s*([0-9]+|Zmin|Zmax)\s*\(\"(.*)\"\)(\s*mode\s*([0-9]+))?.*
! Touchstone port assignment:
! Touchstone port 1 = CST MWS port Zmax ("") mode 1
! Touchstone port 2 = CST MWS port Zmax ("") mode 2
! Touchstone port 3 = CST MWS port Zmin ("") mode 1
! Touchstone port 4 = CST MWS port Zmin ("") mode 2
! S-Parameters are not renormalized. Each port impedance will be approximated by the real part at minimum frequency. The values are described via the [Reference] keyword.
! Default impedance is overridden by [Reference]
[Version] 2.0
# GHz S RI R 376.73
[Number of Ports] 4
[Reference]
376.73 376.73 259.814 259.814 
[Number of Frequencies] 51
[Network Data]
281700                 0.0323495       0.0107661      1.53724e-05     0.000425035         0.840025       -0.538545     -0.000349499     7.74733e-06
                     6.69078e-05     0.000465999      -0.00731837       -0.136607      7.45878e-05     0.000384288        -0.277578         0.94432
                        0.839939       -0.538013      6.49485e-05     0.000233234      -0.00368315       0.0345588     -0.000512385     1.31925e-05
                    -0.000323487     9.68122e-06        -0.277392        0.944084     -0.000557117     3.41256e-05       -0.0792445        0.112286
281702                 0.0323596        0.010744      1.55231e-05     0.000425019         0.839814       -0.538874     -0.000349542     7.93043e-06
                     6.70521e-05     0.000465926        -0.007375       -0.136628      7.47255e-05     0.000384182        -0.277129        0.944448
                        0.839728       -0.538342       6.5045e-05     0.000233174      -0.00368057       0.0345617     -0.000512508     1.35202e-05
                    -0.000323481     9.83126e-06        -0.276943        0.944212     -0.000557191     3.45679e-05       -0.0791976        0.112348
281704                 0.0323696       0.0107218      1.56735e-05     0.000425003         0.839603       -0.539203     -0.000349586     8.11361e-06
                     6.71965e-05     0.000465854      -0.00743165       -0.136649      7.48632e-05     0.000384076        -0.276681        0.944577
                        0.839517       -0.538671      6.51412e-05     0.000233115      -0.00367799       0.0345646     -0.000512631     1.38481e-05
                    -0.000323474     9.98135e-06        -0.276494         0.94434     -0.000557264     3.50106e-05       -0.0791506        0.112411
281706                 0.0323796       0.0106997      1.58236e-05     0.000424987         0.839391       -0.539532     -0.000349629     8.29685e-06
                     6.73409e-05     0.000465782       -0.0074883       -0.136671      7.50007e-05     0.000383971        -0.276232        0.944705
                        0.839306       -0.538999      6.52371e-05     0.000233055       -0.0036754       0.0345675     -0.000512756     1.41762e-05
                    -0.000323467     1.01315e-05        -0.276046        0.944468     -0.000557338     3.54536e-05       -0.0791036        0.112473
281708                 0.0323896       0.0106776      1.59735e-05     0.000424971         0.839179        -0.53986     -0.000349674     8.48016e-06
                     6.74855e-05      0.00046571      -0.00754497       -0.136692      7.51383e-05     0.000383865        -0.275783        0.944833
                        0.839095       -0.539328      6.53327e-05     0.000232995      -0.00367282       0.0345703      -0.00051288     1.45045e-05
                     -0.00032346     1.02816e-05        -0.275597        0.944596     -0.000557411      3.5897e-05       -0.0790566        0.112535
281710                 0.0323996       0.0106554      1.61231e-05     0.000424956         0.838968       -0.540189     -0.000349719     8.66354e-06
                     6.76301e-05     0.000465638      -0.00760166       -0.136713      7.52759e-05     0.000383759        -0.275334        0.944961
                        0.838883       -0.539657      6.54281e-05     0.000232935      -0.00367023       0.0345732     -0.000513005     1.48329e-05
                    -0.000323453     1.04319e-05        -0.275148        0.944724     -0.000557484     3.63407e-05       -0.0790095        0.112598
281712                 0.0324096       0.0106333      1.62724e-05      0.00042494         0.838756       -0.540517     -0.000349764       8.847e-06
                     6.77749e-05     0.000465566      -0.00765835       -0.136734      7.54135e-05     0.000383653        -0.274885        0.945089
                        0.838672       -0.539985      6.55231e-05     0.000232875      -0.00366764       0.0345761     -0.000513131     1.51616e-05
                    -0.000323445     1.05821e-05        -0.274699        0.944851     -0.000557557     3.67847e-05       -0.0789623         0.11266
281714                 0.0324195       0.0106111      1.64215e-05     0.000424924         0.838544       -0.540846      -0.00034981     9.03053e-06
                     6.79197e-05     0.000465494      -0.00771506       -0.136755      7.55513e-05     0.000383548        -0.274437        0.945216
                         0.83846       -0.540313      6.56179e-05     0.000232815      -0.00366505        0.034579     -0.000513256     1.54904e-05
                    -0.000323438     1.07324e-05         -0.27425        0.944978      -0.00055763      3.7229e-05       -0.0789151        0.112722
281716                 0.0324295        0.010589      1.65704e-05     0.000424908         0.838332       -0.541174     -0.000349856     9.21414e-06
                     6.80646e-05     0.000465422      -0.00777178       -0.136776      7.56891e-05     0.000383442        -0.273988        0.945344
                        0.838248       -0.540642      6.57124e-05     0.000232754      -0.00366246       0.0345819     -0.000513383     1.58194e-05
                     -0.00032343     1.08827e-05        -0.273801        0.945105     -0.000557702     3.76737e-05       -0.0788679        0.112784
281718                 0.0324394       0.0105668       1.6719e-05     0.000424892          0.83812       -0.541502     -0.000349903     9.39783e-06
                     6.82096e-05      0.00046535      -0.00782851       -0.136797       7.5827e-05     0.000383336        -0.273538        0.945471
                        0.838036        -0.54097      6.58066e-05     0.000232694      -0.00365987       0.0345848      -0.00051351     1.61487e-05
                    -0.000323423     1.10331e-05        -0.273352        0.945231     -0.000557774     3.81186e-05       -0.0788206        0.112846
281720                 0.0324494       0.0105446      1.68673e-05     0.000424876         0.837907        -0.54183      -0.00034995      9.5816e-06
                     6.83547e-05     0.000465278      -0.00788525       -0.136818      7.59649e-05      0.00038323        -0.273089        0.945597
                        0.837824       -0.541298      6.59005e-05     0.000232633      -0.00365727       0.0345878     -0.000513637     1.64781e-05
                    -0.000323415     1.11835e-05        -0.272903        0.945358     -0.000557846     3.85639e-05       -0.0787732        0.112909
281722                 0.0324593       0.0105225      1.70154e-05      0.00042486         0.837695       -0.542158     -0.000349997     9.76545e-06
                     6.84999e-05     0.000465207      -0.00794201       -0.136839      7.61029e-05     0.000383124         -0.27264        0.945724
                        0.837612       -0.541626      6.59942e-05     0.000232572      -0.00365468       0.0345907     -0.000513764     1.68076e-05
                    -0.000323407     1.13339e-05        -0.272454        0.945484     -0.000557918     3.90095e-05       -0.0787258        0.112971
281724                 0.0324692       0.0105003      1.71632e-05     0.000424844         0.837482       -0.542486     -0.000350046     9.94939e-06
                     6.86452e-05     0.000465135      -0.00799878        -0.13686      7.62409e-05     0.000383017        -0.272191         0.94585
                          0.8374       -0.541954      6.60876e-05     0.000232511      -0.00365208       0.0345936     -0.000513892     1.71374e-05
                    -0.000323399     1.14844e-05        -0.272005         0.94561      -0.00055799     3.94554e-05       -0.0786784        0.113033
281726                 0.0324791       0.0104781      1.73108e-05     0.000424828         0.837269       -0.542814     -0.000350094     1.01334e-05
                     6.87906e-05     0.000465063      -0.00805557       -0.136881      7.63789e-05     0.000382911        -0.271742        0.945976
                        0.837187       -0.542282      6.61807e-05      0.00023245      -0.00364948       0.0345965     -0.000514021     1.74674e-05
                     -0.00032339      1.1635e-05        -0.271556        0.945736     -0.000558061     3.99016e-05       -0.0786309        0.113095
281728                  0.032489       0.0104559      1.74582e-05     0.000424812         0.837056       -0.543142     -0.000350143     1.03175e-05
                     6.89361e-05     0.000464992      -0.00811236       -0.136902      7.65167e-05     0.000382804        -0.271292        0.946102
                        0.836975        -0.54261      6.62735e-05     0.000232388      -0.00364687       0.0345995      -0.00051415     1.77975e-05
                    -0.000323382     1.17855e-05        -0.271106        0.945861     -0.000558132     4.03481e-05       -0.0785833        0.113157
281730                 0.0324989       0.0104337      1.76053e-05     0.000424796         0.836843        -0.54347     -0.000350193     1.05017e-05
                     6.90816e-05      0.00046492      -0.00816917       -0.136923      7.66545e-05     0.000382696        -0.270843        0.946228
                        0.836762       -0.542937      6.63661e-05     0.000232327      -0.00364427       0.0346024     -0.000514279     1.81278e-05
                    -0.000323374     1.19362e-05        -0.270657        0.945987     -0.000558204     4.07948e-05       -0.0785358        0.113219
281732                 0.0325087       0.0104115      1.77522e-05      0.00042478          0.83663       -0.543797     -0.000350243      1.0686e-05
                     6.92273e-05     0.000464849      -0.00822599       -0.136944       7.6792e-05     0.000382589        -0.270394        0.946354
                        0.836549       -0.543265      6.64585e-05     0.000232265      -0.00364166       0.0346053     -0.000514409     1.84583e-05
                    -0.000323365     1.20868e-05        -0.270208        0.946112     -0.000558274     4.12419e-05       -0.0784881        0.113281
281734                 0.0325186       0.0103893      1.78988e-05     0.000424764         0.836417       -0.544125     -0.000350294     1.08704e-05
                      6.9373e-05     0.000464778      -0.00828282       -0.136965      7.69294e-05     0.000382481        -0.269944        0.946479
                        0.836336       -0.543592      6.65505e-05     0.000232203      -0.00363906       0.0346083     -0.000514539     1.87889e-05
                    -0.000323356     1.22375e-05        -0.269758        0.946237     -0.000558345     4.16892e-05       -0.0784404        0.113343
281736                 0.0325284       0.0103671      1.80453e-05     0.000424748         0.836204       -0.544453     -0.000350345     1.10548e-05
                     6.95189e-05     0.000464707      -0.00833967       -0.136986      7.70666e-05     0.000382373        -0.269495        0.946604
                        0.836123        -0.54392      6.66423e-05     0.000232141      -0.00363645       0.0346112      -0.00051467     1.91196e-05
                    -0.000323347     1.23883e-05        -0.269309        0.946361     -0.000558416     4.21368e-05       -0.0783927        0.113405
281738                 0.0325383       0.0103449      1.81915e-05     0.000424732          0.83599        -0.54478     -0.000350396     1.12394e-05
                     6.96648e-05     0.000464635      -0.00839652       -0.137007      7.72035e-05     0.000382265        -0.269045        0.946729
                         0.83591       -0.544247      6.67339e-05     0.000232079      -0.00363384       0.0346142     -0.000514801     1.94504e-05
                    -0.000323338      1.2539e-05        -0.268859        0.946486     -0.000558486     4.25846e-05       -0.0783449        0.113467
281740                 0.0325481       0.0103226      1.83374e-05     0.000424716         0.835776       -0.545107     -0.000350449      1.1424e-05
                     6.98109e-05     0.000464564      -0.00845339       -0.137028      7.73402e-05     0.000382157        -0.268595        0.946853
                        0.835696       -0.544574      6.68252e-05     0.000232017      -0.00363123       0.0346172     -0.000514933     1.97811e-05
                    -0.000323329     1.26899e-05         -0.26841         0.94661     -0.000558557     4.30327e-05       -0.0782971        0.113529
281742                 0.0325579       0.0103004      1.84832e-05       0.0004247         0.835563       -0.545435     -0.000350502     1.16086e-05
                      6.9957e-05     0.000464493      -0.00851028       -0.137048      7.74767e-05     0.000382049        -0.268146        0.946978
                        0.835483       -0.544902      6.69162e-05     0.000231954      -0.00362861       0.0346201     -0.000515065     2.01116e-05
                     -0.00032332     1.28407e-05         -0.26796        0.946734     -0.000558627      4.3481e-05       -0.0782492        0.113591
281744                 0.0325677       0.0102782      1.86287e-05     0.000424684         0.835349       -0.545762     -0.000350555     1.17933e-05
                     7.01033e-05     0.000464422      -0.00856717       -0.137069      7.76129e-05     0.000381941        -0.267696        0.947102
                        0.835269       -0.545229       6.7007e-05     0.000231892      -0.00362599       0.0346231     -0.000515197     2.04411e-05
                    -0.000323311     1.29916e-05         -0.26751        0.946858     -0.000558697     4.39296e-05       -0.0782013        0.113653
281746                 0.0325775       0.0102559       1.8774e-05     0.000424668         0.835135       -0.546089     -0.000350612     1.19777e-05
                     7.02496e-05     0.000464352      -0.00862408        -0.13709      7.77487e-05     0.000381833        -0.267246        0.947226
                        0.835056       -0.545556      6.70976e-05     0.000231829      -0.00362338       0.0346261      -0.00051533     2.07668e-05
                    -0.000323301     1.31426e-05         -0.26706        0.946982     -0.000558767     4.43783e-05       -0.0781533        0.113715
281748                 0.0325873       0.0102337      1.89191e-05     0.000424653         0.834921       -0.546416     -0.000350697     1.21568e-05
                      7.0396e-05     0.000464281        -0.008681       -0.137111      7.78837e-05     0.000381725        -0.266796         0.94735
                        0.834842       -0.545883      6.71879e-05     0.000231766      -0.00362076       0.0346291     -0.000515462     2.10308e-05
                    -0.000323291     1.32935e-05        -0.266611        0.947105     -0.000558837     4.48272e-05       -0.0781053        0.113777
281750                 0.0325971       0.0102114       1.9064e-05     0.000424637         0.834706       -0.546743     -0.000350705     1.23514e-05
                     7.05426e-05      0.00046421      -0.00873793       -0.137131      7.80145e-05     0.000381616        -0.266346        0.947473
                        0.834628        -0.54621      6.72779e-05     0.000231703      -0.00361814       0.0346321     -0.000515599      2.1468e-05
                    -0.000323282     1.34445e-05        -0.266161        0.947228     -0.000558907     4.52759e-05       -0.0780572        0.113839
281752                 0.0326068       0.0101892      1.92086e-05     0.000424621         0.834492        -0.54707     -0.000350764     1.25356e-05
                     7.06892e-05      0.00046414      -0.00879487       -0.137152      7.81544e-05     0.000381501        -0.265896        0.947597
                        0.834414       -0.546536      6.73677e-05      0.00023164      -0.00361551       0.0346351     -0.000515733     2.17886e-05
                    -0.000323272     1.35955e-05        -0.265711        0.947351      -0.00055898     4.57229e-05       -0.0780091        0.113901
281754                 0.0326166       0.0101669      1.93531e-05     0.000424605         0.834277       -0.547396     -0.000350821     1.27207e-05
                     7.08367e-05     0.000464075      -0.00885183       -0.137173      7.82912e-05     0.000381394        -0.265446         0.94772
                        0.834199       -0.546863      6.74573e-05     0.000231577      -0.00361289        0.034638     -0.000515867     2.21182e-05
                    -0.000323262     1.37443e-05        -0.265261        0.947474     -0.000559038     4.61828e-05        -0.077961        0.113963
281756                 0.0326263       0.0101446      1.94973e-05     0.000424589         0.834063       -0.547723     -0.000350877     1.29061e-05
                     7.09826e-05     0.000463997       -0.0089088       -0.137193      7.84266e-05     0.000381286        -0.264996        0.947843
                        0.833985        -0.54719      6.75466e-05     0.000231513      -0.00361026       0.0346411     -0.000516002     2.24498e-05
                    -0.000323252     1.38985e-05        -0.264811        0.947597     -0.000559111     4.66287e-05       -0.0779128        0.114025
281758                 0.0326361       0.0101224      1.96413e-05     0.000424573         0.833848        -0.54805     -0.000350934     1.30917e-05
                     7.11295e-05     0.000463927      -0.00896578       -0.137214      7.85615e-05     0.000381177        -0.264546        0.947966
                         0.83377       -0.547516      6.76356e-05      0.00023145      -0.00360763       0.0346441     -0.000516138     2.27823e-05
                    -0.000323242     1.40495e-05        -0.264361        0.947719      -0.00055918     4.70782e-05       -0.0778645        0.114087
281760                 0.0326458       0.0101001      1.97852e-05     0.000424558         0.833633       -0.548376     -0.000350991     1.32774e-05
                     7.12766e-05     0.000463857      -0.00902278       -0.137235      7.86962e-05     0.000381068        -0.264096        0.948088
                        0.833556       -0.547843      6.77244e-05     0.000231386        -0.003605       0.0346471     -0.000516274     2.31154e-05
                    -0.000323231     1.42007e-05        -0.263911        0.947841     -0.000559249     4.75283e-05       -0.0778162        0.114149
281762                 0.0326555       0.0100778      1.99287e-05     0.000424542         0.833418       -0.548702     -0.000351048     1.34632e-05
                     7.14237e-05     0.000463787      -0.00907978       -0.137255      7.88308e-05     0.000380959        -0.263646         0.94821
                        0.833341       -0.548169      6.78128e-05     0.000231322      -0.00360237       0.0346501      -0.00051641     2.34489e-05
