! TOUCHSTONE file generated by CST MICROWAVE STUDIO
! Date and time: Tue Oct 14 07:25:39 2025
! Project name: Teste_Macro_Metasurface_Nanopilar.cst
! Parameters = {H=600; L_x=80; L_y=180; Lambda=1064; Max_L=200; Min_L=70; PathPara=1; Phi=0; Step_L=10; Theta=0; p=520; phaseX=180; phaseY=0}
! Header version: 2018
! Port assignment regex: !\s*Touchstone port\s*([0-9]+)\s*=\s*(CST MWS port|CST DS port)\s*([0-9]+|Zmin|Zmax)\s*\(\"(.*)\"\)(\s*mode\s*([0-9]+))?.*
! Touchstone port assignment:
! Touchstone port 1 = CST MWS port Zmax ("") mode 1
! Touchstone port 2 = CST MWS port Zmax ("") mode 2
! Touchstone port 3 = CST MWS port Zmin ("") mode 1
! Touchstone port 4 = CST MWS port Zmin ("") mode 2
! S-Parameters are not renormalized. Each port impedance will be approximated by the real part at minimum frequency. The values are described via the [Reference] keyword.
! Default impedance is overridden by [Reference]
[Version] 2.0
# GHz S RI R 376.73
[Number of Ports] 4
[Reference]
376.73 376.73 259.814 259.814 
[Number of Frequencies] 51
[Network Data]
281700                -0.0648176       -0.228011      0.000287251     0.000240939         0.195338        0.945846      0.000234668    -6.77603e-05
                     0.000201398     0.000275912        0.0323497       0.0344299      4.25601e-05    -2.36581e-05         0.884686       -0.460451
                         0.19506        0.945296       2.2311e-07    -8.20865e-05        0.0326215        0.233971     -0.000199057    -9.95115e-05
                     8.15146e-05    -2.26593e-05          0.88508       -0.460068     -0.000394464     2.37511e-05        0.0096198       0.0467923
281702                -0.0649019       -0.228025      0.000287449     0.000240853         0.195781        0.945746      0.000234382    -6.79056e-05
                     0.000201625     0.000275934        0.0323679       0.0344105      4.27431e-05    -2.31609e-05         0.884508       -0.460791
                        0.195503        0.945195      3.46436e-07    -8.20875e-05        0.0327702        0.233987     -0.000199466    -9.96484e-05
                     8.15091e-05    -2.25003e-05         0.884903       -0.460408     -0.000395033     2.45442e-05       0.00962924       0.0467887
281704                -0.0649862       -0.228039      0.000287647     0.000240767         0.196224        0.945645      0.000234095    -6.80499e-05
                     0.000201852     0.000275955        0.0323861       0.0343911      4.29269e-05    -2.26624e-05          0.88433       -0.461131
                        0.195945        0.945095      4.69937e-07    -8.20885e-05        0.0329189        0.234002     -0.000199876    -9.97839e-05
                     8.15044e-05    -2.23415e-05         0.884726       -0.460749     -0.000395603     2.53399e-05       0.00963869       0.0467851
281706                -0.0650705       -0.228053      0.000287846     0.000240681         0.196667        0.945544      0.000233808    -6.81931e-05
                      0.00020208     0.000275975        0.0324043       0.0343716      4.31113e-05    -2.21626e-05         0.884153       -0.461471
                        0.196388        0.944994      5.93613e-07    -8.20895e-05        0.0330677        0.234018     -0.000200287    -9.99178e-05
                     8.15005e-05    -2.21827e-05         0.884548       -0.461089     -0.000396174     2.61381e-05       0.00964813       0.0467815
281708                -0.0651548       -0.228067      0.000288044     0.000240595          0.19711        0.945443      0.000233522    -6.83353e-05
                      0.00020231     0.000275993        0.0324224       0.0343522      4.32965e-05    -2.16616e-05         0.883975       -0.461811
                         0.19683        0.944893      7.17465e-07    -8.20904e-05        0.0332165        0.234033     -0.000200697     -0.00010005
                     8.14971e-05    -2.20235e-05         0.884371       -0.461429     -0.000396747      2.6939e-05       0.00965757       0.0467779
281710                -0.0652391       -0.228081      0.000288243     0.000240509         0.197553        0.945342      0.000233236    -6.84765e-05
                      0.00020254     0.000276006        0.0324406       0.0343328      4.34824e-05    -2.11593e-05         0.883797       -0.462151
                        0.197272        0.944791      8.41491e-07    -8.20913e-05        0.0333654        0.234048     -0.000201109    -0.000100181
                      8.1494e-05    -2.18641e-05         0.884193       -0.461769      -0.00039732     2.77424e-05       0.00966701       0.0467743
281712                -0.0653235       -0.228094      0.000288442     0.000240423         0.197996        0.945241      0.000232949    -6.86167e-05
                     0.000202754     0.000276007        0.0324587       0.0343133       4.3669e-05    -2.06559e-05         0.883618       -0.462491
                        0.197714         0.94469      9.65692e-07    -8.20922e-05        0.0335142        0.234064      -0.00020152    -0.000100311
                     8.14909e-05    -2.17045e-05         0.884016       -0.462109     -0.000397894     2.85483e-05       0.00967645       0.0467706
281714                -0.0654079       -0.228108      0.000288641     0.000240337         0.198439        0.945139      0.000232663    -6.87559e-05
                     0.000202969     0.000276053        0.0324769       0.0342938      4.38564e-05    -2.01512e-05          0.88344       -0.462831
                        0.198156        0.944588      1.09007e-06    -8.20931e-05        0.0336632        0.234079     -0.000201932    -0.000100439
                      8.1488e-05     -2.1545e-05         0.883838        -0.46245      -0.00039847     2.93567e-05       0.00968588        0.046767
281716                -0.0654922       -0.228122       0.00028884     0.000240251         0.198882        0.945037      0.000232378    -6.88942e-05
                     0.000203207     0.000276077         0.032495       0.0342744      4.40444e-05    -1.96454e-05         0.883262        -0.46317
                        0.198598        0.944486      1.21462e-06     -8.2094e-05        0.0338121        0.234094     -0.000202344    -0.000100566
                     8.14852e-05    -2.13856e-05          0.88366        -0.46279     -0.000399047     3.01675e-05       0.00969532       0.0467634
281718                -0.0655766       -0.228136      0.000289039     0.000240165         0.199325        0.944935      0.000232092    -6.90314e-05
                     0.000203441     0.000276096        0.0325131       0.0342549      4.42332e-05    -1.91385e-05         0.883083        -0.46351
                         0.19904        0.944384      1.33934e-06    -8.20949e-05        0.0339611        0.234109     -0.000202757    -0.000100691
                     8.14825e-05    -2.12264e-05         0.883482        -0.46313     -0.000399624     3.09809e-05       0.00970475       0.0467598
281720                -0.0656611        -0.22815      0.000289239     0.000240079         0.199768        0.944833      0.000231807    -6.91677e-05
                     0.000203674     0.000276113        0.0325312       0.0342354      4.44227e-05    -1.86305e-05         0.882904       -0.463849
                        0.199482        0.944281      1.46424e-06    -8.20957e-05        0.0341101        0.234124      -0.00020317    -0.000100815
                     8.14801e-05    -2.10673e-05         0.883304       -0.463469     -0.000400203     3.17966e-05       0.00971418       0.0467562
281722                -0.0657455       -0.228163      0.000289438     0.000239993         0.200211        0.944731      0.000231522     -6.9303e-05
                     0.000203907      0.00027613        0.0325493       0.0342159      4.46129e-05    -1.81214e-05         0.882725       -0.464189
                        0.199924        0.944179      1.58931e-06    -8.20965e-05        0.0342592        0.234139     -0.000203583    -0.000100938
                     8.14779e-05    -2.09085e-05         0.883126       -0.463809     -0.000400783     3.26147e-05       0.00972361       0.0467526
281724                -0.0658299       -0.228177      0.000289638     0.000239907         0.200653        0.944628      0.000231237    -6.94374e-05
                     0.000204139     0.000276146        0.0325674       0.0341964      4.48038e-05    -1.76112e-05         0.882546       -0.464528
                        0.200366        0.944076      1.71455e-06    -8.20973e-05        0.0344083        0.234153     -0.000203997    -0.000101059
                     8.14759e-05    -2.07497e-05         0.882947       -0.464149     -0.000401363     3.34352e-05       0.00973304        0.046749
281726                -0.0659144       -0.228191      0.000289837     0.000239822         0.201096        0.944525      0.000230952    -6.95709e-05
                     0.000204372     0.000276161        0.0325855       0.0341769      4.49954e-05    -1.71001e-05         0.882367       -0.464867
                        0.200808        0.943973      1.83997e-06    -8.20981e-05        0.0345574        0.234168     -0.000204411    -0.000101179
                     8.14742e-05    -2.05912e-05         0.882769       -0.464489     -0.000401945     3.42579e-05       0.00974246       0.0467454
281728                -0.0659989       -0.228204      0.000290037     0.000239736         0.201539        0.944422      0.000230668    -6.97034e-05
                     0.000204606     0.000276177        0.0326036       0.0341573      4.51877e-05    -1.65879e-05         0.882188       -0.465207
                         0.20125         0.94387      1.96556e-06    -8.20989e-05        0.0347065        0.234183     -0.000204825    -0.000101297
                     8.14728e-05    -2.04328e-05          0.88259       -0.464828     -0.000402528      3.5083e-05       0.00975188       0.0467418
281730                -0.0660834       -0.228218      0.000290237      0.00023965         0.201981        0.944319      0.000230383     -6.9835e-05
                      0.00020484     0.000276191        0.0326217       0.0341378      4.53807e-05    -1.60748e-05         0.882009       -0.465546
                        0.201692        0.943766      2.09132e-06    -8.20997e-05        0.0348557        0.234197     -0.000205239    -0.000101414
                     8.14716e-05    -2.02746e-05         0.882411       -0.465168     -0.000403112     3.59104e-05       0.00976131       0.0467382
281732                -0.0661679       -0.228232      0.000290437     0.000239564         0.202424        0.944215      0.000230099    -6.99657e-05
                     0.000205074     0.000276205        0.0326397       0.0341183      4.55744e-05    -1.55608e-05         0.881829       -0.465885
                        0.202133        0.943662      2.21725e-06    -8.21004e-05         0.035005        0.234211     -0.000205654     -0.00010153
                     8.14707e-05    -2.01166e-05         0.882232       -0.465507     -0.000403696       3.674e-05       0.00977073       0.0467346
281734                -0.0662524       -0.228245      0.000290638     0.000239478         0.202866        0.944112      0.000229816    -7.00954e-05
                     0.000205309     0.000276218        0.0326578       0.0340987      4.57688e-05    -1.50459e-05          0.88165       -0.466224
                        0.202575        0.943559      2.34336e-06    -8.21011e-05        0.0351542        0.234226     -0.000206069    -0.000101644
                     8.14701e-05    -1.99586e-05         0.882053       -0.465847     -0.000404282     3.75717e-05       0.00978014        0.046731
281736                 -0.066337       -0.228259      0.000290838     0.000239392         0.203308        0.944008      0.000229532    -7.02243e-05
                     0.000205544     0.000276231        0.0326758       0.0340791      4.59639e-05    -1.45301e-05          0.88147       -0.466563
                        0.203017        0.943454      2.46964e-06    -8.21018e-05        0.0353035         0.23424     -0.000206484    -0.000101757
                     8.14697e-05    -1.98009e-05         0.881874       -0.466186     -0.000404868     3.84057e-05       0.00978956       0.0467274
281738                -0.0664215       -0.228272      0.000291039     0.000239306         0.203751        0.943904      0.000229249    -7.03523e-05
                      0.00020578     0.000276243        0.0326938       0.0340596      4.61596e-05    -1.40135e-05          0.88129       -0.466902
                        0.203458         0.94335      2.59609e-06    -8.21025e-05        0.0354528        0.234254       -0.0002069    -0.000101868
                     8.14696e-05    -1.96433e-05         0.881694       -0.466525     -0.000405456     3.92417e-05       0.00979898       0.0467238
281740                -0.0665061       -0.228286      0.000291239     0.000239221         0.204193        0.943799      0.000228967    -7.04794e-05
                     0.000206017     0.000276255        0.0327119         0.03404       4.6356e-05    -1.34961e-05          0.88111       -0.467241
                          0.2039        0.943246      2.72271e-06    -8.21031e-05        0.0356022        0.234268     -0.000207315    -0.000101979
                     8.14697e-05    -1.94858e-05         0.881515       -0.466864     -0.000406044     4.00799e-05       0.00980839       0.0467202
281742                -0.0665907       -0.228299       0.00029144     0.000239135         0.204635        0.943695      0.000228684    -7.06056e-05
                     0.000206254     0.000276266        0.0327299       0.0340204      4.65531e-05    -1.29779e-05          0.88093       -0.467579
                        0.204341        0.943141       2.8495e-06    -8.21038e-05        0.0357516        0.234282     -0.000207731    -0.000102088
                     8.14701e-05    -1.93285e-05         0.881335       -0.467203     -0.000406634     4.09201e-05        0.0098178       0.0467166
281744                -0.0666753       -0.228313      0.000291641     0.000239049         0.205077         0.94359      0.000228402     -7.0731e-05
                     0.000206491     0.000276276        0.0327479       0.0340008      4.67508e-05     -1.2459e-05         0.880749       -0.467918
                        0.204782        0.943036      2.97646e-06    -8.21044e-05         0.035901        0.234296     -0.000208147    -0.000102195
                     8.14708e-05    -1.91713e-05         0.881156       -0.467543     -0.000407224     4.17623e-05       0.00982721       0.0467131
281746                  -0.06676       -0.228326      0.000291842     0.000238963          0.20552        0.943485       0.00022812    -7.08555e-05
                     0.000206729     0.000276286        0.0327659       0.0339812      4.69492e-05    -1.19395e-05         0.880569       -0.468257
                        0.205224        0.942931       3.1036e-06     -8.2105e-05        0.0360505        0.234309     -0.000208564    -0.000102301
                     8.14717e-05    -1.90143e-05         0.880976       -0.467882     -0.000407815     4.26065e-05       0.00983662       0.0467095
281748                -0.0668446       -0.228339      0.000292043     0.000238877         0.205962         0.94338      0.000227838    -7.09791e-05
                     0.000206968     0.000276295        0.0327839       0.0339616      4.71482e-05    -1.14192e-05         0.880388       -0.468595
                        0.205665        0.942826       3.2309e-06    -8.21056e-05           0.0362        0.234323      -0.00020898    -0.000102406
                     8.14728e-05    -1.88574e-05         0.880796        -0.46822     -0.000408407     4.34526e-05       0.00984603       0.0467059
281750                -0.0669293       -0.228353      0.000292244     0.000238792         0.206404        0.943275      0.000227557     -7.1102e-05
                     0.000207207     0.000276304        0.0328018        0.033942      4.73479e-05    -1.08984e-05         0.880208       -0.468934
                        0.206106         0.94272      3.35838e-06    -8.21062e-05        0.0363495        0.234337     -0.000209397     -0.00010251
                     8.14742e-05    -1.87007e-05         0.880616       -0.468559     -0.000408999     4.43006e-05       0.00985543       0.0467023
281752                -0.0670139       -0.228366      0.000292445     0.000238706         0.206846        0.943169      0.000227276    -7.12239e-05
                     0.000207447     0.000276312        0.0328198       0.0339224      4.75482e-05     -1.0377e-05         0.880027       -0.469272
                        0.206547        0.942614      3.48602e-06    -8.21067e-05        0.0364991         0.23435     -0.000209814    -0.000102613
                     8.14758e-05    -1.85441e-05         0.880435       -0.468898     -0.000409593     4.51505e-05       0.00986484       0.0466987
281754                -0.0670986        -0.22838      0.000292647      0.00023862         0.207288        0.943063      0.000226995     -7.1345e-05
                     0.000207687     0.000276319        0.0328378       0.0339027      4.77491e-05    -9.85512e-06         0.879846        -0.46961
                        0.206988        0.942508      3.61384e-06    -8.21072e-05        0.0366487        0.234363     -0.000210231    -0.000102714
                     8.14777e-05    -1.83876e-05         0.880255       -0.469237     -0.000410187     4.60022e-05       0.00987424       0.0466951
281756                -0.0671834       -0.228393      0.000292848     0.000238534         0.207729        0.942957      0.000226715    -7.14654e-05
                     0.000207928     0.000276326        0.0328557       0.0338831      4.79505e-05    -9.33272e-06         0.879665       -0.469949
                        0.207429        0.942402      3.74182e-06    -8.21077e-05        0.0367983        0.234377     -0.000210648    -0.000102814
                     8.14798e-05    -1.82313e-05         0.880074       -0.469576     -0.000410782     4.68556e-05       0.00988364       0.0466915
281758                -0.0672681       -0.228406       0.00029305     0.000238449         0.208171        0.942851      0.000226435    -7.15848e-05
                      0.00020817     0.000276332        0.0328736       0.0338634      4.81526e-05    -8.80986e-06         0.879484       -0.470287
                         0.20787        0.942296      3.86998e-06    -8.21082e-05        0.0369479         0.23439     -0.000211066    -0.000102912
                     8.14822e-05    -1.80751e-05         0.879894       -0.469914     -0.000411377     4.77107e-05       0.00989304       0.0466879
281760                -0.0673528       -0.228419      0.000293252     0.000238363         0.208613        0.942745      0.000226155    -7.17035e-05
                     0.000208412     0.000276338        0.0328916       0.0338438      4.83553e-05    -8.28661e-06         0.879302       -0.470625
                        0.208311        0.942189       3.9983e-06    -8.21087e-05        0.0370976        0.234403     -0.000211484     -0.00010301
                     8.14847e-05     -1.7919e-05         0.879713       -0.470253     -0.000411974     4.85675e-05       0.00990244       0.0466843
281762                -0.0674376       -0.228433      0.000293454     0.000238277         0.209055        0.942638      0.000225876    -7.18214e-05
                     0.000208654     0.000276343        0.0329095       0.0338241      4.85585e-05    -7.76299e-06         0.879121       -0.470963
                        0.208752        0.942082      4.12679e-06    -8.21091e-05        0.0372474        0.234416     -0.000211901    -0.000103106
