! TOUCHSTONE file generated by CST MICROWAVE STUDIO
! Date and time: Tue Oct 14 07:31:18 2025
! Project name: Teste_Macro_Metasurface_Nanopilar.cst
! Parameters = {H=600; L_x=170; L_y=180; Lambda=1064; Max_L=200; Min_L=70; PathPara=1; Phi=0; Step_L=10; Theta=0; p=520; phaseX=180; phaseY=0}
! Header version: 2018
! Port assignment regex: !\s*Touchstone port\s*([0-9]+)\s*=\s*(CST MWS port|CST DS port)\s*([0-9]+|Zmin|Zmax)\s*\(\"(.*)\"\)(\s*mode\s*([0-9]+))?.*
! Touchstone port assignment:
! Touchstone port 1 = CST MWS port Zmax ("") mode 1
! Touchstone port 2 = CST MWS port Zmax ("") mode 2
! Touchstone port 3 = CST MWS port Zmin ("") mode 1
! Touchstone port 4 = CST MWS port Zmin ("") mode 2
! S-Parameters are not renormalized. Each port impedance will be approximated by the real part at minimum frequency. The values are described via the [Reference] keyword.
! Default impedance is overridden by [Reference]
[Version] 2.0
# GHz S RI R 376.73
[Number of Ports] 4
[Reference]
376.73 376.73 259.814 259.814 
[Number of Frequencies] 51
[Network Data]
281700                 -0.209161      -0.0816958      0.000269792     7.23677e-05         0.927763        0.286323     -0.000282062     0.000469193
                     0.000248526      0.00011488        -0.179792      -0.0581094      3.37643e-05     0.000514953          0.90661        0.366434
                        0.928019         0.28662      7.78751e-05     0.000538543          0.21709       0.0490646     -0.000279414      0.00014056
                     -0.00026618     0.000468994         0.906747        0.366551     -0.000239545     7.31578e-05         0.167963       0.0828879
281702                  -0.20919      -0.0816448      0.000269831     7.21872e-05         0.927879         0.28594     -0.000281827     0.000469215
                     0.000248562     0.000114691        -0.179802      -0.0580599      3.40817e-05     0.000514934         0.906765        0.366052
                        0.928135        0.286237      7.82281e-05     0.000538435         0.217126       0.0489442     -0.000279275     0.000140763
                    -0.000265964      0.00046895         0.906902        0.366169      -0.00023934      7.3272e-05         0.168006       0.0827896
281704                 -0.209219      -0.0815939      0.000269869     7.20066e-05         0.927995        0.285557     -0.000281591     0.000469236
                     0.000248612     0.000114516        -0.179813      -0.0580104      3.43986e-05     0.000514915          0.90692         0.36567
                        0.928251        0.285854      7.85808e-05     0.000538327         0.217162       0.0488237     -0.000279136     0.000140966
                    -0.000265747     0.000468906         0.907057        0.365787     -0.000239135     7.33856e-05         0.168049       0.0826913
281706                 -0.209249      -0.0815428      0.000269907      7.1826e-05         0.928111        0.285174     -0.000281356     0.000469258
                     0.000248689     0.000114448        -0.179823       -0.057961       3.4715e-05     0.000514896         0.907074        0.365288
                        0.928367         0.28547      7.89332e-05     0.000538219         0.217198       0.0487032     -0.000278998     0.000141168
                    -0.000265531     0.000468862         0.907212        0.365404      -0.00023893     7.34989e-05         0.168091       0.0825929
281708                 -0.209278      -0.0814918      0.000269945     7.16454e-05         0.928226         0.28479     -0.000281121     0.000469279
                     0.000248408     0.000114166        -0.179833      -0.0579115       3.5031e-05     0.000514877         0.907229        0.364905
                        0.928482        0.285087      7.92854e-05      0.00053811         0.217234       0.0485827      -0.00027886     0.000141369
                    -0.000265315     0.000468817         0.907367        0.365021     -0.000238725     7.36117e-05         0.168134       0.0824945
281710                 -0.209307      -0.0814408      0.000269982     7.14646e-05         0.928342        0.284407     -0.000280885     0.000469301
                     0.000248526     0.000113897        -0.179843       -0.057862      3.53464e-05     0.000514858         0.907383        0.364523
                        0.928598        0.284704      7.96373e-05        0.000538          0.21727       0.0484621     -0.000278722     0.000141569
                    -0.000265099     0.000468773         0.907522        0.364639      -0.00023852      7.3724e-05         0.168176       0.0823961
281712                 -0.209336      -0.0813898      0.000270019     7.12838e-05         0.928457        0.284024      -0.00028065     0.000469323
                     0.000248579     0.000113696        -0.179853      -0.0578125      3.56613e-05     0.000514838         0.907538        0.364141
                        0.928713         0.28432      7.99889e-05     0.000537891         0.217306       0.0483416     -0.000278584     0.000141769
                    -0.000264882     0.000468728         0.907676        0.364256     -0.000238315     7.38359e-05         0.168218       0.0822977
281714                 -0.209365      -0.0813387      0.000270056     7.11029e-05         0.928572        0.283641     -0.000280415     0.000469345
                     0.000248615     0.000113501        -0.179863       -0.057763      3.59757e-05     0.000514819         0.907692        0.363758
                        0.928828        0.283937      8.03402e-05      0.00053778         0.217342        0.048221     -0.000278446     0.000141968
                    -0.000264666     0.000468683          0.90783        0.363873      -0.00023811     7.39474e-05         0.168261       0.0821992
281716                 -0.209394      -0.0812876      0.000270093      7.0922e-05         0.928687        0.283258      -0.00028018     0.000469367
                     0.000248644     0.000113307        -0.179873      -0.0577135      3.62896e-05     0.000514799         0.907846        0.363376
                        0.928943        0.283553      8.06911e-05      0.00053767         0.217377       0.0481004     -0.000278309     0.000142166
                     -0.00026445     0.000468638         0.907985         0.36349     -0.000237905     7.40584e-05         0.168303       0.0821007
281718                 -0.209423      -0.0812366      0.000270129      7.0741e-05         0.928802        0.282874     -0.000279945     0.000469389
                     0.000248671     0.000113113        -0.179883      -0.0576639      3.66031e-05     0.000514779            0.908        0.362993
                        0.929058         0.28317      8.10417e-05     0.000537559         0.217413       0.0479797     -0.000278172     0.000142364
                    -0.000264234     0.000468593         0.908139        0.363107     -0.000237699      7.4169e-05         0.168345       0.0820022
281720                 -0.209452      -0.0811855      0.000270165     7.05598e-05         0.928916        0.282491      -0.00027971     0.000469411
                     0.000248695     0.000112919        -0.179893      -0.0576144       3.6916e-05     0.000514759         0.908153         0.36261
                        0.929173        0.282786      8.13919e-05     0.000537448         0.217448       0.0478591     -0.000278035     0.000142561
                    -0.000264018     0.000468547         0.908292        0.362724     -0.000237494     7.42791e-05         0.168387       0.0819036
281722                 -0.209481      -0.0811344      0.000270201     7.03786e-05         0.929031        0.282108     -0.000279475     0.000469433
                     0.000248719     0.000112725        -0.179903      -0.0575649      3.72284e-05     0.000514738         0.908307        0.362227
                        0.929288        0.282402      8.17417e-05     0.000537336         0.217484       0.0477384     -0.000277898     0.000142757
                    -0.000263802     0.000468502         0.908446        0.362341     -0.000237288     7.43888e-05         0.168429        0.081805
281724                  -0.20951      -0.0810833      0.000270237     7.01972e-05         0.929145        0.281724      -0.00027924     0.000469456
                     0.000248742     0.000112531        -0.179913      -0.0575153      3.75403e-05     0.000514718          0.90846        0.361844
                        0.929402        0.282019      8.20912e-05     0.000537224         0.217519       0.0476177     -0.000277762     0.000142952
                    -0.000263586     0.000468456           0.9086        0.361958     -0.000237082     7.44981e-05         0.168471       0.0817064
281726                 -0.209539      -0.0810321      0.000270272     7.00157e-05         0.929259        0.281341     -0.000279005     0.000469478
                     0.000248764     0.000112337        -0.179923      -0.0574658      3.78518e-05     0.000514697         0.908613        0.361461
                        0.929516        0.281635      8.24401e-05     0.000537112         0.217555       0.0474969     -0.000277625     0.000143146
                    -0.000263371      0.00046841         0.908753        0.361574     -0.000236877      7.4607e-05         0.168513       0.0816078
281728                 -0.209568       -0.080981      0.000270307     6.98341e-05         0.929373        0.280957      -0.00027877     0.000469501
                     0.000248785     0.000112143        -0.179933      -0.0574162      3.81627e-05     0.000514677         0.908766        0.361078
                         0.92963        0.281251      8.27887e-05     0.000536999          0.21759       0.0473762     -0.000277489      0.00014334
                    -0.000263156     0.000468365         0.908906        0.361191     -0.000236671     7.47155e-05         0.168555       0.0815092
281730                 -0.209597      -0.0809298      0.000270342     6.96523e-05         0.929487        0.280573     -0.000278536     0.000469523
                     0.000248807     0.000111949        -0.179943      -0.0573666      3.84731e-05     0.000514656         0.908919        0.360695
                        0.929744        0.280868      8.31367e-05     0.000536886         0.217625       0.0472554     -0.000277353     0.000143533
                    -0.000262941     0.000468319         0.909059        0.360808     -0.000236465     7.48235e-05         0.168596       0.0814105
281732                 -0.209626      -0.0808787      0.000270377     6.94704e-05         0.929601         0.28019     -0.000278301     0.000469546
                     0.000248827     0.000111755        -0.179953       -0.057317       3.8783e-05     0.000514635         0.909072        0.360312
                        0.929858        0.280484      8.34843e-05     0.000536772          0.21766       0.0471346     -0.000277217     0.000143726
                    -0.000262727     0.000468273         0.909212        0.360424     -0.000236259     7.49311e-05         0.168638       0.0813118
281734                 -0.209655      -0.0808275      0.000270411     6.92882e-05         0.929714        0.279806     -0.000278066     0.000469569
                     0.000248848     0.000111562        -0.179963      -0.0572675      3.90924e-05     0.000514613         0.909225        0.359929
                        0.929972          0.2801      8.38314e-05     0.000536657         0.217695       0.0470138     -0.000277081     0.000143917
                    -0.000262513     0.000468227         0.909365        0.360041     -0.000236053     7.50383e-05          0.16868       0.0812131
281736                 -0.209684      -0.0807763      0.000270446     6.91059e-05         0.929827        0.279422     -0.000277831     0.000469592
                     0.000248868     0.000111368        -0.179973      -0.0572179      3.94013e-05     0.000514592         0.909377        0.359545
                        0.930085        0.279716      8.41781e-05     0.000536542          0.21773        0.046893     -0.000276945     0.000144108
                      -0.0002623     0.000468181         0.909517        0.359657     -0.000235847      7.5145e-05         0.168721       0.0811143
281738                 -0.209713      -0.0807251      0.000270479     6.89233e-05         0.929941        0.279039     -0.000277597     0.000469615
                     0.000248888     0.000111174        -0.179982      -0.0571683      3.97097e-05      0.00051457         0.909529        0.359162
                        0.930198        0.279332      8.45243e-05     0.000536426         0.217765       0.0467721     -0.000276809     0.000144299
                    -0.000262087     0.000468135          0.90967        0.359273      -0.00023564     7.52514e-05         0.168763       0.0810156
281740                 -0.209742      -0.0806739      0.000270513     6.87405e-05         0.930054        0.278655     -0.000277362     0.000469638
                     0.000248907     0.000110981        -0.179992      -0.0571186      4.00176e-05     0.000514548         0.909681        0.358779
                        0.930312        0.278948      8.48701e-05     0.000536309           0.2178       0.0466512     -0.000276673     0.000144488
                    -0.000261875     0.000468089         0.909822        0.358889     -0.000235434     7.53573e-05         0.168804       0.0809168
281742                 -0.209771      -0.0806226      0.000270547     6.85574e-05         0.930167        0.278271     -0.000277127     0.000469661
                     0.000248926     0.000110787        -0.180002       -0.057069      4.03249e-05     0.000514526         0.909833        0.358395
                        0.930425        0.278564      8.52155e-05     0.000536192         0.217835       0.0465303     -0.000276538     0.000144677
                    -0.000261663     0.000468043         0.909974        0.358506     -0.000235228     7.54628e-05         0.168845       0.0808179
281744                   -0.2098      -0.0805714       0.00027058     6.83741e-05         0.930279        0.277887     -0.000276893     0.000469685
                     0.000248945     0.000110594        -0.180012      -0.0570194      4.06318e-05     0.000514504         0.909985        0.358011
                        0.930537        0.278179      8.55607e-05     0.000536074          0.21787       0.0464094     -0.000276402     0.000144865
                    -0.000261452     0.000467997         0.910126        0.358122     -0.000235021     7.55679e-05         0.168887       0.0807191
281746                 -0.209828      -0.0805201      0.000270613     6.81904e-05         0.930392        0.277503     -0.000276658     0.000469708
                     0.000248964     0.000110401        -0.180021      -0.0569698      4.09381e-05     0.000514482         0.910137        0.357628
                         0.93065        0.277795      8.59057e-05     0.000535954         0.217904       0.0462884     -0.000276266     0.000145052
                    -0.000261242     0.000467951         0.910278        0.357738     -0.000234814     7.56726e-05         0.168928       0.0806202
281748                 -0.209857      -0.0804689      0.000270646     6.80064e-05         0.930504        0.277119     -0.000276424     0.000469732
                     0.000248982     0.000110208        -0.180031      -0.0569201      4.12439e-05      0.00051446         0.910288        0.357244
                        0.930763        0.277411      8.62506e-05     0.000535834         0.217939       0.0461674     -0.000276131     0.000145239
                    -0.000261032     0.000467905          0.91043        0.357354     -0.000234608     7.57769e-05         0.168969       0.0805213
281750                 -0.209886      -0.0804176      0.000270679     6.78221e-05         0.930616        0.276735      -0.00027619     0.000469755
                     0.000249001     0.000110015        -0.180041      -0.0568705      4.15493e-05     0.000514437          0.91044         0.35686
                        0.930875        0.277027      8.65954e-05     0.000535713         0.217973       0.0460464     -0.000275995     0.000145424
                    -0.000260823     0.000467859         0.910581        0.356969     -0.000234401     7.58808e-05          0.16901       0.0804224
281752                 -0.209915      -0.0803663      0.000270711     6.76374e-05         0.930729        0.276351     -0.000275957     0.000469778
                     0.000249019     0.000109822         -0.18005      -0.0568208      4.18541e-05     0.000514414         0.910591        0.356476
                        0.930987        0.276642      8.69403e-05     0.000535591         0.218008       0.0459254      -0.00027586     0.000145608
                    -0.000260614     0.000467813         0.910733        0.356585     -0.000234194     7.59842e-05         0.169051       0.0803235
281754                 -0.209944       -0.080315      0.000270743     6.74523e-05         0.930841        0.275967     -0.000275722     0.000469799
                     0.000249037     0.000109629         -0.18006      -0.0567711      4.21584e-05     0.000514391         0.910742        0.356092
                        0.931099        0.276258      8.72854e-05     0.000535468         0.218042       0.0458043     -0.000275724     0.000145791
                    -0.000260406     0.000467767         0.910884        0.356201     -0.000233987     7.60872e-05         0.169092       0.0802245
281756                 -0.209972      -0.0802636      0.000270776     6.72668e-05         0.930952        0.275582     -0.000275485     0.000469822
                     0.000249054     0.000109436         -0.18007      -0.0567214      4.24621e-05     0.000514368         0.910893        0.355708
                        0.931211        0.275874      8.76307e-05     0.000535345         0.218076       0.0456833     -0.000275587     0.000145973
                    -0.000260199     0.000467721         0.911035        0.355817      -0.00023378     7.61898e-05         0.169133       0.0801255
281758                 -0.210001      -0.0802123      0.000270808     6.70809e-05         0.931064        0.275198     -0.000275248     0.000469846
                     0.000249072     0.000109243        -0.180079      -0.0566718      4.27654e-05     0.000514344         0.911043        0.355324
                        0.931323        0.275489      8.79762e-05      0.00053522          0.21811       0.0455622     -0.000275447     0.000146153
                    -0.000259992     0.000467675         0.911186        0.355432     -0.000233573     7.62919e-05         0.169173       0.0800265
281760                  -0.21003      -0.0801609      0.000270839     6.68946e-05         0.931175        0.274814     -0.000275013     0.000469871
                     0.000249089     0.000109051        -0.180089      -0.0566221      4.30681e-05     0.000514321         0.911194         0.35494
                        0.931434        0.275105      8.83219e-05     0.000535095         0.218145       0.0454411     -0.000275302     0.000146338
                    -0.000259786      0.00046763         0.911336        0.355048     -0.000233365     7.63937e-05         0.169214       0.0799274
281762                 -0.210059      -0.0801096      0.000270871     6.67078e-05         0.931287        0.274429     -0.000274778     0.000469896
                     0.000249106     0.000108858        -0.180098      -0.0565724      4.33703e-05     0.000514297         0.911344        0.354556
                        0.931546         0.27472      8.86679e-05      0.00053497         0.218179       0.0453199     -0.000275162     0.000146529
