! TOUCHSTONE file generated by CST MICROWAVE STUDIO
! Date and time: Tue Oct 14 07:28:52 2025
! Project name: Teste_Macro_Metasurface_Nanopilar.cst
! Parameters = {H=600; L_x=135; L_y=80; Lambda=1064; Max_L=200; Min_L=70; PathPara=1; Phi=0; Step_L=10; Theta=0; p=520; phaseX=180; phaseY=0}
! Header version: 2018
! Port assignment regex: !\s*Touchstone port\s*([0-9]+)\s*=\s*(CST MWS port|CST DS port)\s*([0-9]+|Zmin|Zmax)\s*\(\"(.*)\"\)(\s*mode\s*([0-9]+))?.*
! Touchstone port assignment:
! Touchstone port 1 = CST MWS port Zmax ("") mode 1
! Touchstone port 2 = CST MWS port Zmax ("") mode 2
! Touchstone port 3 = CST MWS port Zmin ("") mode 1
! Touchstone port 4 = CST MWS port Zmin ("") mode 2
! S-Parameters are not renormalized. Each port impedance will be approximated by the real part at minimum frequency. The values are described via the [Reference] keyword.
! Default impedance is overridden by [Reference]
[Version] 2.0
# GHz S RI R 376.73
[Number of Ports] 4
[Reference]
376.73 376.73 259.814 259.814 
[Number of Frequencies] 51
[Network Data]
281700               0.000142869       0.0817751     -0.000404457     0.000141191         0.977796       -0.189768      0.000217563     6.62925e-05
                    -0.000477922      5.9583e-05        -0.161422        0.104376      7.11887e-05     9.37244e-05        -0.639907       -0.732262
                        0.977452       -0.189547      9.50766e-05     0.000227595        0.0303173        0.076119     -0.000343991    -0.000278996
                     0.000199178     6.63617e-06        -0.640033       -0.732882     -0.000409123    -0.000394574        -0.125429        0.145237
281702               0.000174572       0.0817696     -0.000404448     0.000141236         0.977726       -0.190132      0.000217575     6.60882e-05
                    -0.000477948     5.97767e-05        -0.161371        0.104438      7.11645e-05     9.36292e-05        -0.640282       -0.731935
                        0.977382       -0.189911      9.51915e-05     0.000227413        0.0303424       0.0761032      -0.00034411    -0.000279037
                     0.000199162     6.54186e-06        -0.640408       -0.732556     -0.000409351    -0.000394346        -0.125336        0.145305
281704               0.000206272       0.0817641     -0.000404439     0.000141281         0.977656       -0.190496      0.000217588     6.58841e-05
                    -0.000477974     5.99704e-05        -0.161319        0.104501      7.11404e-05     9.35339e-05        -0.640658       -0.731609
                        0.977312       -0.190275       9.5306e-05      0.00022723        0.0303675       0.0760874      -0.00034423    -0.000279077
                     0.000199146     6.44759e-06        -0.640784       -0.732229     -0.000409579    -0.000394119        -0.125243        0.145373
281706               0.000237969       0.0817586     -0.000404431     0.000141326         0.977585        -0.19086        0.0002176     6.56801e-05
                       -0.000478     6.01641e-05        -0.161267        0.104563      7.11162e-05     9.34387e-05        -0.641032       -0.731282
                        0.977241       -0.190638      9.54201e-05     0.000227048        0.0303927       0.0760715     -0.000344349    -0.000279117
                     0.000199131     6.35336e-06        -0.641159       -0.731902     -0.000409807    -0.000393891        -0.125149        0.145442
281708               0.000269662        0.081753     -0.000404423     0.000141371         0.977515       -0.191224      0.000217612     6.54763e-05
                    -0.000478027     6.03579e-05        -0.161215        0.104626       7.1092e-05     9.33436e-05        -0.641407       -0.730955
                         0.97717       -0.191002      9.55337e-05     0.000226866        0.0304178       0.0760556     -0.000344469    -0.000279156
                     0.000199115     6.25917e-06        -0.641534       -0.731575     -0.000410036    -0.000393664        -0.125056         0.14551
281710               0.000301352       0.0817475     -0.000404416     0.000141416         0.977444       -0.191588      0.000217624     6.52726e-05
                    -0.000478053     6.05517e-05        -0.161164        0.104688      7.10678e-05     9.32484e-05        -0.641782       -0.730628
                        0.977099       -0.191366      9.56469e-05     0.000226683        0.0304429       0.0760398     -0.000344588    -0.000279196
                       0.0001991     6.16501e-06        -0.641908       -0.731248     -0.000410264    -0.000393436        -0.124963        0.145578
281712               0.000333039       0.0817419     -0.000404409     0.000141461         0.977373       -0.191952      0.000217636      6.5069e-05
                    -0.000478079     6.07455e-05        -0.161112         0.10475      7.10437e-05     9.31534e-05        -0.642156       -0.730301
                        0.977029        -0.19173      9.57597e-05       0.0002265         0.030468       0.0760239     -0.000344708    -0.000279235
                     0.000199084     6.07089e-06        -0.642283       -0.730921     -0.000410491    -0.000393209        -0.124869        0.145646
281714               0.000364723       0.0817364     -0.000404402     0.000141506         0.977302       -0.192316      0.000217647     6.48655e-05
                    -0.000478105     6.09394e-05         -0.16106        0.104813      7.10195e-05     9.30584e-05        -0.642531       -0.729974
                        0.976957       -0.192093       9.5872e-05     0.000226318         0.030493        0.076008     -0.000344828    -0.000279274
                     0.000199069     5.97681e-06        -0.642657       -0.730593     -0.000410719    -0.000392981        -0.124776        0.145714
281716               0.000396403       0.0817308     -0.000404396     0.000141552          0.97723        -0.19268      0.000217659     6.46621e-05
                    -0.000478132     6.11333e-05        -0.161008        0.104875      7.09952e-05     9.29634e-05        -0.642905       -0.729646
                        0.976886       -0.192457      9.59839e-05     0.000226135        0.0305181       0.0759921     -0.000344949    -0.000279313
                     0.000199053     5.88276e-06        -0.643032       -0.730265     -0.000410947    -0.000392754        -0.124682        0.145781
281718                0.00042808       0.0817252      -0.00040439     0.000141597         0.977159       -0.193044       0.00021767     6.44588e-05
                    -0.000478158     6.13272e-05        -0.160956        0.104937       7.0971e-05     9.28684e-05        -0.643279       -0.729318
                        0.976815       -0.192821      9.60953e-05     0.000225951        0.0305432       0.0759762     -0.000345069    -0.000279352
                     0.000199038     5.78875e-06        -0.643406       -0.729937     -0.000411175    -0.000392526        -0.124588        0.145849
281720               0.000459755       0.0817196     -0.000404384     0.000141642         0.977088       -0.193408      0.000217681     6.42555e-05
                    -0.000478184     6.15211e-05        -0.160905           0.105      7.09468e-05     9.27736e-05        -0.643653        -0.72899
                        0.976743       -0.193184      9.62063e-05     0.000225768        0.0305682       0.0759603      -0.00034519    -0.000279391
                     0.000199022     5.69478e-06         -0.64378       -0.729609     -0.000411402    -0.000392298        -0.124495        0.145917
281722               0.000491425        0.081714     -0.000404379     0.000141687         0.977016       -0.193772      0.000217692     6.40523e-05
                    -0.000478211     6.17151e-05        -0.160853        0.105062      7.09226e-05     9.26788e-05        -0.644026       -0.728662
                        0.976672       -0.193548      9.63168e-05     0.000225585        0.0305933       0.0759444     -0.000345311     -0.00027943
                     0.000199006     5.60085e-06        -0.644154       -0.729281     -0.000411629    -0.000392071        -0.124401        0.145984
281724               0.000523093       0.0817083     -0.000404374     0.000141733         0.976944       -0.194136      0.000217702     6.38493e-05
                    -0.000478237     6.19091e-05        -0.160801        0.105124      7.08983e-05      9.2584e-05          -0.6444       -0.728333
                          0.9766       -0.193912      9.64269e-05     0.000225401        0.0306183       0.0759285     -0.000345432    -0.000279468
                     0.000198991     5.50695e-06        -0.644527       -0.728952     -0.000411857    -0.000391843        -0.124307        0.146052
281726               0.000554757       0.0817027     -0.000404369     0.000141778         0.976872       -0.194499      0.000217713     6.36463e-05
                    -0.000478263     6.21032e-05        -0.160749        0.105186       7.0874e-05     9.24893e-05        -0.644773       -0.728005
                        0.976528       -0.194275      9.65366e-05     0.000225217        0.0306434       0.0759126     -0.000345553    -0.000279507
                     0.000198975      5.4131e-06        -0.644901       -0.728624     -0.000412084    -0.000391616        -0.124214         0.14612
281728               0.000586418        0.081697     -0.000404365     0.000141823           0.9768       -0.194863      0.000217723     6.34435e-05
                    -0.000478289     6.22972e-05        -0.160697        0.105249      7.08498e-05     9.23946e-05        -0.645146       -0.727676
                        0.976456       -0.194639      9.66458e-05     0.000225033        0.0306684       0.0758966     -0.000345674    -0.000279545
                      0.00019896     5.31928e-06        -0.645274       -0.728295     -0.000412311    -0.000391388         -0.12412        0.146187
281730               0.000618076       0.0816914     -0.000404361     0.000141869         0.976728       -0.195227      0.000217733     6.32407e-05
                    -0.000478316     6.24913e-05        -0.160645        0.105311      7.08255e-05        9.23e-05        -0.645519       -0.727347
                        0.976384       -0.195002      9.67545e-05     0.000224849        0.0306934       0.0758807     -0.000345795    -0.000279583
                     0.000198944      5.2255e-06        -0.645647       -0.727966     -0.000412538     -0.00039116        -0.124026        0.146254
281732               0.000649731       0.0816857     -0.000404358     0.000141914         0.976656       -0.195591      0.000217743      6.3038e-05
                    -0.000478342     6.26855e-05        -0.160593        0.105373      7.08012e-05     9.22055e-05        -0.645892       -0.727018
                        0.976311       -0.195366      9.68628e-05     0.000224665        0.0307184       0.0758647     -0.000345917    -0.000279621
                     0.000198929     5.13175e-06         -0.64602       -0.727636     -0.000412765    -0.000390933        -0.123932        0.146322
281734               0.000681382         0.08168     -0.000404355      0.00014196         0.976583       -0.195955      0.000217752     6.28355e-05
                    -0.000478369     6.28796e-05         -0.16054        0.105435      7.07768e-05      9.2111e-05        -0.646265       -0.726688
                        0.976239       -0.195729      9.69707e-05     0.000224481        0.0307434       0.0758488     -0.000346038    -0.000279658
                     0.000198913     5.03805e-06        -0.646393       -0.727307     -0.000412992    -0.000390705        -0.123838        0.146389
281736               0.000713031       0.0816743     -0.000404352     0.000142005         0.976511       -0.196318      0.000217762      6.2633e-05
                    -0.000478395     6.30738e-05        -0.160488        0.105497      7.07525e-05     9.20166e-05        -0.646637       -0.726359
                        0.976166       -0.196093      9.70781e-05     0.000224296        0.0307684       0.0758328      -0.00034616    -0.000279696
                     0.000198898     4.94439e-06        -0.646766       -0.726977     -0.000413218    -0.000390478        -0.123744        0.146456
281738               0.000744675       0.0816686     -0.000404349     0.000142051         0.976438       -0.196682      0.000217771     6.24307e-05
                    -0.000478421     6.32681e-05        -0.160436        0.105559      7.07282e-05     9.19223e-05         -0.64701       -0.726029
                        0.976094       -0.196456      9.71851e-05     0.000224112        0.0307934       0.0758169     -0.000346282    -0.000279733
                     0.000198882     4.85076e-06        -0.647138       -0.726647     -0.000413445     -0.00039025         -0.12365        0.146523
281740               0.000776317       0.0816628     -0.000404347     0.000142097         0.976365       -0.197046       0.00021778     6.22285e-05
                    -0.000478448     6.34623e-05        -0.160384        0.105621      7.07038e-05      9.1828e-05        -0.647382       -0.725699
                        0.976021       -0.196819      9.72916e-05     0.000223927        0.0308184       0.0758009     -0.000346404     -0.00027977
                     0.000198867     4.75718e-06        -0.647511       -0.726317     -0.000413671    -0.000390023        -0.123556         0.14659
281742               0.000807955       0.0816571     -0.000404346     0.000142142         0.976292       -0.197409      0.000217789     6.20263e-05
                    -0.000478474     6.36566e-05        -0.160332        0.105683      7.06794e-05     9.17338e-05        -0.647754       -0.725369
                        0.975948       -0.197183      9.73977e-05     0.000223742        0.0308434       0.0757849     -0.000346526    -0.000279807
                     0.000198851     4.66363e-06        -0.647883       -0.725987     -0.000413898    -0.000389795        -0.123462        0.146657
281744                0.00083959       0.0816514     -0.000404344     0.000142188         0.976219       -0.197773      0.000217798     6.18243e-05
                      -0.0004785     6.38509e-05        -0.160279        0.105745       7.0655e-05     9.16397e-05        -0.648126       -0.725038
                        0.975875       -0.197546      9.75034e-05     0.000223557        0.0308683       0.0757689     -0.000346648    -0.000279844
                     0.000198836     4.57012e-06        -0.648255       -0.725656     -0.000414124    -0.000389568        -0.123368        0.146724
281746               0.000871222       0.0816456     -0.000404343     0.000142234         0.976146       -0.198136      0.000217806     6.16224e-05
                    -0.000478527     6.40453e-05        -0.160227        0.105807      7.06306e-05     9.15456e-05        -0.648498       -0.724708
                        0.975801       -0.197909      9.76086e-05     0.000223372        0.0308933       0.0757529     -0.000346771     -0.00027988
                      0.00019882     4.47666e-06        -0.648627       -0.725326      -0.00041435     -0.00038934        -0.123274        0.146791
281748               0.000902851       0.0816398     -0.000404343      0.00014228         0.976073         -0.1985      0.000217814     6.14206e-05
                    -0.000478553     6.42397e-05        -0.160175        0.105869      7.06061e-05     9.14516e-05        -0.648869       -0.724377
                        0.975728       -0.198273      9.77133e-05     0.000223187        0.0309182       0.0757369     -0.000346894    -0.000279917
                     0.000198805     4.38324e-06        -0.648999       -0.724995     -0.000414576    -0.000389113         -0.12318        0.146858
281750               0.000934476        0.081634     -0.000404342     0.000142326         0.975999       -0.198864      0.000217822     6.12189e-05
                     -0.00047858     6.44341e-05        -0.160123        0.105931      7.05817e-05     9.13577e-05        -0.649241       -0.724046
                        0.975655       -0.198636      9.78176e-05     0.000223002        0.0309432       0.0757209     -0.000347016    -0.000279953
                     0.000198789     4.28985e-06         -0.64937       -0.724664     -0.000414802    -0.000388885        -0.123086        0.146925
281752               0.000966098       0.0816282     -0.000404342     0.000142372         0.975925       -0.199227       0.00021783     6.10173e-05
                    -0.000478606     6.46285e-05         -0.16007        0.105993      7.05572e-05     9.12638e-05        -0.649612       -0.723715
                        0.975581       -0.198999      9.79215e-05     0.000222817        0.0309681       0.0757048     -0.000347139    -0.000279989
                     0.000198774     4.19651e-06        -0.649742       -0.724332     -0.000415028    -0.000388658        -0.122991        0.146991
281754               0.000997716       0.0816224     -0.000404343     0.000142418         0.975852       -0.199591      0.000217838     6.08158e-05
                    -0.000478633      6.4823e-05        -0.160018        0.106055      7.05327e-05     9.11701e-05        -0.649983       -0.723383
                        0.975507       -0.199362      9.80249e-05     0.000222631         0.030993       0.0756888     -0.000347262    -0.000280025
                     0.000198758     4.10322e-06        -0.650113       -0.724001     -0.000415253     -0.00038843        -0.122897        0.147058
281756                0.00102933       0.0816166     -0.000404343     0.000142464         0.975778       -0.199954      0.000217845     6.06144e-05
                    -0.000478659     6.50175e-05        -0.159965        0.106117      7.05082e-05     9.10764e-05        -0.650354       -0.723052
                        0.975433       -0.199726      9.81279e-05     0.000222446        0.0310179       0.0756728     -0.000347386    -0.000280061
                     0.000198743     4.00996e-06        -0.650484       -0.723669     -0.000415479    -0.000388203        -0.122803        0.147125
281758                0.00106094       0.0816108     -0.000404344      0.00014251         0.975704       -0.200317      0.000217853     6.04131e-05
                    -0.000478685      6.5212e-05        -0.159913        0.106179      7.04836e-05     9.09828e-05        -0.650725        -0.72272
                        0.975359       -0.200089      9.82304e-05      0.00022226        0.0310428       0.0756567     -0.000347509    -0.000280096
                     0.000198728     3.91676e-06        -0.650855       -0.723337     -0.000415704    -0.000387976        -0.122708        0.147191
281760                0.00109255       0.0816049     -0.000404346     0.000142556         0.975629       -0.200681       0.00021786     6.02119e-05
                    -0.000478712     6.54066e-05         -0.15986         0.10624      7.04591e-05     9.08892e-05        -0.651095       -0.722388
                        0.975285       -0.200452      9.83325e-05     0.000222074        0.0310677       0.0756407     -0.000347633    -0.000280132
                     0.000198712     3.82361e-06        -0.651225       -0.723005     -0.000415929    -0.000387748        -0.122614        0.147257
281762                0.00112416       0.0815991     -0.000404348     0.000142603         0.975555       -0.201044      0.000217867     6.00108e-05
                    -0.000478738     6.56012e-05        -0.159808        0.106302      7.04345e-05     9.07958e-05        -0.651466       -0.722056
                         0.97521       -0.200815      9.84342e-05     0.000221888        0.0310926       0.0756246     -0.000347756    -0.000280167
