! TOUCHSTONE file generated by CST MICROWAVE STUDIO
! Date and time: Tue Oct 14 07:32:56 2025
! Project name: Teste_Macro_Metasurface_Nanopilar.cst
! Parameters = {H=600; L_x=195; L_y=200; Lambda=1064; Max_L=200; Min_L=70; PathPara=1; Phi=0; Step_L=10; Theta=0; p=520; phaseX=180; phaseY=0}
! Header version: 2018
! Port assignment regex: !\s*Touchstone port\s*([0-9]+)\s*=\s*(CST MWS port|CST DS port)\s*([0-9]+|Zmin|Zmax)\s*\(\"(.*)\"\)(\s*mode\s*([0-9]+))?.*
! Touchstone port assignment:
! Touchstone port 1 = CST MWS port Zmax ("") mode 1
! Touchstone port 2 = CST MWS port Zmax ("") mode 2
! Touchstone port 3 = CST MWS port Zmin ("") mode 1
! Touchstone port 4 = CST MWS port Zmin ("") mode 2
! S-Parameters are not renormalized. Each port impedance will be approximated by the real part at minimum frequency. The values are described via the [Reference] keyword.
! Default impedance is overridden by [Reference]
[Version] 2.0
# GHz S RI R 376.73
[Number of Ports] 4
[Reference]
376.73 376.73 259.814 259.814 
[Number of Frequencies] 51
[Network Data]
281700                 -0.436187       -0.142004     -0.000391628    -4.06805e-05         0.877117       -0.117258     -0.000371007    -0.000329483
                    -0.000369643     6.53495e-05        -0.405062       -0.144981     -9.61454e-06    -0.000290147         0.895928      -0.0773719
                        0.877227       -0.117348     -6.76011e-05    -0.000437594         0.381048       -0.252372      0.000180258    -0.000450776
                    -0.000382462    -0.000376944         0.896031      -0.0773347      0.000213605    -0.000276267           0.3716       -0.213284
281702                 -0.436247       -0.141873     -0.000391906    -4.06593e-05         0.877061       -0.117615     -0.000371213    -0.000329342
                    -0.000369633     6.54345e-05        -0.405124       -0.144863     -9.89249e-06    -0.000290335         0.895887      -0.0777375
                         0.87717       -0.117707     -6.78732e-05    -0.000437602         0.380933       -0.252575      0.000180279    -0.000450581
                    -0.000382645    -0.000376794         0.895993      -0.0777016      0.000213274    -0.000276569         0.371505       -0.213484
281704                 -0.436307       -0.141742     -0.000392193    -4.06501e-05         0.877006       -0.117972     -0.000371419      -0.0003292
                    -0.000369622     6.55197e-05        -0.405186       -0.144745     -1.01716e-05    -0.000290522         0.895846      -0.0781032
                        0.877113       -0.118066     -6.81499e-05    -0.000437608         0.380818       -0.252778      0.000180302    -0.000450385
                    -0.000382828    -0.000376644         0.895954      -0.0780684      0.000212942     -0.00027687         0.371411       -0.213683
281706                 -0.436367       -0.141611     -0.000392488    -4.06543e-05          0.87695       -0.118329     -0.000371626    -0.000329058
                     -0.00036961      6.5605e-05        -0.405248       -0.144627     -1.04518e-05    -0.000290709         0.895805      -0.0784689
                        0.877056       -0.118425     -6.84318e-05    -0.000437611         0.380703       -0.252981      0.000180324    -0.000450189
                     -0.00038301    -0.000376492         0.895915      -0.0784351      0.000212609    -0.000277169         0.371316       -0.213882
281708                 -0.436427        -0.14148     -0.000392792    -4.06737e-05         0.876894       -0.118686     -0.000371833    -0.000328915
                    -0.000369598     6.56903e-05         -0.40531        -0.14451     -1.07333e-05    -0.000290895         0.895763      -0.0788347
                        0.876999       -0.118784     -6.87195e-05    -0.000437611         0.380588       -0.253183      0.000180348    -0.000449993
                    -0.000383192    -0.000376341         0.895875      -0.0788018      0.000212276    -0.000277469         0.371222       -0.214081
281710                 -0.436486       -0.141349     -0.000393107    -4.07102e-05         0.876837       -0.119043     -0.000372041    -0.000328772
                    -0.000369584     6.57757e-05        -0.405371       -0.144392     -1.10161e-05     -0.00029108         0.895722      -0.0792006
                        0.876942       -0.119143     -6.90137e-05    -0.000437607         0.380472       -0.253386      0.000180371    -0.000449797
                    -0.000383375    -0.000376189         0.895836      -0.0791684      0.000211941    -0.000277767         0.371127       -0.214281
281712                 -0.436546       -0.141218     -0.000393433    -4.07662e-05          0.87678         -0.1194     -0.000372249    -0.000328628
                     -0.00036957     6.58611e-05        -0.405433       -0.144274     -1.13002e-05    -0.000291265          0.89568      -0.0795666
                        0.876884       -0.119502     -6.93151e-05    -0.000437599         0.380357       -0.253589      0.000180395    -0.000449601
                    -0.000383557    -0.000376036         0.895796      -0.0795349      0.000211606    -0.000278064         0.371032        -0.21448
281714                 -0.436606       -0.141087     -0.000393773    -4.08445e-05         0.876722       -0.119758     -0.000372458    -0.000328482
                    -0.000369555     6.59463e-05        -0.405494       -0.144156     -1.15858e-05    -0.000291449         0.895638      -0.0799326
                        0.876827        -0.11986     -6.96247e-05    -0.000437586         0.380241       -0.253792       0.00018042    -0.000449404
                    -0.000383739    -0.000375883         0.895756      -0.0799014      0.000211269     -0.00027836         0.370937       -0.214679
281716                 -0.436665       -0.140955     -0.000394128    -4.09486e-05         0.876665       -0.120115     -0.000372668    -0.000328336
                    -0.000369539     6.60313e-05        -0.405556       -0.144038      -1.1873e-05    -0.000291632         0.895596      -0.0802987
                        0.876769       -0.120219     -6.99437e-05    -0.000437567         0.380126       -0.253994      0.000180445    -0.000449207
                    -0.000383921    -0.000375729         0.895716      -0.0802678      0.000210932    -0.000278655         0.370842       -0.214878
281718                 -0.436725       -0.140824       -0.0003945    -4.10824e-05         0.876606       -0.120473     -0.000372878    -0.000328189
                    -0.000369522     6.61159e-05        -0.405617        -0.14392      -1.2162e-05    -0.000291814         0.895553      -0.0806648
                        0.876711       -0.120578     -7.02734e-05    -0.000437543          0.38001       -0.254197      0.000180471     -0.00044901
                    -0.000384103    -0.000375575         0.895675      -0.0806341      0.000210594     -0.00027895         0.370747       -0.215077
281720                 -0.436785       -0.140693     -0.000394892    -4.12512e-05         0.876548       -0.120831      -0.00037309    -0.000328041
                    -0.000369503        6.62e-05        -0.405678       -0.143802     -1.24528e-05    -0.000291995         0.895511       -0.081031
                        0.876653       -0.120936     -7.06154e-05    -0.000437512         0.379894       -0.254399      0.000180498    -0.000448813
                    -0.000384285     -0.00037542         0.895634      -0.0810003      0.000210255    -0.000279243         0.370652       -0.215276
281722                 -0.436844       -0.140562     -0.000395307    -4.14614e-05         0.876489       -0.121189     -0.000373303    -0.000327891
                    -0.000369483     6.62833e-05        -0.405739       -0.143684     -1.27457e-05    -0.000292176         0.895468      -0.0813972
                        0.876595       -0.121295     -7.09718e-05    -0.000437473         0.379778       -0.254602      0.000180525    -0.000448616
                    -0.000384467    -0.000375264         0.895593      -0.0813665      0.000209916    -0.000279535         0.370556       -0.215475
281724                 -0.436904        -0.14043      -0.00039575    -4.17209e-05          0.87643       -0.121548     -0.000373517     -0.00032774
                    -0.000369462     6.63655e-05        -0.405801       -0.143566     -1.30411e-05    -0.000292356         0.895426      -0.0817635
                        0.876537       -0.121654     -7.13452e-05    -0.000437424         0.379662       -0.254804      0.000180553    -0.000448418
                    -0.000384649    -0.000375108         0.895552      -0.0817325      0.000209576    -0.000279826         0.370461       -0.215675
281726                 -0.436963       -0.140299     -0.000396227    -4.20403e-05         0.876371       -0.121906     -0.000373733    -0.000327588
                     -0.00036944     6.64465e-05        -0.405862       -0.143448     -1.33391e-05    -0.000292534         0.895383      -0.0821298
                        0.876479       -0.122012     -7.17387e-05    -0.000437364         0.379545       -0.255007      0.000180583     -0.00044822
                    -0.000384831    -0.000374951          0.89551      -0.0820985      0.000209235    -0.000280116         0.370365       -0.215874
281728                 -0.437023       -0.140168     -0.000396744    -4.24336e-05         0.876311       -0.122265     -0.000373952    -0.000327434
                    -0.000369416     6.65258e-05        -0.405923        -0.14333     -1.36403e-05    -0.000292712          0.89534      -0.0824962
                         0.87642       -0.122371     -7.21566e-05     -0.00043729         0.379429       -0.255209      0.000180613    -0.000448021
                    -0.000385013    -0.000374794         0.895469      -0.0824643      0.000208893    -0.000280404         0.370269       -0.216073
281730                 -0.437082       -0.140036     -0.000397314    -4.29199e-05         0.876252       -0.122624     -0.000374172    -0.000327278
                    -0.000369391     6.66031e-05        -0.405983       -0.143212     -1.39454e-05    -0.000292889         0.895297      -0.0828625
                        0.876362       -0.122729     -7.26045e-05    -0.000437199         0.379313       -0.255411      0.000180645    -0.000447822
                    -0.000385195    -0.000374636         0.895427      -0.0828301      0.000208551    -0.000280691         0.370173       -0.216272
281732                 -0.437141       -0.139905     -0.000397953    -4.35262e-05         0.876192       -0.122984     -0.000374396     -0.00032712
                    -0.000369366     6.66781e-05        -0.406044       -0.143095     -1.42551e-05    -0.000293066         0.895253      -0.0832289
                        0.876303       -0.123088     -7.30902e-05    -0.000437085         0.379196       -0.255613      0.000180678    -0.000447622
                    -0.000385377    -0.000374477         0.895385      -0.0831957      0.000208208    -0.000280976         0.370077       -0.216471
281734                 -0.437201       -0.139774     -0.000398686     -4.4293e-05         0.876132       -0.123343     -0.000374623     -0.00032696
                     -0.00036934     6.67504e-05        -0.406105       -0.142977     -1.45707e-05    -0.000293242          0.89521      -0.0835954
                        0.876244       -0.123446     -7.36245e-05     -0.00043694         0.379079       -0.255815      0.000180713    -0.000447422
                     -0.00038556    -0.000374317         0.895343      -0.0835611      0.000207866     -0.00028126         0.369981        -0.21667
281736                  -0.43726       -0.139642     -0.000399558    -4.52842e-05         0.876072       -0.123703     -0.000374855    -0.000326797
                    -0.000369314     6.68199e-05        -0.406166       -0.142859     -1.48939e-05    -0.000293418         0.895166      -0.0839618
                        0.876185       -0.123805     -7.42242e-05    -0.000436751         0.378963       -0.256018      0.000180749    -0.000447222
                    -0.000385743    -0.000374156           0.8953      -0.0839263      0.000207523    -0.000281542         0.369885       -0.216868
281738                 -0.437319       -0.139511     -0.000400652      -4.661e-05         0.876012       -0.124063     -0.000375093    -0.000326632
                    -0.000369288     6.68864e-05        -0.406226       -0.142742     -1.52275e-05    -0.000293594         0.895123      -0.0843283
                        0.876126       -0.124163     -7.49161e-05    -0.000436493         0.378846        -0.25622      0.000180786    -0.000447023
                    -0.000385926    -0.000373995         0.895258      -0.0842913      0.000207182    -0.000281821         0.369789       -0.217067
281740                 -0.437378       -0.139379     -0.000402141    -4.84841e-05         0.875952       -0.124423     -0.000375339    -0.000326464
                    -0.000369263       6.695e-05        -0.406287       -0.142626     -1.55759e-05    -0.000293772         0.895079      -0.0846948
                        0.876067       -0.124521     -7.57478e-05    -0.000436118         0.378729       -0.256422      0.000180824    -0.000446826
                     -0.00038611    -0.000373833         0.895217      -0.0846557      0.000206842    -0.000282097         0.369692       -0.217266
281742                 -0.437438       -0.139248     -0.000404473    -5.13982e-05         0.875892       -0.124784     -0.000375595    -0.000326296
                     -0.00036924      6.7011e-05        -0.406347       -0.142511     -1.59472e-05    -0.000293954         0.895035      -0.0850614
                        0.876008        -0.12488     -7.68157e-05    -0.000435508         0.378611       -0.256623      0.000180862    -0.000446633
                    -0.000386294     -0.00037367         0.895176      -0.0850191      0.000206507    -0.000282368         0.369596       -0.217465
281744                 -0.437497       -0.139116     -0.000409218    -5.68506e-05         0.875832       -0.125144     -0.000375864    -0.000326129
                    -0.000369218     6.70698e-05        -0.406406       -0.142402      -1.6357e-05    -0.000294142         0.894991       -0.085428
                        0.875948       -0.125238     -7.83541e-05    -0.000434308         0.378494       -0.256825      0.000180896    -0.000446454
                     -0.00038648    -0.000373506         0.895137        -0.08538      0.000206179    -0.000282631         0.369499       -0.217664
281746                 -0.437556       -0.138985     -0.000427834    -7.26455e-05         0.875772       -0.125505     -0.000376153    -0.000325979
                    -0.000369195      6.7127e-05        -0.406438       -0.142315     -1.68411e-05    -0.000294343         0.894946      -0.0857947
                        0.875888       -0.125596     -8.10601e-05     -0.00043074         0.378377       -0.257027      0.000180917    -0.000446314
                    -0.000386667    -0.000373342         0.895113      -0.0857292       0.00020587    -0.000282881         0.369402       -0.217863
281748                 -0.437615       -0.138853     -0.000380475       4.985e-05         0.875713       -0.125867     -0.000376474    -0.000325914
                    -0.000369167     6.71828e-05        -0.406487       -0.142106        -1.75e-05    -0.000294552         0.894902      -0.0861622
                        0.875828       -0.125955     -6.58941e-05    -0.000405687         0.378259       -0.257229      0.000180867    -0.000446347
                    -0.000386859    -0.000373177         0.894942      -0.0862354      0.000205608    -0.000283098         0.369305       -0.218061
281750                 -0.437674       -0.138722     -0.000386931    -2.76256e-05         0.875655       -0.126229     -0.000258952    -0.000428822
                    -0.000369103     6.72359e-05        -0.406575       -0.142002     -1.87166e-05    -0.000294614         0.894861      -0.0869812
                        0.875768       -0.126313     -6.79059e-05    -0.000441498          0.37814       -0.257431        1.094e-05    -0.000349867
                    -0.000387066    -0.000373015         0.894971       -0.086509       0.00020554     -0.00028317         0.369176        -0.21823
281752                 -0.437734        -0.13859     -0.000391508    -3.87197e-05         0.875599       -0.126591     -0.000377205    -0.000324871
                    -0.000369881     6.74408e-05         -0.40664        -0.14189     -2.02803e-05    -0.000291628         0.894812      -0.0868911
                        0.875709       -0.126674     -7.42231e-05    -0.000440245         0.378022       -0.257629      0.000181462    -0.000444735
                    -0.000387517    -0.000372537         0.894935      -0.0868656      0.000199248    -0.000277827         0.369112       -0.218459
281754                 -0.437792       -0.138458     -0.000393079    -4.46176e-05         0.875552       -0.126949     -0.000377727    -0.000324775
                    -0.000369285     6.73716e-05        -0.406702       -0.141774     -1.67944e-05    -0.000292248         0.894767      -0.0872584
                        0.875648       -0.127029     -7.70628e-05    -0.000439649         0.377907       -0.257832      0.000181436    -0.000444722
                    -0.000387349    -0.000372642         0.894894      -0.0872277       0.00020355    -0.000284343         0.369015       -0.218657
281756                 -0.437851       -0.138327     -0.000393071    -4.93949e-05         0.875496       -0.127282     -0.000378418    -0.000324606
                    -0.000369247     6.74286e-05        -0.406762       -0.141657     -1.71682e-05    -0.000293462         0.894722      -0.0876252
                        0.875588       -0.127387     -7.93318e-05    -0.000439566         0.377789       -0.258034      0.000181492    -0.000444498
                    -0.000387559    -0.000372484         0.894851      -0.0875913      0.000203485    -0.000284496         0.368917       -0.218856
281758                  -0.43791       -0.138195     -0.000391528     -5.3928e-05         0.875414       -0.127638      -0.00037942    -0.000324559
                    -0.000369236     6.74906e-05        -0.406822       -0.141539     -1.77045e-05    -0.000293896         0.894677      -0.0879917
                        0.875527       -0.127746     -8.16083e-05     -0.00043998         0.377671       -0.258236      0.000181572    -0.000444188
                    -0.000387755    -0.000372315         0.894808      -0.0879556      0.000203198    -0.000284712          0.36882       -0.219054
281760                 -0.437969       -0.138063      -0.00038803    -5.81677e-05         0.875346       -0.128004      -0.00038086    -0.000325123
                    -0.000369233     6.75555e-05        -0.406882       -0.141421     -1.82235e-05      -0.0002941         0.894632      -0.0883581
                        0.875467       -0.128104     -8.40666e-05    -0.000441107         0.377553       -0.258438      0.000181659      -0.0004438
                    -0.000387949    -0.000372144         0.894764      -0.0883202      0.000202845    -0.000284941         0.368722       -0.219253
281762                 -0.438028       -0.137932     -0.000382131    -6.12423e-05         0.875283       -0.128367     -0.000381824    -0.000327319
                    -0.000369233     6.76228e-05        -0.406941       -0.141302     -1.87575e-05    -0.000294195         0.894586      -0.0887245
                        0.875406       -0.128462     -8.65863e-05    -0.000443379         0.377435       -0.258639       0.00018173    -0.000443316
