! TOUCHSTONE file generated by CST MICROWAVE STUDIO
! Date and time: Tue Oct 14 07:31:08 2025
! Project name: Teste_Macro_Metasurface_Nanopilar.cst
! Parameters = {H=600; L_x=170; L_y=105; Lambda=1064; Max_L=200; Min_L=70; PathPara=1; Phi=0; Step_L=10; Theta=0; p=520; phaseX=180; phaseY=0}
! Header version: 2018
! Port assignment regex: !\s*Touchstone port\s*([0-9]+)\s*=\s*(CST MWS port|CST DS port)\s*([0-9]+|Zmin|Zmax)\s*\(\"(.*)\"\)(\s*mode\s*([0-9]+))?.*
! Touchstone port assignment:
! Touchstone port 1 = CST MWS port Zmax ("") mode 1
! Touchstone port 2 = CST MWS port Zmax ("") mode 2
! Touchstone port 3 = CST MWS port Zmin ("") mode 1
! Touchstone port 4 = CST MWS port Zmin ("") mode 2
! S-Parameters are not renormalized. Each port impedance will be approximated by the real part at minimum frequency. The values are described via the [Reference] keyword.
! Default impedance is overridden by [Reference]
[Version] 2.0
# GHz S RI R 376.73
[Number of Ports] 4
[Reference]
376.73 376.73 259.814 259.814 
[Number of Frequencies] 51
[Network Data]
281700                  -0.17645     -0.00726732     -0.000140029    -0.000734202        -0.925656       -0.306607      0.000200484    -0.000420692
                    -0.000211069    -0.000694031        -0.290056       -0.421773      0.000114458     0.000570337         0.695666         0.48531
                       -0.926181       -0.305837      0.000124818     0.000522407         0.144052       0.0995639     -0.000621262     0.000660551
                      0.00012513    -0.000487875          0.69654        0.485547     -0.000679132     0.000604325         0.494689        0.108641
281702                 -0.176439     -0.00720227     -0.000140626    -0.000734231        -0.925818       -0.306125       0.00020066    -0.000421358
                    -0.000211653    -0.000694043        -0.290331       -0.421795      0.000114552     0.000570323         0.695873        0.484823
                       -0.926343       -0.305355      0.000125274     0.000522608         0.144108       0.0994591     -0.000621401     0.000660981
                     0.000124837    -0.000488274         0.696747         0.48506     -0.000678956     0.000604774         0.494946        0.108269
281704                 -0.176429     -0.00713723     -0.000141222     -0.00073426         -0.92598       -0.305642      0.000200834    -0.000422028
                    -0.000212235    -0.000694053        -0.290606       -0.421816      0.000114645     0.000570309          0.69608        0.484334
                       -0.926505       -0.304873       0.00012573     0.000522808         0.144164       0.0993542     -0.000621538     0.000661416
                     0.000124544    -0.000488673         0.696953        0.484572     -0.000678777     0.000605224         0.495202        0.107896
281706                 -0.176418      -0.0070722     -0.000141818    -0.000734289        -0.926142        -0.30516      0.000201006    -0.000422703
                    -0.000212816    -0.000694064        -0.290881       -0.421838      0.000114738     0.000570296         0.696286        0.483846
                       -0.926667       -0.304391      0.000126187     0.000523007          0.14422       0.0992493     -0.000621673     0.000661857
                     0.000124251    -0.000489072         0.697159        0.484084     -0.000678597     0.000605675         0.495458        0.107522
281708                 -0.176408     -0.00700719     -0.000142414    -0.000734318        -0.926304       -0.304677      0.000201176    -0.000423383
                    -0.000213396    -0.000694074        -0.291156       -0.421859       0.00011483     0.000570283         0.696492        0.483358
                       -0.926828       -0.303909      0.000126644     0.000523207         0.144276       0.0991443     -0.000621806     0.000662302
                     0.000123958     -0.00048947         0.697364        0.483596     -0.000678415     0.000606128         0.495714        0.107148
281710                 -0.176397     -0.00694219     -0.000143009    -0.000734346        -0.926466       -0.304194      0.000201343    -0.000424066
                    -0.000213976    -0.000694085        -0.291431        -0.42188      0.000114922     0.000570271         0.696698        0.482869
                       -0.926989       -0.303427      0.000127102     0.000523406         0.144332       0.0990393     -0.000621937     0.000662753
                     0.000123666    -0.000489869         0.697569        0.483108      -0.00067823     0.000606582          0.49597        0.106774
281712                 -0.176387     -0.00687719     -0.000143603    -0.000734374        -0.926627       -0.303711      0.000201508    -0.000424754
                    -0.000214555    -0.000694095        -0.291706       -0.421901      0.000115013     0.000570258         0.696903         0.48238
                        -0.92715       -0.302944       0.00012756     0.000523605         0.144388       0.0989343     -0.000622067      0.00066321
                     0.000123373    -0.000490268         0.697774         0.48262     -0.000678043     0.000607037         0.496226        0.106399
281714                 -0.176376     -0.00681221     -0.000144198    -0.000734402        -0.926788       -0.303228      0.000201671    -0.000425447
                    -0.000215133    -0.000694105        -0.291982       -0.421922      0.000115103     0.000570246         0.697108        0.481891
                        -0.92731       -0.302462      0.000128019     0.000523804         0.144444       0.0988293     -0.000622194     0.000663671
                     0.000123081    -0.000490666         0.697978        0.482131     -0.000677855     0.000607493         0.496481        0.106024
281716                 -0.176365     -0.00674724     -0.000144792    -0.000734429        -0.926948       -0.302745      0.000201832    -0.000426143
                    -0.000215711    -0.000694116        -0.292258       -0.421943      0.000115193     0.000570234         0.697313        0.481401
                        -0.92747        -0.30198      0.000128478     0.000524003         0.144499       0.0987242      -0.00062232     0.000664137
                     0.000122789    -0.000491065         0.698182        0.481642     -0.000677664      0.00060795         0.496736        0.105649
281718                 -0.176355     -0.00668229     -0.000145385    -0.000734456        -0.927109       -0.302262       0.00020199    -0.000426843
                    -0.000216288    -0.000694127        -0.292534       -0.421964      0.000115282     0.000570223         0.697517        0.480911
                        -0.92763       -0.301497      0.000128937     0.000524201         0.144555       0.0986191     -0.000622443     0.000664608
                     0.000122497    -0.000491463         0.698386        0.481153     -0.000677472     0.000608409         0.496991        0.105273
281720                 -0.176344     -0.00661734     -0.000145978    -0.000734483        -0.927269       -0.301779      0.000202146    -0.000427547
                    -0.000216865    -0.000694138         -0.29281       -0.421985      0.000115371     0.000570211         0.697721        0.480421
                        -0.92779       -0.301015      0.000129397     0.000524399          0.14461       0.0985139     -0.000622565     0.000665084
                     0.000122204    -0.000491861         0.698589        0.480663     -0.000677277     0.000608868         0.497246        0.104896
281722                 -0.176333     -0.00655241     -0.000146571     -0.00073451        -0.927429       -0.301296        0.0002023    -0.000428255
                    -0.000217442     -0.00069415        -0.293087       -0.422005      0.000115458       0.0005702         0.697924        0.479931
                       -0.927949       -0.300532      0.000129858     0.000524597         0.144666       0.0984087     -0.000622685     0.000665565
                     0.000121912    -0.000492258         0.698792        0.480174     -0.000677081     0.000609329         0.497501         0.10452
281724                 -0.176322     -0.00648748     -0.000147164    -0.000734536        -0.927589       -0.300812      0.000202452    -0.000428967
                    -0.000218018    -0.000694162        -0.293363       -0.422026      0.000115545     0.000570189         0.698127         0.47944
                       -0.928109       -0.300049      0.000130318     0.000524794         0.144721       0.0983035     -0.000622803     0.000666051
                      0.00012162    -0.000492656         0.698995        0.479684     -0.000676883     0.000609791         0.497756        0.104142
281726                 -0.176312     -0.00642257     -0.000147756    -0.000734563        -0.927748       -0.300329      0.000202602    -0.000429683
                    -0.000218595    -0.000694174         -0.29364       -0.422046      0.000115632     0.000570179          0.69833         0.47895
                       -0.928268       -0.299566       0.00013078     0.000524991         0.144776       0.0981982     -0.000622919     0.000666542
                     0.000121327    -0.000493053         0.699197        0.479194     -0.000676683     0.000610254          0.49801        0.103765
281728                 -0.176301     -0.00635767     -0.000148347    -0.000734589        -0.927907       -0.299845      0.000202749    -0.000430402
                    -0.000219172    -0.000694187        -0.293917       -0.422066      0.000115717     0.000570169         0.698532        0.478459
                       -0.928426       -0.299083      0.000131241     0.000525189         0.144832       0.0980929     -0.000623034     0.000667037
                     0.000121035     -0.00049345         0.699398        0.478703     -0.000676481     0.000610718         0.498265        0.103387
281730                  -0.17629     -0.00629278     -0.000148939    -0.000734615        -0.928066       -0.299361      0.000202894    -0.000431125
                     -0.00021975      -0.0006942        -0.294195       -0.422086      0.000115802     0.000570159         0.698734        0.477967
                       -0.928585         -0.2986      0.000131704     0.000525385         0.144887       0.0979876     -0.000623146     0.000667537
                     0.000120742    -0.000493847           0.6996        0.478213     -0.000676278     0.000611184         0.498519        0.103008
281732                 -0.176279     -0.00622791      -0.00014953    -0.000734641        -0.928225       -0.298878      0.000203038    -0.000431852
                    -0.000220328    -0.000694214        -0.294472       -0.422106      0.000115885     0.000570149         0.698936        0.477476
                       -0.928743       -0.298117      0.000132166     0.000525582         0.144942       0.0978822     -0.000623257     0.000668041
                     0.000120449    -0.000494243         0.699801        0.477722     -0.000676073      0.00061165         0.498773         0.10263
281734                 -0.176268     -0.00616304     -0.000150121    -0.000734667        -0.928383       -0.298394      0.000203179    -0.000432582
                    -0.000220906    -0.000694227         -0.29475       -0.422126      0.000115968      0.00057014         0.699137        0.476984
                       -0.928901       -0.297634      0.000132629     0.000525778         0.144997       0.0977768     -0.000623366      0.00066855
                     0.000120155     -0.00049464         0.700002        0.477231     -0.000675866     0.000612117         0.499027         0.10225
281736                 -0.176257     -0.00609819     -0.000150711    -0.000734692        -0.928542        -0.29791      0.000203317    -0.000433315
                    -0.000221485    -0.000694241        -0.295027       -0.422146       0.00011605     0.000570132         0.699338        0.476492
                       -0.929059       -0.297151      0.000133093     0.000525974         0.145052       0.0976713     -0.000623473     0.000669064
                     0.000119861    -0.000495035         0.700202         0.47674     -0.000675657     0.000612586         0.499281        0.101871
281738                 -0.176246     -0.00603334     -0.000151301    -0.000734718          -0.9287       -0.297426      0.000203454    -0.000434052
                    -0.000222064    -0.000694255        -0.295305       -0.422166      0.000116132     0.000570123         0.699538           0.476
                       -0.929216       -0.296667      0.000133557      0.00052617         0.145106       0.0975659     -0.000623578     0.000669582
                     0.000119567    -0.000495431         0.700402        0.476248     -0.000675447     0.000613055         0.499534        0.101491
281740                 -0.176235     -0.00596851     -0.000151891    -0.000734744        -0.928857       -0.296942      0.000203589    -0.000434792
                    -0.000222645    -0.000694269        -0.295584       -0.422185      0.000116212     0.000570115         0.699738        0.475507
                       -0.929374       -0.296184      0.000134021     0.000526366         0.145161       0.0974604     -0.000623682     0.000670104
                     0.000119273    -0.000495826         0.700601        0.475756     -0.000675236     0.000613526         0.499788         0.10111
281742                 -0.176224     -0.00590369      -0.00015248    -0.000734769        -0.929015       -0.296458      0.000203721    -0.000435536
                    -0.000223226    -0.000694283        -0.295862       -0.422205      0.000116291     0.000570108         0.699938        0.475015
                        -0.92953         -0.2957      0.000134486     0.000526561         0.145216       0.0973548     -0.000623783     0.000670631
                     0.000118978    -0.000496221           0.7008        0.475264     -0.000675022     0.000613998         0.500041        0.100729
281744                 -0.176213     -0.00583888     -0.000153069    -0.000734794        -0.929172       -0.295973      0.000203852    -0.000436283
                    -0.000223808    -0.000694297        -0.296141       -0.422224      0.000116369     0.000570101         0.700137        0.474522
                       -0.929687       -0.295217      0.000134951     0.000526757          0.14527       0.0972492     -0.000623883     0.000671162
                     0.000118683    -0.000496616         0.700999        0.474772     -0.000674808      0.00061447         0.500294        0.100348
281746                 -0.176202     -0.00577409     -0.000153658     -0.00073482        -0.929329       -0.295489       0.00020398    -0.000437033
                    -0.000224391    -0.000694311        -0.296419       -0.422243      0.000116446     0.000570094         0.700336        0.474028
                       -0.929844       -0.294733      0.000135417     0.000526952         0.145325       0.0971436     -0.000623981     0.000671697
                     0.000118388     -0.00049701         0.701198        0.474279     -0.000674592     0.000614944         0.500547       0.0999661
281748                 -0.176191      -0.0057093     -0.000154247    -0.000734845        -0.929486       -0.295005      0.000204107    -0.000437786
                    -0.000224974    -0.000694324        -0.296698       -0.422262      0.000116522     0.000570088         0.700535        0.473535
                           -0.93       -0.294249      0.000135883     0.000527146         0.145379        0.097038     -0.000624078     0.000672237
                     0.000118091    -0.000497404         0.701396        0.473787     -0.000674374     0.000615418         0.500799       0.0995839
281750                  -0.17618     -0.00564453     -0.000154835    -0.000734871        -0.929642        -0.29452      0.000204231    -0.000438542
                    -0.000225559    -0.000694337        -0.296978       -0.422281      0.000116597     0.000570083         0.700733        0.473041
                       -0.930156       -0.293765      0.000136349     0.000527341         0.145433       0.0969323     -0.000624172     0.000672781
                     0.000117795    -0.000497798         0.701593        0.473294     -0.000674155     0.000615894         0.501052       0.0992014
281752                 -0.176168     -0.00557976     -0.000155423    -0.000734896        -0.929798       -0.294035      0.000204354    -0.000439302
                    -0.000226144     -0.00069435        -0.297257         -0.4223      0.000116671     0.000570078         0.700931        0.472547
                       -0.930312       -0.293281      0.000136816     0.000527535         0.145488       0.0968266     -0.000624265     0.000673329
                     0.000117498    -0.000498191         0.701791        0.472801     -0.000673934      0.00061637         0.501304       0.0988184
281754                 -0.176157     -0.00551501     -0.000156011    -0.000734921        -0.929954       -0.293551      0.000204475    -0.000440064
                     -0.00022673    -0.000694362        -0.297537       -0.422319      0.000116744     0.000570074         0.701128        0.472053
                       -0.930467       -0.292797      0.000137283     0.000527729         0.145542       0.0967208     -0.000624355      0.00067388
                       0.0001172    -0.000498585         0.701988        0.472307     -0.000673712     0.000616847         0.501557        0.098435
281756                 -0.176146     -0.00545027     -0.000156598    -0.000734946         -0.93011       -0.293066      0.000204593    -0.000440829
                    -0.000227317    -0.000694374        -0.297816       -0.422338      0.000116815     0.000570072         0.701325        0.471559
                       -0.930622       -0.292313      0.000137751     0.000527923         0.145596        0.096615     -0.000624444     0.000674436
                     0.000116902    -0.000498977         0.702184        0.471814     -0.000673489     0.000617326         0.501809       0.0980512
281758                 -0.176135     -0.00538554     -0.000157186    -0.000734971        -0.930265       -0.292581       0.00020471    -0.000441598
                    -0.000227905    -0.000694385        -0.298096       -0.422356      0.000116885     0.000570071         0.701522        0.471064
                       -0.930777       -0.291829      0.000138219     0.000528117          0.14565       0.0965092     -0.000624532     0.000674996
                     0.000116604     -0.00049937          0.70238         0.47132     -0.000673265     0.000617805          0.50206       0.0976669
281760                 -0.176123     -0.00532082     -0.000157773    -0.000734995        -0.930421       -0.292096      0.000204825    -0.000442369
                    -0.000228493    -0.000694396        -0.298377       -0.422374      0.000116953     0.000570073         0.701718        0.470569
                       -0.930932       -0.291345      0.000138688     0.000528311         0.145704       0.0964033     -0.000624617      0.00067556
                     0.000116305    -0.000499762         0.702576        0.470826     -0.000673039     0.000618285         0.502312       0.0972823
281762                 -0.176112     -0.00525611     -0.000158361     -0.00073502        -0.930576       -0.291611      0.000204939    -0.000443144
                    -0.000229082    -0.000694406        -0.298657       -0.422393      0.000117018     0.000570077         0.701914        0.470074
                       -0.931086        -0.29086      0.000139156     0.000528504         0.145758       0.0962974     -0.000624701     0.000676128
