! TOUCHSTONE file generated by CST MICROWAVE STUDIO
! Date and time: Tue Oct 14 07:32:08 2025
! Project name: Teste_Macro_Metasurface_Nanopilar.cst
! Parameters = {H=600; L_x=185; L_y=125; Lambda=1064; Max_L=200; Min_L=70; PathPara=1; Phi=0; Step_L=10; Theta=0; p=520; phaseX=180; phaseY=0}
! Header version: 2018
! Port assignment regex: !\s*Touchstone port\s*([0-9]+)\s*=\s*(CST MWS port|CST DS port)\s*([0-9]+|Zmin|Zmax)\s*\(\"(.*)\"\)(\s*mode\s*([0-9]+))?.*
! Touchstone port assignment:
! Touchstone port 1 = CST MWS port Zmax ("") mode 1
! Touchstone port 2 = CST MWS port Zmax ("") mode 2
! Touchstone port 3 = CST MWS port Zmin ("") mode 1
! Touchstone port 4 = CST MWS port Zmin ("") mode 2
! S-Parameters are not renormalized. Each port impedance will be approximated by the real part at minimum frequency. The values are described via the [Reference] keyword.
! Default impedance is overridden by [Reference]
[Version] 2.0
# GHz S RI R 376.73
[Number of Ports] 4
[Reference]
376.73 376.73 259.814 259.814 
[Number of Frequencies] 51
[Network Data]
281700                 -0.104076       -0.141183     -7.75782e-05    -0.000470746         0.227229        0.953397      0.000694155    -6.80248e-05
                    -0.000111438    -0.000374361        -0.162083       0.0545105      0.000491385    -0.000849269         0.718949        0.666726
                        0.227763        0.953023      0.000399639    -0.000654267       -0.0277306        0.172076      0.000579176     0.000396211
                     0.000545965     1.58273e-05         0.718874        0.666391      0.000870382     0.000287958        -0.042152         0.15965
281702                 -0.104125       -0.141173     -7.79342e-05    -0.000470574         0.227649          0.9533      0.000694267    -6.85723e-05
                    -0.000113628    -0.000375375        -0.162066       0.0545153      0.000490939    -0.000849553         0.719246        0.666415
                        0.228181        0.952928      0.000399205    -0.000654318       -0.0276258        0.172115      0.000579294     0.000395803
                     0.000549497      1.3289e-05         0.719169        0.666079      0.000871523      0.00028666       -0.0420158        0.159674
281704                 -0.104174       -0.141164     -7.82924e-05      -0.0004704          0.22807        0.953204      0.000694375     -6.9119e-05
                    -0.000115854    -0.000376458        -0.162048       0.0545201      0.000490485    -0.000849836         0.719542        0.666104
                          0.2286        0.952833      0.000398754    -0.000654375       -0.0275209        0.172155       0.00057941     0.000395394
                     0.000553199      1.0658e-05         0.719464        0.665766      0.000872718     0.000285295       -0.0418796        0.159698
281706                 -0.104224       -0.141154     -7.86529e-05    -0.000470225          0.22849        0.953107       0.00069448    -6.96646e-05
                    -0.000118116    -0.000377619        -0.162031       0.0545248      0.000490021    -0.000850116         0.719839        0.665793
                        0.229018        0.952738      0.000398285    -0.000654437       -0.0274159        0.172194      0.000579526     0.000394985
                     0.000557089     7.93169e-06         0.719758        0.665454      0.000873979     0.000283852       -0.0417433        0.159722
281708                 -0.104273       -0.141145     -7.90161e-05    -0.000470048         0.228911         0.95301       0.00069458    -7.02088e-05
                    -0.000120414     -0.00037887        -0.162013       0.0545295      0.000489546    -0.000850392         0.720134        0.665481
                        0.229437        0.952643      0.000397794    -0.000654508       -0.0273109        0.172233       0.00057964     0.000394576
                     0.000561189     5.10868e-06         0.720053        0.665141      0.000875316     0.000282318       -0.0416072        0.159746
281710                 -0.104322       -0.141135     -7.93825e-05    -0.000469871         0.229331        0.952913      0.000694677    -7.07512e-05
                    -0.000122747    -0.000380222        -0.161996       0.0545341      0.000489059    -0.000850663          0.72043        0.665169
                        0.229855        0.952548      0.000397277    -0.000654591       -0.0272058        0.172272      0.000579752     0.000394165
                     0.000565523     2.18851e-06         0.720347        0.664828      0.000876748     0.000280676        -0.041471        0.159769
281712                 -0.104371       -0.141126     -7.97526e-05    -0.000469692         0.229751        0.952816      0.000694768    -7.12914e-05
                    -0.000125111    -0.000381689        -0.161979       0.0545387      0.000488557    -0.000850928         0.720726        0.664857
                        0.230273        0.952452      0.000396732    -0.000654688       -0.0271005        0.172311      0.000579863     0.000393753
                     0.000570119    -8.27634e-07         0.720641        0.664515      0.000878293     0.000278904       -0.0413349        0.159792
281714                  -0.10442       -0.141117     -8.01269e-05    -0.000469511         0.230171        0.952719      0.000694853    -7.18286e-05
                    -0.000127503    -0.000383288        -0.161961       0.0545433      0.000488039    -0.000851185         0.721021        0.664545
                        0.230692        0.952356      0.000396153    -0.000654807       -0.0269953         0.17235      0.000579973     0.000393341
                     0.000575006    -3.93635e-06         0.720935        0.664201      0.000879981     0.000276977       -0.0411988        0.159815
281716                 -0.104469       -0.141107     -8.05062e-05    -0.000469329         0.230591        0.952622      0.000694931    -7.23621e-05
                    -0.000129917    -0.000385035        -0.161944       0.0545478        0.0004875     -0.00085143         0.721316        0.664232
                         0.23111        0.952259      0.000395535    -0.000654955       -0.0268899        0.172388       0.00058008     0.000392926
                     0.000580221    -7.13127e-06         0.721228        0.663888      0.000881846     0.000274857       -0.0410628        0.159837
281718                 -0.104518       -0.141098     -8.08914e-05    -0.000469144         0.231011        0.952525      0.000695002    -7.28909e-05
                    -0.000132344    -0.000386952        -0.161927       0.0545523      0.000486939     -0.00085166          0.72161        0.663919
                        0.231528        0.952163      0.000394871    -0.000655142       -0.0267844        0.172427      0.000580185     0.000392511
                     0.000585801     -1.0402e-05         0.721522        0.663574       0.00088394     0.000272497       -0.0409268        0.159859
281720                 -0.104567       -0.141089     -8.12837e-05    -0.000468958         0.231431        0.952429      0.000695063    -7.34135e-05
                    -0.000134772    -0.000389061        -0.161909       0.0545567      0.000486349    -0.000851869         0.721905        0.663605
                        0.231946        0.952066      0.000394155    -0.000655385       -0.0266789        0.172465      0.000580287     0.000392094
                     0.000591789    -1.37329e-05         0.721815         0.66326      0.000886331     0.000269831       -0.0407909        0.159881
281722                 -0.104616        -0.14108     -8.16846e-05    -0.000468769         0.231851        0.952334      0.000695112     -7.3928e-05
                    -0.000137183    -0.000391385        -0.161892       0.0545611      0.000485724    -0.000852048         0.722199        0.663291
                        0.232364        0.951969      0.000393379    -0.000655706       -0.0265733        0.172504      0.000580387     0.000391674
                     0.000598232    -1.71015e-05         0.722108        0.662945      0.000889123     0.000266768       -0.0406551        0.159902
281724                 -0.104666       -0.141071     -8.20959e-05    -0.000468576         0.232271         0.95224      0.000695148    -7.44319e-05
                    -0.000139555    -0.000393953        -0.161875       0.0545655      0.000485057    -0.000852187         0.722493        0.662977
                        0.232782        0.951871      0.000392537    -0.000656138       -0.0264676        0.172542      0.000580482     0.000391252
                      0.00060518    -2.04764e-05         0.722401         0.66263      0.000892468     0.000263173       -0.0405194        0.159923
281726                 -0.104715       -0.141061     -8.25201e-05    -0.000468381         0.232691        0.952148      0.000695166    -7.49215e-05
                    -0.000141857    -0.000396791        -0.161858       0.0545699      0.000484336    -0.000852268         0.722787        0.662663
                          0.2332        0.951774      0.000391628    -0.000656733       -0.0263618         0.17258      0.000580573     0.000390827
                     0.000612685    -2.38153e-05         0.722694        0.662316      0.000896605     0.000258842       -0.0403837        0.159944
281728                 -0.104764       -0.141052     -8.29605e-05    -0.000468181         0.233111        0.952059      0.000695161    -7.53917e-05
                    -0.000144048    -0.000399925        -0.161841       0.0545742      0.000483545    -0.000852262          0.72308        0.662348
                        0.233618        0.951676      0.000390664    -0.000657566       -0.0262559        0.172618      0.000580658     0.000390397
                     0.000620798    -2.70621e-05         0.722987        0.662001      0.000901938     0.000253454       -0.0402481        0.159963
281730                 -0.104813       -0.141043     -8.34218e-05    -0.000467976         0.233531        0.951975      0.000695125    -7.58346e-05
                    -0.000146078     -0.00040338        -0.161824       0.0545785      0.000482663    -0.000852128         0.723373        0.662032
                        0.234036        0.951578       0.00038969    -0.000658752         -0.02615        0.172656      0.000580734     0.000389963
                     0.000629565    -3.01444e-05         0.723279        0.661685      0.000909186     0.000246463       -0.0401125        0.159983
281732                 -0.104862       -0.141034     -8.39108e-05    -0.000467766         0.233953        0.951899      0.000695048    -7.62379e-05
                     -0.00014788    -0.000407172        -0.161807       0.0545828      0.000481656    -0.000851789         0.723666        0.661716
                        0.234454         0.95148      0.000388828    -0.000660455       -0.0260439        0.172694      0.000580799     0.000389522
                     0.000639024    -3.29714e-05         0.723572         0.66137      0.000919786     0.000236876       -0.0399768        0.160001
281734                 -0.104911       -0.141025     -8.44375e-05    -0.000467548         0.234378         0.95184       0.00069491    -7.65819e-05
                    -0.000149374    -0.000411305         -0.16179       0.0545871      0.000480474    -0.000851109         0.723959          0.6614
                        0.234873        0.951381      0.000388373    -0.000662873       -0.0259377        0.172731      0.000580849     0.000389072
                     0.000649193    -3.54329e-05         0.723864        0.661054      0.000937036     0.000222689       -0.0398407        0.160019
281736                  -0.10496       -0.141016      -8.5018e-05    -0.000467322         0.234818        0.951819       0.00069468    -7.68318e-05
                    -0.000150468    -0.000415765        -0.161773       0.0545914      0.000479037    -0.000849816         0.724252        0.661082
                        0.235291        0.951283      0.000388968    -0.000666105       -0.0258313        0.172769      0.000580873     0.000388609
                     0.000660058    -3.74003e-05         0.724156        0.660738      0.000970447     0.000199333       -0.0397041        0.160036
281738                 -0.105009       -0.141007     -8.56803e-05    -0.000467085         0.235338        0.951911      0.000694295     -7.6921e-05
                    -0.000151058    -0.000420505        -0.161756       0.0545957      0.000477229    -0.000847292         0.724544        0.660763
                         0.23571        0.951184      0.000391705    -0.000669645       -0.0257248        0.172807      0.000580858     0.000388129
                     0.000671563     -3.8733e-05         0.724447        0.660422       0.00106102     0.000156558       -0.0395665        0.160052
281740                 -0.105058       -0.140998     -8.64774e-05    -0.000466836         0.236755        0.951816      0.000693621    -7.67062e-05
                    -0.000151041    -0.000425438        -0.161739       0.0546001      0.000474974    -0.000841832         0.724836        0.660443
                        0.236128        0.951085      0.000397359    -0.000671499       -0.0256179        0.172845      0.000580768     0.000387622
                     0.000683586    -3.92909e-05         0.724739        0.660106       0.00154994     0.000320042       -0.0394278        0.160068
281742                 -0.105107       -0.140989     -8.75277e-05    -0.000466582         0.236398        0.950754      0.000692298    -7.58106e-05
                    -0.000150332    -0.000430429        -0.161723       0.0546046      0.000473806    -0.000827048         0.725126         0.66012
                        0.236547        0.950986      0.000404125      -0.0006689       -0.0255102        0.172884      0.000580522     0.000387082
                     0.000695921    -3.89566e-05          0.72503        0.659789      0.000772608     0.000639349        -0.039288        0.160084
281744                 -0.105156        -0.14098     -8.91665e-05     -0.00046636         0.236583         0.95085      0.000688917    -7.28408e-05
                    -0.000148886    -0.000435288        -0.161706       0.0546093      0.000518589    -0.000783301         0.725413        0.659791
                        0.236967        0.950886      0.000408003    -0.000662129       -0.0253987        0.172935      0.000579859     0.000386545
                     0.000708268     -3.7669e-05         0.725321        0.659472      0.000787528     0.000427304       -0.0391475        0.160101
281746                 -0.105204       -0.140971     -9.28917e-05    -0.000466569         0.236949        0.950836      0.000667362    -5.53231e-05
                    -0.000146733     -0.00043978         -0.16169       0.0546142      0.000537833    -0.000885685         0.725685         0.65946
                        0.237387        0.950786      0.000407448    -0.000654417       -0.0253107        0.172942      0.000577802     0.000386905
                     0.000720217     -3.5467e-05         0.725611        0.659155      0.000811333      0.00036837       -0.0390071         0.16012
281748                 -0.105253       -0.140962     -0.000105747    -0.000500104         0.237348        0.950779       0.00071411    -0.000108225
                    -0.000144007    -0.000443649        -0.161675       0.0546196      0.000503113    -0.000885669         0.725937        0.659154
                        0.237807        0.950685      0.000403416    -0.000647833       -0.0251973        0.172985      0.000580447     0.000391942
                     0.000731252    -3.25374e-05         0.725898        0.658836      0.000825422     0.000340915       -0.0388673        0.160139
281750                 -0.105302       -0.140953     -7.97291e-05    -0.000466921         0.237758        0.950703      0.000704003    -9.26864e-05
                    -0.000140973    -0.000446657        -0.161661       0.0546258      0.000492519    -0.000882786         0.726225        0.658873
                        0.238228        0.950582      0.000396529    -0.000643116       -0.0250892        0.173022      0.000583217     0.000388615
                     0.000740773    -2.92536e-05         0.726223          0.6585      0.000834405       0.0003244       -0.0387283        0.160158
281752                 -0.105351       -0.140944     -8.43306e-05     -0.00046484         0.238171        0.950619      0.000701477    -8.99834e-05
                    -0.000138023     -0.00044863        -0.161655       0.0546274      0.000486921    -0.000882413         0.726531        0.658569
                         0.23865        0.950478      0.000386768    -0.000641782       -0.0249817        0.173059      0.000583183     0.000387046
                     0.000748104    -2.61851e-05         0.726495        0.658205      0.000840559     0.000312657       -0.0385903        0.160178
281754                 -0.105399       -0.140934     -8.64143e-05    -0.000463448         0.238587         0.95053      0.000700321    -8.92709e-05
                    -0.000135662    -0.000449494        -0.161632       0.0546176      0.000482602    -0.000883961         0.726831        0.658252
                        0.239071        0.950372      0.000376248    -0.000647046       -0.0248744        0.173096      0.000583099     0.000386152
                     0.000752502    -2.40504e-05         0.726782        0.657888      0.000845033     0.000303056       -0.0384532        0.160197
281756                 -0.105447       -0.140924     -8.77422e-05    -0.000461456         0.239004        0.950439      0.000699631    -8.92678e-05
                    -0.000134474    -0.000449268        -0.161609        0.054625      0.000478078    -0.000887478         0.727126        0.657932
                        0.239492        0.950262      0.000371812    -0.000658587       -0.0247671        0.173132      0.000583067     0.000385472
                      0.00075312    -2.35803e-05         0.727072         0.65757      0.000848565     0.000294037       -0.0383168        0.160216
281758                 -0.105493       -0.140914      -8.7701e-05    -0.000458173         0.239422        0.950349       0.00069913    -8.96335e-05
                    -0.000135099    -0.000448005        -0.161591       0.0546315      0.000471793    -0.000893765         0.727418        0.657611
                        0.239912        0.950149      0.000375793    -0.000668204       -0.0246598        0.173168      0.000583068     0.000384875
                     0.000748951    -2.52512e-05         0.727362        0.657253      0.000851987     0.000284192       -0.0381811        0.160234
281760                 -0.105538       -0.140908      -8.3634e-05    -0.000455261          0.23984        0.950263       0.00069869    -9.02577e-05
                    -0.000138236    -0.000445635        -0.161575       0.0546371      0.000459969    -0.000904922         0.727708        0.657288
                         0.24033        0.950032      0.000382096    -0.000671969       -0.0245523        0.173204      0.000583089     0.000384312
                     0.000738847    -2.88546e-05         0.727652        0.656935      0.000857272     0.000271789       -0.0380461        0.160252
281762                 -0.105587       -0.140902     -7.90142e-05    -0.000458426         0.240253        0.950189      0.000698225    -9.11219e-05
                    -0.000144626    -0.000441667        -0.161558       0.0546423      0.000426671    -0.000924043         0.727997        0.656965
                        0.240745        0.949911      0.000386944    -0.000672245       -0.0244447         0.17324      0.000583119     0.000383756
