! TOUCHSTONE file generated by CST MICROWAVE STUDIO
! Date and time: Tue Oct 14 07:26:32 2025
! Project name: Teste_Macro_Metasurface_Nanopilar.cst
! Parameters = {H=600; L_x=95; L_y=160; Lambda=1064; Max_L=200; Min_L=70; PathPara=1; Phi=0; Step_L=10; Theta=0; p=520; phaseX=180; phaseY=0}
! Header version: 2018
! Port assignment regex: !\s*Touchstone port\s*([0-9]+)\s*=\s*(CST MWS port|CST DS port)\s*([0-9]+|Zmin|Zmax)\s*\(\"(.*)\"\)(\s*mode\s*([0-9]+))?.*
! Touchstone port assignment:
! Touchstone port 1 = CST MWS port Zmax ("") mode 1
! Touchstone port 2 = CST MWS port Zmax ("") mode 2
! Touchstone port 3 = CST MWS port Zmin ("") mode 1
! Touchstone port 4 = CST MWS port Zmin ("") mode 2
! S-Parameters are not renormalized. Each port impedance will be approximated by the real part at minimum frequency. The values are described via the [Reference] keyword.
! Default impedance is overridden by [Reference]
[Version] 2.0
# GHz S RI R 376.73
[Number of Ports] 4
[Reference]
376.73 376.73 259.814 259.814 
[Number of Frequencies] 51
[Network Data]
281700                -0.0740215       -0.177396      0.000296292     0.000116828         0.129302        0.967426      0.000178879     0.000147761
                     0.000251388     0.000176667       -0.0307089       -0.112779     -0.000202244     0.000209084          0.28087       -0.948212
                        0.129922         0.96761     -0.000257121     0.000210276       -0.0234378        0.190235     -0.000302362     0.000111333
                     0.000264735     0.000103405         0.280795       -0.947995     -0.000216977      0.00018557       -0.0860927       0.0787751
281702                -0.0740855       -0.177396      0.000296432     0.000116687         0.129742        0.967362      0.000179029     0.000147647
                     0.000251547     0.000176669       -0.0307529       -0.112786     -0.000202221     0.000209136         0.280449       -0.948334
                        0.130363        0.967546      -0.00025704     0.000210393       -0.0233256        0.190273     -0.000302362     0.000111458
                     0.000265046     0.000103179         0.280374       -0.948117     -0.000216941      0.00018558       -0.0860639       0.0788339
281704                -0.0741494       -0.177396      0.000296572     0.000116547         0.130183        0.967299       0.00017918     0.000147533
                     0.000251706     0.000176671       -0.0307968       -0.112793     -0.000202198     0.000209188         0.280028       -0.948456
                        0.130804        0.967482     -0.000256959     0.000210509       -0.0232135        0.190312     -0.000302361     0.000111582
                     0.000265358     0.000102952         0.279952       -0.948239     -0.000216904     0.000185591       -0.0860349       0.0788926
281706                -0.0742134       -0.177396      0.000296713     0.000116406         0.130623        0.967234       0.00017933     0.000147418
                     0.000251865     0.000176673       -0.0308408         -0.1128     -0.000202175     0.000209239         0.279606       -0.948578
                        0.131245        0.967418     -0.000256878     0.000210626       -0.0231013         0.19035     -0.000302361     0.000111707
                     0.000265671     0.000102724         0.279531        -0.94836     -0.000216867     0.000185601        -0.086006       0.0789512
281708                -0.0742774       -0.177396      0.000296853     0.000116265         0.131064         0.96717      0.000179481     0.000147304
                     0.000252024     0.000176676       -0.0308848       -0.112807     -0.000202152     0.000209291         0.279185       -0.948699
                        0.131686        0.967354     -0.000256797     0.000210742        -0.022989        0.190388      -0.00030236     0.000111832
                     0.000265983     0.000102496         0.279109       -0.948482     -0.000216831     0.000185612        -0.085977       0.0790099
281710                -0.0743414       -0.177396      0.000296994     0.000116124         0.131504        0.967106      0.000179632      0.00014719
                     0.000252183     0.000176678       -0.0309288       -0.112814     -0.000202129     0.000209343         0.278764       -0.948821
                        0.132126         0.96729     -0.000256716     0.000210858       -0.0228767        0.190426     -0.000302359     0.000111957
                     0.000266296     0.000102266         0.278688       -0.948603     -0.000216794     0.000185623       -0.0859479       0.0790686
281712                -0.0744053       -0.177396      0.000297134     0.000115982         0.131945        0.967041      0.000179783     0.000147076
                     0.000252343     0.000176681       -0.0309728       -0.112821     -0.000202106     0.000209396         0.278342       -0.948942
                        0.132567        0.967225     -0.000256634     0.000210975       -0.0227644        0.190464     -0.000302359     0.000112082
                     0.000266609     0.000102035         0.278266       -0.948724     -0.000216758     0.000185634       -0.0859188       0.0791273
281714                -0.0744693       -0.177396      0.000297274     0.000115841         0.132385        0.966976      0.000179933     0.000146962
                     0.000252502     0.000176684       -0.0310168       -0.112828     -0.000202083     0.000209448         0.277921       -0.949063
                        0.133008         0.96716     -0.000256553     0.000211091        -0.022652        0.190502     -0.000302358     0.000112206
                     0.000266923     0.000101803         0.277844       -0.948845     -0.000216721     0.000185645       -0.0858897       0.0791859
281716                -0.0745333       -0.177396      0.000297414     0.000115699         0.132826        0.966911      0.000180084     0.000146848
                     0.000252662     0.000176687       -0.0310608       -0.112835      -0.00020206     0.000209501         0.277499       -0.949184
                        0.133449        0.967095     -0.000256472     0.000211207       -0.0225396         0.19054     -0.000302357     0.000112331
                     0.000267236      0.00010157         0.277423       -0.948965     -0.000216684     0.000185656       -0.0858605       0.0792446
281718                -0.0745973       -0.177396      0.000297554     0.000115557         0.133266        0.966846      0.000180235     0.000146733
                     0.000252821      0.00017669       -0.0311049       -0.112842     -0.000202037     0.000209553         0.277078       -0.949304
                        0.133889         0.96703     -0.000256391     0.000211323       -0.0224272        0.190578     -0.000302356     0.000112456
                      0.00026755     0.000101336         0.277001       -0.949086     -0.000216648     0.000185667       -0.0858313       0.0793032
281720                -0.0746614       -0.177395      0.000297694     0.000115415         0.133706         0.96678      0.000180386     0.000146619
                     0.000252981     0.000176694       -0.0311489       -0.112849     -0.000202014     0.000209606         0.276656       -0.949425
                         0.13433        0.966965     -0.000256309     0.000211439       -0.0223147        0.190616     -0.000302354     0.000112581
                     0.000267865     0.000101101         0.276579       -0.949206     -0.000216611     0.000185678       -0.0858021       0.0793619
281722                -0.0747254       -0.177395      0.000297835     0.000115273         0.134146        0.966714      0.000180538     0.000146505
                     0.000253141     0.000176697        -0.031193       -0.112856     -0.000201991     0.000209659         0.276234       -0.949545
                         0.13477        0.966899     -0.000256228     0.000211554       -0.0222022        0.190653     -0.000302353     0.000112706
                     0.000268179     0.000100865         0.276157       -0.949326     -0.000216575      0.00018569       -0.0857728       0.0794205
281724                -0.0747894       -0.177395      0.000297975     0.000115131         0.134587        0.966648      0.000180689     0.000146391
                     0.000253301     0.000176701        -0.031237       -0.112862     -0.000201968     0.000209712         0.275812       -0.949665
                        0.135211        0.966834     -0.000256147      0.00021167       -0.0220896        0.190691     -0.000302352     0.000112831
                     0.000268494     0.000100628         0.275735       -0.949446     -0.000216538     0.000185701       -0.0857435       0.0794791
281726                -0.0748534       -0.177395      0.000298115     0.000114988         0.135027        0.966582       0.00018084     0.000146276
                     0.000253462     0.000176705       -0.0312811       -0.112869     -0.000201945     0.000209765         0.275391       -0.949785
                        0.135651        0.966768     -0.000256065     0.000211786        -0.021977        0.190728     -0.000302351     0.000112956
                     0.000268809     0.000100389         0.275313       -0.949566     -0.000216502     0.000185713       -0.0857141       0.0795377
281728                -0.0749175       -0.177395      0.000298255     0.000114845         0.135467        0.966516      0.000180992     0.000146162
                     0.000253622     0.000176709       -0.0313252       -0.112876     -0.000201922     0.000209818         0.274969       -0.949905
                        0.136092        0.966701     -0.000255984     0.000211901       -0.0218644        0.190766     -0.000302349     0.000113081
                     0.000269124      0.00010015         0.274891       -0.949685     -0.000216465     0.000185725       -0.0856847       0.0795963
281730                -0.0749815       -0.177394      0.000298394     0.000114702         0.135907         0.96645      0.000181143     0.000146048
                     0.000253782     0.000176714       -0.0313693       -0.112883     -0.000201899     0.000209871         0.274547       -0.950024
                        0.136532        0.966635     -0.000255903     0.000212017       -0.0217517        0.190803     -0.000302348     0.000113206
                      0.00026944     9.99099e-05         0.274469       -0.949805     -0.000216428     0.000185736       -0.0856553       0.0796549
281732                -0.0750455       -0.177394      0.000298534     0.000114559         0.136347        0.966383      0.000181295     0.000145933
                     0.000253943     0.000176718       -0.0314134        -0.11289     -0.000201875     0.000209925         0.274125       -0.950143
                        0.136973        0.966569     -0.000255821     0.000212132        -0.021639        0.190841     -0.000302346     0.000113332
                     0.000269756     9.96686e-05         0.274046       -0.949924     -0.000216392     0.000185748       -0.0856258       0.0797135
281734                -0.0751096       -0.177394      0.000298674     0.000114416         0.136788        0.966316      0.000181447     0.000145819
                     0.000254104     0.000176723       -0.0314575       -0.112896     -0.000201852     0.000209978         0.273703       -0.950262
                        0.137413        0.966502      -0.00025574     0.000212248       -0.0215262        0.190878     -0.000302344     0.000113457
                     0.000270072     9.94262e-05         0.273624       -0.950043     -0.000216355      0.00018576       -0.0855963       0.0797721
281736                -0.0751736       -0.177393      0.000298814     0.000114272         0.137228        0.966249      0.000181599     0.000145705
                     0.000254265     0.000176728       -0.0315016       -0.112903     -0.000201829     0.000210032         0.273281       -0.950381
                        0.137854        0.966435     -0.000255658     0.000212363       -0.0214134        0.190915     -0.000302343     0.000113582
                     0.000270388     9.91827e-05         0.273202       -0.950162     -0.000216319     0.000185772       -0.0855667       0.0798306
281738                -0.0752377       -0.177393      0.000298954     0.000114129         0.137668        0.966181      0.000181751      0.00014559
                     0.000254426     0.000176733       -0.0315457        -0.11291     -0.000201806     0.000210086         0.272858         -0.9505
                        0.138294        0.966368     -0.000255577     0.000212478       -0.0213005        0.190953     -0.000302341     0.000113707
                     0.000270705     9.89382e-05         0.272779        -0.95028     -0.000216282     0.000185785       -0.0855372       0.0798892
281740                -0.0753018       -0.177393      0.000299093     0.000113985         0.138108        0.966114      0.000181903     0.000145476
                     0.000254587     0.000176739       -0.0315899       -0.112916     -0.000201783      0.00021014         0.272436       -0.950619
                        0.138734          0.9663     -0.000255495     0.000212593       -0.0211877         0.19099     -0.000302339     0.000113832
                     0.000271022     9.86926e-05         0.272357       -0.950399     -0.000216246     0.000185797       -0.0855075       0.0799477
281742                -0.0753658       -0.177392      0.000299233     0.000113841         0.138548        0.966046      0.000182055     0.000145361
                     0.000254748     0.000176744        -0.031634       -0.112923      -0.00020176     0.000210194         0.272014       -0.950737
                        0.139174        0.966233     -0.000255413     0.000212708       -0.0210747        0.191027     -0.000302338     0.000113958
                     0.000271339     9.84458e-05         0.271934       -0.950517     -0.000216209     0.000185809       -0.0854778       0.0800063
281744                -0.0754299       -0.177392      0.000299372     0.000113697         0.138987        0.965978      0.000182207     0.000145247
                     0.000254909      0.00017675       -0.0316782        -0.11293     -0.000201736     0.000210248         0.271591       -0.950855
                        0.139615        0.966165     -0.000255332     0.000212823       -0.0209618        0.191064     -0.000302336     0.000114083
                     0.000271656      9.8198e-05         0.271512       -0.950635     -0.000216173     0.000185822       -0.0854481       0.0800648
281746                 -0.075494       -0.177392      0.000299512     0.000113552         0.139427         0.96591      0.000182359     0.000145132
                     0.000255071     0.000176756       -0.0317223       -0.112936     -0.000201713     0.000210303         0.271169       -0.950973
                        0.140055        0.966097      -0.00025525     0.000212938       -0.0208488        0.191101     -0.000302335     0.000114209
                     0.000271974     9.79491e-05         0.271089       -0.950753     -0.000216136     0.000185834       -0.0854184       0.0801233
281748                -0.0755581       -0.177391      0.000299651     0.000113408         0.139867        0.965842      0.000182512     0.000145017
                     0.000255233     0.000176763       -0.0317665       -0.112943      -0.00020169     0.000210357         0.270747       -0.951091
                        0.140495        0.966029     -0.000255168     0.000213053       -0.0207358        0.191138     -0.000302335     0.000114335
                     0.000272292     9.76991e-05         0.270666        -0.95087       -0.0002161     0.000185847       -0.0853886       0.0801818
281750                -0.0756222       -0.177391      0.000299791     0.000113263         0.140307        0.965773      0.000182666     0.000144899
                     0.000255395     0.000176769       -0.0318107        -0.11295     -0.000201667     0.000210413         0.270324       -0.951209
                        0.140935         0.96596     -0.000255087     0.000213168       -0.0206227        0.191175     -0.000302341     0.000114462
                      0.00027261      9.7448e-05         0.270244       -0.950988     -0.000216064      0.00018586       -0.0853588       0.0802404
281752                -0.0756863        -0.17739       0.00029993     0.000113118         0.140747        0.965705      0.000182816     0.000144793
                     0.000255556     0.000176775       -0.0318549       -0.112956     -0.000201644     0.000210466         0.269901       -0.951326
                        0.141375        0.965892     -0.000255005     0.000213282       -0.0205096        0.191211     -0.000302303      0.00011458
                     0.000272929     9.71959e-05         0.269821       -0.951105     -0.000216026     0.000185872       -0.0853289       0.0802988
281754                -0.0757504        -0.17739      0.000300071     0.000112976         0.141187        0.965636      0.000182969     0.000144676
                     0.000255716     0.000176779       -0.0318991       -0.112963      -0.00020162     0.000210521         0.269479       -0.951443
                        0.141815        0.965823     -0.000254923     0.000213395       -0.0203964        0.191248     -0.000302316     0.000114708
                     0.000273254     9.69425e-05         0.269398       -0.951222      -0.00021599     0.000185885        -0.085299       0.0803573
281756                -0.0758145       -0.177389      0.000300206     0.000112822         0.141626        0.965566      0.000183122     0.000144561
                     0.000255882     0.000176794       -0.0319433       -0.112969     -0.000201597     0.000210576         0.269056        -0.95156
                        0.142255        0.965754     -0.000254842     0.000213514       -0.0202832        0.191285     -0.000302316     0.000114834
                      0.00027356     9.66863e-05         0.268975       -0.951339     -0.000215953     0.000185898        -0.085269       0.0804158
281758                -0.0758786       -0.177389      0.000300347     0.000112679         0.142066        0.965497      0.000183275     0.000144446
                     0.000256044     0.000176799       -0.0319875       -0.112976     -0.000201574     0.000210631         0.268633       -0.951677
                        0.142695        0.965685      -0.00025476     0.000213627         -0.02017        0.191321     -0.000302314      0.00011496
                     0.000273881     9.64315e-05         0.268552       -0.951456     -0.000215917     0.000185911        -0.085239       0.0804743
281760                -0.0759428       -0.177388      0.000300486     0.000112534         0.142506        0.965428      0.000183428     0.000144331
                     0.000256207     0.000176807       -0.0320317       -0.112982      -0.00020155     0.000210687          0.26821       -0.951794
                        0.143135        0.965616     -0.000254678     0.000213741       -0.0200567        0.191358     -0.000302312     0.000115086
                     0.000274201     9.61749e-05         0.268129       -0.951572      -0.00021588     0.000185925        -0.085209       0.0805328
281762                -0.0760069       -0.177388      0.000300625     0.000112388         0.142945        0.965358      0.000183581     0.000144217
                      0.00025637     0.000176815       -0.0320759       -0.112989     -0.000201527     0.000210742         0.267788       -0.951911
                        0.143575        0.965546     -0.000254596     0.000213855       -0.0199434        0.191394      -0.00030231     0.000115211
