! TOUCHSTONE file generated by CST MICROWAVE STUDIO
! Date and time: Tue Oct 14 07:32:03 2025
! Project name: Teste_Macro_Metasurface_Nanopilar.cst
! Parameters = {H=600; L_x=185; L_y=90; Lambda=1064; Max_L=200; Min_L=70; PathPara=1; Phi=0; Step_L=10; Theta=0; p=520; phaseX=180; phaseY=0}
! Header version: 2018
! Port assignment regex: !\s*Touchstone port\s*([0-9]+)\s*=\s*(CST MWS port|CST DS port)\s*([0-9]+|Zmin|Zmax)\s*\(\"(.*)\"\)(\s*mode\s*([0-9]+))?.*
! Touchstone port assignment:
! Touchstone port 1 = CST MWS port Zmax ("") mode 1
! Touchstone port 2 = CST MWS port Zmax ("") mode 2
! Touchstone port 3 = CST MWS port Zmin ("") mode 1
! Touchstone port 4 = CST MWS port Zmin ("") mode 2
! S-Parameters are not renormalized. Each port impedance will be approximated by the real part at minimum frequency. The values are described via the [Reference] keyword.
! Default impedance is overridden by [Reference]
[Version] 2.0
# GHz S RI R 376.73
[Number of Ports] 4
[Reference]
376.73 376.73 259.814 259.814 
[Number of Frequencies] 51
[Network Data]
281700                0.00322632        -0.11076      -0.00117973     0.000120392         0.377515       -0.915321      -0.00101074     -0.00131119
                     -0.00115155     9.00723e-05          -0.3052       -0.451092     -0.000382368     -0.00131466         0.675837        0.479447
                        0.377732       -0.915442     -0.000400396     -0.00124075       -0.0748008       0.0817046      0.000588626     -0.00120368
                     -0.00106674     -0.00132958         0.676041         0.47937      0.000609351     -0.00117677         0.525812        0.124841
281702                0.00318688       -0.110779      -0.00115215     7.67788e-05         0.377119       -0.915481      -0.00101178     -0.00131067
                     -0.00115169     9.09984e-05        -0.305467       -0.451083     -0.000383064     -0.00131459         0.676036        0.478998
                        0.377336       -0.915602     -0.000406446     -0.00125851       -0.0747723       0.0817556      0.000588092     -0.00120408
                     -0.00106777      -0.0013289         0.676209        0.478928      0.000608782     -0.00117719         0.526043        0.124476
281704                0.00314742       -0.110799      -0.00113015     8.48379e-05         0.376722       -0.915642      -0.00101281     -0.00131014
                     -0.00115183     9.19249e-05        -0.305734       -0.451073      -0.00038376     -0.00131452         0.676235        0.478549
                         0.37694       -0.915763     -0.000405159     -0.00126727       -0.0747437       0.0818067      0.000587559     -0.00120447
                     -0.00106881     -0.00132822         0.676384        0.478484      0.000608213      -0.0011776         0.526274        0.124111
281706                0.00310796       -0.110818      -0.00112468     9.17342e-05         0.376326       -0.915803      -0.00101385     -0.00130961
                     -0.00115197      9.2852e-05        -0.306001       -0.451063     -0.000384457     -0.00131445         0.676434          0.4781
                        0.376544       -0.915923     -0.000403853     -0.00127117       -0.0747152       0.0818577      0.000587025     -0.00120486
                     -0.00106985     -0.00132754         0.676567        0.478039      0.000607642     -0.00117802         0.526504        0.123745
281708                0.00306847       -0.110838      -0.00112345     9.47476e-05          0.37593       -0.915963      -0.00101488     -0.00130908
                     -0.00115211     9.37796e-05        -0.306269       -0.451053     -0.000385153     -0.00131438         0.676632        0.477651
                        0.376147       -0.916083     -0.000403572     -0.00127256       -0.0746865       0.0819087      0.000586491     -0.00120526
                     -0.00107088     -0.00132686         0.676759        0.477591      0.000607071     -0.00117844         0.526735        0.123379
281710                0.00302898       -0.110858      -0.00112436     9.44745e-05         0.375533       -0.916123      -0.00101592     -0.00130855
                     -0.00115225     9.47077e-05        -0.306537       -0.451043     -0.000385849     -0.00131431          0.67683        0.477202
                        0.375751       -0.916243     -0.000404524     -0.00127198       -0.0746579       0.0819597      0.000585957     -0.00120565
                     -0.00107192     -0.00132617         0.676962        0.477141        0.0006065     -0.00117886         0.526965        0.123012
281712                0.00298947       -0.110877      -0.00112931     8.96511e-05         0.375137       -0.916283      -0.00101695     -0.00130802
                     -0.00115238     9.56363e-05        -0.306805       -0.451033     -0.000386546     -0.00131424         0.677028        0.476753
                        0.375355       -0.916403     -0.000406907     -0.00126854       -0.0746292       0.0820107      0.000585422     -0.00120604
                     -0.00107295     -0.00132549         0.677177        0.476688      0.000605927     -0.00117928         0.527195        0.122645
281714                0.00294995       -0.110897      -0.00115356     8.19868e-05          0.37474       -0.916443      -0.00101798     -0.00130749
                     -0.00115252     9.65655e-05        -0.307074       -0.451022     -0.000387242     -0.00131416         0.677225        0.476303
                        0.374958       -0.916563     -0.000409741     -0.00125875       -0.0746005       0.0820617      0.000584887     -0.00120644
                     -0.00107399     -0.00132481         0.677403        0.476233      0.000605354      -0.0011797         0.527425        0.122278
281716                0.00291042       -0.110916      -0.00118003     0.000127259         0.374343       -0.916603      -0.00101902     -0.00130696
                     -0.00115266     9.74951e-05        -0.307343       -0.451012     -0.000387936     -0.00131409         0.677422        0.475853
                        0.374561       -0.916722     -0.000404451     -0.00124055       -0.0745717       0.0821127      0.000584351     -0.00120683
                     -0.00107503     -0.00132412         0.677632        0.475777       0.00060478     -0.00118011         0.527655        0.121911
281718                0.00287087       -0.110936      -0.00118007     0.000128118         0.373947       -0.916762      -0.00102005     -0.00130642
                     -0.00115279     9.84254e-05        -0.307611       -0.451001     -0.000388624       -0.001314         0.677619        0.475404
                        0.374165       -0.916882     -0.000404959     -0.00124052       -0.0745429       0.0821637      0.000583816     -0.00120722
                     -0.00107606     -0.00132343         0.677829        0.475327      0.000604203     -0.00118052         0.527884        0.121543
281720                0.00283131       -0.110955      -0.00112192     0.000105966          0.37355       -0.916921      -0.00102109     -0.00130589
                     -0.00115293     9.93561e-05        -0.307878        -0.45099     -0.000389398     -0.00131401         0.677815        0.474953
                        0.373768       -0.917041     -0.000403814     -0.00127675       -0.0745141       0.0822146      0.000583279     -0.00120761
                      -0.0010771     -0.00132274         0.677924        0.474897      0.000603662     -0.00118103         0.528113        0.121175
281722                0.00279173       -0.110975      -0.00112067     0.000119869         0.373153       -0.917081      -0.00102212     -0.00130537
                     -0.00115306     0.000100287        -0.308142       -0.450979     -0.000390048     -0.00131388         0.678011        0.474503
                        0.373371         -0.9172      -0.00039328     -0.00128392       -0.0744853       0.0822656      0.000582739     -0.00120798
                     -0.00107813     -0.00132206         0.677889        0.474491      0.000603063     -0.00118139         0.528342        0.120807
281724                0.00275214       -0.110994      -0.00112121     0.000122932         0.372756        -0.91724      -0.00102316      -0.0013048
                      -0.0011532     0.000101219        -0.308404       -0.450968      -0.00039074      -0.0013138         0.678207        0.474053
                        0.372974       -0.917359     -0.000390838     -0.00128483       -0.0744564       0.0823166      0.000582211     -0.00120842
                     -0.00107917     -0.00132137         0.677851        0.474086      0.000602485      -0.0011818         0.528571        0.120438
281726                0.00271254       -0.111013      -0.00112154     0.000124346         0.372359       -0.917398      -0.00102419     -0.00130427
                     -0.00115333     0.000102151        -0.308666       -0.450956     -0.000391437     -0.00131372         0.678402        0.473602
                        0.372577       -0.917518     -0.000390483     -0.00128507       -0.0744274       0.0823675      0.000581673      -0.0012088
                      -0.0010802     -0.00132067          0.67791        0.473662      0.000601908     -0.00118222           0.5288        0.120069
281728                0.00267293       -0.111033       -0.0011218     0.000125345         0.371962       -0.917557      -0.00102523     -0.00130373
                     -0.00115347     0.000103084        -0.308931       -0.450944     -0.000392134     -0.00131364         0.678598        0.473152
                         0.37218       -0.917676     -0.000390715     -0.00128519       -0.0743985       0.0824184      0.000581135     -0.00120919
                     -0.00108124     -0.00131998         0.678046        0.473223       0.00060133     -0.00118263         0.529028          0.1197
281730                 0.0026333       -0.111052      -0.00112203     0.000126213         0.371564       -0.917716      -0.00102626      -0.0013032
                      -0.0011536     0.000104017        -0.309199       -0.450932     -0.000392831     -0.00131356         0.678792        0.472701
                        0.371783       -0.917834     -0.000391138     -0.00128528       -0.0743695       0.0824694      0.000580598     -0.00120958
                     -0.00108228     -0.00131929         0.678219        0.472776      0.000600752     -0.00118305         0.529257        0.119331
281732                0.00259366       -0.111072      -0.00112225     0.000127036         0.371167       -0.917874       -0.0010273     -0.00130266
                     -0.00115373     0.000104951        -0.309468        -0.45092     -0.000393529     -0.00131348         0.678987         0.47225
                        0.371386       -0.917993     -0.000391629     -0.00128535       -0.0743405       0.0825203       0.00058006     -0.00120997
                     -0.00108331      -0.0013186         0.678408        0.472326      0.000600173     -0.00118347         0.529485        0.118961
281734                  0.002554       -0.111091      -0.00112247     0.000127842          0.37077       -0.918032      -0.00102833     -0.00130211
                     -0.00115386     0.000105886        -0.309737       -0.450909     -0.000394228      -0.0013134         0.679181        0.471798
                        0.370988        -0.91815     -0.000392145     -0.00128542       -0.0743114       0.0825712      0.000579522     -0.00121037
                     -0.00108435      -0.0013179         0.678603        0.471874      0.000599594     -0.00118388         0.529713        0.118591
281736                0.00251433        -0.11111      -0.00112268     0.000128644         0.370372        -0.91819      -0.00102936     -0.00130157
                     -0.00115399      0.00010682        -0.310007       -0.450897     -0.000394926     -0.00131332         0.679375        0.471347
                        0.370591       -0.918308     -0.000392671     -0.00128548       -0.0742823       0.0826221      0.000578984     -0.00121076
                     -0.00108538      -0.0013172         0.678799        0.471422      0.000599014      -0.0011843         0.529941         0.11822
281738                0.00247465        -0.11113       -0.0011229     0.000129444         0.369975       -0.918348       -0.0010304     -0.00130103
                     -0.00115412     0.000107756        -0.310276       -0.450885     -0.000395625     -0.00131324         0.679568        0.470895
                        0.370194       -0.918466     -0.000393198     -0.00128555       -0.0742532        0.082673      0.000578446     -0.00121115
                     -0.00108642     -0.00131651         0.678996         0.47097      0.000598433     -0.00118471         0.530168        0.117849
281740                0.00243495       -0.111149      -0.00112311     0.000130246         0.369577       -0.918505      -0.00103143     -0.00130048
                     -0.00115425     0.000108692        -0.310546       -0.450873     -0.000396324     -0.00131316         0.679762        0.470444
                        0.369796       -0.918623     -0.000393726     -0.00128561        -0.074224       0.0827239      0.000577907     -0.00121154
                     -0.00108745     -0.00131581         0.679192        0.470517      0.000597852     -0.00118513         0.530395        0.117478
281742                0.00239524       -0.111168      -0.00112332     0.000131048          0.36918       -0.918663      -0.00103247     -0.00129994
                     -0.00115438     0.000109628        -0.310816       -0.450861     -0.000397023     -0.00131308         0.679954        0.469992
                        0.369399       -0.918781     -0.000394254     -0.00128568       -0.0741948       0.0827748      0.000577368     -0.00121193
                     -0.00108849     -0.00131511         0.679388        0.470065       0.00059727     -0.00118555         0.530623        0.117107
281744                0.00235552       -0.111188      -0.00112354     0.000131852         0.368782        -0.91882       -0.0010335     -0.00129939
                     -0.00115451     0.000110565        -0.311086       -0.450849     -0.000397722       -0.001313         0.680147         0.46954
                        0.369001       -0.918938      -0.00039478     -0.00128574       -0.0741656       0.0828257      0.000576829     -0.00121232
                     -0.00108952     -0.00131441         0.679582        0.469612      0.000596687     -0.00118596          0.53085        0.116735
281746                0.00231577       -0.111207      -0.00112375     0.000132657         0.368384       -0.918977      -0.00103454     -0.00129884
                     -0.00115464     0.000111501        -0.311356       -0.450836     -0.000398422     -0.00131291         0.680339        0.469088
                        0.368603       -0.919095     -0.000395307     -0.00128581       -0.0741364       0.0828766       0.00057629     -0.00121271
                     -0.00109056      -0.0013137         0.679777        0.469159      0.000596102     -0.00118637         0.531076        0.116363
281748                0.00227603       -0.111226      -0.00112396     0.000133462         0.367986       -0.919134      -0.00103557     -0.00129829
                     -0.00115477      0.00011244        -0.311626       -0.450824     -0.000399136     -0.00131283         0.680531        0.468635
                        0.368205       -0.919252     -0.000395833     -0.00128587       -0.0741071       0.0829274       0.00057575      -0.0012131
                     -0.00109159     -0.00131301          0.67997        0.468706      0.000595526     -0.00118681         0.531303        0.115991
281750                0.00223627       -0.111246      -0.00112417     0.000134269         0.367588       -0.919291      -0.00103661     -0.00129774
                     -0.00115489     0.000113379        -0.311897       -0.450811     -0.000399827     -0.00131275         0.680723        0.468183
                        0.367808       -0.919408     -0.000396359     -0.00128593       -0.0740777       0.0829783       0.00057521      -0.0012135
                     -0.00109263      -0.0013123         0.680164        0.468253      0.000594939     -0.00118722         0.531529        0.115618
281752                0.00219649       -0.111265      -0.00112438     0.000135076          0.36719       -0.919448      -0.00103764     -0.00129719
                     -0.00115502     0.000114318        -0.312167       -0.450798     -0.000400525     -0.00131267         0.680914         0.46773
                         0.36741       -0.919565     -0.000396886       -0.001286       -0.0740484       0.0830291       0.00057467     -0.00121389
                     -0.00109366      -0.0013116         0.680356          0.4678      0.000594353     -0.00118763         0.531755        0.115245
281754                 0.0021567       -0.111284      -0.00112458     0.000135883         0.366792       -0.919604      -0.00103868     -0.00129664
                     -0.00115515     0.000115257        -0.312438       -0.450786     -0.000401224     -0.00131258         0.681105        0.467277
                        0.367012       -0.919721     -0.000397413     -0.00128606        -0.074019         0.08308       0.00057413     -0.00121428
                     -0.00109469     -0.00131089         0.680549        0.467347      0.000593768     -0.00118805         0.531981        0.114872
281756                 0.0021169       -0.111303      -0.00112479     0.000136691         0.366394        -0.91976      -0.00103971     -0.00129609
                     -0.00115527     0.000116197        -0.312708       -0.450773     -0.000401925      -0.0013125         0.681296        0.466824
                        0.366614       -0.919877     -0.000397941     -0.00128612       -0.0739896       0.0831308      0.000573589     -0.00121467
                     -0.00109573     -0.00131019         0.680741        0.466893      0.000593181     -0.00118846         0.532207        0.114498
281758                0.00207708       -0.111323        -0.001125       0.0001375         0.365996       -0.919916      -0.00104075     -0.00129553
                      -0.0011554     0.000117138        -0.312979       -0.450759     -0.000402625     -0.00131241         0.681486        0.466371
                        0.366216       -0.920033     -0.000398469     -0.00128619       -0.0739601       0.0831816      0.000573048     -0.00121506
                     -0.00109676     -0.00130948         0.680933         0.46644      0.000592594     -0.00118888         0.532433        0.114125
281760                0.00203725       -0.111342       -0.0011252     0.000138308         0.365598       -0.920072      -0.00104178     -0.00129498
                     -0.00115552     0.000118079         -0.31325       -0.450746     -0.000403326     -0.00131233         0.681676        0.465917
                        0.365817       -0.920189     -0.000398998     -0.00128625       -0.0739306       0.0832325      0.000572507     -0.00121545
                      -0.0010978     -0.00130877         0.681124        0.465986      0.000592007     -0.00118929         0.532658         0.11375
281762                0.00199741       -0.111361       -0.0011254     0.000139117         0.365199       -0.920228      -0.00104282     -0.00129442
                     -0.00115564      0.00011902        -0.313521       -0.450733     -0.000404027     -0.00131224         0.681866        0.465464
                        0.365419       -0.920344     -0.000399528     -0.00128631       -0.0739011       0.0832833      0.000571966     -0.00121584
