! TOUCHSTONE file generated by CST MICROWAVE STUDIO
! Date and time: Tue Oct 14 07:28:32 2025
! Project name: Teste_Macro_Metasurface_Nanopilar.cst
! Parameters = {H=600; L_x=130; L_y=75; Lambda=1064; Max_L=200; Min_L=70; PathPara=1; Phi=0; Step_L=10; Theta=0; p=520; phaseX=180; phaseY=0}
! Header version: 2018
! Port assignment regex: !\s*Touchstone port\s*([0-9]+)\s*=\s*(CST MWS port|CST DS port)\s*([0-9]+|Zmin|Zmax)\s*\(\"(.*)\"\)(\s*mode\s*([0-9]+))?.*
! Touchstone port assignment:
! Touchstone port 1 = CST MWS port Zmax ("") mode 1
! Touchstone port 2 = CST MWS port Zmax ("") mode 2
! Touchstone port 3 = CST MWS port Zmin ("") mode 1
! Touchstone port 4 = CST MWS port Zmin ("") mode 2
! S-Parameters are not renormalized. Each port impedance will be approximated by the real part at minimum frequency. The values are described via the [Reference] keyword.
! Default impedance is overridden by [Reference]
[Version] 2.0
# GHz S RI R 376.73
[Number of Ports] 4
[Reference]
376.73 376.73 259.814 259.814 
[Number of Frequencies] 51
[Network Data]
281700                -0.0197026        0.105589      7.17412e-05    -0.000500216         0.992767      -0.0429162     -0.000265019      0.00013486
                    -0.000105734    -0.000571362        -0.165512      -0.0151364      0.000287087    -5.67152e-05        0.0321461       -0.979377
                        0.993173      -0.0427223      0.000175112     -0.00016834        0.0285899        0.103633     -0.000436445     5.03079e-05
                    -0.000175531     0.000199502        0.0320446       -0.979831     -0.000597439     3.90997e-06        -0.165603      0.00527135
281702                -0.0196646        0.105592      7.13477e-05    -0.000500115         0.992752      -0.0432795     -0.000265148     0.000135094
                    -0.000106065    -0.000571563        -0.165526      -0.0150802      0.000287206    -5.69299e-05        0.0316923        -0.97939
                        0.993158       -0.043086      0.000175005    -0.000168373         0.028628        0.103618     -0.000436628     5.04712e-05
                    -0.000175508     0.000199654        0.0315902       -0.979844     -0.000597385     4.17674e-06        -0.165609      0.00536796
281704                -0.0196266        0.105595      7.09544e-05    -0.000500014         0.992736      -0.0436429     -0.000265277     0.000135328
                    -0.000106396    -0.000571764         -0.16554       -0.015024      0.000287325    -5.71451e-05        0.0312384       -0.979402
                        0.993142      -0.0434497      0.000174898    -0.000168405        0.0286661        0.103603     -0.000436812     5.06348e-05
                    -0.000175485     0.000199806        0.0311357       -0.979856     -0.000597332     4.44341e-06        -0.165615      0.00546457
281706                -0.0195886        0.105598      7.05615e-05    -0.000499912          0.99272      -0.0440063     -0.000265406     0.000135562
                    -0.000106726    -0.000571966        -0.165554      -0.0149677      0.000287443    -5.73607e-05        0.0307845       -0.979415
                        0.993127      -0.0438133      0.000174792    -0.000168438        0.0287042        0.103588     -0.000436996     5.07987e-05
                    -0.000175462     0.000199958        0.0306812       -0.979869     -0.000597278     4.70996e-06         -0.16562       0.0055612
281708                -0.0195505        0.105601      7.01687e-05     -0.00049981         0.992704      -0.0443696     -0.000265534     0.000135797
                    -0.000107054    -0.000572167        -0.165568      -0.0149114       0.00028756    -5.75767e-05        0.0303306       -0.979427
                        0.993111       -0.044177      0.000174685     -0.00016847        0.0287423        0.103573      -0.00043718     5.09627e-05
                    -0.000175439     0.000200109        0.0302268       -0.979881     -0.000597225     4.97642e-06        -0.165626      0.00565783
281710                -0.0195125        0.105603      6.97762e-05    -0.000499708         0.992688      -0.0447329     -0.000265663     0.000136031
                    -0.000107382    -0.000572368        -0.165582      -0.0148551      0.000287677    -5.77931e-05        0.0298767       -0.979439
                        0.993096      -0.0445406      0.000174579    -0.000168503        0.0287804        0.103559     -0.000437365     5.11271e-05
                    -0.000175416     0.000200261        0.0297723       -0.979893     -0.000597172     5.24277e-06        -0.165631      0.00575447
281712                -0.0194745        0.105606       6.9384e-05    -0.000499606         0.992671      -0.0450963      -0.00026579     0.000136265
                    -0.000107708     -0.00057257        -0.165596      -0.0147989      0.000287794    -5.80098e-05        0.0294227        -0.97945
                         0.99308      -0.0449043      0.000174473    -0.000168535        0.0288184        0.103544     -0.000437549     5.12916e-05
                    -0.000175393     0.000200412        0.0293178       -0.979905     -0.000597119     5.50902e-06        -0.165637      0.00585112
281714                -0.0194365        0.105609       6.8992e-05    -0.000499503         0.992655      -0.0454596     -0.000265918       0.0001365
                    -0.000108034    -0.000572771         -0.16561      -0.0147425      0.000287911     -5.8227e-05        0.0289688       -0.979462
                        0.993064      -0.0452679      0.000174366    -0.000168567        0.0288565        0.103529     -0.000437735     5.14564e-05
                    -0.000175371     0.000200563        0.0288632       -0.979916     -0.000597066     5.77516e-06        -0.165642      0.00594777
281716                -0.0193984        0.105612      6.86003e-05      -0.0004994         0.992638      -0.0458229     -0.000266045     0.000136735
                    -0.000108358    -0.000572972        -0.165624      -0.0146862      0.000288026    -5.84445e-05        0.0285148       -0.979473
                        0.993048      -0.0456315       0.00017426    -0.000168599        0.0288945        0.103514      -0.00043792     5.16214e-05
                    -0.000175349     0.000200713        0.0284087       -0.979928     -0.000597013      6.0412e-06        -0.165648      0.00604444
281718                -0.0193604        0.105614      6.82088e-05    -0.000499297         0.992622      -0.0461862     -0.000266172      0.00013697
                    -0.000108682    -0.000573174        -0.165638      -0.0146299      0.000288142    -5.86625e-05        0.0280609       -0.979484
                        0.993031      -0.0459951      0.000174154    -0.000168631        0.0289326        0.103499     -0.000438106     5.17866e-05
                    -0.000175327     0.000200864        0.0279542       -0.979939      -0.00059696     6.30714e-06        -0.165653      0.00614111
281720                -0.0193224        0.105617      6.78175e-05    -0.000499194         0.992605      -0.0465495     -0.000266299     0.000137205
                    -0.000109004    -0.000573375        -0.165652      -0.0145736      0.000288257    -5.88807e-05        0.0276069       -0.979495
                        0.993015      -0.0463588      0.000174048    -0.000168663        0.0289706        0.103484     -0.000438292      5.1952e-05
                    -0.000175305     0.000201014        0.0274996        -0.97995     -0.000596908     6.57298e-06        -0.165658      0.00623779
281722                -0.0192844         0.10562      6.74265e-05     -0.00049909         0.992588      -0.0469129     -0.000266426      0.00013744
                    -0.000109326    -0.000573577        -0.165665      -0.0145172      0.000288372    -5.90994e-05        0.0271529       -0.979506
                        0.992998      -0.0467224      0.000173942    -0.000168695        0.0290087        0.103469     -0.000438478     5.21176e-05
                    -0.000175284     0.000201164         0.027045       -0.979961     -0.000596855     6.83871e-06        -0.165663      0.00633448
281724                -0.0192463        0.105623      6.70357e-05    -0.000498986         0.992571      -0.0472762     -0.000266552     0.000137675
                    -0.000109646    -0.000573779        -0.165679      -0.0144609      0.000288486    -5.93184e-05        0.0266989       -0.979517
                        0.992982       -0.047086      0.000173836    -0.000168727        0.0290467        0.103454     -0.000438665     5.22835e-05
                    -0.000175262     0.000201314        0.0265905       -0.979971     -0.000596802     7.10435e-06        -0.165669      0.00643118
281726                -0.0192083        0.105625      6.66451e-05    -0.000498882         0.992554      -0.0476394     -0.000266678      0.00013791
                    -0.000109966     -0.00057398        -0.165693      -0.0144045        0.0002886    -5.95378e-05        0.0262449       -0.979527
                        0.992965      -0.0474496      0.000173731    -0.000168759        0.0290847        0.103439     -0.000438852     5.24496e-05
                    -0.000175241     0.000201464        0.0261359       -0.979981      -0.00059675     7.36988e-06        -0.165674      0.00652788
281728                -0.0191703        0.105628      6.62548e-05    -0.000498778         0.992536      -0.0480027     -0.000266803     0.000138146
                    -0.000110284    -0.000574182        -0.165707      -0.0143481      0.000288714    -5.97575e-05        0.0257908       -0.979537
                        0.992948      -0.0478132      0.000173625    -0.000168791        0.0291227        0.103424      -0.00043904     5.26158e-05
                     -0.00017522     0.000201614        0.0256813       -0.979991     -0.000596697     7.63531e-06        -0.165679      0.00662459
281730                -0.0191323        0.105631      6.58647e-05    -0.000498673         0.992519       -0.048366     -0.000266929     0.000138381
                    -0.000110601    -0.000574384        -0.165721      -0.0142917      0.000288827    -5.99775e-05        0.0253368       -0.979547
                        0.992931      -0.0481768       0.00017352    -0.000168822        0.0291607        0.103409     -0.000439227     5.27823e-05
                    -0.000175199     0.000201763        0.0252267       -0.980001     -0.000596645     7.90065e-06        -0.165684      0.00672131
281732                -0.0190942        0.105633      6.54748e-05    -0.000498569         0.992501      -0.0487293     -0.000267054     0.000138617
                    -0.000110918    -0.000574585        -0.165734      -0.0142353       0.00028894    -6.01979e-05        0.0248827       -0.979556
                        0.992914      -0.0485404      0.000173414    -0.000168854        0.0291987        0.103394     -0.000439415     5.29489e-05
                    -0.000175179     0.000201912         0.024772       -0.980011     -0.000596593     8.16588e-06        -0.165689      0.00681804
281734                -0.0190562        0.105636      6.50852e-05    -0.000498463         0.992484      -0.0490926     -0.000267178     0.000138853
                    -0.000111233    -0.000574787        -0.165748      -0.0141789      0.000289052    -6.04187e-05        0.0244287       -0.979566
                        0.992896       -0.048904      0.000173309    -0.000168885        0.0292367        0.103379     -0.000439604     5.31157e-05
                    -0.000175158     0.000202061        0.0243174       -0.980021     -0.000596541     8.43101e-06        -0.165693      0.00691477
281736                -0.0190182        0.105639      6.46959e-05    -0.000498358         0.992466      -0.0494558     -0.000267303     0.000139089
                    -0.000111548    -0.000574989        -0.165762      -0.0141225      0.000289164    -6.06397e-05        0.0239746       -0.979575
                        0.992879      -0.0492675      0.000173204    -0.000168917        0.0292747        0.103364     -0.000439792     5.32827e-05
                    -0.000175138      0.00020221        0.0238627        -0.98003     -0.000596489     8.69605e-06        -0.165698      0.00701152
281738                -0.0189802        0.105641      6.43067e-05    -0.000498253         0.992448      -0.0498191     -0.000267427     0.000139324
                    -0.000111861    -0.000575191        -0.165775      -0.0140661      0.000289276    -6.08611e-05        0.0235205       -0.979584
                        0.992861      -0.0496311      0.000173098    -0.000168948        0.0293126        0.103349     -0.000439981     5.34498e-05
                    -0.000175118     0.000202358        0.0234081       -0.980039     -0.000596437     8.96098e-06        -0.165703      0.00710827
281740                -0.0189421        0.105644      6.39179e-05    -0.000498147          0.99243      -0.0501823     -0.000267551      0.00013956
                    -0.000112174    -0.000575392        -0.165789      -0.0140096      0.000289387    -6.10829e-05        0.0230664       -0.979593
                        0.992843      -0.0499947      0.000172993    -0.000168979        0.0293506        0.103333      -0.00044017     5.36171e-05
                    -0.000175098     0.000202507        0.0229534       -0.980048     -0.000596385     9.22581e-06        -0.165708      0.00720503
281742                -0.0189041        0.105647      6.35293e-05    -0.000498041         0.992411      -0.0505456     -0.000267675     0.000139796
                    -0.000112485    -0.000575593        -0.165803      -0.0139532      0.000289498     -6.1305e-05        0.0226123       -0.979602
                        0.992825      -0.0503582      0.000172888     -0.00016901        0.0293886        0.103318      -0.00044036     5.37845e-05
                    -0.000175078     0.000202655        0.0224987       -0.980056     -0.000596333     9.49054e-06        -0.165712      0.00730179
281744                -0.0188661        0.105649      6.31411e-05    -0.000497934         0.992393      -0.0509088     -0.000267798     0.000140032
                    -0.000112795    -0.000575794        -0.165816      -0.0138967      0.000289608    -6.15274e-05        0.0221582        -0.97961
                        0.992807      -0.0507218      0.000172783    -0.000169041        0.0294265        0.103303      -0.00044055      5.3952e-05
                    -0.000175057     0.000202802         0.022044       -0.980065     -0.000596281     9.75517e-06        -0.165717      0.00739856
281746                -0.0188281        0.105652      6.27533e-05    -0.000497828         0.992374       -0.051272     -0.000267921     0.000140268
                    -0.000113102    -0.000575991         -0.16583      -0.0138402      0.000289718    -6.17501e-05         0.021704       -0.979618
                        0.992789      -0.0510853      0.000172679    -0.000169072        0.0294645        0.103288      -0.00044074     5.41196e-05
                    -0.000175034     0.000202947        0.0215893       -0.980073      -0.00059623     1.00197e-05        -0.165721      0.00749535
281748                  -0.01879        0.105654      6.23662e-05    -0.000497721         0.992356      -0.0516352     -0.000268044     0.000140504
                    -0.000113378    -0.000576127        -0.165843      -0.0137837      0.000289828    -6.19732e-05        0.0212499       -0.979626
                        0.992771       -0.051449      0.000172574    -0.000169103        0.0295024        0.103273     -0.000440931     5.42872e-05
                    -0.000174965     0.000203081        0.0211346       -0.980081     -0.000596178     1.02841e-05        -0.165726      0.00759213
281750                 -0.018752        0.105657      6.19812e-05    -0.000497614         0.992337      -0.0519985     -0.000268166      0.00014074
                    -0.000113731    -0.000576424        -0.165857      -0.0137272      0.000289937    -6.21966e-05        0.0207957       -0.979634
                        0.992752      -0.0518124      0.000172469    -0.000169132        0.0295403        0.103258     -0.000441121     5.44547e-05
                    -0.000175017     0.000203259        0.0206798       -0.980089     -0.000596127     1.05484e-05         -0.16573      0.00768893
281752                 -0.018714        0.105659      6.16204e-05    -0.000497511         0.992318      -0.0523617     -0.000268289     0.000140976
                    -0.000114034    -0.000576617         -0.16587      -0.0136707      0.000290046    -6.24205e-05        0.0203415       -0.979642
                        0.992734      -0.0521759      0.000172366    -0.000169146        0.0295782        0.103242     -0.000441313      5.4622e-05
                    -0.000174993     0.000203401        0.0202251       -0.980096     -0.000596075     1.08126e-05        -0.165734      0.00778573
281754                 -0.018676        0.105662      6.11887e-05    -0.000497402         0.992299      -0.0527249     -0.000268411     0.000141212
                    -0.000114339    -0.000576817        -0.165884      -0.0136142      0.000290154    -6.26447e-05        0.0198874       -0.979649
                        0.992715      -0.0525395      0.000172265    -0.000169202        0.0296162        0.103227     -0.000441504     5.47887e-05
                    -0.000174973     0.000203547        0.0197703       -0.980104     -0.000596024     1.10766e-05        -0.165739      0.00788254
281756                 -0.018638        0.105664      6.08072e-05    -0.000497293          0.99228      -0.0530881     -0.000268534     0.000141446
                    -0.000114643    -0.000577019        -0.165897      -0.0135577      0.000290261    -6.28696e-05        0.0194332       -0.979656
                        0.992696       -0.052903      0.000172158    -0.000169231        0.0296541        0.103212     -0.000441696      5.4954e-05
                    -0.000174955     0.000203693        0.0193155       -0.980111     -0.000595973     1.13404e-05        -0.165743      0.00797936
281758                -0.0185999        0.105667      6.04216e-05    -0.000497185          0.99226      -0.0534513     -0.000268658     0.000141678
                    -0.000114947    -0.000577221        -0.165911      -0.0135011      0.000290367    -6.30956e-05         0.018979       -0.979663
                        0.992677      -0.0532665      0.000172054    -0.000169261         0.029692        0.103197     -0.000441888     5.51153e-05
                    -0.000174937      0.00020384        0.0188608       -0.980118     -0.000595921     1.16037e-05        -0.165747      0.00807618
281760                -0.0185619        0.105669      6.00354e-05    -0.000497076         0.992241      -0.0538144     -0.000268788     0.000141899
                     -0.00011525    -0.000577423        -0.165924      -0.0134446      0.000290464    -6.33286e-05        0.0185248        -0.97967
                        0.992658        -0.05363      0.000171949    -0.000169291        0.0297299        0.103182     -0.000442079     5.52578e-05
                    -0.000174919     0.000203987         0.018406       -0.980124      -0.00059587     1.18649e-05        -0.165751      0.00817301
281762                -0.0185239        0.105672      5.96491e-05    -0.000496968         0.992221      -0.0541777     -0.000268809     0.000142286
                    -0.000115552    -0.000577626        -0.165938       -0.013388      0.000290616    -6.35354e-05        0.0180701       -0.979676
                        0.992639      -0.0539935      0.000171845    -0.000169321        0.0297677        0.103166     -0.000442236     5.57049e-05
