! TOUCHSTONE file generated by CST MICROWAVE STUDIO
! Date and time: Tue Oct 14 07:26:06 2025
! Project name: Teste_Macro_Metasurface_Nanopilar.cst
! Parameters = {H=600; L_x=90; L_y=100; Lambda=1064; Max_L=200; Min_L=70; PathPara=1; Phi=0; Step_L=10; Theta=0; p=520; phaseX=180; phaseY=0}
! Header version: 2018
! Port assignment regex: !\s*Touchstone port\s*([0-9]+)\s*=\s*(CST MWS port|CST DS port)\s*([0-9]+|Zmin|Zmax)\s*\(\"(.*)\"\)(\s*mode\s*([0-9]+))?.*
! Touchstone port assignment:
! Touchstone port 1 = CST MWS port Zmax ("") mode 1
! Touchstone port 2 = CST MWS port Zmax ("") mode 2
! Touchstone port 3 = CST MWS port Zmin ("") mode 1
! Touchstone port 4 = CST MWS port Zmin ("") mode 2
! S-Parameters are not renormalized. Each port impedance will be approximated by the real part at minimum frequency. The values are described via the [Reference] keyword.
! Default impedance is overridden by [Reference]
[Version] 2.0
# GHz S RI R 376.73
[Number of Ports] 4
[Reference]
376.73 376.73 259.814 259.814 
[Number of Frequencies] 51
[Network Data]
281700                0.00455588        0.037079      0.000145507    -0.000285127          0.91037       -0.406765     -0.000175711     6.30047e-05
                      5.5937e-05    -1.43659e-05      -0.00175085       0.0753942      4.23449e-05     0.000254748         0.971482       -0.221011
                        0.911585       -0.407265     -1.75257e-05      0.00014454        0.0243101       0.0285509     -0.000213836    -0.000119792
                     5.10092e-05     0.000205392         0.971677       -0.220907     -0.000210434    -5.23753e-05        0.0339767       0.0674698
281702                 0.0045729       0.0370682      0.000145674    -0.000285309         0.910213       -0.407117     -0.000175092      6.3042e-05
                     5.57082e-05    -1.41517e-05       -0.0017213       0.0753888      4.24009e-05     0.000254686           0.9714       -0.221375
                        0.911428       -0.407617     -1.75371e-05     0.000144492        0.0243126       0.0285375     -0.000213954    -0.000119651
                     5.09962e-05     0.000205396         0.971595       -0.221271     -0.000210469    -5.23657e-05        0.0339982       0.0674522
281704                0.00458992       0.0370573      0.000145841    -0.000285491         0.910056       -0.407468     -0.000174474     6.30794e-05
                     5.54798e-05    -1.39371e-05      -0.00169175       0.0753833      4.24568e-05     0.000254623         0.971317       -0.221739
                        0.911271       -0.407969     -1.75482e-05     0.000144444         0.024315       0.0285242     -0.000214072    -0.000119509
                     5.09833e-05     0.000205399         0.971512       -0.221635     -0.000210504    -5.23561e-05        0.0340197       0.0674345
281706                0.00460692       0.0370465      0.000146008    -0.000285672         0.909899        -0.40782     -0.000173859     6.31168e-05
                     5.52516e-05    -1.37223e-05      -0.00166221       0.0753778      4.25126e-05     0.000254561         0.971234       -0.222103
                        0.911114        -0.40832     -1.75592e-05     0.000144396        0.0243175       0.0285108      -0.00021419    -0.000119367
                     5.09703e-05     0.000205402         0.971429          -0.222     -0.000210539    -5.23465e-05        0.0340413       0.0674168
281708                0.00462392       0.0370356      0.000146175    -0.000285853         0.909741       -0.408171     -0.000173245     6.31542e-05
                     5.50237e-05    -1.35071e-05      -0.00163267       0.0753723      4.25684e-05     0.000254498         0.971151       -0.222468
                        0.910957       -0.408672     -1.75699e-05     0.000144349          0.02432       0.0284974     -0.000214308    -0.000119225
                     5.09573e-05     0.000205405         0.971346       -0.222364     -0.000210574    -5.23368e-05        0.0340628       0.0673991
281710                0.00464092       0.0370248      0.000146342    -0.000286034         0.909584       -0.408522     -0.000172633     6.31917e-05
                     5.47962e-05    -1.32917e-05      -0.00160314       0.0753667      4.26241e-05     0.000254435         0.971068       -0.222832
                          0.9108       -0.409024     -1.75805e-05     0.000144301        0.0243224       0.0284841     -0.000214426    -0.000119083
                     5.09444e-05     0.000205408         0.971263       -0.222729     -0.000210609    -5.23272e-05        0.0340843       0.0673813
281712                0.00465791       0.0370139       0.00014651    -0.000286214         0.909426       -0.408874     -0.000172022     6.32292e-05
                     5.45689e-05    -1.30759e-05      -0.00157361       0.0753612      4.26797e-05     0.000254373         0.970985       -0.223196
                        0.910642       -0.409375     -1.75908e-05     0.000144254        0.0243248       0.0284707     -0.000214544    -0.000118941
                     5.09314e-05     0.000205412          0.97118       -0.223093     -0.000210644    -5.23175e-05        0.0341058       0.0673636
281714                0.00467489        0.037003      0.000146678    -0.000286394         0.909269       -0.409225     -0.000171413     6.32668e-05
                     5.43421e-05    -1.28599e-05      -0.00154408       0.0753556      4.27352e-05      0.00025431         0.970901        -0.22356
                        0.910485       -0.409727     -1.76009e-05     0.000144207        0.0243273       0.0284574     -0.000214661    -0.000118798
                     5.09185e-05     0.000205415         0.971097       -0.223457      -0.00021068    -5.23078e-05        0.0341273       0.0673459
281716                0.00469186       0.0369921      0.000146845    -0.000286574         0.909111       -0.409576     -0.000170806     6.33043e-05
                     5.41156e-05    -1.26436e-05      -0.00151456       0.0753501      4.27906e-05     0.000254248         0.970818       -0.223924
                        0.910327       -0.410078     -1.76108e-05     0.000144159        0.0243297        0.028444     -0.000214779    -0.000118656
                     5.09056e-05     0.000205418         0.971013       -0.223822     -0.000210715    -5.22981e-05        0.0341487       0.0673282
281718                0.00470883       0.0369812      0.000147013    -0.000286753         0.908953       -0.409927     -0.000170201      6.3342e-05
                     5.38895e-05     -1.2427e-05      -0.00148504       0.0753445      4.28459e-05     0.000254185         0.970734       -0.224288
                        0.910169        -0.41043     -1.76205e-05     0.000144112        0.0243321       0.0284307     -0.000214896    -0.000118513
                     5.08927e-05     0.000205421          0.97093       -0.224186      -0.00021075    -5.22884e-05        0.0341702       0.0673104
281720                0.00472579       0.0369703      0.000147181    -0.000286933         0.908794       -0.410278     -0.000169597     6.33796e-05
                     5.36639e-05    -1.22101e-05      -0.00145552       0.0753389      4.29012e-05     0.000254122          0.97065       -0.224652
                        0.910011       -0.410781     -1.76299e-05     0.000144065        0.0243345       0.0284173     -0.000215013     -0.00011837
                     5.08798e-05     0.000205425         0.970846        -0.22455     -0.000210785    -5.22786e-05        0.0341917       0.0672927
281722                0.00474274       0.0369594      0.000147349    -0.000287111         0.908636       -0.410629     -0.000168995     6.34173e-05
                     5.34387e-05    -1.19929e-05      -0.00142601       0.0753333      4.29564e-05      0.00025406         0.970566       -0.225015
                        0.909853       -0.411132     -1.76391e-05     0.000144018        0.0243369        0.028404      -0.00021513    -0.000118227
                      5.0867e-05     0.000205428         0.970762       -0.224914     -0.000210821    -5.22688e-05        0.0342131       0.0672749
281724                0.00475969       0.0369484      0.000147517     -0.00028729         0.908478        -0.41098     -0.000168394      6.3455e-05
                      5.3214e-05    -1.17755e-05       -0.0013965       0.0753277      4.30115e-05     0.000253997         0.970482       -0.225379
                        0.909695       -0.411483     -1.76481e-05     0.000143972        0.0243393       0.0283906     -0.000215247    -0.000118083
                     5.08541e-05     0.000205431         0.970678       -0.225278     -0.000210856     -5.2259e-05        0.0342346       0.0672572
281726                0.00477663       0.0369375      0.000147685    -0.000287468         0.908319       -0.411331     -0.000167796     6.34927e-05
                     5.29898e-05    -1.15578e-05      -0.00136699       0.0753221      4.30665e-05     0.000253934         0.970398       -0.225743
                        0.909536       -0.411834     -1.76569e-05     0.000143925        0.0243417       0.0283773     -0.000215364    -0.000117939
                     5.08413e-05     0.000205435         0.970594       -0.225643     -0.000210892    -5.22492e-05         0.034256       0.0672394
281728                0.00479356       0.0369266      0.000147853    -0.000287645         0.908161       -0.411682     -0.000167198     6.35304e-05
                     5.27661e-05    -1.13398e-05      -0.00133749       0.0753165      4.31214e-05     0.000253871         0.970314       -0.226107
                        0.909378       -0.412185     -1.76655e-05     0.000143878        0.0243441        0.028364     -0.000215481    -0.000117796
                     5.08285e-05     0.000205438         0.970509       -0.226007     -0.000210927    -5.22393e-05        0.0342774       0.0672216
281730                0.00481049       0.0369156      0.000148021    -0.000287823         0.908002       -0.412033     -0.000166603     6.35681e-05
                      5.2543e-05    -1.11216e-05      -0.00130799       0.0753109      4.31762e-05     0.000253809         0.970229       -0.226471
                        0.909219       -0.412537     -1.76738e-05     0.000143832        0.0243465       0.0283507     -0.000215597    -0.000117652
                     5.08157e-05     0.000205442         0.970425       -0.226371     -0.000210963    -5.22294e-05        0.0342988       0.0672039
281732                0.00482741       0.0369047      0.000148189    -0.000287999         0.907843       -0.412383     -0.000166009     6.36058e-05
                     5.23206e-05    -1.09031e-05       -0.0012785       0.0753052       4.3231e-05     0.000253746         0.970144       -0.226834
                         0.90906       -0.412887     -1.76818e-05     0.000143786        0.0243488       0.0283373     -0.000215714    -0.000117508
                      5.0803e-05     0.000205445          0.97034       -0.226735     -0.000210998    -5.22195e-05        0.0343202       0.0671861
281734                0.00484432       0.0368937      0.000148357    -0.000288176         0.907684       -0.412734     -0.000165416     6.36436e-05
                     5.20987e-05    -1.06845e-05      -0.00124901       0.0752995      4.32856e-05     0.000253683          0.97006       -0.227198
                        0.908901       -0.413238     -1.76897e-05      0.00014374        0.0243512        0.028324      -0.00021583    -0.000117363
                     5.07903e-05     0.000205448         0.970256       -0.227099     -0.000211034    -5.22096e-05        0.0343416       0.0671683
281736                0.00486123       0.0368827      0.000148525    -0.000288352         0.907524       -0.413084     -0.000164825     6.36813e-05
                     5.18776e-05    -1.04656e-05      -0.00121952       0.0752939      4.33402e-05      0.00025362         0.969975       -0.227562
                        0.908742       -0.413589     -1.76973e-05     0.000143694        0.0243535       0.0283107     -0.000215947    -0.000117219
                     5.07776e-05     0.000205452         0.970171       -0.227463     -0.000211069    -5.21996e-05         0.034363       0.0671505
281738                0.00487813       0.0368718      0.000148692    -0.000288528         0.907365       -0.413435     -0.000164236     6.37191e-05
                     5.16573e-05    -1.02465e-05      -0.00119004       0.0752882      4.33947e-05     0.000253557          0.96989       -0.227926
                        0.908583        -0.41394     -1.77047e-05     0.000143648        0.0243559       0.0282974     -0.000216063    -0.000117074
                     5.07649e-05     0.000205456         0.970086       -0.227827     -0.000211105    -5.21896e-05        0.0343844       0.0671327
281740                0.00489503       0.0368608       0.00014886    -0.000288703         0.907205       -0.413785     -0.000163649     6.37568e-05
                     5.14379e-05    -1.00272e-05      -0.00116056       0.0752825      4.34491e-05     0.000253494         0.969805       -0.228289
                        0.908424       -0.414291     -1.77118e-05     0.000143602        0.0243582       0.0282841     -0.000216179    -0.000116929
                     5.07523e-05     0.000205459         0.970001       -0.228191     -0.000211141    -5.21796e-05        0.0344058       0.0671149
281742                0.00491191       0.0368498      0.000149027    -0.000288878         0.907046       -0.414136     -0.000163062     6.37945e-05
                     5.12194e-05    -9.80776e-06      -0.00113108       0.0752768      4.35035e-05     0.000253431         0.969719       -0.228653
                        0.908264       -0.414641     -1.77188e-05     0.000143556        0.0243605       0.0282708     -0.000216295    -0.000116784
                     5.07398e-05     0.000205463         0.969915       -0.228554     -0.000211177    -5.21695e-05        0.0344271       0.0670971
281744                0.00492879       0.0368388      0.000149195    -0.000289053         0.906886       -0.414486     -0.000162478     6.38322e-05
                     5.10022e-05    -9.58824e-06      -0.00110161       0.0752711      4.35578e-05     0.000253368         0.969634       -0.229016
                        0.908104       -0.414992     -1.77254e-05     0.000143511        0.0243629       0.0282575     -0.000216411    -0.000116639
                     5.07274e-05     0.000205467          0.96983       -0.228918     -0.000211212    -5.21594e-05        0.0344485       0.0670793
281746                0.00494567       0.0368278      0.000149362    -0.000289227         0.906726       -0.414836     -0.000161895       6.387e-05
                     5.07866e-05     -9.3687e-06      -0.00107214       0.0752653       4.3612e-05     0.000253305         0.969548        -0.22938
                        0.907945       -0.415342     -1.77319e-05     0.000143466        0.0243652       0.0282442     -0.000216526    -0.000116493
                      5.0715e-05     0.000205472         0.969744       -0.229282     -0.000211248    -5.21492e-05        0.0344698       0.0670614
281748                0.00496253       0.0368168      0.000149529    -0.000289401         0.906566       -0.415187     -0.000161314     6.39077e-05
                     5.05732e-05    -9.14929e-06      -0.00104267       0.0752596      4.36661e-05     0.000253242         0.969462       -0.229743
                        0.907785       -0.415693     -1.77381e-05      0.00014342        0.0243675       0.0282309     -0.000216642    -0.000116347
                     5.07028e-05     0.000205476         0.969659       -0.229646     -0.000211284    -5.21391e-05        0.0344912       0.0670436
281750                 0.0049794       0.0368057      0.000149696    -0.000289574         0.906406       -0.415537     -0.000160734     6.39454e-05
                     5.03634e-05     -8.9303e-06      -0.00101321       0.0752538      4.37203e-05     0.000253178         0.969377       -0.230107
                        0.907625       -0.416043     -1.77441e-05     0.000143375        0.0243698       0.0282176     -0.000216757    -0.000116201
                     5.06909e-05     0.000205482         0.969573        -0.23001      -0.00021132    -5.21289e-05        0.0345125       0.0670258
281752                0.00499625       0.0367947      0.000149862    -0.000289747         0.906246       -0.415887     -0.000160155     6.39831e-05
                     5.01605e-05    -8.71245e-06     -0.000983751       0.0752481      4.37744e-05     0.000253115          0.96929        -0.23047
                        0.907465       -0.416394     -1.77499e-05      0.00014333        0.0243721       0.0282043     -0.000216873    -0.000116055
                     5.06793e-05     0.000205488         0.969487       -0.230373     -0.000211356    -5.21186e-05        0.0345338       0.0670079
281754                0.00501309       0.0367837      0.000150029     -0.00028992         0.906085       -0.416237     -0.000159578     6.40208e-05
                     4.99763e-05    -8.49814e-06     -0.000954296       0.0752423      4.38284e-05     0.000253052         0.969204       -0.230834
                        0.907304       -0.416744     -1.77554e-05     0.000143286        0.0243744        0.028191     -0.000216988    -0.000115909
                     5.06687e-05     0.000205496         0.969401       -0.230737     -0.000211392    -5.21083e-05        0.0345551       0.0669901
281756                0.00502992       0.0367726      0.000150196    -0.000290092         0.905924       -0.416587     -0.000159003     6.40585e-05
                     4.99013e-05     -8.3033e-06     -0.000924845       0.0752365      4.38825e-05     0.000252988         0.969118       -0.231197
                        0.907144       -0.417094     -1.77608e-05     0.000143241        0.0243766       0.0281777     -0.000217103    -0.000115763
                     5.06607e-05     0.000205509         0.969314       -0.231101     -0.000211428    -5.20979e-05        0.0345764       0.0669722
281758                0.00504678       0.0367617      0.000150362    -0.000290264         0.905764       -0.416937     -0.000158429     6.40964e-05
                     4.91295e-05    -7.94263e-06     -0.000895398       0.0752307      4.39366e-05     0.000252924         0.969032        -0.23156
                        0.906983       -0.417444     -1.77659e-05     0.000143197        0.0243789       0.0281644     -0.000217218    -0.000115616
                     5.06658e-05     0.000205534         0.969228       -0.231464     -0.000211464    -5.20875e-05        0.0345977       0.0669543
281760                 0.0050636       0.0367506      0.000150528    -0.000290435         0.905603       -0.417287     -0.000157855     6.41347e-05
                     4.91511e-05    -7.79107e-06     -0.000865954       0.0752249      4.39908e-05      0.00025286         0.968945       -0.231924
                        0.906822       -0.417794     -1.77708e-05     0.000143152        0.0243812       0.0281512     -0.000217333    -0.000115469
                     5.08049e-05     0.000205471         0.969142       -0.231828       -0.0002115    -5.20771e-05         0.034619       0.0669365
281762                0.00508042       0.0367395      0.000150694    -0.000290606         0.905442       -0.417636     -0.000157282     6.41764e-05
                     4.89772e-05    -7.57926e-06     -0.000836514       0.0752191       4.4045e-05     0.000252797         0.968858       -0.232287
                        0.906662       -0.418145     -1.77755e-05     0.000143108        0.0243834       0.0281379     -0.000217448    -0.000115322
