! TOUCHSTONE file generated by CST MICROWAVE STUDIO
! Date and time: Tue Oct 14 07:28:22 2025
! Project name: Teste_Macro_Metasurface_Nanopilar.cst
! Parameters = {H=600; L_x=125; L_y=135; Lambda=1064; Max_L=200; Min_L=70; PathPara=1; Phi=0; Step_L=10; Theta=0; p=520; phaseX=180; phaseY=0}
! Header version: 2018
! Port assignment regex: !\s*Touchstone port\s*([0-9]+)\s*=\s*(CST MWS port|CST DS port)\s*([0-9]+|Zmin|Zmax)\s*\(\"(.*)\"\)(\s*mode\s*([0-9]+))?.*
! Touchstone port assignment:
! Touchstone port 1 = CST MWS port Zmax ("") mode 1
! Touchstone port 2 = CST MWS port Zmax ("") mode 2
! Touchstone port 3 = CST MWS port Zmin ("") mode 1
! Touchstone port 4 = CST MWS port Zmin ("") mode 2
! S-Parameters are not renormalized. Each port impedance will be approximated by the real part at minimum frequency. The values are described via the [Reference] keyword.
! Default impedance is overridden by [Reference]
[Version] 2.0
# GHz S RI R 376.73
[Number of Ports] 4
[Reference]
376.73 376.73 259.814 259.814 
[Number of Frequencies] 51
[Network Data]
281700                -0.0633246       -0.119357      -0.00132307     0.000142216        -0.124198        0.977273     -0.000119159    -0.000205075
                     -0.00141572     0.000190373       -0.0340894      -0.0654142     -0.000330965    -4.96645e-05        -0.504327        0.851674
                       -0.124069        0.977317     -0.000245569    -3.89052e-05       -0.0900103        0.100444      -0.00100805     -0.00103066
                    -3.39874e-05    -0.000248213        -0.504329        0.851811     -0.000992702    -0.000962578       -0.0729861      0.00365245
281702                -0.0633702       -0.119354      -0.00132292     0.000142919        -0.123752        0.977327     -0.000119237    -0.000204908
                     -0.00141555     0.000191129       -0.0341151      -0.0654273     -0.000330897    -4.95314e-05        -0.503916        0.851916
                       -0.123622        0.977372     -0.000245704     -3.8787e-05       -0.0899624        0.100512      -0.00100828     -0.00103026
                    -3.41531e-05    -0.000248214        -0.503918        0.852053     -0.000993007    -0.000962262       -0.0730073      0.00370644
281704                -0.0634159       -0.119351      -0.00132277     0.000143622        -0.123306        0.977381     -0.000119315     -0.00020474
                     -0.00141538     0.000191881       -0.0341409      -0.0654404     -0.000330832    -4.93946e-05        -0.503505        0.852158
                       -0.123176        0.977426     -0.000245839      -3.867e-05       -0.0899145         0.10058      -0.00100851     -0.00102985
                    -3.43193e-05    -0.000248216        -0.503507        0.852294     -0.000993315    -0.000961949       -0.0730284      0.00376046
281706                -0.0634616       -0.119349      -0.00132261     0.000144324        -0.122859        0.977435     -0.000119392    -0.000204573
                      -0.0014152     0.000192627       -0.0341667      -0.0654536     -0.000330772    -4.92541e-05        -0.503094        0.852399
                       -0.122729         0.97748     -0.000245974    -3.85542e-05       -0.0898666        0.100648      -0.00100873     -0.00102945
                    -3.44859e-05    -0.000248218        -0.503096        0.852536     -0.000993626    -0.000961638       -0.0730495       0.0038145
281708                -0.0635073       -0.119346      -0.00132246     0.000145026        -0.122413        0.977489      -0.00011947    -0.000204406
                     -0.00141503     0.000193367       -0.0341925      -0.0654667     -0.000330714    -4.91102e-05        -0.502683         0.85264
                       -0.122282        0.977534     -0.000246109    -3.84397e-05       -0.0898185        0.100716      -0.00100896     -0.00102904
                    -3.46529e-05    -0.000248219        -0.502685        0.852777     -0.000993939     -0.00096133       -0.0730706      0.00386856
281710                -0.0635529       -0.119343      -0.00132231     0.000145727        -0.121966        0.977543     -0.000119547    -0.000204239
                     -0.00141486     0.000194102       -0.0342184      -0.0654798     -0.000330659    -4.89629e-05        -0.502271        0.852881
                       -0.121835        0.977588     -0.000246244    -3.83263e-05       -0.0897705        0.100785      -0.00100918     -0.00102864
                    -3.48205e-05    -0.000248221        -0.502274        0.853018     -0.000994254    -0.000961024       -0.0730916      0.00392264
281712                -0.0635986        -0.11934      -0.00132215     0.000146428         -0.12152        0.977596     -0.000119624    -0.000204072
                     -0.00141469     0.000194835       -0.0342442      -0.0654928     -0.000330607    -4.88124e-05         -0.50186        0.853122
                       -0.121388        0.977642     -0.000246378    -3.82141e-05       -0.0897224        0.100853      -0.00100941     -0.00102823
                    -3.49885e-05    -0.000248224        -0.501862        0.853258     -0.000994571    -0.000960721       -0.0731126      0.00397675
281714                -0.0636443       -0.119337        -0.001322     0.000147128        -0.121073        0.977649     -0.000119701    -0.000203904
                     -0.00141452     0.000195566       -0.0342701      -0.0655059     -0.000330558    -4.86589e-05        -0.501448        0.853363
                       -0.120942        0.977695     -0.000246513    -3.81032e-05       -0.0896742        0.100921      -0.00100963     -0.00102783
                     -3.5157e-05    -0.000248227        -0.501451        0.853499     -0.000994889     -0.00096042       -0.0731335      0.00403088
281716                  -0.06369       -0.119334      -0.00132184     0.000147828        -0.120627        0.977702     -0.000119778    -0.000203737
                     -0.00141435     0.000196297       -0.0342959       -0.065519     -0.000330511    -4.85023e-05        -0.501036        0.853603
                       -0.120495        0.977748     -0.000246647    -3.79935e-05       -0.0896261        0.100989      -0.00100986     -0.00102742
                    -3.53257e-05    -0.000248231        -0.501039        0.853739      -0.00099521    -0.000960122       -0.0731544      0.00408503
281718                -0.0637357       -0.119331      -0.00132168     0.000148528         -0.12018        0.977755     -0.000119855     -0.00020357
                     -0.00141419     0.000197028       -0.0343218       -0.065532     -0.000330465     -4.8343e-05        -0.500624        0.853843
                       -0.120048        0.977801     -0.000246782     -3.7885e-05       -0.0895778        0.101057      -0.00101008     -0.00102702
                    -3.54945e-05    -0.000248236        -0.500627        0.853979     -0.000995532    -0.000959826       -0.0731753      0.00413922
281720                -0.0637814       -0.119328      -0.00132153     0.000149227        -0.119734        0.977808     -0.000119932    -0.000203402
                     -0.00141403     0.000197759       -0.0343477       -0.065545     -0.000330422     -4.8181e-05        -0.500212        0.854083
                       -0.119601        0.977854     -0.000246916    -3.77777e-05       -0.0895295        0.101125      -0.00101031     -0.00102661
                    -3.56631e-05    -0.000248242        -0.500216        0.854219     -0.000995855    -0.000959533       -0.0731961      0.00419342
281722                -0.0638271       -0.119325      -0.00132137     0.000149925        -0.119287         0.97786     -0.000120008    -0.000203235
                     -0.00141386     0.000198491       -0.0343736       -0.065558     -0.000330381    -4.80163e-05          -0.4998        0.854323
                       -0.119154        0.977906      -0.00024705    -3.76716e-05       -0.0894812        0.101193      -0.00101053     -0.00102621
                    -3.58309e-05    -0.000248249        -0.499804        0.854459      -0.00099618    -0.000959242       -0.0732169      0.00424766
281724                -0.0638728       -0.119322      -0.00132121     0.000150623        -0.118841        0.977913     -0.000120085    -0.000203067
                      -0.0014137     0.000199224       -0.0343995       -0.065571      -0.00033034    -4.78492e-05        -0.499388        0.854562
                       -0.118707        0.977958     -0.000247183    -3.75667e-05       -0.0894328        0.101261      -0.00101076      -0.0010258
                    -3.59975e-05    -0.000248258        -0.499392        0.854698     -0.000996506    -0.000958953       -0.0732376      0.00430191
281726                -0.0639185       -0.119319      -0.00132105     0.000151321        -0.118394        0.977965     -0.000120162      -0.0002029
                     -0.00141354     0.000199957       -0.0344255       -0.065584     -0.000330302    -4.76797e-05        -0.498976        0.854802
                        -0.11826        0.978011     -0.000247316     -3.7463e-05       -0.0893844        0.101329      -0.00101098      -0.0010254
                    -3.61623e-05    -0.000248267        -0.498979        0.854938     -0.000996832    -0.000958666       -0.0732583       0.0043562
281728                -0.0639642       -0.119316      -0.00132089     0.000152018        -0.117948        0.978017     -0.000120239    -0.000202732
                     -0.00141338     0.000200691       -0.0344514       -0.065597     -0.000330265    -4.75079e-05        -0.498563        0.855041
                       -0.117813        0.978062     -0.000247449    -3.73605e-05       -0.0893359        0.101397      -0.00101121       -0.001025
                    -3.63248e-05    -0.000248277        -0.498567        0.855177      -0.00099716    -0.000958381        -0.073279       0.0044105
281730                -0.0640099       -0.119313      -0.00132074     0.000152715        -0.117501        0.978068     -0.000120316    -0.000202564
                     -0.00141322     0.000201425       -0.0344774        -0.06561     -0.000330228    -4.73339e-05        -0.498151         0.85528
                       -0.117366        0.978114     -0.000247582    -3.72592e-05       -0.0892874        0.101464      -0.00101143     -0.00102459
                    -3.64848e-05    -0.000248287        -0.498155        0.855415     -0.000997489    -0.000958098       -0.0732996      0.00446483
281732                -0.0640556       -0.119309      -0.00132058     0.000153411        -0.117055         0.97812     -0.000120393    -0.000202396
                     -0.00141305      0.00020216       -0.0345033      -0.0656229     -0.000330193    -4.71579e-05        -0.497738        0.855519
                       -0.116919        0.978166     -0.000247714    -3.71591e-05       -0.0892388        0.101532      -0.00101166     -0.00102419
                    -3.66426e-05    -0.000248295        -0.497742        0.855654     -0.000997818    -0.000957817       -0.0733201      0.00451919
281734                -0.0641013       -0.119306      -0.00132041     0.000154107        -0.116608        0.978171      -0.00012047    -0.000202228
                     -0.00141289     0.000202895       -0.0345293      -0.0656359     -0.000330159    -4.69798e-05        -0.497325        0.855757
                       -0.116472        0.978217     -0.000247846    -3.70602e-05       -0.0891902          0.1016      -0.00101189     -0.00102378
                    -3.67986e-05    -0.000248301         -0.49733        0.855892     -0.000998148    -0.000957538       -0.0733407      0.00457357
281736                 -0.064147       -0.119303      -0.00132025     0.000154803        -0.116161        0.978222     -0.000120548    -0.000202059
                     -0.00141273      0.00020363       -0.0345553      -0.0656488     -0.000330126    -4.67998e-05        -0.496913        0.855995
                       -0.116025        0.978268     -0.000247977    -3.69624e-05       -0.0891416        0.101668      -0.00101211     -0.00102338
                    -3.69535e-05    -0.000248305        -0.496917        0.856131     -0.000998479    -0.000957261       -0.0733612      0.00462798
281738                -0.0641927         -0.1193      -0.00132009     0.000155498        -0.115715        0.978273     -0.000120625    -0.000201891
                     -0.00141256     0.000204366       -0.0345813      -0.0656617     -0.000330094    -4.66179e-05          -0.4965        0.856234
                       -0.115578        0.978319     -0.000248108    -3.68658e-05       -0.0890929        0.101736      -0.00101234     -0.00102297
                    -3.71078e-05    -0.000248307        -0.496504        0.856369      -0.00099881    -0.000956986       -0.0733816      0.00468241
281740                -0.0642385       -0.119297      -0.00131993     0.000156193        -0.115268        0.978323     -0.000120703    -0.000201722
                      -0.0014124     0.000205101       -0.0346074      -0.0656746     -0.000330062    -4.64343e-05        -0.496087        0.856471
                       -0.115131         0.97837     -0.000248239    -3.67703e-05       -0.0890441        0.101803      -0.00101257     -0.00102256
                    -3.72623e-05    -0.000248306        -0.496091        0.856606     -0.000999141    -0.000956712        -0.073402      0.00473687
281742                -0.0642842       -0.119294      -0.00131977     0.000156888        -0.114822        0.978374     -0.000120781    -0.000201553
                     -0.00141223     0.000205837       -0.0346334      -0.0656875     -0.000330031     -4.6249e-05        -0.495673        0.856709
                       -0.114684         0.97842     -0.000248369     -3.6676e-05       -0.0889953        0.101871       -0.0010128     -0.00102216
                    -3.74173e-05    -0.000248304        -0.495678        0.856844     -0.000999473     -0.00095644       -0.0734224      0.00479135
281744                -0.0643299        -0.11929       -0.0013196     0.000157582        -0.114375        0.978424     -0.000120859    -0.000201384
                     -0.00141207     0.000206573       -0.0346594      -0.0657004     -0.000330001    -4.60621e-05         -0.49526        0.856947
                       -0.114237         0.97847     -0.000248498    -3.65828e-05       -0.0889465        0.101939      -0.00101303     -0.00102175
                    -3.75731e-05      -0.0002483        -0.495265        0.857081     -0.000999805    -0.000956169       -0.0734427      0.00484585
281746                -0.0643756       -0.119287      -0.00131944     0.000158276        -0.113928        0.978474     -0.000120938    -0.000201215
                      -0.0014119     0.000207309       -0.0346855      -0.0657132     -0.000329971    -4.58736e-05        -0.494847        0.857184
                        -0.11379         0.97852     -0.000248627    -3.64907e-05       -0.0888976        0.102007      -0.00101326     -0.00102135
                    -3.77297e-05    -0.000248294        -0.494852        0.857319      -0.00100014      -0.0009559        -0.073463      0.00490038
281748                -0.0644214       -0.119284      -0.00131928      0.00015897        -0.113482        0.978524     -0.000121017    -0.000201045
                     -0.00141174     0.000208045       -0.0347116      -0.0657261     -0.000329942    -4.56837e-05        -0.494433        0.857421
                       -0.113343         0.97857     -0.000248756    -3.63997e-05       -0.0888486        0.102074      -0.00101349     -0.00102094
                    -3.78871e-05    -0.000248288        -0.494438        0.857556      -0.00100047    -0.000955633       -0.0734832      0.00495494
281750                -0.0644671       -0.119281      -0.00131911     0.000159663        -0.113035        0.978574     -0.000121095    -0.000200876
                     -0.00141157     0.000208781       -0.0347377      -0.0657389     -0.000329913    -4.54923e-05         -0.49402        0.857658
                       -0.112896         0.97862     -0.000248884    -3.63097e-05       -0.0887996        0.102142      -0.00101372     -0.00102054
                    -3.80453e-05    -0.000248281        -0.494025        0.857792       -0.0010008    -0.000955366       -0.0735034      0.00500951
281752                -0.0645128       -0.119277      -0.00131895     0.000160356        -0.112588        0.978623     -0.000121175    -0.000200705
                     -0.00141141     0.000209517       -0.0347637      -0.0657517     -0.000329884    -4.52995e-05        -0.493606        0.857895
                       -0.112449        0.978669     -0.000249011    -3.62209e-05       -0.0887506        0.102209      -0.00101395     -0.00102013
                    -3.82041e-05    -0.000248274        -0.493611        0.858029      -0.00100114    -0.000955102       -0.0735236      0.00506412
281754                -0.0645586       -0.119274      -0.00131878     0.000161049        -0.112141        0.978672     -0.000121254    -0.000200535
                     -0.00141124     0.000210253       -0.0347899      -0.0657645     -0.000329856    -4.51054e-05        -0.493192        0.858131
                       -0.112002        0.978719     -0.000249138    -3.61331e-05       -0.0887015        0.102277      -0.00101418     -0.00101972
                    -3.83636e-05    -0.000248265        -0.493198        0.858265      -0.00100147    -0.000954838       -0.0735437      0.00511874
281756                -0.0646043       -0.119271      -0.00131862     0.000161741        -0.111695        0.978721     -0.000121333    -0.000200365
                     -0.00141107     0.000210989        -0.034816      -0.0657773     -0.000329828      -4.491e-05        -0.492778        0.858368
                       -0.111554        0.978768     -0.000249264    -3.60464e-05       -0.0886523        0.102345      -0.00101441     -0.00101932
                    -3.85235e-05    -0.000248257        -0.492784        0.858501       -0.0010018    -0.000954576       -0.0735637      0.00517339
281758                  -0.06465       -0.119267      -0.00131845     0.000162433        -0.111248         0.97877     -0.000121413    -0.000200194
                      -0.0014109     0.000211725       -0.0348421      -0.0657901       -0.0003298    -4.47135e-05        -0.492364        0.858604
                       -0.111107        0.978816      -0.00024939    -3.59608e-05       -0.0886031        0.102412      -0.00101465     -0.00101891
                    -3.86838e-05    -0.000248248         -0.49237        0.858737      -0.00100214    -0.000954315       -0.0735838      0.00522807
281760                -0.0646958       -0.119264      -0.00131828     0.000163125        -0.110801        0.978819     -0.000121493    -0.000200023
                     -0.00141074     0.000212461       -0.0348683      -0.0658029     -0.000329773    -4.45157e-05         -0.49195         0.85884
                        -0.11066        0.978865     -0.000249515    -3.58761e-05       -0.0885539         0.10248      -0.00101488      -0.0010185
                    -3.88444e-05    -0.000248238        -0.491956        0.858973      -0.00100247    -0.000954055       -0.0736038      0.00528277
281762                -0.0647415       -0.119261      -0.00131811     0.000163816        -0.110354        0.978867     -0.000121572    -0.000199852
                     -0.00141057     0.000213197       -0.0348944      -0.0658156     -0.000329746    -4.43169e-05        -0.491536        0.859075
                       -0.110213        0.978913      -0.00024964    -3.57925e-05       -0.0885046        0.102547      -0.00101511      -0.0010181
