! TOUCHSTONE file generated by CST MICROWAVE STUDIO
! Date and time: Tue Oct 14 07:30:55 2025
! Project name: Teste_Macro_Metasurface_Nanopilar.cst
! Parameters = {H=600; L_x=165; L_y=145; Lambda=1064; Max_L=200; Min_L=70; PathPara=1; Phi=0; Step_L=10; Theta=0; p=520; phaseX=180; phaseY=0}
! Header version: 2018
! Port assignment regex: !\s*Touchstone port\s*([0-9]+)\s*=\s*(CST MWS port|CST DS port)\s*([0-9]+|Zmin|Zmax)\s*\(\"(.*)\"\)(\s*mode\s*([0-9]+))?.*
! Touchstone port assignment:
! Touchstone port 1 = CST MWS port Zmax ("") mode 1
! Touchstone port 2 = CST MWS port Zmax ("") mode 2
! Touchstone port 3 = CST MWS port Zmin ("") mode 1
! Touchstone port 4 = CST MWS port Zmin ("") mode 2
! S-Parameters are not renormalized. Each port impedance will be approximated by the real part at minimum frequency. The values are described via the [Reference] keyword.
! Default impedance is overridden by [Reference]
[Version] 2.0
# GHz S RI R 376.73
[Number of Ports] 4
[Reference]
376.73 376.73 259.814 259.814 
[Number of Frequencies] 51
[Network Data]
281700                  -0.30572         0.20508     -0.000325981     0.000132697         0.209115         0.88859      0.000116916     4.70975e-05
                    -0.000361081     0.000304403        -0.168421       0.0395647      0.000140083    -0.000366871         0.645642        0.737486
                        0.209334        0.888926      0.000207019    -0.000313957        -0.344747      -0.0745603     -0.000471095     0.000223543
                     0.000196779    -0.000250548         0.645273        0.737706     -0.000493847     0.000134547       -0.0610476        0.155851
281702                 -0.305444        0.205009     -0.000325712     0.000133149         0.209778        0.888565      0.000116964     4.66695e-05
                     -0.00036085     0.000304745        -0.168404       0.0395736      0.000140148    -0.000366523         0.645966        0.737206
                        0.209997        0.888901      0.000206802    -0.000313961        -0.344585      -0.0740757     -0.000471155     0.000223301
                     0.000196528    -0.000251018         0.645598        0.737426     -0.000493856     0.000134207        -0.060916        0.155889
281704                 -0.305168        0.204938     -0.000325442     0.000133601         0.210441        0.888538      0.000117011     4.62414e-05
                    -0.000360618     0.000305087        -0.168388       0.0395826      0.000140211    -0.000366175          0.64629        0.736926
                        0.210659        0.888875      0.000206585    -0.000313965        -0.344423      -0.0735919     -0.000471215     0.000223057
                     0.000196276    -0.000251489         0.645922        0.737146     -0.000493865     0.000133867       -0.0607843        0.155926
281706                 -0.304893        0.204867     -0.000325172     0.000134052         0.211103        0.888511      0.000117057     4.58131e-05
                    -0.000360387     0.000305429        -0.168371       0.0395915      0.000140273    -0.000365827         0.646615        0.736645
                         0.21132        0.888848      0.000206368    -0.000313968        -0.344261      -0.0731089     -0.000471275     0.000222814
                     0.000196022    -0.000251959         0.646247        0.736866     -0.000493876     0.000133529       -0.0606527        0.155964
281708                 -0.304619        0.204795     -0.000324901     0.000134503         0.211765        0.888484      0.000117101     4.53847e-05
                    -0.000360155      0.00030577        -0.168354       0.0396005      0.000140333     -0.00036548         0.646939        0.736365
                        0.211982         0.88882       0.00020615    -0.000313971        -0.344099      -0.0726266     -0.000471336      0.00022257
                     0.000195767    -0.000252429         0.646572        0.736586     -0.000493887     0.000133191        -0.060521        0.156001
281710                 -0.304344        0.204724     -0.000324629     0.000134954         0.212426        0.888455      0.000117144     4.49562e-05
                    -0.000359922      0.00030611        -0.168337       0.0396095      0.000140392    -0.000365133         0.647263        0.736084
                        0.212643        0.888792      0.000205932    -0.000313973        -0.343936       -0.072145     -0.000471397     0.000222327
                      0.00019551    -0.000252898         0.646896        0.736306     -0.000493898     0.000132855       -0.0603894        0.156038
281712                 -0.304071        0.204652     -0.000324358     0.000135405         0.213088        0.888426      0.000117186     4.45275e-05
                     -0.00035969      0.00030645         -0.16832       0.0396185       0.00014045    -0.000364786         0.647587        0.735803
                        0.213303        0.888763      0.000205714    -0.000313975        -0.343773      -0.0716642     -0.000471458     0.000222083
                     0.000195251    -0.000253368          0.64722        0.736026     -0.000493911     0.000132519       -0.0602577        0.156075
281714                 -0.303797        0.204581     -0.000324085     0.000135855         0.213748        0.888397      0.000117226     4.40987e-05
                    -0.000359457      0.00030679        -0.168304       0.0396275      0.000140506    -0.000364439          0.64791        0.735522
                        0.213963        0.888733      0.000205496    -0.000313976        -0.343609      -0.0711842     -0.000471519     0.000221838
                     0.000194991    -0.000253837         0.647544        0.735746     -0.000493924     0.000132185        -0.060126        0.156112
281716                 -0.303525        0.204509     -0.000323812     0.000136305         0.214409        0.888366      0.000117266     4.36698e-05
                    -0.000359224     0.000307129        -0.168287       0.0396365      0.000140561    -0.000364092         0.648234        0.735241
                        0.214623        0.888703      0.000205279    -0.000313977        -0.343445      -0.0707049      -0.00047158     0.000221594
                     0.000194729    -0.000254305         0.647868        0.735465     -0.000493937     0.000131851       -0.0599944        0.156148
281718                 -0.303252        0.204437     -0.000323539     0.000136755         0.215069        0.888335      0.000117304     4.32408e-05
                    -0.000358991     0.000307467         -0.16827       0.0396455      0.000140614    -0.000363746         0.648557         0.73496
                        0.215282        0.888672      0.000205061    -0.000313977        -0.343281      -0.0702264     -0.000471642     0.000221349
                     0.000194466    -0.000254774         0.648192        0.735184     -0.000493951     0.000131519       -0.0598627        0.156185
281720                 -0.302981        0.204366     -0.000323265     0.000137204         0.215728        0.888303       0.00011734     4.28117e-05
                    -0.000358758     0.000307805        -0.168253       0.0396545      0.000140666      -0.0003634          0.64888        0.734679
                        0.215941         0.88864      0.000204843    -0.000313977        -0.343117      -0.0697486     -0.000471704     0.000221104
                     0.000194201    -0.000255242         0.648516        0.734903     -0.000493966     0.000131187        -0.059731        0.156222
281722                 -0.302709        0.204294     -0.000322991     0.000137653         0.216387        0.888271      0.000117376     4.23826e-05
                    -0.000358524     0.000308142        -0.168237       0.0396635      0.000140717    -0.000363054         0.649204        0.734398
                          0.2166        0.888608      0.000204625    -0.000313976        -0.342952      -0.0692716     -0.000471765     0.000220859
                     0.000193934    -0.000255709          0.64884        0.734623     -0.000493982     0.000130857       -0.0595994        0.156258
281724                 -0.302439        0.204222     -0.000322716     0.000138102         0.217046        0.888238       0.00011741     4.19533e-05
                     -0.00035829     0.000308479         -0.16822       0.0396726      0.000140766    -0.000362708         0.649527        0.734116
                        0.217258        0.888575      0.000204407    -0.000313974        -0.342787      -0.0687953     -0.000471827     0.000220613
                     0.000193666    -0.000256176         0.649163        0.734341     -0.000493998     0.000130527       -0.0594677        0.156295
281726                 -0.302168         0.20415     -0.000322441     0.000138551         0.217704        0.888204      0.000117443      4.1524e-05
                    -0.000358056     0.000308816        -0.168203       0.0396816      0.000140814    -0.000362363         0.649849        0.733834
                        0.217916        0.888541      0.000204189    -0.000313972        -0.342622      -0.0683197     -0.000471889     0.000220367
                     0.000193397    -0.000256643         0.649486         0.73406     -0.000494014     0.000130199        -0.059336        0.156331
281728                 -0.301898        0.204078     -0.000322165     0.000138999         0.218362         0.88817      0.000117475     4.10946e-05
                    -0.000357821     0.000309152        -0.168187       0.0396906       0.00014086    -0.000362018         0.650172        0.733552
                        0.218573        0.888507      0.000203972    -0.000313969        -0.342456      -0.0678449     -0.000471951     0.000220121
                     0.000193125    -0.000257109          0.64981        0.733779     -0.000494031     0.000129871       -0.0592043        0.156367
281730                 -0.301629        0.204006     -0.000321889     0.000139447          0.21902        0.888135      0.000117506     4.06651e-05
                    -0.000357586     0.000309487         -0.16817       0.0396997      0.000140905    -0.000361673         0.650495        0.733271
                         0.21923        0.888472      0.000203754    -0.000313966         -0.34229      -0.0673708     -0.000472013     0.000219875
                     0.000192852    -0.000257575         0.650133        0.733497     -0.000494049     0.000129545       -0.0590727        0.156403
281732                  -0.30136        0.203934     -0.000321613     0.000139895         0.219677        0.888099      0.000117535     4.02356e-05
                    -0.000357352     0.000309822        -0.168153       0.0397088      0.000140949    -0.000361328         0.650817        0.732988
                        0.219887        0.888436      0.000203537    -0.000313963        -0.342124      -0.0668975     -0.000472074     0.000219629
                     0.000192578     -0.00025804         0.650456        0.733216     -0.000494068     0.000129219        -0.058941        0.156439
281734                 -0.301092        0.203862     -0.000321336     0.000140343         0.220334        0.888063      0.000117564     3.98061e-05
                    -0.000357116     0.000310157        -0.168137       0.0397178      0.000140992    -0.000360983          0.65114        0.732706
                        0.220543          0.8884       0.00020332    -0.000313958        -0.341957      -0.0664249     -0.000472136     0.000219382
                     0.000192302    -0.000258505         0.650778        0.732934     -0.000494087     0.000128894       -0.0588093        0.156475
281736                 -0.300824        0.203789     -0.000321058      0.00014079          0.22099        0.888026      0.000117591     3.93764e-05
                    -0.000356881     0.000310491         -0.16812       0.0397269      0.000141033    -0.000360639         0.651462        0.732424
                        0.221199        0.888363      0.000203103    -0.000313954         -0.34179      -0.0659531     -0.000472198     0.000219136
                     0.000192024     -0.00025897         0.651101        0.732652     -0.000494106     0.000128571       -0.0586776        0.156511
281738                 -0.300556        0.203717      -0.00032078     0.000141237         0.221646        0.887988      0.000117617     3.89468e-05
                    -0.000356646     0.000310824        -0.168103        0.039736      0.000141073    -0.000360295         0.651784        0.732141
                        0.221854        0.888325      0.000202886    -0.000313949        -0.341623       -0.065482      -0.00047226     0.000218889
                     0.000191745    -0.000259434         0.651423         0.73237     -0.000494126     0.000128248       -0.0585459        0.156547
281740                 -0.300289        0.203645     -0.000320502     0.000141684         0.222302        0.887949      0.000117641     3.85171e-05
                     -0.00035641     0.000311157        -0.168087       0.0397451      0.000141111    -0.000359951         0.652106        0.731859
                        0.222509        0.888287       0.00020267    -0.000313943        -0.341455      -0.0650116     -0.000472322     0.000218641
                     0.000191464    -0.000259897         0.651746        0.732088     -0.000494147     0.000127926       -0.0584142        0.156582
281742                 -0.300023        0.203572     -0.000320223     0.000142131         0.222957         0.88791      0.000117665     3.80873e-05
                    -0.000356174      0.00031149         -0.16807       0.0397542      0.000141149    -0.000359608         0.652427        0.731576
                        0.223164        0.888248      0.000202454    -0.000313937        -0.341287       -0.064542     -0.000472383     0.000218394
                     0.000191182     -0.00026036         0.652068        0.731806     -0.000494168     0.000127605       -0.0582825        0.156618
281744                 -0.299757          0.2035     -0.000319944     0.000142577         0.223612        0.887871      0.000117687     3.76575e-05
                    -0.000355938     0.000311822        -0.168054       0.0397633      0.000141185    -0.000359264         0.652749        0.731293
                        0.223818        0.888208      0.000202238     -0.00031393        -0.341119      -0.0640731     -0.000472445     0.000218146
                     0.000190898    -0.000260822          0.65239        0.731523      -0.00049419     0.000127285       -0.0581508        0.156653
281746                 -0.299491        0.203427     -0.000319664     0.000143024         0.224266         0.88783      0.000117708     3.72276e-05
                    -0.000355701     0.000312154        -0.168037       0.0397724       0.00014122    -0.000358921         0.653071         0.73101
                        0.224472        0.888168      0.000202021    -0.000313922        -0.340951      -0.0636049     -0.000472507     0.000217898
                     0.000190612    -0.000261284         0.652712        0.731241     -0.000494212     0.000126965       -0.0580192        0.156689
281748                 -0.299226        0.203354     -0.000319383      0.00014347          0.22492        0.887789      0.000117728     3.67975e-05
                    -0.000355465     0.000312485        -0.168021       0.0397815      0.000141254    -0.000358577         0.653392        0.730727
                        0.225126        0.888127      0.000201804    -0.000313912        -0.340782      -0.0631375     -0.000472568     0.000217649
                     0.000190324    -0.000261746         0.653034        0.730958     -0.000494235     0.000126644       -0.0578875        0.156724
281750                 -0.298962        0.203282     -0.000319095     0.000143918         0.225574        0.887748      0.000117747     3.63672e-05
                    -0.000355227     0.000312814        -0.168004       0.0397906      0.000141294    -0.000358225         0.653713        0.730444
                        0.225779        0.888086      0.000201582    -0.000313885        -0.340613      -0.0626707      -0.00047263       0.0002174
                     0.000190042    -0.000262205         0.653356        0.730675     -0.000494257     0.000126297       -0.0577558        0.156759
281752                 -0.298697        0.203209     -0.000318829     0.000144358         0.226227        0.887705      0.000117765     3.59365e-05
                    -0.000354991     0.000313147        -0.167988       0.0397997      0.000141314    -0.000357897         0.654034         0.73016
                        0.226431        0.888044       0.00020139    -0.000313917        -0.340444      -0.0622048     -0.000472693      0.00021715
                     0.000189746    -0.000262663         0.653677        0.730392     -0.000494283     0.000126025       -0.0576241        0.156794
281754                 -0.298434        0.203136     -0.000318546     0.000144804          0.22688        0.887662      0.000117781     3.55049e-05
                    -0.000354753     0.000313477        -0.167971       0.0398089      0.000141344    -0.000357554         0.654355        0.729877
                        0.227084        0.888001      0.000201169    -0.000313901        -0.340274      -0.0617395     -0.000472756     0.000216899
                     0.000189454    -0.000263123         0.653999        0.730109     -0.000494307     0.000125706       -0.0574924        0.156829
281756                 -0.298171        0.203063     -0.000318263     0.000145249         0.227532        0.887619      0.000117796     3.50712e-05
                    -0.000354516     0.000313806        -0.167955        0.039818      0.000141373    -0.000357212         0.654676        0.729593
                        0.227736        0.887957      0.000200953    -0.000313891        -0.340104       -0.061275     -0.000472821     0.000216646
                     0.000189159    -0.000263582          0.65432        0.729826     -0.000494332      0.00012539       -0.0573607        0.156864
281758                 -0.297908        0.202991     -0.000317981     0.000145694         0.228185        0.887575       0.00011781     3.46311e-05
                    -0.000354278     0.000314135        -0.167939       0.0398272        0.0001414     -0.00035687         0.654997        0.729309
                        0.228387        0.887913      0.000200738    -0.000313881        -0.339934      -0.0608112     -0.000472897     0.000216392
                     0.000188864     -0.00026404         0.654641        0.729542     -0.000494358     0.000125076        -0.057229        0.156898
281760                 -0.297646        0.202918     -0.000317699     0.000146139         0.228836         0.88753      0.000117854     3.41503e-05
                    -0.000354041     0.000314464        -0.167922       0.0398363      0.000141426    -0.000356529         0.655317        0.729025
                        0.229038        0.887868      0.000200525    -0.000313872        -0.339763      -0.0603481     -0.000472992     0.000216173
                     0.000188566    -0.000264497         0.654962        0.729259     -0.000494384     0.000124764       -0.0570973        0.156933
281762                 -0.297384        0.202845     -0.000317417     0.000146583         0.229488        0.887484      0.000117872     3.38407e-05
                    -0.000353803     0.000314792        -0.167906       0.0398455      0.000141451    -0.000356188         0.655637        0.728742
                        0.229689        0.887823      0.000200311    -0.000313862        -0.339592      -0.0598858     -0.000473012     0.000215954
