! TOUCHSTONE file generated by CST MICROWAVE STUDIO
! Date and time: Tue Oct 14 07:29:21 2025
! Project name: Teste_Macro_Metasurface_Nanopilar.cst
! Parameters = {H=600; L_x=140; L_y=155; Lambda=1064; Max_L=200; Min_L=70; PathPara=1; Phi=0; Step_L=10; Theta=0; p=520; phaseX=180; phaseY=0}
! Header version: 2018
! Port assignment regex: !\s*Touchstone port\s*([0-9]+)\s*=\s*(CST MWS port|CST DS port)\s*([0-9]+|Zmin|Zmax)\s*\(\"(.*)\"\)(\s*mode\s*([0-9]+))?.*
! Touchstone port assignment:
! Touchstone port 1 = CST MWS port Zmax ("") mode 1
! Touchstone port 2 = CST MWS port Zmax ("") mode 2
! Touchstone port 3 = CST MWS port Zmin ("") mode 1
! Touchstone port 4 = CST MWS port Zmin ("") mode 2
! S-Parameters are not renormalized. Each port impedance will be approximated by the real part at minimum frequency. The values are described via the [Reference] keyword.
! Default impedance is overridden by [Reference]
[Version] 2.0
# GHz S RI R 376.73
[Number of Ports] 4
[Reference]
376.73 376.73 259.814 259.814 
[Number of Frequencies] 51
[Network Data]
281700                 -0.466678         0.30011       0.00061818    -0.000544506        0.0171314        0.802982      0.000961245     -0.00025059
                     0.000426072      -0.0004663         -0.15782       -0.269786      0.000906898    -0.000101926         0.575313        0.746769
                       0.0173522        0.803108        0.0008666    -7.31111e-05        -0.431679       -0.321131      0.000778064     0.000640811
                     0.000897977    -0.000121817         0.576131        0.745746      0.000871033     0.000613973         0.222556        0.212429
281702                 -0.466142        0.300158      0.000617512    -0.000544077        0.0178772        0.803293      0.000960521    -0.000251379
                     0.000425418    -0.000466161        -0.157941       -0.269838      0.000906174    -0.000102742         0.575683        0.746435
                       0.0180972        0.803419      0.000865932     -7.3425e-05        -0.431781       -0.320297       0.00077851      0.00063977
                     0.000897271    -0.000122684           0.5765         0.74541      0.000871342     0.000612518         0.222805        0.212315
281704                 -0.465606        0.300206       0.00061684    -0.000543642        0.0186231        0.803603      0.000959797    -0.000252165
                     0.000424765    -0.000466024        -0.158062       -0.269889      0.000905449    -0.000103556         0.576054        0.746101
                       0.0188423        0.803729      0.000865263    -7.37378e-05        -0.431881       -0.319465      0.000778954     0.000638731
                     0.000896565    -0.000123548         0.576869        0.745074      0.000871648     0.000611065         0.223054          0.2122
281706                 -0.465071        0.300253      0.000616164      -0.0005432        0.0193689        0.803911      0.000959073    -0.000252948
                     0.000424114    -0.000465888        -0.158183       -0.269941      0.000904725    -0.000104368         0.576424        0.745766
                       0.0195873        0.804037      0.000864594    -7.40496e-05        -0.431979       -0.318633      0.000779398     0.000637693
                     0.000895857    -0.000124412         0.577239        0.744737      0.000871952     0.000609613         0.223304        0.212086
281708                 -0.464537        0.300299      0.000615484    -0.000542753        0.0201148        0.804218       0.00095835    -0.000253728
                     0.000423465    -0.000465753        -0.158304       -0.269993      0.000904001    -0.000105178         0.576794        0.745431
                       0.0203324        0.804344      0.000863924    -7.43604e-05        -0.432077       -0.317803       0.00077984     0.000636657
                      0.00089515    -0.000125274         0.577608        0.744401      0.000872254     0.000608162         0.223554        0.211971
281710                 -0.464004        0.300344        0.0006148    -0.000542299        0.0208606        0.804524      0.000957628    -0.000254504
                     0.000422817    -0.000465618        -0.158425       -0.270044      0.000903277    -0.000105986         0.577164        0.745096
                       0.0210775         0.80465      0.000863253    -7.46703e-05        -0.432173       -0.316973      0.000780281     0.000635622
                     0.000894441    -0.000126135         0.577977        0.744064      0.000872553     0.000606713         0.223803        0.211855
281712                 -0.463471        0.300389      0.000614112     -0.00054184        0.0216065        0.804828      0.000956905    -0.000255277
                      0.00042217    -0.000465485        -0.158546       -0.270096      0.000902553    -0.000106792         0.577533        0.744761
                       0.0218226        0.804954      0.000862582    -7.49792e-05        -0.432267       -0.316144      0.000780721     0.000634588
                     0.000893733    -0.000126994         0.578345        0.743727       0.00087285     0.000605265         0.224053         0.21174
281714                 -0.462939        0.300433       0.00061342    -0.000541376        0.0223523        0.805131      0.000956184    -0.000256047
                     0.000421525    -0.000465352        -0.158667       -0.270148       0.00090183    -0.000107597         0.577903        0.744425
                       0.0225677        0.805256       0.00086191    -7.52871e-05         -0.43236       -0.315316      0.000781159     0.000633556
                     0.000893023    -0.000127853         0.578714        0.743389      0.000873145     0.000603818         0.224303        0.211624
281716                 -0.462408        0.300477      0.000612724    -0.000540906        0.0230981        0.805432      0.000955462    -0.000256814
                     0.000420882    -0.000465221        -0.158789         -0.2702      0.000901106    -0.000108399         0.578273        0.744089
                       0.0233128        0.805558      0.000861237    -7.55942e-05        -0.432452       -0.314489      0.000781597     0.000632525
                     0.000892313    -0.000128709         0.579083        0.743051      0.000873438     0.000602373         0.224553        0.211508
281718                 -0.461877         0.30052      0.000612024     -0.00054043         0.023844        0.805732      0.000954742    -0.000257577
                     0.000420239    -0.000465091         -0.15891       -0.270252      0.000900383      -0.0001092         0.578642        0.743752
                       0.0240578        0.805857      0.000860563    -7.59003e-05        -0.432543       -0.313663      0.000782032     0.000631495
                     0.000891602    -0.000129565         0.579451        0.742713      0.000873728     0.000600928         0.224803        0.211392
281720                 -0.461348        0.300562      0.000611321    -0.000539949        0.0245898        0.806031      0.000954021    -0.000258337
                     0.000419599    -0.000464962        -0.159032       -0.270304      0.000899659        -0.00011         0.579011        0.743416
                       0.0248029        0.806156      0.000859888    -7.62055e-05        -0.432632       -0.312838      0.000782466     0.000630466
                     0.000890891     -0.00013042         0.579819        0.742375      0.000874016     0.000599486         0.225053        0.211275
281722                 -0.460819        0.300603      0.000610614    -0.000539462        0.0253356        0.806328      0.000953301    -0.000259093
                     0.000418959    -0.000464833        -0.159154       -0.270356      0.000898937    -0.000110798          0.57938        0.743079
                        0.025548        0.806453      0.000859213    -7.65099e-05         -0.43272       -0.312014      0.000782899     0.000629439
                     0.000890179    -0.000131273         0.580187        0.742036      0.000874302     0.000598044         0.225303        0.211159
281724                 -0.460291        0.300644      0.000609903    -0.000538971        0.0260814        0.806624       0.00095258    -0.000259847
                     0.000418321    -0.000464706        -0.159276       -0.270408      0.000898214    -0.000111594         0.579749        0.742742
                        0.026293        0.806749      0.000858537    -7.68133e-05        -0.432807       -0.311191       0.00078333     0.000628413
                     0.000889467    -0.000132125         0.580555        0.741697      0.000874585     0.000596604         0.225554        0.211042
281726                 -0.459763        0.300684      0.000609189    -0.000538474        0.0268272        0.806919      0.000951861    -0.000260597
                     0.000417684     -0.00046458        -0.159398        -0.27046      0.000897492     -0.00011239         0.580118        0.742404
                       0.0270381        0.807043       0.00085786     -7.7116e-05        -0.432892       -0.310368       0.00078376     0.000627388
                     0.000888754    -0.000132975         0.580923        0.741358      0.000874866     0.000595165         0.225804        0.210924
281728                 -0.459236        0.300724      0.000608471    -0.000537972        0.0275729        0.807212      0.000951141    -0.000261343
                     0.000417048    -0.000464455         -0.15952       -0.270512      0.000896773    -0.000113184         0.580487        0.742066
                       0.0277831        0.807336      0.000857182    -7.74178e-05        -0.432976       -0.309547      0.000784188     0.000626364
                      0.00088804    -0.000133824         0.581291        0.741019      0.000875145     0.000593727         0.226054        0.210807
281730                  -0.45871        0.300763      0.000607749    -0.000537466        0.0283187        0.807503      0.000950422    -0.000262087
                     0.000416414    -0.000464331        -0.159642       -0.270564      0.000896056    -0.000113976         0.580855        0.741728
                       0.0285281        0.807628      0.000856503    -7.77188e-05        -0.433059       -0.308726      0.000784615     0.000625341
                     0.000887326    -0.000134672         0.581659        0.740679      0.000875422     0.000592291         0.226305        0.210689
281732                 -0.458185        0.300801      0.000607024    -0.000536954        0.0290644        0.807794      0.000949702    -0.000262827
                     0.000415781    -0.000464209        -0.159764       -0.270616      0.000895342    -0.000114761         0.581224         0.74139
                        0.029273        0.807918      0.000855824     -7.8019e-05        -0.433141       -0.307907       0.00078504     0.000624319
                     0.000886611    -0.000135519         0.582026        0.740339      0.000875696     0.000590856         0.226555        0.210571
281734                 -0.457661        0.300838      0.000606295    -0.000536437        0.0298101        0.808083      0.000948983    -0.000263565
                     0.000415149    -0.000464087        -0.159887       -0.270668      0.000894625    -0.000115541         0.581592        0.741051
                        0.030018        0.808207      0.000855143    -7.83184e-05        -0.433221       -0.307088      0.000785464     0.000623298
                     0.000885895    -0.000136365         0.582393        0.739999      0.000875968     0.000589423         0.226806        0.210453
281736                 -0.457137        0.300875      0.000605563    -0.000535916        0.0305557         0.80837      0.000948264    -0.000264299
                     0.000414518    -0.000463967        -0.160009        -0.27072      0.000893905    -0.000116318          0.58196        0.740712
                       0.0307629        0.808494      0.000854462     -7.8617e-05          -0.4333        -0.30627      0.000785886     0.000622278
                     0.000885179    -0.000137209         0.582761        0.739658      0.000876238     0.000587991         0.227057        0.210335
281738                 -0.456614        0.300912      0.000604827     -0.00053539        0.0313014        0.808657      0.000947545     -0.00026503
                     0.000413888    -0.000463848        -0.160132       -0.270772      0.000893182    -0.000117096         0.582328        0.740373
                       0.0315078         0.80878      0.000853779    -7.89149e-05        -0.433377       -0.305454      0.000786307     0.000621258
                     0.000884462    -0.000138052         0.583128        0.739317      0.000876505      0.00058656         0.227307        0.210216
281740                 -0.456092        0.300947      0.000604088     -0.00053486        0.0320469        0.808942      0.000946827    -0.000265757
                      0.00041326     -0.00046373        -0.160255       -0.270825       0.00089246    -0.000117873         0.582696        0.740034
                       0.0322527        0.809065      0.000853096     -7.9212e-05        -0.433454       -0.304638      0.000786726      0.00062024
                     0.000883744    -0.000138894         0.583495        0.738976       0.00087677      0.00058513         0.227558        0.210097
281742                  -0.45557        0.300982      0.000603346    -0.000534325        0.0327925        0.809225      0.000946108    -0.000266482
                     0.000412632    -0.000463613        -0.160377       -0.270877      0.000891737    -0.000118649         0.583064        0.739694
                       0.0329975        0.809349      0.000852411    -7.95082e-05        -0.433529       -0.303823      0.000787143     0.000619222
                     0.000883026    -0.000139734         0.583861        0.738634      0.000877033     0.000583703         0.227809        0.209978
281744                 -0.455049        0.301017      0.000602601    -0.000533786         0.033538        0.809507      0.000945389    -0.000267204
                     0.000412006    -0.000463497          -0.1605       -0.270929      0.000891016    -0.000119423         0.583431        0.739354
                       0.0337423        0.809631      0.000851725    -7.98037e-05        -0.433603       -0.303009      0.000787559     0.000618204
                     0.000882307    -0.000140573         0.584228        0.738292      0.000877294     0.000582276          0.22806        0.209858
281746                 -0.454529        0.301051      0.000601852    -0.000533242        0.0342835        0.809788      0.000944671    -0.000267923
                      0.00041138    -0.000463383        -0.160623       -0.270982      0.000890295    -0.000120196         0.583799        0.739013
                        0.034487        0.809911      0.000851039    -8.00981e-05        -0.433675       -0.302196      0.000787973     0.000617187
                     0.000881587    -0.000141411         0.584595         0.73795      0.000877553     0.000580851         0.228311        0.209739
281748                  -0.45401        0.301084        0.0006011    -0.000532695         0.035029        0.810068      0.000943952    -0.000268639
                     0.000410756     -0.00046327        -0.160747       -0.271034      0.000889574    -0.000120968         0.584166        0.738673
                       0.0352318        0.810191      0.000850351    -8.03915e-05        -0.433746       -0.301384      0.000788386     0.000616171
                     0.000880866    -0.000142248         0.584961        0.737608      0.000877809     0.000579427         0.228562        0.209619
281750                 -0.453492        0.301116      0.000600345    -0.000532143        0.0357743        0.810346      0.000943234    -0.000269352
                     0.000410132    -0.000463158         -0.16087       -0.271086      0.000888853    -0.000121737         0.584533        0.738332
                       0.0359764        0.810469      0.000849661    -8.06834e-05        -0.433817       -0.300572      0.000788797     0.000615155
                     0.000880145    -0.000143083         0.585327        0.737265      0.000878063     0.000578005         0.228813        0.209499
281752                 -0.452974        0.301148      0.000599586    -0.000531587        0.0365197        0.810623      0.000942515    -0.000270063
                     0.000409509    -0.000463048        -0.160993       -0.271139      0.000888133    -0.000122505         0.584901         0.73799
                       0.0367211        0.810746      0.000848971    -8.09731e-05        -0.433885       -0.299762      0.000789206     0.000614139
                     0.000879423    -0.000143917         0.585693        0.736922      0.000878315     0.000576584         0.229065        0.209378
281754                 -0.452457        0.301179      0.000598825    -0.000531027         0.037265        0.810898      0.000941797     -0.00027077
                     0.000408887    -0.000462938        -0.161117       -0.271191      0.000887413    -0.000123271         0.585267        0.737649
                       0.0374656        0.811021      0.000848281    -8.12594e-05        -0.433953       -0.298953      0.000789615     0.000613123
                     0.000878701     -0.00014475         0.586059        0.736579      0.000878565     0.000575165         0.229316        0.209257
281756                  -0.45194         0.30121      0.000598061    -0.000530463        0.0380103        0.811172      0.000941078    -0.000271475
                     0.000408266     -0.00046283        -0.161241       -0.271244      0.000886694    -0.000124035         0.585634        0.737307
                       0.0382102        0.811295      0.000847594    -8.15409e-05        -0.434019       -0.298144      0.000790021     0.000612108
                     0.000877977    -0.000145582         0.586425        0.736235      0.000878813     0.000573747         0.229567        0.209136
281758                 -0.451425         0.30124      0.000597293    -0.000529895        0.0387555        0.811445       0.00094036    -0.000272178
                     0.000407646    -0.000462724        -0.161364       -0.271297      0.000885974    -0.000124798         0.586001        0.736965
                       0.0389546        0.811568      0.000846919    -8.18232e-05        -0.434084       -0.297337      0.000790426     0.000611093
                     0.000877253    -0.000146412         0.586791        0.735892      0.000879059      0.00057233         0.229819        0.209015
281760                  -0.45091         0.30127      0.000596523    -0.000529323        0.0395006        0.811716      0.000939641    -0.000272878
                     0.000407027    -0.000462618        -0.161488       -0.271349      0.000885255    -0.000125558         0.586367        0.736622
                       0.0396991        0.811839      0.000846249    -8.21252e-05        -0.434148        -0.29653      0.000790829     0.000610078
                     0.000876529    -0.000147241         0.587157        0.735547      0.000879302     0.000570915          0.23007        0.208894
281762                 -0.450396        0.301299       0.00059575    -0.000528748        0.0402457        0.811987      0.000938922    -0.000273575
                     0.000406408    -0.000462514        -0.161612       -0.271402      0.000884537    -0.000126316         0.586734         0.73628
                       0.0404434        0.812109      0.000845559    -8.24356e-05        -0.434211       -0.295725      0.000791231     0.000609063
