! TOUCHSTONE file generated by CST MICROWAVE STUDIO
! Date and time: Tue Oct 14 07:33:04 2025
! Project name: Teste_Macro_Metasurface_Nanopilar.cst
! Parameters = {H=600; L_x=200; L_y=125; Lambda=1064; Max_L=200; Min_L=70; PathPara=1; Phi=0; Step_L=10; Theta=0; p=520; phaseX=180; phaseY=0}
! Header version: 2018
! Port assignment regex: !\s*Touchstone port\s*([0-9]+)\s*=\s*(CST MWS port|CST DS port)\s*([0-9]+|Zmin|Zmax)\s*\(\"(.*)\"\)(\s*mode\s*([0-9]+))?.*
! Touchstone port assignment:
! Touchstone port 1 = CST MWS port Zmax ("") mode 1
! Touchstone port 2 = CST MWS port Zmax ("") mode 2
! Touchstone port 3 = CST MWS port Zmin ("") mode 1
! Touchstone port 4 = CST MWS port Zmin ("") mode 2
! S-Parameters are not renormalized. Each port impedance will be approximated by the real part at minimum frequency. The values are described via the [Reference] keyword.
! Default impedance is overridden by [Reference]
[Version] 2.0
# GHz S RI R 376.73
[Number of Ports] 4
[Reference]
376.73 376.73 259.814 259.814 
[Number of Frequencies] 51
[Network Data]
281700                 -0.113091       -0.175579      0.000344423    -0.000189245         0.361711         0.90321      0.000408373    -0.000519619
                     0.000262513    -0.000304841        -0.176712       -0.018282      0.000484111    -0.000429235         0.870484        0.449775
                        0.361477        0.903151      0.000589367    -0.000291998        0.0407099        0.203053      0.000470839    -0.000422603
                     0.000367117    -0.000367003         0.870432        0.449562      0.000492834    -0.000193908         0.115562        0.128957
281702                 -0.113151       -0.175581      0.000341646    -0.000191677         0.362114        0.903039      0.000408093    -0.000519848
                     0.000262354    -0.000305485        -0.176731      -0.0182618      0.000484588    -0.000429258         0.870674        0.449403
                         0.36188        0.902982      0.000586936    -0.000295409        0.0408527        0.203058      0.000470467    -0.000423199
                     0.000366986    -0.000367564          0.87062         0.44919      0.000493079    -0.000193984         0.115668        0.128885
281704                 -0.113211       -0.175583      0.000344221    -0.000190354         0.362517        0.902869      0.000407812    -0.000520076
                     0.000262195    -0.000306126        -0.176749      -0.0182414      0.000485063    -0.000429283         0.870863        0.449031
                        0.362282        0.902812      0.000588397    -0.000292541        0.0409955        0.203063      0.000470095    -0.000423792
                     0.000366855    -0.000368124         0.870809        0.448817      0.000493323    -0.000194064         0.115773        0.128812
281706                  -0.11327       -0.175585      0.000355492    -0.000186089         0.362919        0.902698       0.00040753    -0.000520303
                     0.000262036    -0.000306766        -0.176767      -0.0182209      0.000485538    -0.000429309         0.871052        0.448658
                        0.362685        0.902642      0.000599637    -0.000280023        0.0411383        0.203067      0.000469723    -0.000424382
                     0.000366726    -0.000368681         0.870997        0.448442      0.000493571     -0.00019415         0.115879         0.12874
281708                  -0.11333       -0.175587      0.000377558    -0.000188023         0.363322        0.902527      0.000407247    -0.000520529
                     0.000261876    -0.000307404        -0.176784      -0.0182001      0.000486013    -0.000429338         0.871241        0.448285
                        0.363088        0.902472      0.000651372    -0.000271132        0.0412812        0.203072      0.000469352    -0.000424971
                     0.000366597    -0.000369236         0.871184        0.448066      0.000493871    -0.000194187         0.115984        0.128668
281710                 -0.113389       -0.175589       0.00039701    -0.000205377         0.363724        0.902356      0.000406962    -0.000520754
                     0.000261716    -0.000308039          -0.1768      -0.0181791      0.000486487    -0.000429368          0.87143        0.447913
                        0.363491        0.902302      0.000678399    -0.000355351        0.0414241        0.203077      0.000468981    -0.000425557
                     0.000366468    -0.000369789         0.871371        0.447688      0.000494005    -0.000194299          0.11609        0.128596
281712                 -0.113449       -0.175591      0.000401668    -0.000225644         0.364127        0.902184      0.000406676    -0.000520978
                     0.000261556    -0.000308672        -0.176815      -0.0181582       0.00048696    -0.000429402         0.871618         0.44754
                        0.363893        0.902132      0.000633045    -0.000378966        0.0415671        0.203081       0.00046861     -0.00042614
                     0.000366341     -0.00037034         0.871557        0.447305      0.000494245    -0.000194408         0.116195        0.128523
281714                 -0.113509       -0.175593      0.000398846     -0.00023872         0.364529        0.902013      0.000406389    -0.000521201
                     0.000261395    -0.000309303        -0.176825      -0.0181397      0.000487433    -0.000429438         0.871807        0.447167
                        0.364296        0.901961      0.000613687    -0.000375819        0.0417101        0.203085      0.000468239    -0.000426721
                     0.000366214    -0.000370889         0.871736        0.446913      0.000494478    -0.000194512         0.116301        0.128451
281716                 -0.113568       -0.175595      0.000395073    -0.000245989         0.364931        0.901841        0.0004061    -0.000521422
                     0.000261234    -0.000309932        -0.176834      -0.0181335      0.000487906    -0.000429477         0.871995        0.446794
                        0.364698         0.90179      0.000605378    -0.000372352        0.0418531         0.20309      0.000467869      -0.0004273
                     0.000366088    -0.000371436          0.87189        0.446505      0.000494707     -0.00019462         0.116406        0.128378
281718                 -0.113628       -0.175597      0.000392037     -0.00025013         0.365334        0.901669       0.00040581    -0.000521643
                     0.000261073    -0.000310559        -0.176866      -0.0181307      0.000488378    -0.000429518         0.872183        0.446421
                          0.3651        0.901619      0.000601083    -0.000370091        0.0419962        0.203094      0.000467499    -0.000427876
                     0.000365963    -0.000371981         0.871956         0.44615      0.000494933    -0.000194731         0.116511        0.128306
281720                 -0.113688       -0.175599      0.000389821     -0.00025266         0.365736        0.901497      0.000405519    -0.000521863
                     0.000260911    -0.000311184        -0.176898      -0.0181073       0.00048885    -0.000429563         0.872371        0.446048
                        0.365503        0.901448      0.000598525    -0.000368675        0.0421393        0.203098      0.000467129     -0.00042845
                     0.000365839    -0.000372523         0.872168        0.445927      0.000495157    -0.000194846         0.116617        0.128233
281722                 -0.113747       -0.175601       0.00038822    -0.000254325         0.366138        0.901324      0.000405227    -0.000522082
                     0.000260749    -0.000311807        -0.176921      -0.0180818      0.000489322     -0.00042961         0.872559        0.445675
                        0.365905        0.901277      0.000596833     -0.00036778        0.0422824        0.203102       0.00046676    -0.000429021
                     0.000365716    -0.000373064         0.872426        0.445563      0.000495379    -0.000194965         0.116722        0.128161
281724                 -0.113807       -0.175603      0.000387042      -0.0002555          0.36654        0.901152      0.000404933    -0.000522299
                     0.000260587    -0.000312427        -0.176941      -0.0180582      0.000489794     -0.00042966         0.872746        0.445302
                        0.366307        0.901105      0.000595616    -0.000367209        0.0424256        0.203106      0.000466391     -0.00042959
                     0.000365594    -0.000373602          0.87264        0.445178      0.000495598    -0.000195089         0.116827        0.128088
281726                 -0.113867       -0.175605       0.00038615    -0.000256383         0.366942        0.900979      0.000404638    -0.000522516
                     0.000260425    -0.000313045         -0.17696      -0.0180358      0.000490265    -0.000429713         0.872934        0.444929
                         0.36671        0.900934      0.000594678    -0.000366841        0.0425688         0.20311      0.000466022    -0.000430156
                     0.000365472    -0.000374139         0.872838        0.444797      0.000495814    -0.000195217         0.116932        0.128015
281728                 -0.113927       -0.175606      0.000385451    -0.000257083         0.367344        0.900806      0.000404342    -0.000522732
                     0.000260262    -0.000313661        -0.176978      -0.0180141      0.000490735    -0.000429768         0.873121        0.444555
                        0.367112        0.900762      0.000593912    -0.000366606        0.0427121        0.203113      0.000465653     -0.00043072
                     0.000365352    -0.000374674         0.873031        0.444418      0.000496028     -0.00019535         0.117037        0.127942
281730                 -0.113986       -0.175608      0.000384882    -0.000257665         0.367746        0.900633      0.000404044    -0.000522947
                     0.000260099    -0.000314275        -0.176997      -0.0179929      0.000491206    -0.000429827         0.873308        0.444182
                        0.367514         0.90059      0.000593257    -0.000366457        0.0428554        0.203117      0.000465284    -0.000431282
                     0.000365232    -0.000375206         0.873221        0.444041       0.00049624    -0.000195487         0.117142        0.127869
281732                 -0.114046        -0.17561      0.000384402    -0.000258169         0.368148         0.90046      0.000403745    -0.000523161
                     0.000259936    -0.000314887        -0.177015      -0.0179718      0.000491676    -0.000429889         0.873495        0.443808
                        0.367916        0.900417      0.000592674    -0.000366367        0.0429987        0.203121      0.000464916    -0.000431841
                     0.000365114    -0.000375737          0.87341        0.443665      0.000496449    -0.000195628         0.117247        0.127796
281734                 -0.114106       -0.175612      0.000383981    -0.000258621          0.36855        0.900287      0.000403445    -0.000523373
                     0.000259773    -0.000315497        -0.177034      -0.0179509      0.000492146    -0.000429953         0.873682        0.443435
                        0.368318        0.900245       0.00059214    -0.000366315        0.0431421        0.203124      0.000464547    -0.000432397
                     0.000364996    -0.000376265         0.873598        0.443289      0.000496655    -0.000195774         0.117352        0.127723
281736                 -0.114166       -0.175614      0.000383602    -0.000259036         0.368951        0.900113      0.000403143    -0.000523585
                      0.00025961    -0.000316105        -0.177052      -0.0179302      0.000492615     -0.00043002         0.873868        0.443061
                         0.36872        0.900072      0.000591638     -0.00036629        0.0432855        0.203127      0.000464179    -0.000432951
                      0.00036488    -0.000376792         0.873785        0.442914      0.000496859    -0.000195924         0.117457        0.127649
281738                 -0.114226       -0.175616      0.000383251    -0.000259426         0.369353        0.899939       0.00040284    -0.000523796
                     0.000259446     -0.00031671        -0.177071      -0.0179094      0.000493084    -0.000430091         0.874055        0.442687
                        0.369121        0.899899      0.000591158    -0.000366283        0.0434289        0.203131      0.000463811    -0.000433502
                     0.000364764    -0.000377316         0.873972         0.44254      0.000497061    -0.000196078         0.117562        0.127576
281740                 -0.114285       -0.175618      0.000382917    -0.000259799         0.369754        0.899765      0.000402536    -0.000524006
                     0.000259282    -0.000317313        -0.177089      -0.0178888      0.000493553    -0.000430164         0.874241        0.442314
                        0.369523        0.899726      0.000590694    -0.000366287        0.0435724        0.203134      0.000463443    -0.000434051
                      0.00036465    -0.000377839         0.874158        0.442165       0.00049726    -0.000196237         0.117666        0.127503
281742                 -0.114345        -0.17562      0.000382596     -0.00026016         0.370156        0.899591      0.000402231    -0.000524215
                     0.000259118    -0.000317914        -0.177107      -0.0178681      0.000494021     -0.00043024         0.874427         0.44194
                        0.369925        0.899553      0.000590239    -0.000366298        0.0437159        0.203137      0.000463076    -0.000434597
                     0.000364536     -0.00037836         0.874344        0.441791      0.000497456      -0.0001964         0.117771        0.127429
281744                 -0.114405       -0.175622      0.000382281    -0.000260513         0.370557        0.899417      0.000401924    -0.000524424
                     0.000258954    -0.000318513        -0.177126      -0.0178474      0.000494489     -0.00043032         0.874613        0.441566
                        0.370326        0.899379       0.00058979    -0.000366314        0.0438594         0.20314      0.000462708     -0.00043514
                     0.000364424    -0.000378878          0.87453        0.441417       0.00049765    -0.000196568         0.117876        0.127356
281746                 -0.114465       -0.175624       0.00038197     -0.00026086         0.370959        0.899242      0.000401616    -0.000524631
                      0.00025879     -0.00031911        -0.177144      -0.0178268      0.000494957    -0.000430402         0.874799        0.441192
                        0.370728        0.899206      0.000589345    -0.000366332         0.044003        0.203143       0.00046234    -0.000435681
                     0.000364312    -0.000379395         0.874716        0.441042      0.000497841     -0.00019674          0.11798        0.127282
281748                 -0.114525       -0.175626      0.000381661    -0.000261204          0.37136        0.899067      0.000401307    -0.000524837
                     0.000258626    -0.000319705        -0.177163      -0.0178062      0.000495424    -0.000430487         0.874984        0.440818
                        0.371129        0.899032      0.000588901    -0.000366351        0.0441466        0.203146      0.000461972     -0.00043622
                     0.000364202     -0.00037991         0.874901        0.440668      0.000498029    -0.000196916         0.118085        0.127209
281750                 -0.114585       -0.175628      0.000381351    -0.000261546         0.371761        0.898893      0.000400996    -0.000525042
                     0.000258462    -0.000320297        -0.177181      -0.0177855      0.000495891    -0.000430575          0.87517        0.440443
                        0.371531        0.898858      0.000588459     -0.00036637        0.0442903        0.203149      0.000461605    -0.000436755
                     0.000364093    -0.000380423         0.875087        0.440294      0.000498215    -0.000197096         0.118189        0.127135
281752                 -0.114645        -0.17563       0.00038104    -0.000261887         0.372162        0.898717      0.000400684    -0.000525247
                     0.000258297    -0.000320887          -0.1772      -0.0177648      0.000496357    -0.000430666         0.875355        0.440069
                        0.371932        0.898684      0.000588016    -0.000366388         0.044434        0.203151      0.000461237    -0.000437288
                     0.000363985    -0.000380934         0.875272        0.439919      0.000498398    -0.000197281         0.118294        0.127061
281754                 -0.114705       -0.175632      0.000380727    -0.000262227         0.372563        0.898542      0.000400371    -0.000525451
                     0.000258133    -0.000321475        -0.177218      -0.0177442      0.000496823    -0.000430761          0.87554        0.439695
                        0.372334        0.898509      0.000587573    -0.000366404        0.0445777        0.203154       0.00046087    -0.000437819
                     0.000363878    -0.000381443         0.875457        0.439545      0.000498578     -0.00019747         0.118398        0.126987
281756                 -0.114765       -0.175633       0.00038041    -0.000262568         0.372965        0.898367      0.000400056    -0.000525653
                     0.000257968    -0.000322061        -0.177237      -0.0177235      0.000497289    -0.000430858         0.875725         0.43932
                        0.372735        0.898335      0.000587128    -0.000366419        0.0447215        0.203156      0.000460502    -0.000438347
                     0.000363771     -0.00038195         0.875641         0.43917      0.000498755    -0.000197664         0.118503        0.126913
281758                 -0.114825       -0.175635      0.000380091    -0.000262909         0.373365        0.898191       0.00039974    -0.000525855
                     0.000257803    -0.000322645        -0.177255      -0.0177028      0.000497754    -0.000430958          0.87591        0.438946
                        0.373136         0.89816      0.000586682    -0.000366431        0.0448653        0.203159      0.000460134    -0.000438872
                     0.000363666    -0.000382455         0.875826        0.438796      0.000498929    -0.000197861         0.118607        0.126839
281760                 -0.114885       -0.175637      0.000379768    -0.000263251         0.373766        0.898015      0.000399423    -0.000526056
                     0.000257637    -0.000323226        -0.177273      -0.0176821      0.000498219    -0.000431061         0.876094        0.438571
                        0.373537        0.897985      0.000586234    -0.000366442        0.0450091        0.203161      0.000459767    -0.000439394
                     0.000363562    -0.000382956          0.87601        0.438421        0.0004991    -0.000198063         0.118711        0.126765
281762                 -0.114945       -0.175639      0.000379441    -0.000263594         0.374167        0.897839      0.000399105    -0.000526256
                      0.00025747    -0.000323804        -0.177292      -0.0176614      0.000498683    -0.000431167         0.876279        0.438197
                        0.373938         0.89781      0.000585784     -0.00036645         0.045153        0.203163      0.000459399    -0.000439914
