! TOUCHSTONE file generated by CST MICROWAVE STUDIO
! Date and time: Tue Oct 14 07:32:17 2025
! Project name: Teste_Macro_Metasurface_Nanopilar.cst
! Parameters = {H=600; L_x=185; L_y=195; Lambda=1064; Max_L=200; Min_L=70; PathPara=1; Phi=0; Step_L=10; Theta=0; p=520; phaseX=180; phaseY=0}
! Header version: 2018
! Port assignment regex: !\s*Touchstone port\s*([0-9]+)\s*=\s*(CST MWS port|CST DS port)\s*([0-9]+|Zmin|Zmax)\s*\(\"(.*)\"\)(\s*mode\s*([0-9]+))?.*
! Touchstone port assignment:
! Touchstone port 1 = CST MWS port Zmax ("") mode 1
! Touchstone port 2 = CST MWS port Zmax ("") mode 2
! Touchstone port 3 = CST MWS port Zmin ("") mode 1
! Touchstone port 4 = CST MWS port Zmin ("") mode 2
! S-Parameters are not renormalized. Each port impedance will be approximated by the real part at minimum frequency. The values are described via the [Reference] keyword.
! Default impedance is overridden by [Reference]
[Version] 2.0
# GHz S RI R 376.73
[Number of Ports] 4
[Reference]
376.73 376.73 259.814 259.814 
[Number of Frequencies] 51
[Network Data]
281700                 -0.413364       -0.184321     -0.000112002     0.000136054         0.885245       0.0642899      9.39404e-05     4.89999e-05
                    -0.000174638     0.000167166        -0.335266        -0.15406     -0.000219511     0.000123918         0.918893        0.116252
                         0.88527       0.0644137     -0.000159445     2.93397e-05         0.433957       -0.122076      3.44943e-05     0.000243627
                     0.000163988     3.04245e-05         0.918823        0.116687      2.48667e-05     0.000117139         0.361352      -0.0665772
281702                 -0.413422       -0.184187     -0.000118948     0.000128947         0.885274       0.0639152      9.37915e-05     4.88565e-05
                    -0.000174552     0.000167365        -0.335319       -0.153963     -0.000219187     0.000123873         0.918935        0.115874
                          0.8853       0.0640418     -0.000154404     3.73848e-05         0.433891       -0.122304      3.44404e-05     0.000243645
                     0.000163897     3.02991e-05         0.918964        0.116199      2.51869e-05     0.000117148         0.361329      -0.0667632
281704                  -0.41348       -0.184053     -0.000129559     0.000125757         0.885302       0.0635406      9.36379e-05     4.87094e-05
                    -0.000174464     0.000167568        -0.335372       -0.153866     -0.000218862     0.000123826         0.918977        0.115496
                        0.885331       0.0636698     -0.000156344     4.89977e-05         0.433825       -0.122532      3.43755e-05     0.000243666
                     0.000163806     3.01737e-05         0.919023        0.115743      2.55082e-05     0.000117155         0.361306      -0.0669492
281706                 -0.413538        -0.18392      -0.00013987     0.000128213         0.885331       0.0631659      9.34787e-05     4.85581e-05
                    -0.000174374     0.000167774        -0.335425       -0.153768     -0.000218535     0.000123775         0.919018        0.115119
                         0.88536       0.0632977     -0.000165047     5.52811e-05         0.433759        -0.12276      3.42977e-05     0.000243692
                     0.000163714     3.00482e-05         0.919061        0.115321      2.58306e-05     0.000117162         0.361283      -0.0671352
281708                 -0.413596       -0.183786     -0.000146573     0.000133948         0.885359       0.0627912      9.33125e-05     4.84022e-05
                    -0.000174283     0.000167984        -0.335479        -0.15367     -0.000218206     0.000123722         0.919058        0.114743
                         0.88539       0.0629254     -0.000172614     5.51851e-05         0.433692       -0.122988      3.42045e-05     0.000243724
                     0.000163623     2.99227e-05         0.919095        0.114918       2.6154e-05     0.000117168          0.36126      -0.0673212
281710                 -0.413653       -0.183652      -0.00014969     0.000139907         0.885387       0.0624165      9.31378e-05     4.82409e-05
                     -0.00017419     0.000168199        -0.335533       -0.153573     -0.000217874     0.000123665         0.919097        0.114368
                        0.885419        0.062553     -0.000176966     5.30941e-05         0.433626       -0.123215       3.4093e-05     0.000243765
                     0.000163531      2.9797e-05          0.91913        0.114525      2.64785e-05     0.000117174         0.361237      -0.0675073
281712                 -0.413711       -0.183518     -0.000150643     0.000144756         0.885415       0.0620418      9.29522e-05     4.80738e-05
                    -0.000174095     0.000168418        -0.335588       -0.153475     -0.000217538     0.000123604         0.919137        0.113994
                        0.885448       0.0621803     -0.000179259     5.10402e-05          0.43356       -0.123443      3.39593e-05     0.000243818
                     0.000163439     2.96711e-05         0.919167        0.114139      2.68041e-05     0.000117179         0.361214      -0.0676933
281714                 -0.413769       -0.183384     -0.000150574     0.000148364         0.885442       0.0616672       9.2753e-05     4.79002e-05
                    -0.000173998     0.000168643        -0.335643       -0.153378     -0.000217199     0.000123539         0.919176         0.11362
                        0.885477       0.0618075     -0.000180483     4.94375e-05         0.433493       -0.123671      3.37987e-05     0.000243888
                     0.000163347     2.95451e-05         0.919204        0.113756      2.71307e-05     0.000117184          0.36119      -0.0678793
281716                 -0.413826        -0.18325     -0.000150107     0.000150975          0.88547       0.0612925      9.25363e-05     4.77198e-05
                      -0.0001739     0.000168875        -0.335698       -0.153281     -0.000216855     0.000123468         0.919215        0.113247
                        0.885505       0.0614346      -0.00018116     4.82609e-05         0.433427       -0.123898      3.36056e-05     0.000243984
                     0.000163255     2.94188e-05         0.919243        0.113376      2.74584e-05     0.000117189         0.361167      -0.0680654
281718                 -0.413884       -0.183116     -0.000149533     0.000152861         0.885497       0.0609178      9.22971e-05     4.75323e-05
                      -0.0001738     0.000169114        -0.335753       -0.153183     -0.000216505     0.000123392         0.919254        0.112874
                        0.885533       0.0610614     -0.000181546     4.74143e-05          0.43336       -0.124126      3.33731e-05     0.000244116
                     0.000163162     2.92921e-05         0.919282        0.112998      2.77871e-05     0.000117194         0.361143      -0.0682514
281720                 -0.413941       -0.182982     -0.000148976     0.000154232         0.885524       0.0605431      9.20284e-05     4.73382e-05
                      -0.0001737     0.000169362        -0.335809       -0.153086     -0.000216148     0.000123309         0.919294        0.112502
                        0.885561       0.0606881     -0.000181772     4.68125e-05         0.433293       -0.124354      3.30935e-05     0.000244303
                     0.000163069      2.9165e-05         0.919321        0.112621      2.81167e-05       0.0001172          0.36112      -0.0684375
281722                 -0.413998       -0.182848     -0.000148481     0.000155238         0.885551       0.0601684      9.17208e-05     4.71394e-05
                    -0.000173599      0.00016962        -0.335865       -0.152989     -0.000215783     0.000123218         0.919333        0.112131
                        0.885588       0.0603145     -0.000181904     4.63913e-05         0.433226       -0.124581      3.27598e-05     0.000244572
                     0.000162975     2.90375e-05         0.919361        0.112244      2.84472e-05     0.000117206         0.361096      -0.0686235
281724                 -0.414056       -0.182713     -0.000148062     0.000155981         0.885577       0.0597937      9.13613e-05     4.69402e-05
                    -0.000173498     0.000169889         -0.33592       -0.152893     -0.000215408     0.000123118         0.919372         0.11176
                        0.885615       0.0599408     -0.000181981     4.61046e-05         0.433159       -0.124808      3.23697e-05      0.00024497
                     0.000162881     2.89093e-05         0.919402        0.111869      2.87784e-05     0.000117214         0.361072      -0.0688096
281726                 -0.414113       -0.182579     -0.000147717     0.000156532         0.885604       0.0594191      9.09324e-05     4.67498e-05
                    -0.000173399     0.000170171        -0.335976       -0.152796     -0.000215019     0.000123007         0.919412        0.111389
                        0.885642       0.0595668     -0.000182024     4.59194e-05         0.433092       -0.125036      3.19369e-05     0.000245567
                     0.000162787     2.87804e-05         0.919442        0.111493      2.91102e-05     0.000117223         0.361048      -0.0689957
281728                  -0.41417       -0.182445     -0.000147435     0.000156941          0.88563       0.0590444      9.04109e-05     4.65874e-05
                    -0.000173302     0.000170469        -0.336032       -0.152699     -0.000214613     0.000122882         0.919452        0.111018
                        0.885669       0.0591926     -0.000182046     4.58115e-05         0.433025       -0.125263      3.15202e-05      0.00024647
                     0.000162692     2.86506e-05         0.919482        0.111119      2.94423e-05     0.000117234         0.361024      -0.0691817
281730                 -0.414228        -0.18231     -0.000147209     0.000157242         0.885656       0.0586697      8.97692e-05     4.64897e-05
                    -0.000173211     0.000170785        -0.336088       -0.152603     -0.000214185      0.00012274         0.919492        0.110648
                        0.885695       0.0588182     -0.000182056     4.57631e-05         0.432958        -0.12549      3.12859e-05     0.000247808
                     0.000162596     2.85197e-05         0.919523        0.110744      2.97744e-05     0.000117249            0.361      -0.0693678
281732                 -0.414285       -0.182176     -0.000147028     0.000157461         0.885682        0.058295       8.8983e-05     4.65257e-05
                    -0.000173127     0.000171121        -0.336144       -0.152506     -0.000213728     0.000122577         0.919532        0.110277
                        0.885722       0.0584436     -0.000182057     4.57608e-05         0.432891       -0.125718      3.15997e-05     0.000249623
                     0.000162499     2.83875e-05         0.919563         0.11037      3.01059e-05     0.000117267         0.360976      -0.0695539
281734                 -0.414342       -0.182041     -0.000146883     0.000157617         0.885707       0.0579203      8.80581e-05     4.68136e-05
                    -0.000173055      0.00017148          -0.3362        -0.15241      -0.00021323     0.000122384         0.919573        0.109907
                        0.885748       0.0580688     -0.000182054     4.57944e-05         0.432823       -0.125945      3.29802e-05     0.000251569
                     0.000162401     2.82536e-05         0.919604        0.109996      3.04361e-05      0.00011729         0.360951        -0.06974
281736                 -0.414399       -0.181906     -0.000146765     0.000157723         0.885733       0.0575456      8.70931e-05      4.7518e-05
                       -0.000173     0.000171866        -0.336256       -0.152313     -0.000212674     0.000122152         0.919614        0.109537
                        0.885774       0.0576937     -0.000182048     4.58558e-05         0.432756       -0.126172      3.55162e-05     0.000252708
                     0.000162302     2.81176e-05         0.919644        0.109622      3.07639e-05     0.000117321         0.360927      -0.0699261
281738                 -0.414457       -0.181772     -0.000146667      0.00015779         0.885758       0.0571709      8.63638e-05     4.87584e-05
                     -0.00017297     0.000172281        -0.336312       -0.152217     -0.000212028      0.00012186         0.919654        0.109167
                        0.885799       0.0573183     -0.000182042     4.59386e-05         0.432688       -0.126399      3.82763e-05     0.000252339
                     0.000162201      2.7979e-05         0.919684        0.109249      3.10875e-05      0.00011736         0.360902      -0.0701122
281740                 -0.414514       -0.181637     -0.000146583     0.000157827         0.885783       0.0567962      8.62759e-05      5.0387e-05
                    -0.000172973     0.000172729        -0.336368       -0.152121     -0.000211235     0.000121473         0.919695        0.108796
                        0.885825       0.0569427     -0.000182035     4.60377e-05          0.43262       -0.126626      4.02394e-05     0.000250921
                     0.000162098     2.78368e-05         0.919724        0.108875      3.14044e-05     0.000117413         0.360878      -0.0702983
281742                 -0.414571       -0.181502     -0.000146506     0.000157839         0.885808       0.0564215      8.70095e-05     5.19019e-05
                    -0.000173025     0.000173211        -0.336424       -0.152024     -0.000210157     0.000120902         0.919736        0.108426
                        0.885851       0.0565669     -0.000182028     4.61489e-05         0.432553       -0.126853      4.12841e-05     0.000249292
                     0.000161992     2.76898e-05         0.919764        0.108502        3.171e-05     0.000117485         0.360853      -0.0704845
281744                 -0.414628       -0.181367     -0.000146431     0.000157831         0.885833       0.0560468      8.82612e-05     5.28535e-05
                     -0.00017314     0.000173728         -0.33648       -0.151928      -0.00020838     0.000119871         0.919777        0.108056
                        0.885876       0.0561906     -0.000182023     4.62686e-05         0.432485        -0.12708      4.17695e-05     0.000247859
                     0.000161884     2.75361e-05         0.919804        0.108129      3.19966e-05     0.000117585         0.360828      -0.0706707
281746                 -0.414685       -0.181232     -0.000146353     0.000157809         0.885857        0.055672      8.95741e-05     5.32232e-05
                    -0.000173344     0.000174277        -0.336536       -0.151832     -0.000203507     0.000116683         0.919818        0.107685
                        0.885901        0.055814     -0.000182019     4.63936e-05         0.432417       -0.127307      4.20272e-05     0.000246674
                      0.00016177     2.73725e-05         0.919844        0.107755      3.22489e-05     0.000117731         0.360804      -0.0708571
281748                 -0.414743       -0.181097     -0.000146266     0.000157776         0.885881       0.0552972      9.07162e-05     5.32659e-05
                    -0.000173665     0.000174853        -0.336591       -0.151736     -0.000240004     0.000139117          0.91986        0.107315
                        0.885927       0.0554369     -0.000182017     4.65215e-05         0.432349       -0.127534      4.22728e-05     0.000245659
                     0.000161651     2.71933e-05         0.919883        0.107382      3.24326e-05     0.000117964         0.360779      -0.0710439
281750                   -0.4148       -0.180961     -0.000146166     0.000157734         0.885905       0.0549223      9.16842e-05     5.32554e-05
                    -0.000174148     0.000175447        -0.336647        -0.15164     -0.000214177     0.000124764         0.919901        0.106945
                        0.885952       0.0550589     -0.000182018     4.66498e-05          0.43228       -0.127761      4.26753e-05     0.000244697
                     0.000161524     2.69867e-05         0.919923        0.107009      3.24512e-05      0.00011839         0.360752      -0.0712312
281752                 -0.414857       -0.180825     -0.000146048     0.000157686         0.885928        0.054547      9.25817e-05     5.34509e-05
                     -0.00017486     0.000176048        -0.336703       -0.151544     -0.000210468     0.000123215         0.919943        0.106575
                        0.885977       0.0546796      -0.00018202     4.67763e-05         0.432212       -0.127988      4.34737e-05     0.000243637
                     0.000161387     2.67255e-05         0.919962        0.106637      3.18858e-05     0.000119425         0.360725      -0.0714162
281754                 -0.414916       -0.180688     -0.000145908     0.000157634         0.885944       0.0541682      9.35288e-05     5.42843e-05
                    -0.000175935     0.000176647        -0.336759       -0.151448     -0.000207673      0.00012304         0.919986        0.106206
                        0.886003       0.0542975     -0.000182024     4.68992e-05         0.432145       -0.128214      4.52895e-05     0.000242227
                     0.000161249     2.63293e-05         0.920001        0.106264      2.29651e-05     0.000125449           0.3607      -0.0716008
281756                 -0.414978       -0.180551      -0.00014574     0.000157579         0.885985       0.0538023       9.4195e-05     5.70853e-05
                    -0.000177718     0.000177245        -0.336814       -0.151352     -0.000204929     0.000124328          0.92003        0.105838
                        0.886031        0.053908     -0.000182032     4.70166e-05         0.432073       -0.128444      5.09091e-05     0.000240224
                     0.000161302     2.54772e-05         0.920039        0.105891      3.74204e-05     0.000112452         0.360675      -0.0717863
281758                 -0.415046       -0.180426      -0.00014554     0.000157525         0.886004       0.0534257      8.78257e-05     6.29781e-05
                     -0.00018156     0.000177818         -0.33687       -0.151255     -0.000203416     0.000127615         0.920078        0.105473
                        0.886086       0.0534893     -0.000182041     4.71266e-05         0.432005       -0.128669      7.28007e-05     0.000262879
                     0.000163916     2.55677e-05         0.920078        0.105519      3.63097e-05     0.000115262          0.36065      -0.0719722
281760                 -0.415093       -0.180299     -0.000145302     0.000157472         0.886027       0.0530506      8.13196e-05     5.31452e-05
                     -0.00020087     0.000173741        -0.336926       -0.151159     -0.000204966     0.000130992         0.920138        0.105117
                        0.886168       0.0532702     -0.000182053     4.72276e-05         0.431937       -0.128895      3.39735e-05     0.000260906
                     0.000162273     2.73618e-05         0.920116        0.105146      3.62143e-05     0.000116022         0.360624      -0.0721582
281762                 -0.415146       -0.180163     -0.000145022     0.000157421         0.886049       0.0526757      8.48477e-05     4.93559e-05
                    -0.000157969     0.000168193        -0.336981       -0.151063     -0.000207803     0.000131843           0.9203        0.104792
                        0.886118       0.0528581     -0.000182068     4.73179e-05         0.431868       -0.129122      3.49215e-05     0.000252619
