! TOUCHSTONE file generated by CST MICROWAVE STUDIO
! Date and time: Tue Oct 14 07:26:52 2025
! Project name: Teste_Macro_Metasurface_Nanopilar.cst
! Parameters = {H=600; L_x=100; L_y=165; Lambda=1064; Max_L=200; Min_L=70; PathPara=1; Phi=0; Step_L=10; Theta=0; p=520; phaseX=180; phaseY=0}
! Header version: 2018
! Port assignment regex: !\s*Touchstone port\s*([0-9]+)\s*=\s*(CST MWS port|CST DS port)\s*([0-9]+|Zmin|Zmax)\s*\(\"(.*)\"\)(\s*mode\s*([0-9]+))?.*
! Touchstone port assignment:
! Touchstone port 1 = CST MWS port Zmax ("") mode 1
! Touchstone port 2 = CST MWS port Zmax ("") mode 2
! Touchstone port 3 = CST MWS port Zmin ("") mode 1
! Touchstone port 4 = CST MWS port Zmin ("") mode 2
! S-Parameters are not renormalized. Each port impedance will be approximated by the real part at minimum frequency. The values are described via the [Reference] keyword.
! Default impedance is overridden by [Reference]
[Version] 2.0
# GHz S RI R 376.73
[Number of Ports] 4
[Reference]
376.73 376.73 259.814 259.814 
[Number of Frequencies] 51
[Network Data]
281700                 -0.128065       -0.248323     -0.000370778     0.000334432          0.44821        0.842599      4.06974e-05      0.00047196
                    -0.000369861      0.00033728        -0.146662       -0.119415      0.000487215     0.000334558        -0.377326       -0.899079
                        0.448745         0.84312      0.000307714       0.0004237         0.135854        0.241995      0.000448971    -9.44369e-05
                     2.51941e-05      0.00051962         -0.37743       -0.899557      0.000614716    -0.000160156       -0.0165441        0.187639
281702                 -0.128159       -0.248329     -0.000370665     0.000334793         0.448599        0.842375      4.09741e-05     0.000471917
                     -0.00036958     0.000337664        -0.146715       -0.119366      0.000487566     0.000334427        -0.377765       -0.898892
                        0.449133        0.842897      0.000308028     0.000423652         0.136035        0.241947      0.000449058    -9.44519e-05
                      2.5425e-05     0.000519644        -0.377869       -0.899369       0.00061511    -0.000160435       -0.0164322        0.187659
281704                 -0.128253       -0.248334     -0.000370551     0.000335154         0.448987        0.842151      4.12512e-05     0.000471874
                    -0.000369299     0.000338047        -0.146768       -0.119317      0.000487918     0.000334295        -0.378205       -0.898704
                        0.449522        0.842674      0.000308343     0.000423603         0.136215          0.2419      0.000449145    -9.44666e-05
                     2.56557e-05     0.000519668        -0.378309       -0.899182      0.000615503    -0.000160713       -0.0163203        0.187679
281706                 -0.128347        -0.24834     -0.000370437     0.000335514         0.449375        0.841927      4.15285e-05      0.00047183
                    -0.000369018     0.000338431        -0.146821       -0.119268       0.00048827     0.000334164        -0.378645       -0.898517
                         0.44991        0.842451      0.000308658     0.000423555         0.136396        0.241852      0.000449232    -9.44808e-05
                     2.58865e-05     0.000519692        -0.378748       -0.898994      0.000615897    -0.000160993       -0.0162084        0.187699
281708                 -0.128441       -0.248345     -0.000370322     0.000335875         0.449763        0.841703       4.1806e-05     0.000471785
                    -0.000368736     0.000338815        -0.146874        -0.11922      0.000488622     0.000334032        -0.379084       -0.898329
                        0.450298        0.842227      0.000308973     0.000423506         0.136577        0.241804      0.000449319    -9.44947e-05
                     2.61171e-05     0.000519715        -0.379188       -0.898806      0.000616291    -0.000161272       -0.0160965        0.187719
281710                 -0.128535        -0.24835     -0.000370207     0.000336236         0.450151        0.841478      4.20837e-05     0.000471741
                    -0.000368455     0.000339199        -0.146927       -0.119171      0.000488975       0.0003339        -0.379524        -0.89814
                        0.450687        0.842003      0.000309288     0.000423458         0.136758        0.241757      0.000449406    -9.45083e-05
                     2.63477e-05     0.000519738        -0.379627       -0.898618      0.000616685    -0.000161553       -0.0159845        0.187739
281712                 -0.128629       -0.248356     -0.000370092     0.000336596         0.450539        0.841254      4.23615e-05     0.000471696
                    -0.000368173     0.000339584         -0.14698       -0.119122      0.000489327     0.000333769        -0.379963       -0.897952
                        0.451075        0.841779      0.000309602     0.000423409         0.136938        0.241709      0.000449492    -9.45215e-05
                     2.65782e-05      0.00051976        -0.380066        -0.89843       0.00061708    -0.000161833       -0.0158726        0.187759
281714                 -0.128723       -0.248361     -0.000369977     0.000336957         0.450927        0.841029      4.26395e-05      0.00047165
                    -0.000367892     0.000339968        -0.147033       -0.119073       0.00048968     0.000333637        -0.380403       -0.897763
                        0.451462        0.841555      0.000309917     0.000423359         0.137119        0.241661      0.000449579    -9.45344e-05
                     2.68086e-05     0.000519782        -0.380505       -0.898241      0.000617475    -0.000162114       -0.0157606        0.187779
281716                 -0.128817       -0.248366     -0.000369861     0.000337318         0.451315        0.840803      4.29176e-05     0.000471604
                     -0.00036761     0.000340353        -0.147086       -0.119024      0.000490033     0.000333505        -0.380842       -0.897574
                         0.45185         0.84133      0.000310232      0.00042331           0.1373        0.241613      0.000449666     -9.4547e-05
                     2.70391e-05     0.000519803        -0.380944       -0.898052       0.00061787    -0.000162395       -0.0156486        0.187799
281718                 -0.128912       -0.248372     -0.000369745     0.000337678         0.451703        0.840578      4.31957e-05     0.000471557
                    -0.000367328     0.000340737        -0.147139       -0.118975      0.000490386     0.000333373        -0.381281       -0.897385
                        0.452238        0.841106      0.000310547      0.00042326          0.13748        0.241564      0.000449753    -9.45592e-05
                     2.72694e-05     0.000519824        -0.381383       -0.897863      0.000618265    -0.000162677       -0.0155365        0.187819
281720                 -0.129006       -0.248377     -0.000369629     0.000338038          0.45209        0.840353       4.3474e-05     0.000471511
                    -0.000367047     0.000341122        -0.147192       -0.118926       0.00049074     0.000333242         -0.38172       -0.897196
                        0.452626        0.840881      0.000310862      0.00042321         0.137661        0.241516      0.000449839    -9.45711e-05
                     2.74997e-05     0.000519845        -0.381822       -0.897674       0.00061866    -0.000162959       -0.0154245        0.187838
281722                   -0.1291       -0.248382     -0.000369512     0.000338399         0.452477        0.840127      4.37523e-05     0.000471463
                    -0.000366765     0.000341507        -0.147245       -0.118877      0.000491094      0.00033311        -0.382159       -0.897007
                        0.453013        0.840656      0.000311176      0.00042316         0.137842        0.241467      0.000449926    -9.45828e-05
                       2.773e-05     0.000519865        -0.382261       -0.897484      0.000619056    -0.000163242       -0.0153124        0.187858
281724                 -0.129194       -0.248388     -0.000369395     0.000338759         0.452865        0.839901      4.40306e-05     0.000471416
                    -0.000366483     0.000341892        -0.147298       -0.118828      0.000491447     0.000332978        -0.382598       -0.896817
                        0.453401        0.840431      0.000311491      0.00042311         0.138023        0.241419      0.000450013    -9.45941e-05
                     2.79603e-05     0.000519884          -0.3827       -0.897295      0.000619452    -0.000163524       -0.0152003        0.187877
281726                 -0.129288       -0.248393     -0.000369278     0.000339119         0.453252        0.839675       4.4309e-05     0.000471367
                    -0.000366201     0.000342278        -0.147351       -0.118779      0.000491802     0.000332846        -0.383037       -0.896627
                        0.453788        0.840205      0.000311806      0.00042306         0.138204         0.24137      0.000450099    -9.46052e-05
                     2.81905e-05     0.000519904        -0.383138       -0.897105      0.000619849    -0.000163808       -0.0150882        0.187897
281728                 -0.129383       -0.248398     -0.000369161     0.000339479         0.453639        0.839449      4.45874e-05     0.000471319
                    -0.000365919     0.000342663        -0.147404        -0.11873      0.000492156     0.000332715        -0.383475       -0.896437
                        0.454175         0.83998      0.000312121     0.000423009         0.138384        0.241321      0.000450186     -9.4616e-05
                     2.84207e-05     0.000519922        -0.383577       -0.896914      0.000620245    -0.000164091       -0.0149761        0.187916
281730                 -0.129477       -0.248403     -0.000369043     0.000339839         0.454026        0.839222      4.48658e-05      0.00047127
                    -0.000365638     0.000343049        -0.147457       -0.118681      0.000492511     0.000332583        -0.383914       -0.896246
                        0.454562        0.839754      0.000312436     0.000422958         0.138565        0.241272      0.000450272    -9.46265e-05
                     2.86508e-05     0.000519941        -0.384015       -0.896724      0.000620642    -0.000164375       -0.0148639        0.187935
281732                 -0.129571       -0.248408     -0.000368925     0.000340199         0.454413        0.838996      4.51442e-05     0.000471221
                    -0.000365356     0.000343434         -0.14751       -0.118632      0.000492865     0.000332451        -0.384352       -0.896056
                        0.454949        0.839528      0.000312751     0.000422907         0.138746        0.241223      0.000450359    -9.46368e-05
                      2.8881e-05     0.000519959        -0.384454       -0.896533      0.000621039     -0.00016466       -0.0147517        0.187954
281734                 -0.129666       -0.248414     -0.000368806     0.000340559           0.4548        0.838769      4.54225e-05     0.000471171
                    -0.000365074      0.00034382        -0.147563       -0.118582       0.00049322     0.000332319        -0.384791       -0.895865
                        0.455336        0.839302      0.000313066     0.000422856         0.138927        0.241173      0.000450445    -9.46469e-05
                     2.91111e-05     0.000519976        -0.384892       -0.896343      0.000621436    -0.000164945       -0.0146395        0.187974
281736                  -0.12976       -0.248419     -0.000368687     0.000340919         0.455187        0.838542      4.57009e-05     0.000471121
                    -0.000364792     0.000344206        -0.147616       -0.118533      0.000493576     0.000332187        -0.385229       -0.895674
                        0.455723        0.839076       0.00031338     0.000422805         0.139108        0.241124      0.000450532    -9.46567e-05
                     2.93412e-05     0.000519993         -0.38533       -0.896152      0.000621833     -0.00016523       -0.0145273        0.187993
281738                 -0.129855       -0.248424     -0.000368568     0.000341278         0.455573        0.838314      4.59792e-05      0.00047107
                     -0.00036451     0.000344592        -0.147669       -0.118484      0.000493931     0.000332056        -0.385668       -0.895483
                        0.456109        0.838849      0.000313695     0.000422753         0.139288        0.241074      0.000450618    -9.46662e-05
                     2.95712e-05      0.00052001        -0.385768        -0.89596      0.000622231    -0.000165515       -0.0144151        0.188012
281740                 -0.129949       -0.248429     -0.000368449     0.000341638          0.45596        0.838087      4.62574e-05     0.000471019
                    -0.000364228     0.000344978        -0.147722       -0.118435      0.000494287     0.000331924        -0.386106       -0.895291
                        0.456496        0.838622       0.00031401     0.000422701         0.139469        0.241025      0.000450705    -9.46756e-05
                     2.98013e-05     0.000520026        -0.386206       -0.895769      0.000622629    -0.000165801       -0.0143028        0.188031
281742                 -0.130043       -0.248434     -0.000368329     0.000341998         0.456346        0.837859      4.65356e-05     0.000470968
                    -0.000363946     0.000345365        -0.147774       -0.118385      0.000494643     0.000331792        -0.386544       -0.895099
                        0.456883        0.838395      0.000314325     0.000422649          0.13965        0.240975      0.000450792    -9.46848e-05
                     3.00314e-05     0.000520041        -0.386644       -0.895577      0.000623027    -0.000166087       -0.0141906        0.188049
281744                 -0.130138       -0.248439     -0.000368209     0.000342357         0.456732        0.837632      4.68136e-05     0.000470916
                    -0.000363664     0.000345751        -0.147827       -0.118336      0.000494999      0.00033166        -0.386982       -0.894907
                        0.457269        0.838168       0.00031464     0.000422597         0.139831        0.240925      0.000450878    -9.46939e-05
                     3.02614e-05     0.000520056        -0.387082       -0.895385      0.000623425    -0.000166374       -0.0140783        0.188068
281746                 -0.130232       -0.248444     -0.000368089     0.000342717         0.457119        0.837404      4.70915e-05     0.000470864
                    -0.000363382     0.000346138         -0.14788       -0.118287      0.000495356     0.000331529         -0.38742       -0.894715
                        0.457655        0.837941      0.000314955     0.000422545         0.140012        0.240875      0.000450965    -9.47028e-05
                     3.04914e-05     0.000520071         -0.38752       -0.895193      0.000623824    -0.000166661       -0.0139659        0.188087
281748                 -0.130327       -0.248449     -0.000367969     0.000343076         0.457505        0.837175      4.73692e-05     0.000470812
                      -0.0003631     0.000346525        -0.147933       -0.118238      0.000495713     0.000331397        -0.387858       -0.894523
                        0.458041        0.837714      0.000315269     0.000422492         0.140193        0.240825      0.000451051    -9.47117e-05
                     3.07214e-05     0.000520085        -0.387957       -0.895001      0.000624222    -0.000166948       -0.0138536        0.188105
281750                 -0.130421       -0.248454     -0.000367849     0.000343436         0.457891        0.836947      4.76466e-05     0.000470759
                    -0.000362819     0.000346912        -0.147985       -0.118188       0.00049607     0.000331266        -0.388295        -0.89433
                        0.458427        0.837486      0.000315584     0.000422438         0.140374        0.240775      0.000451138    -9.47207e-05
                     3.09514e-05     0.000520098        -0.388395       -0.894808      0.000624621    -0.000167234       -0.0137413        0.188124
281752                 -0.130516       -0.248459     -0.000367729     0.000343796         0.458276        0.836718      4.79236e-05     0.000470707
                    -0.000362538     0.000347299        -0.148038       -0.118139      0.000496426     0.000331125        -0.388733       -0.894138
                        0.458813        0.837258      0.000315899     0.000422385         0.140555        0.240724      0.000451225      -9.473e-05
                     3.11813e-05     0.000520111        -0.388832       -0.894615      0.000625043    -0.000167511       -0.0136289        0.188143
281754                 -0.130611       -0.248464     -0.000367611     0.000344156         0.458662         0.83649      4.81996e-05     0.000470654
                    -0.000362258     0.000347687        -0.148091       -0.118089      0.000496784     0.000331001        -0.389171       -0.893945
                        0.459199         0.83703      0.000316214      0.00042233         0.140735        0.240674      0.000451312    -9.47403e-05
                      3.1411e-05     0.000520122        -0.389269       -0.894422       0.00062542    -0.000167814       -0.0135165        0.188161
281756                 -0.130705       -0.248469     -0.000367494     0.000344518         0.459048        0.836261      4.84738e-05     0.000470604
                    -0.000361981     0.000348077        -0.148144        -0.11804      0.000497141     0.000330869        -0.389608       -0.893751
                        0.459585        0.836802      0.000316529     0.000422274         0.140916        0.240623      0.000451399    -9.47541e-05
                       3.164e-05      0.00052013        -0.389707       -0.894229       0.00062582    -0.000168102       -0.0134041        0.188179
281758                   -0.1308       -0.248474     -0.000367383     0.000344883         0.459433        0.836032      4.87442e-05     0.000470561
                    -0.000361718     0.000348473        -0.148196        -0.11799      0.000497499     0.000330738        -0.390045       -0.893557
                         0.45997        0.836573      0.000316844     0.000422214         0.141097        0.240573      0.000451482    -9.47889e-05
                     3.18654e-05     0.000520129        -0.390144       -0.894036       0.00062622    -0.000168391       -0.0132918        0.188198
281760                 -0.130895       -0.248478     -0.000367296     0.000345262         0.459819        0.835802      4.90671e-05     0.000470541
                    -0.000361161     0.000348734        -0.148249       -0.117941      0.000497858     0.000330606        -0.390483       -0.893364
                        0.460357        0.836345      0.000317161     0.000422142         0.141278        0.240522      0.000451535    -9.47074e-05
                     3.19616e-05      0.00052027        -0.390581       -0.893842       0.00062662     -0.00016868       -0.0131792        0.188216
281762                 -0.130989       -0.248484     -0.000367051      0.00034644         0.460204        0.835573      4.93452e-05     0.000470436
                    -0.000361089     0.000349218        -0.148302       -0.117891      0.000498216     0.000330475         -0.39092       -0.893171
                        0.460742        0.836116      0.000317522      0.00042193         0.141459        0.240471      0.000451648    -9.47422e-05
