! TOUCHSTONE file generated by CST MICROWAVE STUDIO
! Date and time: Tue Oct 14 07:31:19 2025
! Project name: Teste_Macro_Metasurface_Nanopilar.cst
! Parameters = {H=600; L_x=170; L_y=185; Lambda=1064; Max_L=200; Min_L=70; PathPara=1; Phi=0; Step_L=10; Theta=0; p=520; phaseX=180; phaseY=0}
! Header version: 2018
! Port assignment regex: !\s*Touchstone port\s*([0-9]+)\s*=\s*(CST MWS port|CST DS port)\s*([0-9]+|Zmin|Zmax)\s*\(\"(.*)\"\)(\s*mode\s*([0-9]+))?.*
! Touchstone port assignment:
! Touchstone port 1 = CST MWS port Zmax ("") mode 1
! Touchstone port 2 = CST MWS port Zmax ("") mode 2
! Touchstone port 3 = CST MWS port Zmin ("") mode 1
! Touchstone port 4 = CST MWS port Zmin ("") mode 2
! S-Parameters are not renormalized. Each port impedance will be approximated by the real part at minimum frequency. The values are described via the [Reference] keyword.
! Default impedance is overridden by [Reference]
[Version] 2.0
# GHz S RI R 376.73
[Number of Ports] 4
[Reference]
376.73 376.73 259.814 259.814 
[Number of Frequencies] 51
[Network Data]
281700                 -0.222958      -0.0837751      0.000207229    -0.000378939         0.946453        0.201926      0.000676366    -0.000634958
                     0.000318977     -0.00034391       -0.0727764      0.00893717     -0.000339485    -0.000872168         0.958796        0.221432
                        0.945804         0.20229     -0.000115384    -0.000720154         0.235788       0.0137829      0.000457194    -0.000745542
                     0.000558212    -0.000482326         0.958859        0.221577      -9.2113e-05    -0.000946579        0.0586972       0.0579325
281702                 -0.222984      -0.0837179      0.000207164    -0.000379092         0.946535        0.201535      0.000676282    -0.000636067
                     0.000318915    -0.000343837       -0.0725802      0.00901307     -0.000341315    -0.000870333         0.958923        0.220848
                        0.945886        0.201896     -0.000116005    -0.000720607         0.235801       0.0136506       0.00045697    -0.000746616
                     0.000557928    -0.000482666         0.958987        0.220993     -9.49664e-05     -0.00094419        0.0585454       0.0578827
281704                 -0.223011      -0.0836608      0.000207099    -0.000379246         0.946616        0.201144      0.000676192    -0.000637174
                     0.000318869     -0.00034377       -0.0723836      0.00908889      -0.00034312    -0.000868498         0.959051        0.220263
                        0.945968        0.201502     -0.000116626     -0.00072106         0.235814       0.0135182      0.000456738     -0.00074769
                     0.000557657    -0.000483007         0.959114        0.220408     -9.77834e-05    -0.000941793         0.058393       0.0578331
281706                 -0.223037      -0.0836037      0.000207035    -0.000379401         0.946697        0.200753      0.000676097    -0.000638279
                     0.000318838    -0.000343709       -0.0721865      0.00916463     -0.000344899    -0.000866661         0.959178        0.219678
                        0.946049        0.201109     -0.000117248    -0.000721515         0.235827       0.0133858      0.000456499    -0.000748762
                       0.0005574    -0.000483351         0.959241        0.219823     -0.000100564    -0.000939391        0.0582403       0.0577838
281708                 -0.223064      -0.0835466      0.000206971    -0.000379558         0.946777        0.200361      0.000675996    -0.000639382
                     0.000318823    -0.000343654       -0.0719889      0.00924028     -0.000346652    -0.000864825         0.959305        0.219092
                        0.946131        0.200715     -0.000117871     -0.00072197         0.235839       0.0132535      0.000456252    -0.000749833
                     0.000557156    -0.000483697         0.959367        0.219238     -0.000103307    -0.000936983        0.0580871       0.0577347
281710                  -0.22309      -0.0834894      0.000206907    -0.000379715         0.946857        0.199968       0.00067589    -0.000640484
                     0.000318821    -0.000343607       -0.0717909      0.00931585     -0.000348377    -0.000862989         0.959431        0.218505
                        0.946212        0.200321     -0.000118493    -0.000722427         0.235852       0.0131211      0.000455998    -0.000750903
                     0.000556924    -0.000484048         0.959494        0.218652     -0.000106013     -0.00093457        0.0579334       0.0576858
281712                 -0.223117      -0.0834323      0.000206844    -0.000379873         0.946936        0.199574      0.000675778    -0.000641584
                     0.000318833    -0.000343568       -0.0715923      0.00939134     -0.000350074    -0.000861153         0.959557        0.217919
                        0.946293        0.199927     -0.000119116    -0.000722884         0.235864       0.0129887      0.000455737    -0.000751972
                     0.000556704    -0.000484404         0.959619        0.218065     -0.000108682    -0.000932153        0.0577793       0.0576372
281714                 -0.223143      -0.0833751      0.000206782    -0.000380032         0.947016         0.19918      0.000675661    -0.000642682
                     0.000318857    -0.000343536       -0.0713933      0.00946674     -0.000351743    -0.000859319         0.959683        0.217331
                        0.946374        0.199534      -0.00011974    -0.000723343         0.235877       0.0128563      0.000455468     -0.00075304
                     0.000556495    -0.000484765         0.959745        0.217479     -0.000111313    -0.000929731        0.0576247       0.0575888
281716                  -0.22317       -0.083318      0.000206719    -0.000380192         0.947096        0.198785      0.000675539    -0.000643778
                     0.000318894    -0.000343513       -0.0711937      0.00954205     -0.000353382    -0.000857487         0.959808        0.216743
                        0.946455         0.19914     -0.000120363    -0.000723802         0.235889       0.0127239      0.000455192    -0.000754107
                     0.000556296    -0.000485133          0.95987        0.216891     -0.000113905    -0.000927307        0.0574697       0.0575407
281718                 -0.223196      -0.0832608      0.000206657    -0.000380354         0.947176         0.19839      0.000675411    -0.000644872
                     0.000318941    -0.000343499       -0.0709937      0.00961728     -0.000354991    -0.000855658         0.959933        0.216155
                        0.946536        0.198746     -0.000120988    -0.000724263         0.235901       0.0125914      0.000454909    -0.000755172
                     0.000556107    -0.000485508         0.959995        0.216303     -0.000116459    -0.000924879        0.0573143       0.0574928
281720                 -0.223223      -0.0832036      0.000206596    -0.000380516         0.947256        0.197995      0.000675277    -0.000645965
                     0.000318998    -0.000343494       -0.0707931      0.00969242     -0.000356569    -0.000853833         0.960058        0.215566
                        0.946616        0.198352     -0.000121612    -0.000724724         0.235913        0.012459      0.000454618    -0.000756237
                     0.000555926     -0.00048589          0.96012        0.215715     -0.000118974     -0.00092245        0.0571583       0.0574452
281722                 -0.223249      -0.0831464      0.000206535    -0.000380679         0.947336          0.1976      0.000675138    -0.000647056
                     0.000319064    -0.000343498       -0.0705921      0.00976747     -0.000358115    -0.000852011         0.960182        0.214977
                        0.946696        0.197958     -0.000122237    -0.000725187         0.235925       0.0123265       0.00045432      -0.0007573
                     0.000555753    -0.000486279         0.960244        0.215126      -0.00012145    -0.000920018         0.057002       0.0573977
281724                 -0.223275      -0.0830892      0.000206474    -0.000380844         0.947417        0.197204      0.000674993    -0.000648145
                      0.00031914    -0.000343512       -0.0703906      0.00984244     -0.000359628    -0.000850194         0.960307        0.214387
                        0.946777        0.197564     -0.000122863    -0.000725651         0.235937       0.0121941      0.000454014    -0.000758363
                     0.000555588    -0.000486677         0.960368        0.214536     -0.000123886    -0.000917586        0.0568451       0.0573506
281726                 -0.223302       -0.083032      0.000206414     -0.00038101         0.947497        0.196809      0.000674843    -0.000649232
                     0.000319223    -0.000343535       -0.0701885      0.00991731     -0.000361108    -0.000848383          0.96043        0.213796
                        0.946857         0.19717     -0.000123489    -0.000726116         0.235949       0.0120616      0.000453701    -0.000759424
                     0.000555428    -0.000487083         0.960491        0.213946     -0.000126281    -0.000915154        0.0566879       0.0573037
281728                 -0.223328      -0.0829748      0.000206354    -0.000381176         0.947578        0.196414      0.000674688    -0.000650317
                     0.000319314    -0.000343567        -0.069986       0.0099921     -0.000362552    -0.000846579         0.960554        0.213205
                        0.946936        0.196776     -0.000124115    -0.000726582         0.235961       0.0119291       0.00045338    -0.000760484
                     0.000555275    -0.000487498         0.960614        0.213356     -0.000128635    -0.000912723        0.0565301        0.057257
281730                 -0.223355      -0.0829176      0.000206295    -0.000381344         0.947658        0.196019      0.000674526      -0.0006514
                     0.000319411    -0.000343609        -0.069783       0.0100668      -0.00036396    -0.000844782         0.960677        0.212614
                        0.947016        0.196382     -0.000124742    -0.000727049         0.235973       0.0117966      0.000453053    -0.000761543
                     0.000555127    -0.000487921         0.960737        0.212765     -0.000130947    -0.000910293        0.0563719       0.0572106
281732                 -0.223381      -0.0828603      0.000206235    -0.000381513         0.947739        0.195624      0.000674359    -0.000652482
                     0.000319514     -0.00034366       -0.0695794       0.0101414     -0.000365331    -0.000842994         0.960799        0.212022
                        0.947096        0.195988     -0.000125369    -0.000727517         0.235984        0.011664      0.000452717    -0.000762601
                     0.000554983    -0.000488352         0.960859        0.212174     -0.000133218    -0.000907865        0.0562133       0.0571645
281734                 -0.223407      -0.0828031      0.000206177    -0.000381684         0.947819         0.19523      0.000674187    -0.000653561
                     0.000319624     -0.00034372       -0.0693754       0.0102159     -0.000366664    -0.000841215         0.960922        0.211429
                        0.947175        0.195593     -0.000125997    -0.000727987         0.235996       0.0115315      0.000452375    -0.000763658
                     0.000554843    -0.000488793         0.960982        0.211582     -0.000135445     -0.00090544        0.0560542       0.0571186
281736                 -0.223433      -0.0827459      0.000206118    -0.000381855         0.947899        0.194835      0.000674008    -0.000654639
                     0.000319738     -0.00034379       -0.0691708       0.0102903     -0.000367956    -0.000839447         0.961044        0.210836
                        0.947254        0.195199     -0.000126625    -0.000728458         0.236007       0.0113989      0.000452025    -0.000764714
                     0.000554707    -0.000489242         0.961103        0.210989     -0.000137628    -0.000903018        0.0558946       0.0570729
281738                  -0.22346      -0.0826886       0.00020606    -0.000382028         0.947978        0.194441      0.000673825    -0.000655715
                     0.000319856    -0.000343869       -0.0689658       0.0103646     -0.000369208     -0.00083769         0.961165        0.210243
                        0.947333        0.194805     -0.000127253     -0.00072893         0.236019       0.0112663      0.000451667    -0.000765768
                     0.000554574    -0.000489701         0.961225        0.210396     -0.000139767    -0.000900602        0.0557345       0.0570275
281740                 -0.223486      -0.0826313      0.000206003    -0.000382202         0.948058        0.194046      0.000673635    -0.000656788
                     0.000319979    -0.000343957       -0.0687602       0.0104389     -0.000370417    -0.000835947         0.961287        0.209649
                        0.947412        0.194411     -0.000127883    -0.000729403          0.23603       0.0111337      0.000451302    -0.000766821
                     0.000554444    -0.000490171         0.961346        0.209803     -0.000141861    -0.000898191         0.055574       0.0569824
281742                 -0.223512      -0.0825741      0.000205945    -0.000382378         0.948137        0.193652       0.00067344     -0.00065786
                     0.000320105    -0.000344054       -0.0685541        0.010513     -0.000371583    -0.000834217         0.961407        0.209054
                         0.94749        0.194016     -0.000128512    -0.000729878         0.236041       0.0110011       0.00045093    -0.000767873
                     0.000554314    -0.000490653         0.961466        0.209208     -0.000143909    -0.000895787        0.0554131       0.0569375
281744                 -0.223538      -0.0825168      0.000205888    -0.000382555         0.948216        0.193258      0.000673239     -0.00065893
                     0.000320235    -0.000344159       -0.0683475       0.0105871     -0.000372704    -0.000832503         0.961528        0.208459
                        0.947569        0.193622     -0.000129143    -0.000730354         0.236052       0.0108685       0.00045055    -0.000768924
                      0.00055418    -0.000491147         0.961587        0.208614     -0.000145912    -0.000893392        0.0552517       0.0568929
281746                 -0.223565      -0.0824595      0.000205831    -0.000382734         0.948294        0.192864      0.000673033    -0.000659998
                     0.000320367    -0.000344273       -0.0681404        0.010661     -0.000373782    -0.000830805         0.961648        0.207864
                        0.947647        0.193228     -0.000129774    -0.000730832         0.236063       0.0107358      0.000450163    -0.000769974
                     0.000554039    -0.000491649         0.961707        0.208019     -0.000147868    -0.000891005        0.0550898       0.0568485
281748                 -0.223591      -0.0824022      0.000205774    -0.000382917         0.948372         0.19247       0.00067282    -0.000661064
                     0.000320502    -0.000344396       -0.0679328       0.0107348     -0.000374816    -0.000829124         0.961768        0.207268
                        0.947725        0.192833     -0.000130406    -0.000731312         0.236074       0.0106032      0.000449768    -0.000771022
                     0.000553891    -0.000492153         0.961826        0.207423     -0.000149779    -0.000888629        0.0549274       0.0568044
281750                 -0.223617      -0.0823449      0.000205712    -0.000383115          0.94845        0.192076      0.000672602    -0.000662128
                     0.000320639    -0.000344527       -0.0677246       0.0108086     -0.000375807    -0.000827461         0.961888        0.206671
                        0.947803        0.192439     -0.000131045    -0.000731806         0.236085       0.0104705      0.000449366    -0.000772069
                     0.000553742    -0.000492656         0.961946        0.206827     -0.000151645    -0.000886265        0.0547646       0.0567606
281752                 -0.223643      -0.0822876      0.000205675    -0.000383246         0.948528        0.191681      0.000672379     -0.00066319
                     0.000320777    -0.000344666        -0.067516       0.0108822     -0.000376761    -0.000825817         0.962007        0.206074
                        0.947881        0.192044     -0.000131657    -0.000732249         0.236096       0.0103378      0.000448957    -0.000773115
                     0.000553596    -0.000493162         0.962065         0.20623      -0.00015347    -0.000883914        0.0546013        0.056717
281754                 -0.223669      -0.0822302      0.000205614    -0.000383445         0.948606        0.191287      0.000672149    -0.000664251
                     0.000320918    -0.000344816       -0.0673068       0.0109558     -0.000377684     -0.00082419         0.962126        0.205476
                        0.947959         0.19165     -0.000132295    -0.000732741         0.236107        0.010205       0.00044854     -0.00077416
                     0.000553451    -0.000493673         0.962183        0.205633     -0.000155258    -0.000881578        0.0544375       0.0566737
281756                 -0.223696      -0.0821729      0.000205558    -0.000383632         0.948683        0.190893      0.000671914    -0.000665309
                     0.000321057     -0.00034498       -0.0670971       0.0110292      -0.00037859     -0.00082258         0.962244        0.204878
                        0.948036        0.191255      -0.00013293    -0.000733227         0.236118       0.0100723      0.000448116    -0.000775203
                     0.000553307     -0.00049419         0.962301        0.205036     -0.000157017    -0.000879259        0.0542733       0.0566307
281758                 -0.223722      -0.0821156      0.000205503     -0.00038382         0.948761        0.190499      0.000671673    -0.000666365
                      0.00032117    -0.000345132       -0.0668869       0.0111026     -0.000379503    -0.000820981         0.962362        0.204279
                        0.948113        0.190861     -0.000133564    -0.000733712         0.236128      0.00993954      0.000447685    -0.000776245
                     0.000553163    -0.000494713         0.962419        0.204437     -0.000158764    -0.000876958        0.0541085       0.0565879
281760                 -0.223748      -0.0820582      0.000205448    -0.000384008         0.948839        0.190104      0.000671427    -0.000667419
                     0.000321324    -0.000345286       -0.0666761       0.0111758     -0.000380462    -0.000819385          0.96248         0.20368
                         0.94819        0.190466     -0.000134198    -0.000734199         0.236139      0.00980679      0.000447246    -0.000777286
                     0.000553018    -0.000495243         0.962537        0.203839     -0.000160523    -0.000874675        0.0539434       0.0565454
281762                 -0.223774      -0.0820008      0.000205394    -0.000384197         0.948917         0.18971      0.000671175     -0.00066847
                     0.000321471     -0.00034546       -0.0664648        0.011249     -0.000381542    -0.000817773         0.962597         0.20308
                        0.948267        0.190071     -0.000134833    -0.000734686         0.236149      0.00967407        0.0004468    -0.000778325
