! TOUCHSTONE file generated by CST MICROWAVE STUDIO
! Date and time: Tue Oct 14 07:29:50 2025
! Project name: Teste_Macro_Metasurface_Nanopilar.cst
! Parameters = {H=600; L_x=150; L_y=90; Lambda=1064; Max_L=200; Min_L=70; PathPara=1; Phi=0; Step_L=10; Theta=0; p=520; phaseX=180; phaseY=0}
! Header version: 2018
! Port assignment regex: !\s*Touchstone port\s*([0-9]+)\s*=\s*(CST MWS port|CST DS port)\s*([0-9]+|Zmin|Zmax)\s*\(\"(.*)\"\)(\s*mode\s*([0-9]+))?.*
! Touchstone port assignment:
! Touchstone port 1 = CST MWS port Zmax ("") mode 1
! Touchstone port 2 = CST MWS port Zmax ("") mode 2
! Touchstone port 3 = CST MWS port Zmin ("") mode 1
! Touchstone port 4 = CST MWS port Zmin ("") mode 2
! S-Parameters are not renormalized. Each port impedance will be approximated by the real part at minimum frequency. The values are described via the [Reference] keyword.
! Default impedance is overridden by [Reference]
[Version] 2.0
# GHz S RI R 376.73
[Number of Ports] 4
[Reference]
376.73 376.73 259.814 259.814 
[Number of Frequencies] 51
[Network Data]
281700                 0.0286054      -0.0226207      0.000130818      0.00138421         0.730616       -0.678353     -9.05808e-05     0.000131118
                     0.000166027      0.00134803        0.0141342      -0.0884662      2.69297e-05      1.7434e-05        -0.491132        0.858077
                        0.730757        -0.67837      1.37939e-05     1.68754e-05       -0.0244983       0.0277494      -0.00145769     0.000128406
                     -0.00015799     0.000183074        -0.491262        0.858346      -0.00138372     0.000198549       -0.0688395       0.0591836
281702                 0.0286034      -0.0226457       0.00013152      0.00138417         0.730341       -0.678649     -9.06138e-05     0.000131236
                     0.000166725      0.00134794        0.0140946      -0.0884993      2.69714e-05     1.74566e-05        -0.490714        0.858314
                        0.730482       -0.678666      1.38097e-05     1.69095e-05       -0.0245008       0.0277656       -0.0014577      0.00012908
                    -0.000157898     0.000183201        -0.490844        0.858583      -0.00138364     0.000199077       -0.0688312       0.0592329
281704                 0.0286015      -0.0226706      0.000132223      0.00138413         0.730066       -0.678944     -9.06467e-05     0.000131354
                     0.000167423      0.00134785        0.0140551      -0.0885323      2.70132e-05     1.74793e-05        -0.490296         0.85855
                        0.730207       -0.678961      1.38256e-05     1.69438e-05       -0.0245033       0.0277818      -0.00145771     0.000129746
                    -0.000157805     0.000183328        -0.490426        0.858819      -0.00138355     0.000199605       -0.0688229       0.0592822
281706                 0.0285995      -0.0226956      0.000132926       0.0013841         0.729791        -0.67924     -9.06797e-05     0.000131472
                     0.000168122      0.00134776        0.0140155      -0.0885653       2.7055e-05      1.7502e-05        -0.489878        0.858787
                        0.729931       -0.679256      1.38416e-05     1.69783e-05       -0.0245059        0.027798      -0.00145771     0.000130403
                    -0.000157713     0.000183455        -0.490008        0.859056      -0.00138347     0.000200133       -0.0688146       0.0593315
281708                 0.0285975      -0.0227206      0.000133629      0.00138406         0.729516       -0.679535     -9.07126e-05      0.00013159
                      0.00016882      0.00134766        0.0139759      -0.0885983       2.7097e-05     1.75247e-05         -0.48946        0.859023
                        0.729656       -0.679551      1.38575e-05     1.70131e-05       -0.0245084       0.0278143      -0.00145771     0.000131053
                     -0.00015762     0.000183581         -0.48959        0.859292      -0.00138339     0.000200661       -0.0688062       0.0593809
281710                 0.0285954      -0.0227456      0.000134332      0.00138402          0.72924        -0.67983     -9.07454e-05     0.000131709
                     0.000169518      0.00134757        0.0139363      -0.0886313       2.7139e-05     1.75475e-05        -0.489042        0.859258
                         0.72938       -0.679846      1.38735e-05     1.70479e-05       -0.0245109       0.0278305      -0.00145771     0.000131696
                    -0.000157527     0.000183708        -0.489171        0.859528       -0.0013833     0.000201189       -0.0687978       0.0594302
281712                 0.0285934      -0.0227706      0.000135034      0.00138398         0.728964       -0.680125     -9.07782e-05     0.000131828
                     0.000170216      0.00134748        0.0138966      -0.0886642      2.71811e-05     1.75703e-05        -0.488624        0.859494
                        0.729104       -0.680141      1.38896e-05      1.7083e-05       -0.0245134       0.0278468      -0.00145769     0.000132336
                    -0.000157435     0.000183834        -0.488753        0.859764      -0.00138322     0.000201717       -0.0687894       0.0594796
281714                 0.0285914      -0.0227956      0.000135737      0.00138394         0.728688        -0.68042      -9.0811e-05     0.000131947
                     0.000170914      0.00134739         0.013857      -0.0886972      2.72233e-05     1.75932e-05        -0.488205         0.85973
                        0.728829       -0.680436      1.39057e-05     1.71182e-05       -0.0245159        0.027863      -0.00145766     0.000132975
                    -0.000157341      0.00018396        -0.488334            0.86      -0.00138313     0.000202244       -0.0687809        0.059529
281716                 0.0285893      -0.0228206       0.00013644       0.0013839         0.728412       -0.680714     -9.08438e-05     0.000132066
                     0.000171612      0.00134729        0.0138173      -0.0887301      2.72655e-05     1.76162e-05        -0.487787        0.859965
                        0.728553       -0.680731      1.39218e-05     1.71535e-05       -0.0245184       0.0278793      -0.00145762     0.000133617
                    -0.000157248     0.000184087        -0.487916        0.860235      -0.00138305     0.000202772       -0.0687724       0.0595784
281718                 0.0285873      -0.0228456      0.000137143      0.00138386         0.728136       -0.681008     -9.08765e-05     0.000132185
                      0.00017231       0.0013472        0.0137775       -0.088763      2.73079e-05     1.76391e-05        -0.487368          0.8602
                        0.728276       -0.681025      1.39379e-05      1.7189e-05       -0.0245208       0.0278956      -0.00145758     0.000134263
                    -0.000157155     0.000184213        -0.487496         0.86047      -0.00138296     0.000203299       -0.0687638       0.0596278
281720                 0.0285852      -0.0228706      0.000137846      0.00138382          0.72786       -0.681302     -9.09091e-05     0.000132305
                     0.000173008       0.0013471        0.0137379      -0.0887959      2.73503e-05     1.76621e-05        -0.486949        0.860435
                           0.728        -0.68132      1.39541e-05     1.72245e-05       -0.0245233       0.0279119      -0.00145752     0.000134914
                    -0.000157062     0.000184339        -0.487077        0.860705      -0.00138288     0.000203826       -0.0687552       0.0596772
281722                 0.0285831      -0.0228956       0.00013855      0.00138378         0.727583       -0.681596     -9.09416e-05     0.000132424
                     0.000173706      0.00134701        0.0136981      -0.0888288      2.73928e-05     1.76852e-05        -0.486531         0.86067
                        0.727724       -0.681614      1.39702e-05     1.72601e-05       -0.0245258       0.0279282      -0.00145747     0.000135571
                    -0.000156968     0.000184465        -0.486658         0.86094      -0.00138279     0.000204353       -0.0687466       0.0597267
281724                  0.028581      -0.0229206      0.000139252      0.00138374         0.727306        -0.68189      -9.0974e-05     0.000132544
                     0.000174403      0.00134691        0.0136584      -0.0888616      2.74353e-05     1.77083e-05        -0.486112        0.860904
                        0.727447       -0.681908      1.39863e-05     1.72958e-05       -0.0245282       0.0279445      -0.00145741     0.000136233
                    -0.000156874     0.000184591        -0.486239        0.861174       -0.0013827      0.00020488       -0.0687379       0.0597761
281726                 0.0285789      -0.0229456      0.000139939       0.0013837         0.727029       -0.682183     -9.10063e-05     0.000132664
                     0.000175101      0.00134682        0.0136186      -0.0888944      2.74779e-05     1.77314e-05        -0.485693        0.861138
                        0.727171       -0.682202      1.40024e-05     1.73314e-05       -0.0245306       0.0279609      -0.00145735     0.000136901
                    -0.000156781     0.000184716         -0.48582        0.861409      -0.00138262     0.000205406       -0.0687292       0.0598256
281728                 0.0285767      -0.0229706       0.00014065      0.00138364         0.726752       -0.682477     -9.10384e-05     0.000132783
                     0.000175799      0.00134672        0.0135788      -0.0889272      2.75206e-05     1.77546e-05        -0.485273        0.861372
                        0.726894       -0.682496      1.40183e-05      1.7367e-05       -0.0245331       0.0279772       -0.0014573     0.000137573
                    -0.000156687     0.000184842          -0.4854        0.861643      -0.00138253     0.000205933       -0.0687204        0.059875
281730                 0.0285746      -0.0229956      0.000141358       0.0013836         0.726475        -0.68277     -9.10701e-05     0.000132903
                     0.000176497      0.00134663         0.013539        -0.08896      2.75633e-05     1.77778e-05        -0.484854        0.861606
                        0.726617        -0.68279      1.40342e-05     1.74025e-05       -0.0245355       0.0279936      -0.00145724     0.000138248
                    -0.000156592     0.000184967        -0.484981        0.861877      -0.00138244     0.000206459       -0.0687116       0.0599245
281732                 0.0285724      -0.0230207      0.000142062      0.00138355         0.726198       -0.683063     -9.11015e-05     0.000133023
                     0.000177194      0.00134653        0.0134992      -0.0889927      2.76061e-05      1.7801e-05        -0.484435         0.86184
                         0.72634       -0.683084        1.405e-05      1.7438e-05       -0.0245379       0.0280099      -0.00145718     0.000138926
                    -0.000156498     0.000185093        -0.484561        0.862111      -0.00138235     0.000206985       -0.0687028        0.059974
281734                 0.0285702      -0.0230457      0.000142765      0.00138351          0.72592       -0.683356     -9.11321e-05     0.000133142
                     0.000177892      0.00134643        0.0134593      -0.0890255      2.76489e-05     1.78243e-05        -0.484015        0.862073
                        0.726063       -0.683378      1.40655e-05     1.74733e-05       -0.0245403       0.0280263      -0.00145712     0.000139606
                    -0.000156404     0.000185218        -0.484142        0.862344      -0.00138227     0.000207511        -0.068694       0.0600235
281736                  0.028568      -0.0230707      0.000143469      0.00138346         0.725643       -0.683649     -9.11615e-05     0.000133261
                     0.000178589      0.00134633        0.0134194      -0.0890582      2.76917e-05     1.78476e-05        -0.483596        0.862306
                        0.725786       -0.683671      1.40809e-05     1.75085e-05       -0.0245427       0.0280427      -0.00145707     0.000140288
                     -0.00015631     0.000185343        -0.483722        0.862578      -0.00138218     0.000208037       -0.0686851        0.060073
281738                 0.0285658      -0.0230957      0.000144172      0.00138342         0.725365       -0.683942     -9.11883e-05     0.000133379
                     0.000179286      0.00134624        0.0133795      -0.0890909      2.77346e-05      1.7871e-05        -0.483176        0.862539
                        0.725508       -0.683965       1.4096e-05     1.75435e-05       -0.0245451        0.028059      -0.00145701     0.000140971
                    -0.000156215     0.000185469        -0.483302        0.862811      -0.00138209     0.000208562       -0.0686761       0.0601226
281740                 0.0285636      -0.0231207      0.000144875      0.00138337         0.725087       -0.684235     -9.12088e-05     0.000133494
                     0.000179984      0.00134614        0.0133396      -0.0891236      2.77774e-05     1.78943e-05        -0.482756        0.862772
                        0.725231       -0.684258      1.41108e-05     1.75783e-05       -0.0245475       0.0280754      -0.00145696     0.000141656
                     -0.00015612     0.000185594        -0.482882        0.863044        -0.001382     0.000209087       -0.0686671       0.0601721
281742                 0.0285614      -0.0231457      0.000145579      0.00138332          0.72481       -0.684528     -9.12059e-05     0.000133604
                     0.000180681      0.00134604        0.0132997      -0.0891563      2.78203e-05     1.79177e-05        -0.482336        0.863005
                        0.724953       -0.684551      1.41254e-05      1.7613e-05       -0.0245498       0.0280918      -0.00145691     0.000142341
                    -0.000156025     0.000185718        -0.482462        0.863276      -0.00138191     0.000209612       -0.0686581       0.0602217
281744                 0.0285591      -0.0231708      0.000146282      0.00138328         0.724532       -0.684821     -9.10809e-05     0.000133864
                     0.000181378      0.00134594        0.0132597      -0.0891889      2.78633e-05     1.79412e-05        -0.481916        0.863237
                        0.724675       -0.684844      1.41396e-05     1.76475e-05       -0.0245522       0.0281082      -0.00145686     0.000143027
                     -0.00015593     0.000185843        -0.482041        0.863509      -0.00138182     0.000210137       -0.0686491       0.0602712
281746                 0.0285569      -0.0231958      0.000146985      0.00138323         0.724254       -0.685113     -9.13844e-05     0.000133987
                     0.000182076      0.00134584        0.0132197      -0.0892215      2.79062e-05     1.79646e-05        -0.481496        0.863469
                        0.724398       -0.685137      1.41535e-05     1.76818e-05       -0.0245545       0.0281246       -0.0014568     0.000143714
                    -0.000155835     0.000185968        -0.481621        0.863741      -0.00138172     0.000210662         -0.06864       0.0603208
281748                 0.0285546      -0.0232208      0.000147689      0.00138318         0.723976       -0.685406     -9.14077e-05     0.000134054
                     0.000182773      0.00134574        0.0131797      -0.0892541      2.79491e-05     1.79881e-05        -0.481076        0.863701
                         0.72412        -0.68543       1.4167e-05      1.7716e-05       -0.0245568       0.0281411      -0.00145675     0.000144402
                     -0.00015574     0.000186093        -0.481201        0.863973      -0.00138163     0.000211186       -0.0686309       0.0603704
281750                 0.0285523      -0.0232458      0.000148392      0.00138313         0.723698       -0.685699     -9.14329e-05     0.000134161
                     0.000183472      0.00134564        0.0131397      -0.0892867       2.7992e-05     1.80116e-05        -0.480655        0.863933
                        0.723842       -0.685723      1.41803e-05       1.775e-05       -0.0245592       0.0281575       -0.0014567      0.00014509
                    -0.000155643     0.000186217         -0.48078        0.864205      -0.00138154      0.00021171       -0.0686217         0.06042
281752                   0.02855      -0.0232709      0.000149096      0.00138308          0.72342       -0.685992     -9.14615e-05     0.000134277
                     0.000184179      0.00134554        0.0130997      -0.0893193       2.8035e-05     1.80351e-05        -0.480235        0.864165
                        0.723563       -0.686016      1.41932e-05      1.7784e-05       -0.0245615       0.0281739      -0.00145666     0.000145779
                    -0.000155541     0.000186344        -0.480359        0.864437      -0.00138145     0.000212234       -0.0686125       0.0604707
281754                 0.0285477      -0.0232959      0.000149799      0.00138303         0.723142       -0.686285     -9.14919e-05     0.000134397
                     0.000184852      0.00134544        0.0130596      -0.0893518       2.8078e-05     1.80587e-05        -0.479815        0.864396
                        0.723285       -0.686308      1.42059e-05     1.78178e-05       -0.0245638       0.0281904      -0.00145661     0.000146469
                     -0.00015546     0.000186465        -0.479939        0.864668      -0.00138136     0.000212758       -0.0686033       0.0605191
281756                 0.0285454      -0.0233209      0.000150502      0.00138298         0.722863       -0.686578     -9.15234e-05     0.000134518
                     0.000185554      0.00134534        0.0130195      -0.0893844      2.81211e-05     1.80824e-05        -0.479394        0.864627
                        0.723006       -0.686601      1.42183e-05     1.78516e-05        -0.024566       0.0282068      -0.00145658     0.000147151
                    -0.000155362     0.000186589        -0.479518        0.864899      -0.00138126     0.000213281        -0.068594       0.0605688
281758                 0.0285431       -0.023346      0.000151206      0.00138293         0.722585        -0.68687     -9.15555e-05      0.00013464
                     0.000186252      0.00134524        0.0129794      -0.0894169      2.81644e-05     1.81061e-05        -0.478973        0.864858
                        0.722728       -0.686893      1.42306e-05     1.78853e-05       -0.0245683       0.0282233      -0.00145654     0.000147804
                    -0.000155265     0.000186714        -0.479097         0.86513      -0.00138117     0.000213805       -0.0685847       0.0606184
281760                 0.0285407       -0.023371       0.00015191      0.00138288         0.722305        -0.68716     -9.15881e-05     0.000134763
                     0.000186949      0.00134514        0.0129393      -0.0894494      2.82081e-05     1.81299e-05        -0.478552        0.865089
                        0.722449       -0.687185      1.42427e-05     1.79189e-05       -0.0245706       0.0282398      -0.00145646     0.000148469
                    -0.000155169     0.000186838        -0.478676        0.865361      -0.00138107     0.000214329       -0.0685754       0.0606681
281762                 0.0285383      -0.0233961      0.000152613      0.00138282         0.722026       -0.687447     -9.16211e-05     0.000134887
                     0.000187645      0.00134503        0.0128992      -0.0894818      2.82524e-05      1.8154e-05        -0.478131        0.865319
                         0.72217       -0.687477      1.42547e-05     1.79526e-05       -0.0245729       0.0282563      -0.00145639     0.000149161
