! TOUCHSTONE file generated by CST MICROWAVE STUDIO
! Date and time: Tue Oct 14 07:30:49 2025
! Project name: Teste_Macro_Metasurface_Nanopilar.cst
! Parameters = {H=600; L_x=165; L_y=100; Lambda=1064; Max_L=200; Min_L=70; PathPara=1; Phi=0; Step_L=10; Theta=0; p=520; phaseX=180; phaseY=0}
! Header version: 2018
! Port assignment regex: !\s*Touchstone port\s*([0-9]+)\s*=\s*(CST MWS port|CST DS port)\s*([0-9]+|Zmin|Zmax)\s*\(\"(.*)\"\)(\s*mode\s*([0-9]+))?.*
! Touchstone port assignment:
! Touchstone port 1 = CST MWS port Zmax ("") mode 1
! Touchstone port 2 = CST MWS port Zmax ("") mode 2
! Touchstone port 3 = CST MWS port Zmin ("") mode 1
! Touchstone port 4 = CST MWS port Zmin ("") mode 2
! S-Parameters are not renormalized. Each port impedance will be approximated by the real part at minimum frequency. The values are described via the [Reference] keyword.
! Default impedance is overridden by [Reference]
[Version] 2.0
# GHz S RI R 376.73
[Number of Ports] 4
[Reference]
376.73 376.73 259.814 259.814 
[Number of Frequencies] 51
[Network Data]
281700                 -0.144617       -0.116879      0.000648255    -0.000219849        -0.375806       -0.900069        0.0003814     0.000486232
                     0.000620301    -0.000223457        -0.125941       -0.253085      0.000449493     0.000325562         0.446996         0.84272
                       -0.375569       -0.899705      0.000332312     0.000400279       -0.0176376        0.184405     -0.000253873     0.000370032
                     0.000147296     0.000597933         0.447035        0.842594      -0.00032813     0.000392901         0.140433        0.243209
281702                 -0.144669       -0.116831      0.000648198    -0.000220166        -0.376247       -0.899882       0.00038172     0.000485819
                     0.000620257    -0.000223743        -0.126037       -0.253091      0.000449821     0.000325905         0.447384        0.842498
                       -0.376009       -0.899518      0.000332522     0.000400184        -0.017528        0.184426     -0.000253869     0.000370167
                      0.00014766     0.000597774         0.447424        0.842371     -0.000328108     0.000392783         0.140614        0.243159
281704                 -0.144721       -0.116782      0.000648142    -0.000220483        -0.376687       -0.899695      0.000382039     0.000485405
                     0.000620212    -0.000224029        -0.126133       -0.253097      0.000450148     0.000326249         0.447772        0.842275
                       -0.376449        -0.89933      0.000332732     0.000400089       -0.0174183        0.184446     -0.000253865     0.000370303
                     0.000148024     0.000597615         0.447812        0.842149     -0.000328085     0.000392665         0.140795        0.243109
281706                 -0.144773       -0.116734      0.000648085      -0.0002208        -0.377127       -0.899508      0.000382358     0.000484992
                     0.000620167    -0.000224315        -0.126229       -0.253103      0.000450473     0.000326592         0.448161        0.842052
                       -0.376889       -0.899143      0.000332942     0.000399994       -0.0173086        0.184467      -0.00025386     0.000370439
                     0.000148388     0.000597455           0.4482        0.841926     -0.000328061     0.000392546         0.140976        0.243059
281708                 -0.144825       -0.116685      0.000648028    -0.000221117        -0.377568        -0.89932      0.000382677     0.000484577
                     0.000620122    -0.000224601        -0.126325       -0.253109      0.000450797     0.000326937         0.448549        0.841829
                       -0.377328       -0.898955      0.000333152     0.000399898       -0.0171989        0.184487     -0.000253856     0.000370575
                     0.000148752     0.000597295         0.448588        0.841703     -0.000328035     0.000392428         0.141157        0.243009
281710                 -0.144878       -0.116637      0.000647971    -0.000221435        -0.378008       -0.899133      0.000382996     0.000484162
                     0.000620077    -0.000224888        -0.126421       -0.253115      0.000451118     0.000327281         0.448937        0.841606
                       -0.377768       -0.898767      0.000333362     0.000399802       -0.0170892        0.184508     -0.000253852     0.000370712
                     0.000149116     0.000597135         0.448976         0.84148     -0.000328009     0.000392309         0.141338        0.242959
281712                  -0.14493       -0.116588      0.000647914    -0.000221752        -0.378448       -0.898945      0.000383315     0.000483746
                     0.000620032    -0.000225174        -0.126517       -0.253121      0.000451438     0.000327626         0.449325        0.841382
                       -0.378207       -0.898579      0.000333572     0.000399706       -0.0169795        0.184528     -0.000253849     0.000370849
                     0.000149479     0.000596974         0.449364        0.841256     -0.000327981      0.00039219         0.141519        0.242909
281714                 -0.144982        -0.11654      0.000647857    -0.000222069        -0.378888       -0.898757      0.000383633      0.00048333
                     0.000619987     -0.00022546        -0.126614       -0.253127      0.000451757     0.000327971         0.449712        0.841158
                       -0.378647       -0.898391      0.000333782      0.00039961       -0.0168697        0.184548     -0.000253845     0.000370987
                     0.000149843     0.000596813         0.449751        0.841033     -0.000327952     0.000392071           0.1417        0.242858
281716                 -0.145034       -0.116491      0.000647799    -0.000222387        -0.379328       -0.898569      0.000383952     0.000482913
                     0.000619942    -0.000225746         -0.12671       -0.253133      0.000452073     0.000328316           0.4501        0.840934
                       -0.379086       -0.898202      0.000333993     0.000399513       -0.0167599        0.184568     -0.000253841     0.000371125
                     0.000150207     0.000596652         0.450139        0.840809     -0.000327923     0.000391952         0.141881        0.242807
281718                 -0.145086       -0.116443      0.000647742    -0.000222705        -0.379768        -0.89838       0.00038427     0.000482496
                     0.000619897    -0.000226032        -0.126806       -0.253139      0.000452388     0.000328662         0.450488         0.84071
                       -0.379525       -0.898014      0.000334203     0.000399416       -0.0166501        0.184588     -0.000253837     0.000371264
                     0.000150571     0.000596491         0.450526        0.840585     -0.000327891     0.000391832         0.142062        0.242757
281720                 -0.145138       -0.116394      0.000647684    -0.000223022        -0.380207       -0.898191      0.000384588     0.000482078
                     0.000619852    -0.000226319        -0.126902       -0.253145      0.000452701     0.000329008         0.450875        0.840486
                       -0.379964       -0.897825      0.000334413     0.000399319       -0.0165403        0.184608     -0.000253833     0.000371402
                     0.000150935     0.000596329         0.450914        0.840361     -0.000327859     0.000391713         0.142243        0.242706
281722                  -0.14519       -0.116346      0.000647627     -0.00022334        -0.380647       -0.898002      0.000384905     0.000481659
                     0.000619807    -0.000226605        -0.126998       -0.253151      0.000453012     0.000329354         0.451263        0.840261
                       -0.380403       -0.897635      0.000334623     0.000399221       -0.0164305        0.184628     -0.000253829     0.000371542
                     0.000151298     0.000596167         0.451301        0.840136     -0.000327826     0.000391593         0.142425        0.242655
281724                 -0.145242       -0.116297      0.000647569    -0.000223658        -0.381086       -0.897813      0.000385223      0.00048124
                     0.000619762    -0.000226891        -0.127094       -0.253156      0.000453322       0.0003297          0.45165        0.840037
                       -0.380842       -0.897446      0.000334834     0.000399124       -0.0163206        0.184648     -0.000253825     0.000371681
                     0.000151662     0.000596005         0.451688        0.839912     -0.000327792     0.000391473         0.142606        0.242604
281726                 -0.145294       -0.116248      0.000647511    -0.000223977        -0.381526       -0.897624       0.00038554      0.00048082
                     0.000619716    -0.000227178        -0.127191       -0.253162       0.00045363     0.000330047         0.452037        0.839812
                       -0.381281       -0.897256      0.000335044     0.000399026       -0.0162107        0.184668     -0.000253822     0.000371821
                     0.000152026     0.000595843         0.452075        0.839687     -0.000327756     0.000391353         0.142787        0.242553
281728                 -0.145346       -0.116199      0.000647453    -0.000224295        -0.381965       -0.897434      0.000385857       0.0004804
                     0.000619671    -0.000227464        -0.127287       -0.253168      0.000453936     0.000330393         0.452424        0.839587
                        -0.38172       -0.897066      0.000335254     0.000398927       -0.0161008        0.184688     -0.000253818     0.000371962
                     0.000152389      0.00059568         0.452462        0.839462     -0.000327719     0.000391233         0.142968        0.242501
281730                 -0.145398       -0.116151      0.000647395    -0.000224613        -0.382404       -0.897245      0.000386174     0.000479979
                     0.000619626    -0.000227751        -0.127383       -0.253174      0.000454241      0.00033074         0.452811        0.839361
                       -0.382158       -0.896876      0.000335464     0.000398829       -0.0159909        0.184708     -0.000253814     0.000372103
                     0.000152753     0.000595517         0.452849        0.839237     -0.000327682     0.000391113         0.143149         0.24245
281732                  -0.14545       -0.116102      0.000647337    -0.000224932        -0.382844       -0.897055       0.00038649     0.000479558
                      0.00061958    -0.000228037        -0.127479        -0.25318      0.000454544     0.000331087         0.453198        0.839136
                       -0.382597       -0.896686      0.000335675      0.00039873       -0.0158809        0.184727      -0.00025381     0.000372244
                     0.000153116     0.000595354         0.453236        0.839012     -0.000327643     0.000390993          0.14333        0.242398
281734                 -0.145502       -0.116053      0.000647279    -0.000225251        -0.383283       -0.896864      0.000386807     0.000479136
                     0.000619535    -0.000228324        -0.127576       -0.253185      0.000454845     0.000331435         0.453585         0.83891
                       -0.383035       -0.896495      0.000335885     0.000398631        -0.015771        0.184747     -0.000253807     0.000372386
                      0.00015348      0.00059519         0.453622        0.838786     -0.000327603     0.000390872         0.143511        0.242347
281736                 -0.145554       -0.116004      0.000647221    -0.000225569        -0.383722       -0.896674      0.000387123     0.000478713
                     0.000619489     -0.00022861        -0.127672       -0.253191      0.000455145     0.000331782         0.453972        0.838684
                       -0.383474       -0.896305      0.000336095     0.000398531        -0.015661        0.184766     -0.000253803     0.000372528
                     0.000153843     0.000595027         0.454009         0.83856     -0.000327562     0.000390752         0.143693        0.242295
281738                 -0.145606       -0.115956      0.000647162    -0.000225888        -0.384161       -0.896483      0.000387439      0.00047829
                     0.000619444    -0.000228897        -0.127769       -0.253197      0.000455443      0.00033213         0.454358        0.838458
                       -0.383912       -0.896114      0.000336306     0.000398432        -0.015551        0.184786     -0.000253799      0.00037267
                     0.000154207     0.000594863         0.454395        0.838335      -0.00032752     0.000390632         0.143874        0.242243
281740                 -0.145658       -0.115907      0.000647103    -0.000226207          -0.3846       -0.896292      0.000387755     0.000477866
                     0.000619398    -0.000229184        -0.127865       -0.253202      0.000455739     0.000332478         0.454745        0.838232
                        -0.38435       -0.895923      0.000336516     0.000398332       -0.0154409        0.184805     -0.000253796     0.000372813
                      0.00015457     0.000594699         0.454782        0.838108     -0.000327477     0.000390511         0.144055        0.242191
281742                 -0.145709       -0.115858      0.000647045    -0.000226527        -0.385038       -0.896101       0.00038807     0.000477442
                     0.000619352    -0.000229471        -0.127961       -0.253208      0.000456034     0.000332825         0.455131        0.838006
                       -0.384789       -0.895731      0.000336726     0.000398232       -0.0153309        0.184824     -0.000253792     0.000372956
                     0.000154934     0.000594534         0.455168        0.837882     -0.000327432      0.00039039         0.144236        0.242138
281744                 -0.145761       -0.115809      0.000646986    -0.000226846        -0.385477        -0.89591      0.000388385     0.000477017
                     0.000619307    -0.000229757        -0.128058       -0.253214      0.000456327     0.000333173         0.455517        0.837779
                       -0.385227        -0.89554      0.000336937     0.000398131       -0.0152208        0.184843     -0.000253788       0.0003731
                     0.000155297     0.000594369         0.455554        0.837656     -0.000327387      0.00039027         0.144417        0.242086
281746                 -0.145813        -0.11576      0.000646927    -0.000227165        -0.385916       -0.895718        0.0003887     0.000476592
                     0.000619261    -0.000230044        -0.128154       -0.253219      0.000456618     0.000333522         0.455903        0.837552
                       -0.385665       -0.895348      0.000337147      0.00039803       -0.0151107        0.184862     -0.000253785     0.000373244
                      0.00015566     0.000594204          0.45594        0.837429     -0.000327341     0.000390149         0.144599        0.242034
281748                 -0.145865       -0.115711      0.000646868    -0.000227485        -0.386354       -0.895527      0.000389015     0.000476165
                     0.000619216    -0.000230331        -0.128251       -0.253225      0.000456908      0.00033387         0.456289        0.837325
                       -0.386102       -0.895156      0.000337358      0.00039793       -0.0150006        0.184882     -0.000253781     0.000373389
                     0.000156024     0.000594039         0.456326        0.837202     -0.000327293     0.000390028          0.14478        0.241981
281750                 -0.145917       -0.115662      0.000646809    -0.000227805        -0.386792       -0.895335       0.00038933     0.000475739
                      0.00061917    -0.000230619        -0.128347        -0.25323      0.000457197     0.000334218         0.456675        0.837098
                        -0.38654       -0.894963      0.000337568     0.000397828       -0.0148905        0.184901     -0.000253777     0.000373533
                     0.000156387     0.000593873         0.456712        0.836975     -0.000327245     0.000389907         0.144961        0.241928
281752                 -0.145969       -0.115613      0.000646749    -0.000228125        -0.387231       -0.895143      0.000389644     0.000475312
                     0.000619125    -0.000230906        -0.128444       -0.253236      0.000457484     0.000334566         0.457061         0.83687
                       -0.386978       -0.894771      0.000337778     0.000397727       -0.0147804        0.184919     -0.000253774     0.000373679
                      0.00015675     0.000593708         0.457097        0.836748     -0.000327196     0.000389786         0.145142        0.241876
281754                  -0.14602       -0.115564       0.00064669    -0.000228445        -0.387669        -0.89495      0.000389958     0.000474884
                     0.000619082    -0.000231195         -0.12854       -0.253241      0.000457769     0.000334915         0.457447        0.836643
                       -0.387415       -0.894578      0.000337989     0.000397625       -0.0146702        0.184938      -0.00025377     0.000373825
                     0.000157113     0.000593541         0.457483         0.83652     -0.000327145     0.000389665         0.145324        0.241823
281756                 -0.146072       -0.115515       0.00064663    -0.000228765        -0.388107       -0.894758      0.000390272     0.000474455
                     0.000619028    -0.000231494        -0.128637       -0.253247      0.000458053     0.000335263         0.457833        0.836415
                       -0.387853       -0.894385      0.000338199     0.000397523         -0.01456        0.184957     -0.000253767     0.000373971
                     0.000157477     0.000593375         0.457868        0.836293     -0.000327094     0.000389545         0.145505         0.24177
281758                 -0.146124       -0.115466       0.00064657    -0.000229085        -0.388545       -0.894565      0.000390586     0.000474026
                     0.000618979     -0.00023177        -0.128734       -0.253252      0.000458336     0.000335611         0.458218        0.836187
                       -0.388291       -0.894192       0.00033841     0.000397421       -0.0144498        0.184976     -0.000253763     0.000374117
                     0.000157839     0.000593207         0.458254        0.836065     -0.000327042     0.000389424         0.145686        0.241717
281760                 -0.146175       -0.115417      0.000646511    -0.000229406        -0.388983       -0.894372      0.000390899     0.000473597
                     0.000618934    -0.000232056         -0.12883       -0.253258      0.000458618     0.000335959         0.458604        0.835959
                       -0.388728       -0.893999       0.00033862     0.000397319       -0.0143396        0.184994      -0.00025376     0.000374264
                     0.000158198     0.000593045         0.458639        0.835837     -0.000326989     0.000389303         0.145867        0.241663
281762                 -0.146227       -0.115367      0.000646451    -0.000229726        -0.389421       -0.894178      0.000391212     0.000473167
                     0.000618889    -0.000232343        -0.128927       -0.253263      0.000458899     0.000336307         0.458989        0.835731
                       -0.389165       -0.893805      0.000338831     0.000397216       -0.0142293        0.185013     -0.000253756     0.000374412
