! TOUCHSTONE file generated by CST MICROWAVE STUDIO
! Date and time: Tue Oct 14 07:32:24 2025
! Project name: Teste_Macro_Metasurface_Nanopilar.cst
! Parameters = {H=600; L_x=190; L_y=105; Lambda=1064; Max_L=200; Min_L=70; PathPara=1; Phi=0; Step_L=10; Theta=0; p=520; phaseX=180; phaseY=0}
! Header version: 2018
! Port assignment regex: !\s*Touchstone port\s*([0-9]+)\s*=\s*(CST MWS port|CST DS port)\s*([0-9]+|Zmin|Zmax)\s*\(\"(.*)\"\)(\s*mode\s*([0-9]+))?.*
! Touchstone port assignment:
! Touchstone port 1 = CST MWS port Zmax ("") mode 1
! Touchstone port 2 = CST MWS port Zmax ("") mode 2
! Touchstone port 3 = CST MWS port Zmin ("") mode 1
! Touchstone port 4 = CST MWS port Zmin ("") mode 2
! S-Parameters are not renormalized. Each port impedance will be approximated by the real part at minimum frequency. The values are described via the [Reference] keyword.
! Default impedance is overridden by [Reference]
[Version] 2.0
# GHz S RI R 376.73
[Number of Ports] 4
[Reference]
376.73 376.73 259.814 259.814 
[Number of Frequencies] 51
[Network Data]
281700                 -0.148543       0.0120509      0.000329595    -4.76532e-05        -0.971369        0.134106     -0.000253092    -8.33594e-06
                     0.000368111    -0.000125469        -0.299424        0.314274     -0.000266818    -0.000118659         0.272582        0.847171
                       -0.970622        0.133707      -0.00014334    -8.87146e-05         0.144572      -0.0264395      0.000206815     0.000512968
                    -0.000177269     0.000116271         0.272146        0.847161      0.000115651     0.000173555        -0.415487      -0.0974879
281702                  -0.14852       0.0120947      0.000329528    -4.79429e-05        -0.971303        0.134606     -0.000253062    -8.48743e-06
                     0.000368012     -0.00012579        -0.299213        0.314269     -0.000266691    -0.000118653         0.273085        0.847088
                       -0.970556        0.134208     -0.000143456    -8.85717e-05         0.144532      -0.0265404      0.000206931     0.000512514
                    -0.000177027     0.000116283          0.27265        0.847079      0.000115822     0.000173683         -0.41542      -0.0971214
281704                 -0.148496       0.0121384      0.000329463    -4.82336e-05        -0.971236        0.135107     -0.000253033    -8.63808e-06
                     0.000367914    -0.000126111        -0.299002        0.314264     -0.000266563    -0.000118645         0.273588        0.847005
                        -0.97049        0.134709     -0.000143571    -8.84286e-05         0.144493      -0.0266411      0.000207044     0.000512061
                    -0.000176786     0.000116295         0.273154        0.846997      0.000115992     0.000173811        -0.415353       -0.096755
281706                 -0.148472       0.0121822        0.0003294     -4.8525e-05        -0.971169        0.135608     -0.000253005    -8.78783e-06
                     0.000367815    -0.000126431        -0.298791        0.314259     -0.000266434    -0.000118636         0.274092        0.846922
                       -0.970424         0.13521     -0.000143687    -8.82854e-05         0.144453      -0.0267419      0.000207156     0.000511607
                    -0.000176546     0.000116306         0.273658        0.846914      0.000116162      0.00017394        -0.415286      -0.0963888
281708                 -0.148448       0.0122259      0.000329339    -4.88168e-05        -0.971102        0.136108     -0.000252979    -8.93663e-06
                     0.000367716     -0.00012675        -0.298581        0.314253     -0.000266305    -0.000118626         0.274595        0.846838
                       -0.970357         0.13571     -0.000143802    -8.81419e-05         0.144414      -0.0268426      0.000207266     0.000511153
                    -0.000176306     0.000116317         0.274162        0.846832      0.000116332     0.000174069        -0.415218      -0.0960229
281710                 -0.148424       0.0122695      0.000329279    -4.91086e-05        -0.971034        0.136609     -0.000252954    -9.08444e-06
                     0.000367617    -0.000127069         -0.29837        0.314248     -0.000266176    -0.000118614         0.275098        0.846754
                        -0.97029        0.136211     -0.000143916    -8.79983e-05         0.144374      -0.0269433      0.000207373     0.000510699
                    -0.000176067     0.000116328         0.274666        0.846748      0.000116501     0.000174198        -0.415151      -0.0956572
281712                   -0.1484       0.0123132      0.000329219    -4.94005e-05        -0.970967        0.137109     -0.000252931    -9.23118e-06
                     0.000367518    -0.000127386         -0.29816        0.314242     -0.000266047    -0.000118602         0.275601        0.846669
                       -0.970223        0.136712     -0.000144031    -8.78546e-05         0.144334       -0.027044      0.000207479     0.000510245
                    -0.000175828     0.000116339         0.275169        0.846665       0.00011667     0.000174328        -0.415083      -0.0952916
281714                 -0.148376       0.0123569      0.000329161    -4.96923e-05        -0.970899         0.13761     -0.000252909    -9.37681e-06
                     0.000367419    -0.000127703        -0.297949        0.314237     -0.000265917    -0.000118589         0.276103        0.846584
                       -0.970156        0.137213     -0.000144145    -8.77107e-05         0.144294      -0.0271446      0.000207582     0.000509791
                     -0.00017559     0.000116349         0.275673        0.846581      0.000116839     0.000174458        -0.415015      -0.0949263
281716                 -0.148352       0.0124005      0.000329103    -4.99839e-05         -0.97083         0.13811     -0.000252889    -9.52125e-06
                      0.00036732    -0.000128019        -0.297739        0.314231     -0.000265786    -0.000118574         0.276606        0.846499
                       -0.970088        0.137713     -0.000144259    -8.75667e-05         0.144254      -0.0272451      0.000207684     0.000509336
                    -0.000175352     0.000116359         0.276176        0.846496      0.000117007     0.000174588        -0.414946      -0.0945612
281718                 -0.148328       0.0124441      0.000329045    -5.02753e-05        -0.970762        0.138611      -0.00025287    -9.66444e-06
                     0.000367221    -0.000128335        -0.297529        0.314225     -0.000265656    -0.000118558         0.277109        0.846414
                        -0.97002        0.138214     -0.000144374    -8.74225e-05         0.144214      -0.0273457      0.000207783     0.000508882
                    -0.000175115     0.000116369         0.276679        0.846412      0.000117176     0.000174719        -0.414877      -0.0941963
281720                 -0.148304       0.0124877      0.000328987    -5.05664e-05        -0.970693        0.139111     -0.000252853    -9.80631e-06
                     0.000367121    -0.000128649        -0.297319        0.314219     -0.000265525    -0.000118542         0.277611        0.846328
                       -0.969952        0.138715     -0.000144487    -8.72783e-05         0.144174      -0.0274461      0.000207879     0.000508428
                    -0.000174879     0.000116379         0.277183        0.846327      0.000117344      0.00017485        -0.414808      -0.0938316
281722                  -0.14828       0.0125312       0.00032893    -5.08573e-05        -0.970624        0.139611     -0.000252838    -9.94679e-06
                     0.000367021    -0.000128963        -0.297109        0.314213     -0.000265393    -0.000118524         0.278113        0.846242
                       -0.969884        0.139215     -0.000144601    -8.71341e-05         0.144134      -0.0275466      0.000207974     0.000507973
                    -0.000174643     0.000116388         0.277686        0.846242      0.000117512     0.000174981        -0.414739      -0.0934671
281724                 -0.148255       0.0125748      0.000328873     -5.1148e-05        -0.970555        0.140112     -0.000252824    -1.00858e-05
                     0.000366921    -0.000129277        -0.296899        0.314207     -0.000265262    -0.000118505         0.278616        0.846156
                       -0.969815        0.139716     -0.000144715    -8.69897e-05         0.144094       -0.027647      0.000208066     0.000507519
                    -0.000174407     0.000116397         0.278189        0.846156      0.000117679     0.000175113        -0.414669      -0.0931028
281726                 -0.148231       0.0126183      0.000328815    -5.14384e-05        -0.970485        0.140612     -0.000252812    -1.02232e-05
                     0.000366821    -0.000129589         -0.29669        0.314201      -0.00026513    -0.000118485         0.279118        0.846069
                       -0.969746        0.140216     -0.000144828    -8.68454e-05         0.144054      -0.0277474      0.000208155     0.000507065
                    -0.000174172     0.000116406         0.278692         0.84607      0.000117846     0.000175245          -0.4146      -0.0927387
281728                 -0.148207       0.0126618      0.000328758    -5.17285e-05        -0.970415        0.141112     -0.000252801     -1.0359e-05
                     0.000366721    -0.000129901         -0.29648        0.314194     -0.000264998    -0.000118464          0.27962        0.845982
                       -0.969677        0.140717     -0.000144941     -8.6701e-05         0.144013      -0.0278477      0.000208242      0.00050661
                    -0.000173938     0.000116414         0.279195        0.845984      0.000118013     0.000175377         -0.41453      -0.0923749
281730                 -0.148183       0.0127053        0.0003287    -5.20184e-05        -0.970345        0.141612     -0.000252793    -1.04931e-05
                      0.00036662    -0.000130212        -0.296271        0.314188     -0.000264865    -0.000118441         0.280122        0.845894
                       -0.969608        0.141217     -0.000145054    -8.65565e-05         0.143973       -0.027948      0.000208326     0.000506156
                    -0.000173705     0.000116422         0.279697        0.845897       0.00011818      0.00017551        -0.414459      -0.0920112
281732                 -0.148159       0.0127488      0.000328643    -5.23079e-05        -0.970275        0.142112     -0.000252786    -1.06253e-05
                     0.000366519    -0.000130523        -0.296062        0.314181     -0.000264732    -0.000118417         0.280624        0.845806
                       -0.969538        0.141717     -0.000145167    -8.64121e-05         0.143933      -0.0280483      0.000208407     0.000505701
                    -0.000173472      0.00011643           0.2802         0.84581      0.000118347     0.000175643        -0.414389      -0.0916478
281734                 -0.148135       0.0127922      0.000328585    -5.25973e-05        -0.970204        0.142612      -0.00025278    -1.07556e-05
                     0.000366419    -0.000130832        -0.295853        0.314175     -0.000264599    -0.000118392         0.281126        0.845718
                       -0.969468        0.142218      -0.00014528    -8.62677e-05         0.143892      -0.0281485      0.000208486     0.000505247
                    -0.000173239     0.000116438         0.280703        0.845723      0.000118513     0.000175777        -0.414318      -0.0912845
281736                 -0.148111       0.0128356      0.000328527    -5.28863e-05        -0.970135        0.143113     -0.000252777    -1.08839e-05
                     0.000366318    -0.000131141        -0.295644        0.314168     -0.000264465    -0.000118365         0.281627         0.84563
                       -0.969398        0.142718     -0.000145392    -8.61233e-05         0.143851      -0.0282487      0.000208561     0.000504793
                    -0.000173007     0.000116445         0.281205        0.845635      0.000118679     0.000175912        -0.414247      -0.0909215
281738                 -0.148087       0.0128791      0.000328468    -5.31751e-05        -0.970062        0.143612     -0.000252775      -1.101e-05
                     0.000366218     -0.00013145        -0.295435        0.314161     -0.000264329    -0.000118338         0.282129        0.845541
                       -0.969328        0.143218     -0.000145505     -8.5979e-05          0.14381      -0.0283488      0.000208634     0.000504339
                    -0.000172776     0.000116451         0.281707        0.845547      0.000118845     0.000176047        -0.414175      -0.0905587
281740                 -0.148062       0.0129224      0.000328409    -5.34636e-05         -0.96999        0.144112     -0.000252775    -1.11338e-05
                     0.000366119    -0.000131758        -0.295226        0.314155     -0.000264193    -0.000118309          0.28263        0.845452
                       -0.969257        0.143719     -0.000145617    -8.58346e-05          0.14377      -0.0284489      0.000208703     0.000503885
                    -0.000172545     0.000116458         0.282209        0.845459      0.000119011     0.000176185        -0.414104      -0.0901961
281742                 -0.148038       0.0129658       0.00032835    -5.37519e-05        -0.969919        0.144612     -0.000252776    -1.12553e-05
                     0.000366022    -0.000132067        -0.295017        0.314148     -0.000264057     -0.00011828         0.283132        0.845362
                       -0.969186        0.144219     -0.000145729    -8.56904e-05         0.143729       -0.028549      0.000208769     0.000503431
                    -0.000172315     0.000116464         0.282712         0.84537      0.000119188     0.000176341        -0.414032      -0.0898337
281744                 -0.148014       0.0130092      0.000328291    -5.40399e-05        -0.969847        0.145112      -0.00025278    -1.13742e-05
                     0.000365931    -0.000132386        -0.294809         0.31414      -0.00026392    -0.000118251         0.283633        0.845272
                       -0.969115        0.144719     -0.000145841    -8.55462e-05         0.143688       -0.028649      0.000208832     0.000502977
                    -0.000172085     0.000116469         0.283214        0.845281      0.000119343     0.000176427         -0.41396      -0.0894715
281746                  -0.14799       0.0130525      0.000328231    -5.43276e-05        -0.969775        0.145612     -0.000252785    -1.14905e-05
                     0.000365811    -0.000132727          -0.2946        0.314133     -0.000263783     -0.00011822         0.284134        0.845182
                       -0.969043        0.145219     -0.000145953    -8.54021e-05         0.143647       -0.028749      0.000208891     0.000502524
                    -0.000171855     0.000116473         0.283715        0.845192      0.000119504     0.000176574        -0.413887      -0.0891095
281748                 -0.147965       0.0130958      0.000328171    -5.46151e-05        -0.969702        0.146112     -0.000252791    -1.16039e-05
                     0.000365678    -0.000133017        -0.294392        0.314126     -0.000263645    -0.000118188         0.284635        0.845092
                       -0.968972         0.14572     -0.000146064     -8.5258e-05         0.143606      -0.0288489      0.000208946     0.000502071
                    -0.000171627     0.000116476         0.284217        0.845102      0.000119668     0.000176713        -0.413815      -0.0887478
281750                 -0.147941       0.0131391      0.000328111    -5.49023e-05        -0.969629        0.146612       -0.0002528    -1.17144e-05
                     0.000365573    -0.000133309        -0.294184        0.314119     -0.000263507    -0.000118156         0.285136        0.845001
                         -0.9689        0.146219     -0.000146176    -8.51141e-05         0.143565      -0.0289488      0.000208998     0.000501619
                      -0.0001714     0.000116477         0.284719        0.845012      0.000119832      0.00017685        -0.413742      -0.0883862
281752                 -0.147917       0.0131824       0.00032805    -5.51892e-05        -0.969557        0.147111      -0.00025281    -1.18216e-05
                     0.000365469    -0.000133608        -0.293976        0.314111     -0.000263369    -0.000118123         0.285637         0.84491
                       -0.968827        0.146719     -0.000146287    -8.49702e-05         0.143524      -0.0290487      0.000209045     0.000501166
                    -0.000171179     0.000116477         0.285221        0.844922      0.000119996     0.000176987        -0.413669      -0.0880249
281754                 -0.147893       0.0132256      0.000327989    -5.54759e-05        -0.969483        0.147611     -0.000252821    -1.19255e-05
                     0.000365365     -0.00013391        -0.293768        0.314104      -0.00026323    -0.000118088         0.286138        0.844818
                       -0.968755        0.147219     -0.000146398    -8.48265e-05         0.143482      -0.0291485      0.000209089     0.000500715
                     -0.00017096     0.000116484         0.285722        0.844831       0.00012016     0.000177125        -0.413595      -0.0876638
281756                 -0.147869       0.0132689      0.000327928    -5.57623e-05         -0.96941        0.148111     -0.000252834    -1.20256e-05
                      0.00036526    -0.000134212         -0.29356        0.314096     -0.000263091    -0.000118053         0.286638        0.844726
                       -0.968682        0.147719      -0.00014651    -8.46828e-05         0.143441      -0.0292483      0.000209128     0.000500264
                    -0.000170736     0.000116494         0.286223         0.84474      0.000120323     0.000177262        -0.413522      -0.0873028
281758                 -0.147844       0.0133121      0.000327866    -5.60484e-05        -0.969336         0.14861     -0.000252848    -1.21217e-05
                     0.000365155    -0.000134514        -0.293353        0.314088     -0.000262951    -0.000118017         0.287139        0.844634
                       -0.968609        0.148219      -0.00014662    -8.45392e-05         0.143399      -0.0293481      0.000209162     0.000499813
                     -0.00017051       0.0001165         0.286725        0.844649      0.000120486       0.0001774        -0.413448      -0.0869421
281760                  -0.14782       0.0133553      0.000327804    -5.63342e-05        -0.969262         0.14911     -0.000252864    -1.22131e-05
                     0.000365049    -0.000134816        -0.293145        0.314081     -0.000262811     -0.00011798         0.287639        0.844542
                       -0.968536        0.148719     -0.000146731    -8.43958e-05         0.143358      -0.0294478       0.00020919     0.000499364
                    -0.000170285     0.000116504         0.287226        0.844557      0.000120648     0.000177539        -0.413373      -0.0865816
281762                 -0.147796       0.0133984      0.000327741    -5.66197e-05        -0.969188        0.149609      -0.00025288     -1.2299e-05
                     0.000364942    -0.000135117        -0.292938        0.314073      -0.00026267    -0.000117941          0.28814        0.844449
                       -0.968463        0.149219     -0.000146842    -8.42524e-05         0.143316      -0.0295475      0.000209211     0.000498915
