! TOUCHSTONE file generated by CST MICROWAVE STUDIO
! Date and time: Tue Oct 14 07:27:42 2025
! Project name: Teste_Macro_Metasurface_Nanopilar.cst
! Parameters = {H=600; L_x=115; L_y=120; Lambda=1064; Max_L=200; Min_L=70; PathPara=1; Phi=0; Step_L=10; Theta=0; p=520; phaseX=180; phaseY=0}
! Header version: 2018
! Port assignment regex: !\s*Touchstone port\s*([0-9]+)\s*=\s*(CST MWS port|CST DS port)\s*([0-9]+|Zmin|Zmax)\s*\(\"(.*)\"\)(\s*mode\s*([0-9]+))?.*
! Touchstone port assignment:
! Touchstone port 1 = CST MWS port Zmax ("") mode 1
! Touchstone port 2 = CST MWS port Zmax ("") mode 2
! Touchstone port 3 = CST MWS port Zmin ("") mode 1
! Touchstone port 4 = CST MWS port Zmin ("") mode 2
! S-Parameters are not renormalized. Each port impedance will be approximated by the real part at minimum frequency. The values are described via the [Reference] keyword.
! Default impedance is overridden by [Reference]
[Version] 2.0
# GHz S RI R 376.73
[Number of Ports] 4
[Reference]
376.73 376.73 259.814 259.814 
[Number of Frequencies] 51
[Network Data]
281700                 -0.103932       0.0696695       0.00040146    -0.000548035        -0.956997       -0.222559     -1.42229e-05     7.36324e-05
                     0.000265223    -0.000788863        -0.159574       0.0301046     -0.000200561     0.000131496        -0.792325       -0.572611
                       -0.956867       -0.222487     -0.000225753     3.18501e-05        0.0600993        0.108542      0.000202076    -0.000602258
                    -0.000142871     0.000306631        -0.792387        -0.57272      0.000256551    -0.000701656        0.0202976        0.160125
281702                 -0.103886       0.0696957      0.000401276    -0.000548269        -0.957118       -0.222049     -1.42176e-05     7.36448e-05
                        0.000265    -0.000788743        -0.159551       0.0301647     -0.000200696     0.000131272        -0.792628       -0.572195
                       -0.956989       -0.221978     -0.000225794       3.205e-05        0.0601614         0.10848      0.000201811    -0.000602338
                    -0.000142762     0.000306638        -0.792689       -0.572305      0.000256514    -0.000701495        0.0204015          0.1601
281704                 -0.103839       0.0697219      0.000401091    -0.000548503        -0.957239       -0.221539     -1.42123e-05     7.36573e-05
                     0.000264776    -0.000788623        -0.159528       0.0302247     -0.000200833     0.000131048         -0.79293       -0.571779
                        -0.95711       -0.221468     -0.000225834     3.22503e-05        0.0602236        0.108418      0.000201547    -0.000602417
                    -0.000142652     0.000306645        -0.792991       -0.571889      0.000256478    -0.000701329        0.0205054        0.160075
281706                 -0.103793       0.0697481      0.000400907    -0.000548737         -0.95736       -0.221029     -1.42071e-05     7.36701e-05
                     0.000264551    -0.000788504        -0.159506       0.0302847     -0.000200971     0.000130822        -0.793231       -0.571363
                       -0.957231       -0.220958     -0.000225875     3.24508e-05        0.0602856        0.108357      0.000201282    -0.000602496
                    -0.000142541     0.000306652        -0.793293       -0.571473      0.000256441    -0.000701158        0.0206092        0.160051
281708                 -0.103747       0.0697743      0.000400722    -0.000548971        -0.957481       -0.220519     -1.42019e-05     7.36831e-05
                     0.000264327    -0.000788385        -0.159483       0.0303447     -0.000201111     0.000130596        -0.793533       -0.570946
                       -0.957351       -0.220448     -0.000225916     3.26517e-05        0.0603476        0.108295      0.000201018    -0.000602575
                    -0.000142431     0.000306659        -0.793595       -0.571057      0.000256404    -0.000700981        0.0207131        0.160026
281710                   -0.1037       0.0698004      0.000400537    -0.000549205        -0.957601       -0.220009     -1.41968e-05     7.36962e-05
                     0.000264102    -0.000788266         -0.15946       0.0304047     -0.000201253     0.000130367        -0.793834        -0.57053
                       -0.957472       -0.219937     -0.000225956     3.28528e-05        0.0604096        0.108233      0.000200754    -0.000602653
                    -0.000142319     0.000306666        -0.793896        -0.57064      0.000256367    -0.000700799        0.0208169        0.160001
281712                 -0.103654       0.0698265      0.000400351    -0.000549439        -0.957721       -0.219498     -1.41917e-05     7.37096e-05
                     0.000263878    -0.000788148        -0.159437       0.0304647     -0.000201395     0.000130137        -0.794135       -0.570113
                       -0.957592       -0.219427     -0.000225996     3.30543e-05        0.0604715        0.108171       0.00020049    -0.000602732
                    -0.000142207     0.000306673        -0.794198       -0.570224      0.000256329    -0.000700612        0.0209206        0.159976
281714                 -0.103608       0.0698525      0.000400166    -0.000549673        -0.957841       -0.218988     -1.41867e-05     7.37231e-05
                     0.000263652     -0.00078803        -0.159414       0.0305247     -0.000201539     0.000129904        -0.794436       -0.569696
                       -0.957712       -0.218917     -0.000226037     3.32561e-05        0.0605333        0.108109      0.000200226     -0.00060281
                    -0.000142095      0.00030668        -0.794499       -0.569807      0.000256292     -0.00070042        0.0210244        0.159951
281716                 -0.103561       0.0698786       0.00039998    -0.000549907        -0.957961       -0.218478     -1.41818e-05     7.37367e-05
                     0.000263427    -0.000787912        -0.159391       0.0305846     -0.000201683      0.00012967        -0.794737       -0.569279
                       -0.957831       -0.218407     -0.000226077     3.34581e-05        0.0605951        0.108047      0.000199962    -0.000602889
                    -0.000141982     0.000306687          -0.7948       -0.569391      0.000256254    -0.000700223        0.0211281        0.159926
281718                 -0.103515       0.0699046      0.000399794    -0.000550141         -0.95808       -0.217967     -1.41769e-05     7.37505e-05
                     0.000263202    -0.000787795        -0.159368       0.0306446     -0.000201829     0.000129434        -0.795038       -0.568862
                        -0.95795       -0.217896     -0.000226117     3.36605e-05        0.0606568        0.107985      0.000199699    -0.000602967
                    -0.000141869     0.000306694          -0.7951       -0.568974      0.000256215    -0.000700021        0.0212318        0.159901
281720                 -0.103469       0.0699305      0.000399608    -0.000550375        -0.958199       -0.217457      -1.4172e-05     7.37644e-05
                     0.000262976    -0.000787678        -0.159345       0.0307045     -0.000201975     0.000129195        -0.795338       -0.568445
                       -0.958069       -0.217386     -0.000226157     3.38633e-05        0.0607185        0.107923      0.000199435    -0.000603045
                    -0.000141755     0.000306701        -0.795401       -0.568557      0.000256176    -0.000699814        0.0213355        0.159876
281722                 -0.103422       0.0699565      0.000399421    -0.000550609        -0.958318       -0.216946     -1.41672e-05     7.37785e-05
                      0.00026275    -0.000787562        -0.159322       0.0307644     -0.000202122     0.000128955        -0.795638       -0.568027
                       -0.958188       -0.216875     -0.000226197     3.40663e-05        0.0607801        0.107861      0.000199172    -0.000603122
                    -0.000141641     0.000306708        -0.795701       -0.568139      0.000256137    -0.000699602        0.0214392         0.15985
281724                 -0.103376       0.0699824      0.000399234    -0.000550843        -0.958436       -0.216436     -1.41625e-05     7.37927e-05
                     0.000262523    -0.000787446        -0.159299       0.0308243     -0.000202269     0.000128712        -0.795938        -0.56761
                       -0.958307       -0.216365     -0.000226237     3.42697e-05        0.0608417        0.107799      0.000198909      -0.0006032
                    -0.000141526     0.000306715        -0.796001       -0.567722      0.000256097    -0.000699386        0.0215428        0.159825
281726                  -0.10333       0.0700083      0.000399047    -0.000551077        -0.958554       -0.215925     -1.41577e-05     7.38071e-05
                     0.000262296     -0.00078733        -0.159276       0.0308842     -0.000202416     0.000128468        -0.796237       -0.567192
                       -0.958425       -0.215854     -0.000226277     3.44734e-05        0.0609032        0.107736      0.000198646    -0.000603277
                     -0.00014141     0.000306722        -0.796301       -0.567304      0.000256056    -0.000699165        0.0216464        0.159799
281728                 -0.103283       0.0700341       0.00039886    -0.000551311        -0.958672       -0.215414     -1.41531e-05     7.38215e-05
                     0.000262069    -0.000787215        -0.159253       0.0309441     -0.000202564     0.000128221        -0.796537       -0.566774
                       -0.958543       -0.215343     -0.000226316     3.46774e-05        0.0609646        0.107674      0.000198384    -0.000603354
                    -0.000141294     0.000306729          -0.7966       -0.566887      0.000256015    -0.000698939          0.02175        0.159774
281730                 -0.103237       0.0700599      0.000398673    -0.000551545         -0.95879       -0.214903     -1.41485e-05     7.38361e-05
                     0.000261842    -0.000787101         -0.15923       0.0310039     -0.000202712     0.000127973        -0.796836       -0.566356
                        -0.95866       -0.214832     -0.000226356     3.48817e-05         0.061026        0.107612      0.000198121    -0.000603431
                    -0.000141177     0.000306736          -0.7969       -0.566469      0.000255973     -0.00069871        0.0218536        0.159748
281732                 -0.103191       0.0700857      0.000398485    -0.000551779        -0.958907       -0.214393     -1.41439e-05     7.38508e-05
                     0.000261614    -0.000786986        -0.159207       0.0310637     -0.000202861     0.000127723        -0.797135       -0.565938
                       -0.958778       -0.214322     -0.000226396     3.50864e-05        0.0610873        0.107549      0.000197859    -0.000603508
                     -0.00014106     0.000306743        -0.797199       -0.566051       0.00025593    -0.000698475        0.0219571        0.159723
281734                 -0.103144       0.0701115      0.000398297    -0.000552013        -0.959024       -0.213882     -1.41394e-05     7.38656e-05
                     0.000261386    -0.000786872        -0.159183       0.0311236      -0.00020301     0.000127471        -0.797434       -0.565519
                       -0.958895       -0.213811     -0.000226435     3.52914e-05        0.0611486        0.107487      0.000197596    -0.000603585
                    -0.000140942      0.00030675        -0.797498       -0.565632      0.000255887    -0.000698237        0.0220606        0.159697
281736                 -0.103098       0.0701372      0.000398109    -0.000552247        -0.959141       -0.213371      -1.4135e-05     7.38805e-05
                     0.000261158    -0.000786759         -0.15916       0.0311834     -0.000203159     0.000127218        -0.797732       -0.565101
                       -0.959012         -0.2133     -0.000226475     3.54967e-05        0.0612098        0.107425      0.000197334    -0.000603661
                    -0.000140824     0.000306757        -0.797797       -0.565214      0.000255843    -0.000697994        0.0221641        0.159671
281738                 -0.103051       0.0701629      0.000397921    -0.000552481        -0.959257       -0.212859     -1.41306e-05     7.38955e-05
                     0.000260929    -0.000786646        -0.159137       0.0312432     -0.000203308     0.000126964        -0.798031       -0.564682
                       -0.959128       -0.212789     -0.000226514     3.57023e-05         0.061271        0.107362      0.000197072    -0.000603737
                    -0.000140705     0.000306764        -0.798095       -0.564795      0.000255798    -0.000697747        0.0222676        0.159645
281740                 -0.103005       0.0701886      0.000397733    -0.000552715        -0.959374       -0.212348     -1.41263e-05     7.39106e-05
                       0.0002607    -0.000786534        -0.159114       0.0313029     -0.000203458     0.000126708        -0.798329       -0.564263
                       -0.959245       -0.212277     -0.000226553     3.59081e-05        0.0613321          0.1073      0.000196811    -0.000603813
                    -0.000140585     0.000306771        -0.798393       -0.564377      0.000255752    -0.000697496        0.0223711        0.159619
281742                 -0.102959       0.0702143      0.000397544    -0.000552949         -0.95949       -0.211837      -1.4122e-05     7.39259e-05
                      0.00026047    -0.000786422         -0.15909       0.0313627     -0.000203608     0.000126451        -0.798627       -0.563844
                       -0.959361       -0.211766     -0.000226593     3.61141e-05        0.0613931        0.107237      0.000196549    -0.000603889
                    -0.000140465     0.000306778        -0.798692       -0.563958      0.000255705    -0.000697241        0.0224745        0.159593
281744                 -0.102912       0.0702399      0.000397356    -0.000553182        -0.959605       -0.211326     -1.41178e-05     7.39413e-05
                      0.00026024    -0.000786311        -0.159067       0.0314224     -0.000203758     0.000126193        -0.798924       -0.563425
                       -0.959476       -0.211255     -0.000226632     3.63201e-05        0.0614541        0.107175      0.000196288    -0.000603965
                    -0.000140343     0.000306785        -0.798989       -0.563539      0.000255657    -0.000696982        0.0225779        0.159567
281746                 -0.102866       0.0702655      0.000397168    -0.000553414        -0.959721       -0.210814     -1.41138e-05     7.39568e-05
                     0.000260009      -0.0007862        -0.159044       0.0314822     -0.000203908     0.000125933        -0.799222       -0.563005
                       -0.959592       -0.210744     -0.000226671     3.65257e-05        0.0615151        0.107112      0.000196027     -0.00060404
                    -0.000140222     0.000306792        -0.799287        -0.56312      0.000255609    -0.000696719        0.0226813        0.159541
281748                 -0.102819        0.070291      0.000396981    -0.000553645        -0.959836       -0.210303       -1.411e-05     7.39726e-05
                     0.000259778    -0.000786089         -0.15902       0.0315419     -0.000204059     0.000125673        -0.799519       -0.562586
                       -0.959707       -0.210232     -0.000226711     3.67302e-05        0.0615759         0.10705      0.000195766    -0.000604115
                    -0.000140099     0.000306799        -0.799585         -0.5627      0.000255559    -0.000696452        0.0227847        0.159514
281750                 -0.102773       0.0703166      0.000396799     -0.00055387        -0.959951       -0.209792     -1.41066e-05     7.39886e-05
                     0.000259546     -0.00078598        -0.158997       0.0316016      -0.00020421     0.000125413        -0.799816       -0.562166
                       -0.959822       -0.209721     -0.000226751     3.69301e-05        0.0616368        0.106987      0.000195506     -0.00060419
                    -0.000139976     0.000306807        -0.799882       -0.562281      0.000255509    -0.000696182         0.022888        0.159488
281752                 -0.102726       0.0703421      0.000396684     -0.00055406        -0.960065        -0.20928     -1.41046e-05      7.4005e-05
                     0.000259313     -0.00078587        -0.158973       0.0316613     -0.000204362     0.000125151        -0.800113       -0.561746
                       -0.959937       -0.209209     -0.000226804     3.70969e-05        0.0616975        0.106924      0.000195247    -0.000604263
                    -0.000139852     0.000306814        -0.800179       -0.561861      0.000255457    -0.000695908        0.0229913        0.159462
281754                  -0.10268       0.0703675      0.000396379    -0.000554421        -0.960179       -0.208768     -1.41073e-05     7.40169e-05
                      0.00025908    -0.000785762         -0.15895       0.0317209     -0.000204514     0.000124889         -0.80041       -0.561326
                       -0.960051       -0.208698     -0.000226829     3.74328e-05        0.0617582        0.106861      0.000194985    -0.000604331
                    -0.000139727     0.000306822        -0.800475       -0.561441      0.000255405     -0.00069563        0.0230946        0.159435
281756                 -0.102633        0.070393      0.000396198    -0.000554622        -0.960293       -0.208257     -1.40949e-05     7.40245e-05
                     0.000258846    -0.000785654        -0.158926       0.0317806     -0.000204666     0.000124627        -0.800706       -0.560906
                       -0.960165       -0.208186     -0.000226863     3.76016e-05        0.0618189        0.106799      0.000194719    -0.000604406
                    -0.000139602     0.000306829        -0.800772       -0.561021      0.000255351    -0.000695349        0.0231979        0.159409
281758                 -0.102587       0.0704184       0.00039601    -0.000554849        -0.960407       -0.207745     -1.40876e-05     7.40436e-05
                     0.000258611    -0.000785547        -0.158903       0.0318402     -0.000204818     0.000124364        -0.801002       -0.560486
                       -0.960279       -0.207674     -0.000226902     3.78034e-05        0.0618795        0.106736      0.000194457    -0.000604482
                    -0.000139475     0.000306837        -0.801068       -0.560601      0.000255297    -0.000695064        0.0233011        0.159382
281760                  -0.10254       0.0704438       0.00039582    -0.000555081        -0.960521       -0.207233     -1.40832e-05      7.4061e-05
                     0.000258375    -0.000785441        -0.158879       0.0318999     -0.000204971     0.000124101        -0.801298       -0.560065
                       -0.960393       -0.207162      -0.00022694     3.80106e-05          0.06194        0.106673      0.000194197    -0.000604557
                    -0.000139346     0.000306844        -0.801365       -0.560181      0.000255241    -0.000694777        0.0234043        0.159355
281762                 -0.102494       0.0704691      0.000395629    -0.000555315        -0.960634       -0.206721     -1.40792e-05     7.40776e-05
                     0.000258134    -0.000785336        -0.158856       0.0319595     -0.000205124     0.000123838        -0.801594       -0.559645
                       -0.960506       -0.206651     -0.000226979     3.82198e-05        0.0620005         0.10661      0.000193936     -0.00060463
