! TOUCHSTONE file generated by CST MICROWAVE STUDIO
! Date and time: Tue Oct 14 07:25:22 2025
! Project name: Teste_Macro_Metasurface_Nanopilar.cst
! Parameters = {H=600; L_x=75; L_y=195; Lambda=1064; Max_L=200; Min_L=70; PathPara=1; Phi=0; Step_L=10; Theta=0; p=520; phaseX=180; phaseY=0}
! Header version: 2018
! Port assignment regex: !\s*Touchstone port\s*([0-9]+)\s*=\s*(CST MWS port|CST DS port)\s*([0-9]+|Zmin|Zmax)\s*\(\"(.*)\"\)(\s*mode\s*([0-9]+))?.*
! Touchstone port assignment:
! Touchstone port 1 = CST MWS port Zmax ("") mode 1
! Touchstone port 2 = CST MWS port Zmax ("") mode 2
! Touchstone port 3 = CST MWS port Zmin ("") mode 1
! Touchstone port 4 = CST MWS port Zmin ("") mode 2
! S-Parameters are not renormalized. Each port impedance will be approximated by the real part at minimum frequency. The values are described via the [Reference] keyword.
! Default impedance is overridden by [Reference]
[Version] 2.0
# GHz S RI R 376.73
[Number of Ports] 4
[Reference]
376.73 376.73 259.814 259.814 
[Number of Frequencies] 51
[Network Data]
281700                 -0.100111       -0.330022      8.82819e-05     0.000100816         0.382397        0.849626     -0.000185478     0.000283963
                     -8.6117e-05      6.8695e-05         0.020375       0.0617279      7.51905e-05     0.000338691         0.936791       -0.341349
                        0.382597        0.850079     -4.22703e-05     0.000311186         0.183172        0.290125     -0.000163854     0.000187666
                    -0.000201356     0.000246794         0.936575       -0.341568     -0.000134474     0.000101248        0.0240908       0.0607115
281702                 -0.100246       -0.330048      8.82941e-05     0.000100731         0.382809        0.849414     -0.000185401     0.000284045
                    -8.57286e-05     6.87972e-05        0.0204016       0.0617151      7.52559e-05     0.000338659         0.936663       -0.341702
                         0.38301        0.849866     -4.21491e-05     0.000311183         0.183393        0.290061     -0.000163852     0.000187676
                    -0.000201269     0.000246844         0.936446       -0.341921     -0.000134458     0.000101297        0.0241078       0.0607007
281704                  -0.10038       -0.330074      8.83062e-05     0.000100646         0.383222        0.849202     -0.000185323     0.000284126
                    -8.53401e-05     6.88988e-05        0.0204282       0.0617022      7.53215e-05     0.000338626         0.936534       -0.342055
                        0.383423        0.849654     -4.20278e-05      0.00031118         0.183614        0.289997     -0.000163851     0.000187687
                    -0.000201183     0.000246894         0.936318       -0.342274     -0.000134442     0.000101346        0.0241248       0.0606898
281706                 -0.100515         -0.3301      8.83183e-05     0.000100561         0.383634         0.84899     -0.000185246     0.000284208
                    -8.49514e-05     6.89997e-05        0.0204548       0.0616894      7.53873e-05     0.000338593         0.936405       -0.342408
                        0.383835        0.849441     -4.19064e-05     0.000311177         0.183835        0.289933      -0.00016385     0.000187697
                    -0.000201098     0.000246944         0.936189       -0.342627     -0.000134425     0.000101394        0.0241418        0.060679
281708                 -0.100649       -0.330127      8.83303e-05     0.000100477         0.384046        0.848777     -0.000185168     0.000284289
                    -8.45626e-05     6.90998e-05        0.0204814       0.0616765      7.54532e-05      0.00033856         0.936276        -0.34276
                        0.384248        0.849228      -4.1785e-05     0.000311174         0.184056        0.289868     -0.000163848     0.000187707
                    -0.000201013     0.000246994          0.93606       -0.342979     -0.000134409     0.000101443        0.0241588       0.0606681
281710                 -0.100784       -0.330153      8.83423e-05     0.000100392         0.384458        0.848564      -0.00018509      0.00028437
                    -8.41736e-05     6.91993e-05         0.020508       0.0616636      7.55192e-05     0.000338527         0.936147       -0.343113
                         0.38466        0.849015     -4.16634e-05     0.000311172         0.184277        0.289803     -0.000163847     0.000187718
                    -0.000200928     0.000247043         0.935931       -0.343332     -0.000134393     0.000101492        0.0241758       0.0606572
281712                 -0.100919       -0.330179      8.83543e-05     0.000100307         0.384869        0.848351     -0.000185012     0.000284452
                    -8.37845e-05     6.92981e-05        0.0205346       0.0616507      7.55855e-05     0.000338494         0.936018       -0.343466
                        0.385073        0.848802     -4.15417e-05     0.000311169         0.184498        0.289739     -0.000163845     0.000187728
                    -0.000200843     0.000247093         0.935802       -0.343685     -0.000134378     0.000101541        0.0241927       0.0606464
281714                 -0.101054       -0.330205      8.83662e-05     0.000100222         0.385281        0.848138     -0.000184933     0.000284532
                    -8.33953e-05     6.93961e-05        0.0205612       0.0616378      7.56518e-05     0.000338461         0.935889       -0.343819
                        0.385485        0.848588       -4.142e-05     0.000311167         0.184719        0.289674     -0.000163844     0.000187738
                    -0.000200759     0.000247143         0.935672       -0.344038     -0.000134362     0.000101589        0.0242097       0.0606355
281716                 -0.101188       -0.330231      8.83781e-05     0.000100138         0.385692        0.847925     -0.000184855     0.000284613
                     -8.3006e-05     6.94934e-05        0.0205878       0.0616249      7.57184e-05     0.000338427         0.935759       -0.344171
                        0.385897        0.848375     -4.12981e-05     0.000311165         0.184939        0.289608     -0.000163843     0.000187749
                    -0.000200675     0.000247192         0.935543        -0.34439     -0.000134346     0.000101638        0.0242267       0.0606246
281718                 -0.101323       -0.330257      8.83899e-05     0.000100053         0.386104        0.847711     -0.000184776     0.000284694
                    -8.26165e-05       6.959e-05        0.0206143        0.061612      7.57851e-05     0.000338393          0.93563       -0.344524
                        0.386309        0.848161     -4.11761e-05     0.000311163          0.18516        0.289543     -0.000163841      0.00018776
                    -0.000200591     0.000247241         0.935413       -0.344743     -0.000134331     0.000101686        0.0242436       0.0606138
281720                 -0.101458       -0.330283      8.84018e-05     9.99685e-05         0.386515        0.847498     -0.000184697     0.000284774
                     -8.2227e-05     6.96857e-05        0.0206409        0.061599      7.58519e-05     0.000338359           0.9355       -0.344876
                        0.386721        0.847946     -4.10541e-05     0.000311162         0.185381        0.289478      -0.00016384      0.00018777
                    -0.000200507      0.00024729         0.935283       -0.345095     -0.000134315     0.000101735        0.0242606       0.0606029
281722                 -0.101593       -0.330309      8.84136e-05     9.98839e-05         0.386926        0.847284     -0.000184618     0.000284855
                    -8.18373e-05     6.97807e-05        0.0206675       0.0615861      7.59189e-05     0.000338325          0.93537       -0.345229
                        0.387133        0.847732     -4.09319e-05     0.000311161         0.185602        0.289412     -0.000163838     0.000187781
                    -0.000200424     0.000247339         0.935153       -0.345448       -0.0001343     0.000101783        0.0242775        0.060592
281724                 -0.101728       -0.330335      8.84253e-05     9.97993e-05         0.387337        0.847069     -0.000184539     0.000284935
                    -8.14475e-05     6.98749e-05         0.020694       0.0615731      7.59861e-05     0.000338291          0.93524       -0.345581
                        0.387545        0.847518     -4.08097e-05      0.00031116         0.185823        0.289346     -0.000163837     0.000187791
                    -0.000200342     0.000247388         0.935023         -0.3458     -0.000134285     0.000101831        0.0242945       0.0605811
281726                 -0.101863       -0.330361       8.8437e-05     9.97147e-05         0.387748        0.846855      -0.00018446     0.000285015
                    -8.10577e-05     6.99683e-05        0.0207206       0.0615602      7.60534e-05     0.000338256          0.93511       -0.345934
                        0.387956        0.847303     -4.06873e-05     0.000311159         0.186044         0.28928     -0.000163836     0.000187802
                    -0.000200259     0.000247437         0.934893       -0.346153      -0.00013427      0.00010188        0.0243114       0.0605702
281728                 -0.101998       -0.330387      8.84487e-05     9.96302e-05         0.388159         0.84664      -0.00018438     0.000285094
                    -8.06677e-05     7.00609e-05        0.0207471       0.0615472      7.61209e-05     0.000338222          0.93498       -0.346286
                        0.388368        0.847088     -4.05649e-05     0.000311158         0.186265        0.289214     -0.000163834     0.000187813
                    -0.000200177     0.000247486         0.934763       -0.346505     -0.000134255     0.000101928        0.0243284       0.0605594
281730                 -0.102133       -0.330413      8.84604e-05     9.95456e-05          0.38857        0.846425       -0.0001843     0.000285174
                    -8.02776e-05     7.01526e-05        0.0207737       0.0615342      7.61885e-05     0.000338187         0.934849       -0.346638
                        0.388779        0.846872     -4.04423e-05     0.000311158         0.186486        0.289148     -0.000163833     0.000187824
                    -0.000200095     0.000247534         0.934632       -0.346857      -0.00013424     0.000101976        0.0243453       0.0605485
281732                 -0.102268       -0.330438       8.8472e-05     9.94611e-05         0.388981         0.84621     -0.000184221     0.000285253
                    -7.98874e-05     7.02435e-05        0.0208002       0.0615212      7.62563e-05     0.000338152         0.934719       -0.346991
                        0.389191        0.846657     -4.03196e-05     0.000311157         0.186707        0.289082     -0.000163832     0.000187835
                    -0.000200013     0.000247582         0.934502        -0.34721     -0.000134225     0.000102024        0.0243622       0.0605376
281734                 -0.102403       -0.330464      8.84836e-05     9.93766e-05         0.389391        0.845995     -0.000184141     0.000285332
                    -7.94972e-05     7.03336e-05        0.0208267       0.0615082      7.63242e-05     0.000338117         0.934588       -0.347343
                        0.389602        0.846441     -4.01969e-05     0.000311157         0.186928        0.289015      -0.00016383     0.000187846
                    -0.000199932      0.00024763         0.934371       -0.347562     -0.000134211     0.000102072        0.0243791       0.0605267
281736                 -0.102538        -0.33049      8.84952e-05     9.92922e-05         0.389802         0.84578     -0.000184061     0.000285411
                    -7.91068e-05     7.04228e-05        0.0208532       0.0614951      7.63922e-05     0.000338081         0.934457       -0.347695
                        0.390013        0.846226      -4.0074e-05     0.000311157         0.187149        0.288948     -0.000163829     0.000187857
                     -0.00019985     0.000247678          0.93424       -0.347914     -0.000134196      0.00010212        0.0243961       0.0605158
281738                 -0.102674       -0.330515      8.85067e-05     9.92077e-05         0.390212        0.845564      -0.00018398      0.00028549
                    -7.87164e-05     7.05111e-05        0.0208797       0.0614821      7.64604e-05     0.000338046         0.934326       -0.348047
                        0.390424        0.846009      -3.9951e-05     0.000311158          0.18737        0.288882     -0.000163828     0.000187868
                    -0.000199769     0.000247725         0.934109       -0.348266     -0.000134182     0.000102168         0.024413       0.0605049
281740                 -0.102809       -0.330541      8.85182e-05     9.91233e-05         0.390622        0.845348       -0.0001839     0.000285569
                    -7.83259e-05     7.05985e-05        0.0209062        0.061469      7.65288e-05      0.00033801         0.934195       -0.348399
                        0.390835        0.845793     -3.98279e-05     0.000311158         0.187591        0.288815     -0.000163826     0.000187879
                    -0.000199689     0.000247773         0.933978       -0.348618     -0.000134168     0.000102216        0.0244299       0.0604939
281742                 -0.102944       -0.330566      8.85297e-05     9.90389e-05         0.391032        0.845132      -0.00018382     0.000285647
                    -7.79354e-05      7.0685e-05        0.0209327        0.061456      7.65972e-05     0.000337974         0.934064       -0.348751
                        0.391245        0.845577     -3.97047e-05     0.000311159         0.187812        0.288747     -0.000163825     0.000187891
                    -0.000199608      0.00024782         0.933847        -0.34897     -0.000134154     0.000102264        0.0244468        0.060483
281744                 -0.103079       -0.330592      8.85412e-05     9.89545e-05         0.391442        0.844915     -0.000183739     0.000285726
                    -7.75448e-05     7.07706e-05        0.0209592       0.0614429      7.66658e-05     0.000337938         0.933933       -0.349103
                        0.391656         0.84536     -3.95814e-05      0.00031116         0.188033         0.28868     -0.000163824     0.000187902
                    -0.000199528     0.000247867         0.933715       -0.349322      -0.00013414     0.000102312        0.0244637       0.0604721
281746                 -0.103215       -0.330617      8.85526e-05     9.88701e-05         0.391852        0.844699     -0.000183658     0.000285804
                    -7.71541e-05     7.08553e-05        0.0209857       0.0614298      7.67345e-05     0.000337901         0.933801       -0.349455
                        0.392066        0.845143      -3.9458e-05     0.000311161         0.188254        0.288613     -0.000163823     0.000187913
                    -0.000199448     0.000247913         0.933584       -0.349674     -0.000134126      0.00010236        0.0244806       0.0604612
281748                  -0.10335       -0.330643       8.8564e-05     9.87857e-05         0.392262        0.844482     -0.000183577     0.000285882
                    -7.67634e-05      7.0939e-05        0.0210122       0.0614167      7.68033e-05     0.000337865          0.93367       -0.349807
                        0.392477        0.844926     -3.93345e-05     0.000311163         0.188475        0.288545     -0.000163821     0.000187925
                    -0.000199368      0.00024796         0.933452       -0.350026     -0.000134113     0.000102407        0.0244974       0.0604503
281750                 -0.103486       -0.330668      8.85754e-05     9.87014e-05         0.392671        0.844265     -0.000183496      0.00028596
                    -7.63726e-05     7.10219e-05        0.0210387       0.0614036      7.68721e-05     0.000337828         0.933538       -0.350159
                        0.392887        0.844709     -3.92109e-05     0.000311164         0.188695        0.288477      -0.00016382     0.000187936
                    -0.000199288     0.000248006          0.93332       -0.350378       -0.0001341     0.000102455        0.0245143       0.0604393
281752                 -0.103621       -0.330693      8.85867e-05     9.86171e-05         0.393081        0.844048     -0.000183415     0.000286037
                    -7.59818e-05     7.11037e-05        0.0210652       0.0613905      7.69409e-05     0.000337791         0.933406       -0.350511
                        0.393297        0.844491     -3.90871e-05     0.000311166         0.188916        0.288409     -0.000163819     0.000187948
                    -0.000199209     0.000248052         0.933188       -0.350729     -0.000134087     0.000102502        0.0245312       0.0604284
281754                 -0.103757       -0.330718      8.85981e-05     9.85328e-05          0.39349        0.843831     -0.000183334     0.000286115
                     -7.5591e-05     7.11846e-05        0.0210916       0.0613774      7.70096e-05     0.000337754         0.933274       -0.350863
                        0.393707        0.844273     -3.89633e-05     0.000311168         0.189137        0.288341     -0.000163818      0.00018796
                     -0.00019913     0.000248097         0.933056       -0.351081     -0.000134075      0.00010255        0.0245481       0.0604175
281756                 -0.103892       -0.330744      8.86094e-05     9.84485e-05         0.393899        0.843613     -0.000183253     0.000286192
                    -7.52001e-05     7.12645e-05        0.0211181       0.0613643       7.7078e-05     0.000337717         0.933142       -0.351214
                        0.394117        0.844055     -3.88393e-05     0.000311171         0.189358        0.288273     -0.000163817     0.000187972
                     -0.00019905     0.000248142         0.932924       -0.351433     -0.000134064     0.000102597        0.0245649       0.0604065
281758                 -0.104028       -0.330769      8.86207e-05     9.83643e-05         0.394309        0.843395     -0.000183172     0.000286269
                    -7.48093e-05     7.13434e-05        0.0211446       0.0613511      7.71456e-05      0.00033768          0.93301       -0.351566
                        0.394527        0.843837     -3.87152e-05     0.000311173         0.189579        0.288204     -0.000163816     0.000187984
                    -0.000198971     0.000248188         0.932792       -0.351784     -0.000134054     0.000102644        0.0245818       0.0603956
281760                 -0.104164       -0.330794      8.86319e-05       9.828e-05         0.394718        0.843177      -0.00018309     0.000286346
                    -7.44184e-05     7.14213e-05         0.021171        0.061338      7.72102e-05     0.000337643         0.932877       -0.351917
                        0.394937        0.843619     -3.85911e-05     0.000311176           0.1898        0.288136     -0.000163815     0.000187996
                    -0.000198892     0.000248232         0.932659       -0.352136     -0.000134048     0.000102691        0.0245986       0.0603847
281762                 -0.104299       -0.330819      8.86431e-05     9.81958e-05         0.395126        0.842959     -0.000183008     0.000286423
                    -7.40275e-05     7.14982e-05        0.0211974       0.0613248      7.72558e-05     0.000337607         0.932745       -0.352269
                        0.395346          0.8434     -3.84667e-05     0.000311179         0.190021        0.288067     -0.000163814     0.000188009
