! TOUCHSTONE file generated by CST MICROWAVE STUDIO
! Date and time: Tue Oct 14 07:29:39 2025
! Project name: Teste_Macro_Metasurface_Nanopilar.cst
! Parameters = {H=600; L_x=145; L_y=145; Lambda=1064; Max_L=200; Min_L=70; PathPara=1; Phi=0; Step_L=10; Theta=0; p=520; phaseX=180; phaseY=0}
! Header version: 2018
! Port assignment regex: !\s*Touchstone port\s*([0-9]+)\s*=\s*(CST MWS port|CST DS port)\s*([0-9]+|Zmin|Zmax)\s*\(\"(.*)\"\)(\s*mode\s*([0-9]+))?.*
! Touchstone port assignment:
! Touchstone port 1 = CST MWS port Zmax ("") mode 1
! Touchstone port 2 = CST MWS port Zmax ("") mode 2
! Touchstone port 3 = CST MWS port Zmin ("") mode 1
! Touchstone port 4 = CST MWS port Zmin ("") mode 2
! S-Parameters are not renormalized. Each port impedance will be approximated by the real part at minimum frequency. The values are described via the [Reference] keyword.
! Default impedance is overridden by [Reference]
[Version] 2.0
# GHz S RI R 376.73
[Number of Ports] 4
[Reference]
376.73 376.73 259.814 259.814 
[Number of Frequencies] 51
[Network Data]
281700                  -0.19757       -0.329204      3.95624e-05    -0.000315223         0.636477        0.656065      0.000258302     -0.00049426
                    -3.17476e-05    -0.000305389        -0.197562       -0.328876      0.000163428    -0.000552606         0.637145        0.655567
                        0.637028        0.655881      0.000203135    -0.000684184         0.324646        0.192636      0.000446556    -0.000785184
                     0.000294145    -0.000491999         0.638215        0.655155      0.000412867    -0.000759581         0.324643        0.191953
281702                 -0.197759       -0.329282       3.8677e-05    -0.000316223         0.636811        0.655631      0.000258237    -0.000495775
                    -3.20182e-05    -0.000307978        -0.197751       -0.328954      0.000164001    -0.000553895         0.637481        0.655133
                        0.637361        0.655451      0.000203194    -0.000685581         0.324955        0.192425      0.000447446     -0.00078656
                     0.000294716    -0.000493598         0.638548        0.654731      0.000412978    -0.000761657         0.324953        0.191741
281704                 -0.197948       -0.329359      3.77784e-05    -0.000317207         0.637144        0.655196      0.000258147    -0.000497329
                    -3.29348e-05    -0.000310296         -0.19794       -0.329033       0.00016479    -0.000555086         0.637816        0.654699
                        0.637695         0.65502      0.000203256     -0.00068699         0.325264        0.192213       0.00044835    -0.000787948
                     0.000295272    -0.000495255         0.638881        0.654306      0.000413049    -0.000763611         0.325263        0.191528
281706                 -0.198137       -0.329437      3.68683e-05    -0.000318173         0.637478        0.654762      0.000258024    -0.000498929
                     -3.4161e-05    -0.000312204        -0.198129       -0.329112       0.00016588    -0.000556071         0.638152        0.654266
                        0.638028        0.654589      0.000203323    -0.000688411         0.325574        0.192001      0.000449268    -0.000789351
                     0.000295803    -0.000496969         0.639214         0.65388      0.000413107    -0.000765445         0.325574        0.191315
281708                 -0.198326       -0.329514      3.59485e-05    -0.000319121         0.637811        0.654328      0.000257858    -0.000500582
                    -3.54671e-05    -0.000313761        -0.198318        -0.32919      0.000167365    -0.000556612         0.638487        0.653832
                        0.638361        0.654157      0.000203395    -0.000689847         0.325883        0.191789      0.000450201     -0.00079077
                     0.000296301    -0.000498737         0.639547        0.653453      0.000413171     -0.00076717         0.325884        0.191101
281710                 -0.198515       -0.329592      3.50214e-05     -0.00032005         0.638145        0.653895      0.000257637    -0.000502295
                    -3.67462e-05    -0.000315072        -0.198508       -0.329269      0.000169235    -0.000556211         0.638822        0.653398
                        0.638694        0.653725      0.000203473    -0.000691301         0.326193        0.191576      0.000451151    -0.000792207
                     0.000296756    -0.000500552         0.639879        0.653024      0.000413259    -0.000768796         0.326195        0.190887
281712                 -0.198705       -0.329669      3.40895e-05    -0.000320958         0.638477        0.653461      0.000257339    -0.000504077
                    -3.79622e-05    -0.000316221        -0.198697       -0.329348      0.000170913    -0.000553994         0.639156        0.652964
                        0.639027        0.653293      0.000203556    -0.000692778         0.326503        0.191362      0.000452117    -0.000793664
                     0.000297162    -0.000502409         0.640211        0.652595      0.000413384    -0.000770337         0.326506        0.190673
281714                 -0.198894       -0.329747      3.31555e-05    -0.000321845          0.63881        0.653027      0.000256939    -0.000505937
                    -3.91111e-05     -0.00031727        -0.198887       -0.329426      0.000170241    -0.000549616         0.639491        0.652529
                         0.63936         0.65286      0.000203644    -0.000694281         0.326812        0.191148        0.0004531    -0.000795145
                     0.000297514    -0.000504296         0.640543        0.652165      0.000413552    -0.000771807         0.326816        0.190458
281716                 -0.199084       -0.329825      3.22224e-05    -0.000322712         0.639143        0.652592      0.000256395    -0.000507881
                    -4.01999e-05    -0.000318256        -0.199077       -0.329505      0.000165006    -0.000546297         0.639825        0.652094
                        0.639693        0.652426      0.000203737    -0.000695821         0.327122        0.190934        0.0004541    -0.000796652
                     0.000297808    -0.000506204         0.640874        0.651733      0.000413771    -0.000773217         0.327127        0.190242
281718                 -0.199274       -0.329903      3.12932e-05    -0.000323559         0.639475        0.652158      0.000255653    -0.000509909
                    -4.12388e-05    -0.000319203        -0.199268       -0.329583      0.000158597    -0.000547791         0.640159         0.65166
                        0.640026        0.651992      0.000203828    -0.000697406         0.327432        0.190719      0.000455117    -0.000798188
                     0.000298046    -0.000508123         0.641206        0.651301      0.000414041     -0.00077458         0.327438        0.190027
281720                 -0.199464       -0.329981      3.03711e-05    -0.000324387         0.639808        0.651724      0.000254632    -0.000512004
                    -4.22374e-05    -0.000320127        -0.199458       -0.329662      0.000154807    -0.000551874         0.640493        0.651224
                        0.640358        0.651558       0.00020391    -0.000699051         0.327742        0.190504      0.000456152    -0.000799757
                     0.000298228    -0.000510044         0.641537        0.650869      0.000414365    -0.000775907         0.327749         0.18981
281722                 -0.199654       -0.330059       2.9459e-05    -0.000325198          0.64014         0.65129      0.000253224    -0.000514114
                    -4.32042e-05    -0.000321039        -0.199649       -0.329741      0.000153196    -0.000555912         0.640827        0.650789
                        0.640691        0.651123       0.00020396    -0.000700773         0.328052        0.190289      0.000457202    -0.000801365
                     0.000298359    -0.000511957         0.641868        0.650435       0.00041474    -0.000777206          0.32806        0.189594
281724                 -0.199845       -0.330137      2.85599e-05    -0.000325993         0.640472        0.650855      0.000251292    -0.000516117
                    -4.41458e-05    -0.000321943         -0.19984       -0.329819      0.000152601    -0.000559292          0.64116        0.650353
                        0.641023        0.650688      0.000203941    -0.000702587         0.328362        0.190073      0.000458268    -0.000803014
                     0.000298445    -0.000513855         0.642199        0.650001      0.000415167    -0.000778484         0.328371        0.189377
281726                 -0.200036       -0.330215      2.76764e-05    -0.000326775         0.640804        0.650421      0.000248713    -0.000517762
                    -4.50678e-05    -0.000322846        -0.200032       -0.329898      0.000152408    -0.000562105         0.641493        0.649918
                        0.641355        0.650253      0.000203786    -0.000704488         0.328673        0.189856      0.000459346     -0.00080471
                     0.000298491    -0.000515733          0.64253        0.649566      0.000415641    -0.000779749         0.328682        0.189159
281728                 -0.200226       -0.330293      2.68108e-05    -0.000327548         0.641136        0.649986      0.000245485    -0.000518621
                    -4.59743e-05    -0.000323751        -0.200223       -0.329977      0.000152362    -0.000564525         0.641826        0.649481
                        0.641687        0.649816      0.000203408    -0.000706416         0.328983        0.189639      0.000460434    -0.000806458
                     0.000298506    -0.000517587         0.642861         0.64913      0.000416162    -0.000781005         0.328993        0.188941
281730                 -0.200418       -0.330371      2.59649e-05    -0.000328316         0.641468        0.649551      0.000241947    -0.000518153
                    -4.68686e-05    -0.000324659        -0.200415       -0.330055      0.000152359    -0.000566678         0.642158        0.649045
                        0.642019         0.64938      0.000202757    -0.000708217         0.329293        0.189422      0.000461528    -0.000808262
                     0.000298497    -0.000519413         0.643192        0.648694      0.000416727    -0.000782257         0.329304        0.188723
281732                 -0.200609       -0.330449        2.514e-05    -0.000329081           0.6418        0.649116      0.000238945    -0.000516062
                    -4.77533e-05    -0.000325573        -0.200607       -0.330134      0.000152358     -0.00056865          0.64249        0.648608
                         0.64235        0.648943      0.000201937    -0.000709694         0.329604        0.189204      0.000462624    -0.000810128
                     0.000298471    -0.000521211         0.643522        0.648257      0.000417333    -0.000783507         0.329615        0.188504
281734                   -0.2008       -0.330527       2.4337e-05    -0.000329848         0.642132        0.648681      0.000237495    -0.000512824
                    -4.86302e-05    -0.000326495          -0.2008       -0.330212      0.000152344    -0.000570496         0.642821        0.648171
                        0.642682        0.648506      0.000201206    -0.000710793         0.329914        0.188986      0.000463717    -0.000812058
                     0.000298435    -0.000522979         0.643853        0.647819      0.000417979     -0.00078476         0.329927        0.188285
281736                 -0.200992       -0.330605      2.35561e-05    -0.000330622         0.642463        0.648245      0.000237958      -0.0005096
                    -4.95005e-05    -0.000327427        -0.200992        -0.33029      0.000152313    -0.000572252         0.643152        0.647734
                        0.643013        0.648068      0.000200758     -0.00071168         0.330225        0.188768        0.0004648    -0.000814055
                     0.000298397    -0.000524718         0.644183        0.647382      0.000418664    -0.000786016         0.330238        0.188065
281738                 -0.201184       -0.330683      2.27971e-05    -0.000331407         0.642795        0.647809      0.000239774    -0.000507355
                    -5.03649e-05    -0.000328372        -0.201184       -0.330369      0.000152262    -0.000573942         0.643483        0.647297
                        0.643344         0.64763      0.000200595    -0.000712561         0.330536        0.188549      0.000465867    -0.000816121
                     0.000298364    -0.000526427         0.644513        0.646943      0.000419386    -0.000787277          0.33055        0.187845
281740                 -0.201376       -0.330762      2.20593e-05    -0.000332207         0.643127        0.647373      0.000242085     -0.00050633
                    -5.12233e-05    -0.000329332        -0.201377       -0.330447      0.000152195    -0.000575582         0.643813        0.646859
                        0.643675        0.647192      0.000200618    -0.000713543         0.330846        0.188329      0.000466913    -0.000818254
                     0.000298345    -0.000528106         0.644843        0.646504      0.000420145    -0.000788546         0.330861        0.187625
281742                 -0.201568        -0.33084      2.13416e-05    -0.000333028         0.643458        0.646936      0.000244305    -0.000506279
                    -5.20751e-05    -0.000330313         -0.20157       -0.330525      0.000152114    -0.000577183         0.644142         0.64642
                        0.644005        0.646753      0.000200735    -0.000714641         0.331157        0.188109      0.000467934    -0.000820452
                     0.000298351    -0.000529753         0.645173        0.646065      0.000420943    -0.000789822         0.331173        0.187404
281744                 -0.201761       -0.330918      2.06427e-05    -0.000333874          0.64379        0.646499      0.000246184    -0.000506853
                    -5.29186e-05    -0.000331321        -0.201763       -0.330604      0.000152021    -0.000578753          0.64447        0.645981
                        0.644336        0.646314      0.000200893    -0.000715839         0.331468        0.187889      0.000468927    -0.000822708
                     0.000298398    -0.000531363         0.645502        0.645625      0.000421782    -0.000791107         0.331484        0.187182
281746                 -0.201953       -0.330996      1.99611e-05    -0.000334751         0.644121        0.646062      0.000247672    -0.000507779
                    -5.37509e-05    -0.000332367        -0.201956       -0.330683       0.00015192    -0.000580296         0.644797         0.64554
                        0.644666        0.645874      0.000201065    -0.000717111         0.331779        0.187668      0.000469894    -0.000825015
                      0.00029851    -0.000532928         0.645832        0.645185      0.000422667    -0.000792403         0.331796        0.186961
281748                 -0.202146       -0.331074      1.92954e-05    -0.000335665         0.644453        0.645624      0.000248797    -0.000508877
                    -5.45673e-05    -0.000333466        -0.202149       -0.330762      0.000151814    -0.000581816         0.645124        0.645098
                        0.644996        0.645434      0.000201243    -0.000718436          0.33209        0.187447      0.000470842    -0.000827359
                     0.000298734    -0.000534427         0.646161        0.644745      0.000423606    -0.000793711         0.332108        0.186738
281750                  -0.20234       -0.331152      1.86442e-05    -0.000336624         0.644784        0.645186      0.000249601    -0.000510041
                    -5.53599e-05    -0.000334651        -0.202343       -0.330841      0.000151709    -0.000583313         0.645451        0.644653
                        0.645327        0.644994      0.000201427    -0.000719801         0.332402        0.187225      0.000471782    -0.000829727
                     0.000299175    -0.000535815         0.646489        0.644304      0.000424614    -0.000795034          0.33242        0.186516
281752                 -0.202533        -0.33123      1.80063e-05    -0.000337639         0.645116        0.644747      0.000250123    -0.000511211
                    -5.61168e-05    -0.000335977        -0.202537       -0.330919       0.00015161    -0.000584784          0.64578        0.644208
                        0.645656        0.644554      0.000201623    -0.000721193         0.332713        0.187003      0.000472732    -0.000832098
                     0.000300118    -0.000536971         0.646818        0.643863      0.000425718     -0.00079638         0.332731        0.186293
281754                 -0.202727       -0.331308      1.73805e-05    -0.000338728         0.645448        0.644308      0.000250382    -0.000512356
                    -5.68224e-05    -0.000337575        -0.202731       -0.330998      0.000151528    -0.000586225         0.646111        0.643763
                        0.645986        0.644115      0.000201841    -0.000722604         0.333024        0.186781      0.000473716    -0.000834447
                     0.000302779    -0.000537443         0.647146        0.643422      0.000426966    -0.000797767         0.333043        0.186069
281756                 -0.202921       -0.331385      1.67639e-05    -0.000339919         0.645781        0.643869      0.000250386    -0.000513468
                     -5.7485e-05    -0.000339789        -0.202925       -0.331077      0.000151478    -0.000587625         0.646442        0.643319
                        0.646315        0.643676      0.000202099    -0.000724029         0.333336        0.186558       0.00047476    -0.000836738
                     0.000327035    -0.000536053         0.647474         0.64298      0.000428462    -0.000799251         0.333355        0.185845
281758                 -0.203116       -0.331462      1.61475e-05    -0.000341265         0.646114        0.643428      0.000250123    -0.000514559
                    -5.85019e-05    -0.000343847         -0.20312       -0.331156       0.00015149    -0.000588961         0.646773        0.642876
                        0.646641        0.643237      0.000202427    -0.000725462         0.333648        0.186335      0.000475887    -0.000838925
                     0.000286979    -0.000550485         0.647801        0.642539      0.000430435    -0.000801024         0.333667        0.185621
281760                 -0.203311        -0.33154      1.54956e-05    -0.000342874         0.646449        0.642986      0.000249574    -0.000515664
                    -6.81693e-05    -0.000352735        -0.203315       -0.331235      0.000151628    -0.000590188         0.647103        0.642433
                        0.646964        0.642796      0.000202881    -0.000726903         0.333959        0.186111      0.000477109    -0.000840949
                     0.000292111    -0.000547934         0.648127        0.642098      0.000433349    -0.000804013         0.333979        0.185396
281762                 -0.203507       -0.331618      1.46546e-05    -0.000344981         0.646788         0.64254      0.000248719    -0.000516849
                    -7.38638e-05      -0.0003348         -0.20351       -0.331314      0.000152058    -0.000591197         0.647432        0.641991
                        0.647288        0.642351      0.000203579    -0.000728358         0.334271        0.185887      0.000478409    -0.000842743
