! TOUCHSTONE file generated by CST MICROWAVE STUDIO
! Date and time: Tue Oct 14 07:27:38 2025
! Project name: Teste_Macro_Metasurface_Nanopilar.cst
! Parameters = {H=600; L_x=115; L_y=95; Lambda=1064; Max_L=200; Min_L=70; PathPara=1; Phi=0; Step_L=10; Theta=0; p=520; phaseX=180; phaseY=0}
! Header version: 2018
! Port assignment regex: !\s*Touchstone port\s*([0-9]+)\s*=\s*(CST MWS port|CST DS port)\s*([0-9]+|Zmin|Zmax)\s*\(\"(.*)\"\)(\s*mode\s*([0-9]+))?.*
! Touchstone port assignment:
! Touchstone port 1 = CST MWS port Zmax ("") mode 1
! Touchstone port 2 = CST MWS port Zmax ("") mode 2
! Touchstone port 3 = CST MWS port Zmin ("") mode 1
! Touchstone port 4 = CST MWS port Zmin ("") mode 2
! S-Parameters are not renormalized. Each port impedance will be approximated by the real part at minimum frequency. The values are described via the [Reference] keyword.
! Default impedance is overridden by [Reference]
[Version] 2.0
# GHz S RI R 376.73
[Number of Ports] 4
[Reference]
376.73 376.73 259.814 259.814 
[Number of Frequencies] 51
[Network Data]
281700                 0.0167751      0.00634382      0.000518666    -0.000575374         0.836393       -0.544021      0.000297246     4.34901e-05
                     0.000450049    -0.000391818        -0.109474      -0.0656549      0.000362847     0.000213833         0.181684       -0.970059
                        0.836517       -0.544042      0.000304021     0.000199087      -0.00117637       0.0185299     -0.000328457     0.000612028
                      0.00034763      0.00011906         0.181065       -0.969556     -0.000306676     0.000523733        -0.125151       0.0227031
281702                 0.0167809      0.00632659      0.000518608    -0.000575201         0.836178       -0.544351      0.000297219     4.31717e-05
                     0.000449792     -0.00039206        -0.109506      -0.0656251      0.000362975     0.000213678          0.18124        -0.97014
                        0.836301       -0.544373      0.000304221     0.000199017      -0.00117999       0.0185291      -0.00032812     0.000612091
                     0.000347693     0.000118912         0.180621       -0.969636     -0.000306455     0.000523836         -0.12515       0.0227783
281704                 0.0167866      0.00630935       0.00051855     -0.00057503         0.835962       -0.544682      0.000297192     4.28533e-05
                     0.000449535    -0.000392301        -0.109539      -0.0655953      0.000363103     0.000213523         0.180796        -0.97022
                        0.836086       -0.544704      0.000304421     0.000198945      -0.00118362       0.0185283     -0.000327783     0.000612154
                     0.000347755     0.000118765         0.180177       -0.969717     -0.000306234     0.000523939        -0.125149       0.0228534
281706                 0.0167924       0.0062921      0.000518491    -0.000574859         0.835747       -0.545012      0.000297164      4.2535e-05
                     0.000449277    -0.000392543        -0.109571      -0.0655655      0.000363231     0.000213368         0.180352       -0.970301
                         0.83587       -0.545034       0.00030462     0.000198874      -0.00118725       0.0185276     -0.000327445     0.000612216
                     0.000347818     0.000118618         0.179733       -0.969798     -0.000306013     0.000524042        -0.125148       0.0229286
281708                 0.0167982      0.00627486      0.000518431     -0.00057469         0.835531       -0.545343      0.000297134     4.22167e-05
                     0.000449019    -0.000392784        -0.109604      -0.0655357      0.000363359     0.000213213         0.179907       -0.970381
                        0.835654       -0.545365      0.000304819     0.000198802      -0.00119088       0.0185268     -0.000327108     0.000612278
                     0.000347881     0.000118471         0.179289       -0.969878     -0.000305791     0.000524146        -0.125147       0.0230038
281710                 0.0168039      0.00625761       0.00051837    -0.000574522         0.835315       -0.545673      0.000297104     4.18985e-05
                     0.000448761    -0.000393024        -0.109636      -0.0655059      0.000363487     0.000213058         0.179463       -0.970461
                        0.835438       -0.545695      0.000305017     0.000198729      -0.00119452       0.0185261      -0.00032677     0.000612339
                     0.000347944     0.000118323         0.178844       -0.969958      -0.00030557      0.00052425        -0.125146        0.023079
281712                 0.0168097      0.00624035      0.000518308    -0.000574355         0.835099       -0.546003      0.000297073     4.15804e-05
                     0.000448503    -0.000393265        -0.109669      -0.0654761      0.000363615     0.000212903         0.179019       -0.970541
                        0.835222       -0.546025      0.000305214     0.000198656      -0.00119815       0.0185253     -0.000326432       0.0006124
                     0.000348007     0.000118176           0.1784       -0.970038     -0.000305348     0.000524354        -0.125145       0.0231542
281714                 0.0168154       0.0062231      0.000518246    -0.000574189         0.834883       -0.546333      0.000297041     4.12623e-05
                     0.000448244    -0.000393504        -0.109701      -0.0654462      0.000363744     0.000212748         0.178574       -0.970621
                        0.835005       -0.546355      0.000305412     0.000198583      -0.00120178       0.0185246     -0.000326095      0.00061246
                     0.000348069     0.000118028         0.177956       -0.970117     -0.000305126     0.000524458        -0.125144       0.0232294
281716                 0.0168211      0.00620584      0.000518183    -0.000574025         0.834666       -0.546663      0.000297008     4.09442e-05
                     0.000447985    -0.000393744        -0.109734      -0.0654163      0.000363872     0.000212593          0.17813       -0.970701
                        0.834789       -0.546685      0.000305608     0.000198509      -0.00120542       0.0185239     -0.000325757      0.00061252
                     0.000348132     0.000117881         0.177511       -0.970197     -0.000304904     0.000524563        -0.125143       0.0233046
281718                 0.0168268      0.00618858      0.000518118    -0.000573861          0.83445       -0.546993      0.000296974     4.06262e-05
                     0.000447726    -0.000393983        -0.109766      -0.0653865         0.000364     0.000212439         0.177686        -0.97078
                        0.834572       -0.547015      0.000305805     0.000198435      -0.00120905       0.0185232     -0.000325419     0.000612579
                     0.000348195     0.000117733         0.177067       -0.970276     -0.000304682     0.000524668        -0.125142       0.0233798
281720                 0.0168325      0.00617131      0.000518054    -0.000573699         0.834233       -0.547323       0.00029694     4.03082e-05
                     0.000447467    -0.000394222        -0.109799      -0.0653565      0.000364129     0.000212284         0.177241       -0.970859
                        0.834356       -0.547345      0.000306001      0.00019836      -0.00121269       0.0185225     -0.000325081     0.000612638
                     0.000348257     0.000117586         0.176622       -0.970355     -0.000304459     0.000524773        -0.125141        0.023455
281722                 0.0168382      0.00615404      0.000517988    -0.000573538         0.834017       -0.547653      0.000296904     3.99902e-05
                     0.000447207     -0.00039446        -0.109831      -0.0653266      0.000364257      0.00021213         0.176796       -0.970938
                        0.834139       -0.547675      0.000306197     0.000198286      -0.00121632       0.0185218     -0.000324743     0.000612697
                      0.00034832     0.000117438         0.176178       -0.970434     -0.000304236     0.000524879         -0.12514       0.0235302
281724                 0.0168439      0.00613677      0.000517922    -0.000573378           0.8338       -0.547983      0.000296867     3.96722e-05
                     0.000446947    -0.000394698        -0.109864      -0.0652967      0.000364386     0.000211975         0.176352       -0.971017
                        0.833922       -0.548005      0.000306392      0.00019821      -0.00121996       0.0185211     -0.000324405     0.000612755
                     0.000348383     0.000117291         0.175733       -0.970512     -0.000304013     0.000524985        -0.125139       0.0236054
281726                 0.0168496      0.00611949      0.000517854    -0.000573219         0.833583       -0.548313       0.00029683     3.93543e-05
                     0.000446687    -0.000394936        -0.109896      -0.0652667      0.000364514     0.000211821         0.175907       -0.971095
                        0.833705       -0.548334      0.000306587     0.000198135       -0.0012236       0.0185204     -0.000324067     0.000612812
                     0.000348445     0.000117143         0.175288       -0.970591      -0.00030379     0.000525091        -0.125137       0.0236807
281728                 0.0168553      0.00610221      0.000517786    -0.000573061         0.833366       -0.548642      0.000296792     3.90363e-05
                     0.000446427    -0.000395173        -0.109929      -0.0652367      0.000364643     0.000211667         0.175463       -0.971173
                        0.833487       -0.548664      0.000306782     0.000198059      -0.00122724       0.0185197     -0.000323729     0.000612869
                     0.000348508     0.000116996         0.174844       -0.970669     -0.000303567     0.000525197        -0.125136       0.0237559
281730                 0.0168609      0.00608493      0.000517717    -0.000572904         0.833148       -0.548972      0.000296753     3.87184e-05
                     0.000446167    -0.000395409        -0.109961      -0.0652067      0.000364772     0.000211513         0.175018       -0.971251
                         0.83327       -0.548993      0.000306977     0.000197982      -0.00123088        0.018519     -0.000323391     0.000612926
                     0.000348571     0.000116848         0.174399       -0.970747     -0.000303343     0.000525304        -0.125135       0.0238311
281732                 0.0168666      0.00606765      0.000517647    -0.000572748         0.832931       -0.549301      0.000296712     3.84004e-05
                     0.000445906    -0.000395645        -0.109994      -0.0651767        0.0003649     0.000211359         0.174573       -0.971329
                        0.833053       -0.549323      0.000307171     0.000197906      -0.00123452       0.0185184     -0.000323052     0.000612982
                     0.000348633     0.000116701         0.173954       -0.970825     -0.000303119     0.000525411        -0.125133       0.0239064
281734                 0.0168722      0.00605036      0.000517577    -0.000572593         0.832714        -0.54963      0.000296671     3.80825e-05
                     0.000445645    -0.000395881        -0.110026      -0.0651467      0.000365029     0.000211206         0.174128       -0.971407
                        0.832835       -0.549652      0.000307365     0.000197829      -0.00123816       0.0185177     -0.000322714     0.000613037
                     0.000348696     0.000116553         0.173509       -0.970902     -0.000302895     0.000525518        -0.125132       0.0239816
281736                 0.0168778      0.00603307      0.000517505    -0.000572439         0.832496        -0.54996       0.00029663     3.77645e-05
                     0.000445385    -0.000396116        -0.110059      -0.0651167      0.000365158     0.000211052         0.173683       -0.971484
                        0.832617       -0.549981      0.000307558     0.000197751       -0.0012418        0.018517     -0.000322375     0.000613093
                     0.000348759     0.000116406         0.173064        -0.97098     -0.000302671     0.000525626         -0.12513       0.0240569
281738                 0.0168834      0.00601577      0.000517433    -0.000572287         0.832278       -0.550289      0.000296587     3.74465e-05
                     0.000445124    -0.000396351        -0.110091      -0.0650866      0.000365287     0.000210899         0.173238       -0.971562
                        0.832399       -0.550311      0.000307752     0.000197673      -0.00124544       0.0185164     -0.000322037     0.000613147
                     0.000348821     0.000116259          0.17262       -0.971057     -0.000302447     0.000525734        -0.125129       0.0241322
281740                  0.016889      0.00599848       0.00051736    -0.000572135          0.83206       -0.550618      0.000296543     3.71285e-05
                     0.000444863    -0.000396585        -0.110123      -0.0650565      0.000365415     0.000210745         0.172793       -0.971639
                        0.832181        -0.55064      0.000307945     0.000197595      -0.00124908       0.0185158     -0.000321698     0.000613202
                     0.000348884     0.000116111         0.172175       -0.971134     -0.000302222     0.000525842        -0.125127       0.0242074
281742                 0.0168946      0.00598117      0.000517286    -0.000571984         0.831842       -0.550947      0.000296499     3.68104e-05
                     0.000444603    -0.000396818        -0.110156      -0.0650264      0.000365544     0.000210592         0.172348       -0.971716
                        0.831963       -0.550969      0.000308138     0.000197517      -0.00125273       0.0185151     -0.000321359     0.000613255
                     0.000348946     0.000115964          0.17173       -0.971211     -0.000301997      0.00052595        -0.125125       0.0242827
281744                 0.0169002      0.00596387      0.000517212    -0.000571834         0.831624       -0.551276      0.000296453     3.64923e-05
                     0.000444343    -0.000397051        -0.110188      -0.0649963      0.000365673     0.000210439         0.171903       -0.971792
                        0.831745       -0.551298      0.000308331     0.000197438      -0.00125637       0.0185145      -0.00032102     0.000613309
                     0.000349009     0.000115817         0.171285       -0.971287     -0.000301772     0.000526059        -0.125124        0.024358
281746                 0.0169058      0.00594656      0.000517136    -0.000571685         0.831406       -0.551604      0.000296407     3.61742e-05
                     0.000444084    -0.000397284        -0.110221      -0.0649662      0.000365802     0.000210286         0.171458       -0.971869
                        0.831526       -0.551626      0.000308523     0.000197359      -0.00126002       0.0185139     -0.000320681     0.000613362
                     0.000349072      0.00011567          0.17084       -0.971364     -0.000301547     0.000526168        -0.125122       0.0244333
281748                 0.0169114      0.00592925       0.00051706    -0.000571537         0.831187       -0.551933       0.00029636      3.5856e-05
                     0.000443825    -0.000397517        -0.110253       -0.064936      0.000365931     0.000210134         0.171013       -0.971945
                        0.831308       -0.551955      0.000308716      0.00019728      -0.00126366       0.0185133     -0.000320342     0.000613414
                     0.000349134     0.000115522         0.170394        -0.97144     -0.000301321     0.000526277         -0.12512       0.0245086
281750                 0.0169169      0.00591194      0.000516983     -0.00057139         0.830969       -0.552262      0.000296312     3.55377e-05
                     0.000443567     -0.00039775        -0.110285      -0.0649059       0.00036606     0.000209981         0.170568       -0.972021
                        0.831089       -0.552284      0.000308908       0.0001972      -0.00126731       0.0185127     -0.000320003     0.000613466
                     0.000349196     0.000115375         0.169949       -0.971516     -0.000301095     0.000526387        -0.125118       0.0245839
281752                 0.0169225      0.00589462      0.000516905    -0.000571244          0.83075        -0.55259      0.000296263     3.52194e-05
                     0.000443309    -0.000397984        -0.110318      -0.0648757      0.000366189     0.000209828         0.170123       -0.972097
                         0.83087       -0.552612        0.0003091      0.00019712      -0.00127096       0.0185121     -0.000319663     0.000613518
                     0.000349259     0.000115228         0.169504       -0.971592      -0.00030087     0.000526497        -0.125116       0.0246592
281754                  0.016928       0.0058773      0.000516826    -0.000571098         0.830531       -0.552919      0.000296214      3.4901e-05
                     0.000443052    -0.000398219         -0.11035      -0.0648455      0.000366318     0.000209676         0.169678       -0.972173
                        0.830652       -0.552941      0.000309292     0.000197039      -0.00127461       0.0185115     -0.000319324     0.000613569
                     0.000349321     0.000115082         0.169059       -0.971667     -0.000300643     0.000526607        -0.125114       0.0247345
281756                 0.0169335      0.00585998      0.000516746    -0.000570954         0.830312       -0.553247      0.000296163     3.45825e-05
                     0.000442794    -0.000398455        -0.110383      -0.0648153      0.000366447     0.000209524         0.169232       -0.972248
                        0.830432       -0.553269      0.000309483     0.000196959      -0.00127825       0.0185109     -0.000318984      0.00061362
                     0.000349383     0.000114935         0.168614       -0.971743     -0.000300417     0.000526717        -0.125112       0.0248098
281758                 0.0169391      0.00584266      0.000516665    -0.000570811         0.830093       -0.553576      0.000296112     3.42639e-05
                     0.000442535    -0.000398691        -0.110415       -0.064785      0.000366576     0.000209372         0.168787       -0.972323
                        0.830213       -0.553597      0.000309675     0.000196878       -0.0012819       0.0185104     -0.000318644      0.00061367
                     0.000349446     0.000114788         0.168168       -0.971818      -0.00030019     0.000526828         -0.12511       0.0248851
281760                 0.0169446      0.00582533      0.000516584    -0.000570668         0.829874       -0.553904       0.00029606     3.39452e-05
                     0.000442276    -0.000398928        -0.110447      -0.0647548      0.000366705      0.00020922         0.168342       -0.972398
                        0.829994       -0.553926      0.000309866     0.000196796      -0.00128555       0.0185098     -0.000318304      0.00061372
                     0.000349508     0.000114641         0.167723       -0.971893     -0.000299964     0.000526939        -0.125108       0.0249605
281762                 0.0169501        0.005808      0.000516502    -0.000570526         0.829655       -0.554232      0.000296007     3.36265e-05
                     0.000442015    -0.000399163         -0.11048      -0.0647245      0.000366834     0.000209068         0.167896       -0.972473
                        0.829774       -0.554254      0.000310057     0.000196715       -0.0012892       0.0185092     -0.000317964      0.00061377
