! TOUCHSTONE file generated by CST MICROWAVE STUDIO
! Date and time: Tue Oct 14 07:25:51 2025
! Project name: Teste_Macro_Metasurface_Nanopilar.cst
! Parameters = {H=600; L_x=85; L_y=135; Lambda=1064; Max_L=200; Min_L=70; PathPara=1; Phi=0; Step_L=10; Theta=0; p=520; phaseX=180; phaseY=0}
! Header version: 2018
! Port assignment regex: !\s*Touchstone port\s*([0-9]+)\s*=\s*(CST MWS port|CST DS port)\s*([0-9]+|Zmin|Zmax)\s*\(\"(.*)\"\)(\s*mode\s*([0-9]+))?.*
! Touchstone port assignment:
! Touchstone port 1 = CST MWS port Zmax ("") mode 1
! Touchstone port 2 = CST MWS port Zmax ("") mode 2
! Touchstone port 3 = CST MWS port Zmin ("") mode 1
! Touchstone port 4 = CST MWS port Zmin ("") mode 2
! S-Parameters are not renormalized. Each port impedance will be approximated by the real part at minimum frequency. The values are described via the [Reference] keyword.
! Default impedance is overridden by [Reference]
[Version] 2.0
# GHz S RI R 376.73
[Number of Ports] 4
[Reference]
376.73 376.73 259.814 259.814 
[Number of Frequencies] 51
[Network Data]
281700                -0.0945711        0.128637      0.000256449     -0.00029415         -0.87861       -0.428678      7.90293e-05    -8.36485e-05
                     0.000400869    -9.37198e-05        0.0167386       0.0533939      2.63943e-06     0.000147296         0.932461       -0.353207
                       -0.878686       -0.428163     -0.000166229     0.000108067       -0.0449877        0.153114      -1.8145e-05     0.000205469
                     5.49303e-05    -3.51363e-05         0.932386       -0.353922     -1.68227e-05     0.000218258        0.0227275       0.0514862
281702                   -0.0945        0.128664       0.00025617     -0.00029426        -0.878838       -0.428217      7.90337e-05    -8.37333e-05
                     0.000401463    -9.37566e-05        0.0167621       0.0533809      2.61653e-06      0.00014725         0.932327       -0.353562
                       -0.878914       -0.427702     -0.000166092     0.000108137       -0.0448914        0.153121      -1.8072e-05     0.000205483
                     5.49987e-05    -3.51292e-05         0.932251       -0.354278     -1.67146e-05     0.000218248        0.0227403       0.0514747
281704                -0.0944289        0.128691      0.000255891     -0.00029437        -0.879066       -0.427755      7.90379e-05    -8.38178e-05
                     0.000402057    -9.37939e-05        0.0167857       0.0533678      2.59335e-06     0.000147205         0.932192       -0.353917
                       -0.879142        -0.42724     -0.000165954     0.000108206       -0.0447952        0.153128     -1.79988e-05     0.000205497
                     5.50673e-05    -3.51222e-05         0.932117       -0.354634     -1.66065e-05     0.000218239        0.0227531       0.0514633
281706                -0.0943578        0.128718      0.000255613     -0.00029448        -0.879294       -0.427293      7.90418e-05    -8.39022e-05
                     0.000402651    -9.38318e-05        0.0168092       0.0533547      2.56989e-06      0.00014716         0.932057       -0.354273
                       -0.879369       -0.426778     -0.000165815     0.000108275        -0.044699        0.153135     -1.79256e-05     0.000205511
                      5.5136e-05    -3.51155e-05         0.931982       -0.354989     -1.64985e-05     0.000218229        0.0227659       0.0514518
281708                -0.0942867        0.128745      0.000255334     -0.00029459        -0.879522       -0.426831      7.90455e-05    -8.39863e-05
                     0.000403246    -9.38701e-05        0.0168328       0.0533416      2.54615e-06     0.000147116         0.931922       -0.354628
                       -0.879597       -0.426317     -0.000165675     0.000108344       -0.0446028        0.153142     -1.78524e-05     0.000205525
                     5.52049e-05    -3.51088e-05         0.931847       -0.355344     -1.63905e-05      0.00021822        0.0227787       0.0514403
281710                -0.0942155        0.128771      0.000255057      -0.0002947        -0.879749       -0.426369      7.90488e-05    -8.40703e-05
                      0.00040384     -9.3909e-05        0.0168563       0.0533285      2.52213e-06     0.000147071         0.931787       -0.354983
                       -0.879824       -0.425855     -0.000165535     0.000108412       -0.0445066        0.153149      -1.7779e-05     0.000205539
                     5.52739e-05    -3.51023e-05         0.931712         -0.3557     -1.62825e-05      0.00021821        0.0227915       0.0514288
281712                -0.0941444        0.128798      0.000254779    -0.000294809        -0.879976       -0.425906      7.90518e-05     -8.4154e-05
                     0.000404434    -9.39483e-05        0.0168798       0.0533154      2.49784e-06     0.000147026         0.931652       -0.355338
                       -0.880051       -0.425392     -0.000165394      0.00010848       -0.0444104        0.153156     -1.77056e-05     0.000205553
                      5.5343e-05     -3.5096e-05         0.931577       -0.356055     -1.61746e-05       0.0002182        0.0228043       0.0514174
281714                -0.0940732        0.128825      0.000254502    -0.000294919        -0.880203       -0.425444      7.90546e-05    -8.42375e-05
                     0.000405028    -9.39882e-05        0.0169033       0.0533023      2.47326e-06     0.000146982         0.931516       -0.355693
                       -0.880278        -0.42493     -0.000165252     0.000108547       -0.0443143        0.153163     -1.76322e-05     0.000205566
                     5.54123e-05    -3.50898e-05         0.931442        -0.35641     -1.60667e-05     0.000218191        0.0228171       0.0514059
281716                 -0.094002        0.128851      0.000254226    -0.000295029         -0.88043       -0.424981      7.90571e-05    -8.43207e-05
                     0.000405622    -9.40285e-05        0.0169268       0.0532891       2.4484e-06     0.000146938         0.931381       -0.356048
                       -0.880504       -0.424468      -0.00016511     0.000108614       -0.0442181         0.15317     -1.75587e-05      0.00020558
                     5.54816e-05    -3.50838e-05         0.931307       -0.356766     -1.59588e-05     0.000218181        0.0228299       0.0513944
281718                -0.0939309        0.128878      0.000253951    -0.000295138        -0.880657       -0.424519      7.90592e-05    -8.44038e-05
                     0.000406216    -9.40694e-05        0.0169503        0.053276      2.42326e-06     0.000146894         0.931245       -0.356403
                        -0.88073       -0.424005     -0.000164967     0.000108681       -0.0441219        0.153176     -1.74851e-05     0.000205593
                     5.55511e-05    -3.50779e-05         0.931171       -0.357121      -1.5851e-05     0.000218171        0.0228426       0.0513829
281720                -0.0938597        0.128905      0.000253676    -0.000295247        -0.880883       -0.424056      7.90611e-05    -8.44866e-05
                      0.00040681    -9.41108e-05        0.0169738       0.0532628      2.39783e-06      0.00014685         0.931109       -0.356758
                       -0.880956       -0.423543     -0.000164823     0.000108748       -0.0440258        0.153183     -1.74114e-05     0.000205607
                     5.56207e-05    -3.50721e-05         0.931036       -0.357476     -1.57433e-05      0.00021816        0.0228554       0.0513714
281722                -0.0937885        0.128931      0.000253401    -0.000295355        -0.881109       -0.423593      7.90628e-05    -8.45693e-05
                     0.000407405    -9.41527e-05        0.0169973       0.0532496      2.37212e-06     0.000146806         0.930974       -0.357113
                       -0.881182        -0.42308     -0.000164679     0.000108814       -0.0439297         0.15319     -1.73377e-05      0.00020562
                     5.56904e-05    -3.50665e-05           0.9309       -0.357831     -1.56355e-05      0.00021815        0.0228681       0.0513599
281724                -0.0937173        0.128958      0.000253128    -0.000295463        -0.881335        -0.42313      7.90641e-05    -8.46517e-05
                     0.000407999    -9.41951e-05        0.0170208       0.0532365      2.34613e-06     0.000146762         0.930837       -0.357468
                       -0.881408       -0.422617     -0.000164534      0.00010888       -0.0438335        0.153196      -1.7264e-05     0.000205634
                     5.57602e-05     -3.5061e-05         0.930764       -0.358186     -1.55279e-05      0.00021814        0.0228809       0.0513485
281726                 -0.093646        0.128984      0.000252854     -0.00029557         -0.88156       -0.422667      7.90651e-05    -8.47339e-05
                     0.000408593     -9.4238e-05        0.0170443       0.0532233      2.31985e-06     0.000146719         0.930701       -0.357823
                       -0.881633       -0.422154     -0.000164388     0.000108945       -0.0437374        0.153202     -1.71901e-05     0.000205647
                       5.583e-05    -3.50557e-05         0.930628       -0.358541     -1.54202e-05     0.000218129        0.0228936        0.051337
281728                -0.0935748         0.12901      0.000252581    -0.000295676        -0.881785       -0.422203      7.90659e-05    -8.48159e-05
                     0.000409187    -9.42814e-05        0.0170678       0.0532101      2.29328e-06     0.000146675         0.930565       -0.358177
                       -0.881858       -0.421691     -0.000164242      0.00010901       -0.0436413        0.153209     -1.71162e-05      0.00020566
                        5.59e-05    -3.50505e-05         0.930492       -0.358896     -1.53126e-05     0.000218119        0.0229064       0.0513255
281730                -0.0935036        0.129037      0.000252309    -0.000295781         -0.88201        -0.42174      7.90664e-05    -8.48976e-05
                     0.000409782    -9.43253e-05        0.0170912       0.0531969      2.26642e-06     0.000146632         0.930428       -0.358532
                       -0.882083       -0.421228     -0.000164095     0.000109075       -0.0435452        0.153215     -1.70423e-05     0.000205673
                       5.597e-05    -3.50455e-05         0.930356       -0.359251     -1.52051e-05     0.000218108        0.0229191        0.051314
281732                -0.0934323        0.129063      0.000252036    -0.000295885        -0.882235       -0.421276      7.90666e-05    -8.49792e-05
                     0.000410376    -9.43697e-05        0.0171147       0.0531837      2.23926e-06     0.000146588         0.930292       -0.358887
                       -0.882307       -0.420765     -0.000163948     0.000109139       -0.0434491        0.153221     -1.69683e-05     0.000205687
                     5.60401e-05    -3.50405e-05         0.930219       -0.359606     -1.50975e-05     0.000218098        0.0229318       0.0513025
281734                 -0.093361        0.129089      0.000251764    -0.000295989         -0.88246       -0.420813      7.90665e-05    -8.50605e-05
                     0.000410971    -9.44146e-05        0.0171381       0.0531704      2.21178e-06     0.000146545         0.930155       -0.359241
                       -0.882531       -0.420301       -0.0001638     0.000109203        -0.043353        0.153227     -1.68942e-05       0.0002057
                     5.61102e-05    -3.50357e-05         0.930083        -0.35996     -1.49901e-05     0.000218087        0.0229445        0.051291
281736                -0.0932898        0.129116      0.000251492    -0.000296091        -0.882684       -0.420349      7.90661e-05    -8.51417e-05
                     0.000411565      -9.446e-05        0.0171616       0.0531572      2.18398e-06     0.000146501         0.930018       -0.359596
                       -0.882756       -0.419838     -0.000163652     0.000109267        -0.043257        0.153234       -1.682e-05     0.000205712
                     5.61804e-05    -3.50311e-05         0.929946       -0.360315     -1.48826e-05     0.000218076        0.0229573       0.0512795
281738                -0.0932185        0.129142       0.00025122    -0.000296193        -0.882908       -0.419885      7.90655e-05    -8.52226e-05
                      0.00041216    -9.45059e-05         0.017185       0.0531439       2.1558e-06     0.000146457         0.929881        -0.35995
                       -0.882979       -0.419374     -0.000163503      0.00010933       -0.0431609         0.15324     -1.67458e-05     0.000205725
                     5.62506e-05    -3.50265e-05         0.929809        -0.36067     -1.47751e-05     0.000218066          0.02297        0.051268
281740                -0.0931472        0.129168      0.000250948    -0.000296294        -0.883132       -0.419421      7.90645e-05    -8.53033e-05
                     0.000412754    -9.45523e-05        0.0172084       0.0531307      2.12717e-06     0.000146412         0.929744       -0.360305
                       -0.883203        -0.41891     -0.000163353     0.000109393       -0.0430648        0.153246     -1.66716e-05     0.000205738
                     5.63209e-05    -3.50221e-05         0.929672       -0.361025     -1.46676e-05     0.000218055        0.0229827       0.0512565
281742                -0.0930759        0.129194      0.000250676    -0.000296394        -0.883356       -0.418957      7.90633e-05    -8.53838e-05
                     0.000413349    -9.45992e-05        0.0172319       0.0531174      2.09779e-06     0.000146363         0.929607       -0.360659
                       -0.883426       -0.418446     -0.000163203     0.000109456       -0.0429688        0.153251     -1.65972e-05     0.000205751
                     5.63913e-05    -3.50179e-05         0.929535       -0.361379     -1.45597e-05     0.000218045        0.0229954        0.051245
281744                -0.0930046         0.12922      0.000250404    -0.000296493        -0.883579       -0.418493      7.90618e-05    -8.54641e-05
                     0.000413944    -9.46466e-05        0.0172553       0.0531041      2.06694e-06     0.000146291         0.929469       -0.361013
                       -0.883649       -0.417982     -0.000163053     0.000109518       -0.0428728        0.153257     -1.65229e-05     0.000205764
                     5.64617e-05    -3.50138e-05         0.929398       -0.361734     -1.44501e-05     0.000218036         0.023008       0.0512335
281746                -0.0929332        0.129246      0.000250131    -0.000296591        -0.883803       -0.418028      7.90601e-05    -8.55442e-05
                     0.000414538    -9.46945e-05        0.0172787       0.0530909       2.0681e-06     0.000146381         0.929332       -0.361368
                       -0.883872       -0.417518     -0.000162902      0.00010958       -0.0427766        0.153263     -1.64484e-05     0.000205776
                     5.65321e-05    -3.50099e-05         0.929261       -0.362088     -1.43329e-05     0.000218018        0.0230207        0.051222
281748                -0.0928619        0.129272      0.000249858    -0.000296688        -0.884025       -0.417563       7.9058e-05    -8.56241e-05
                     0.000415132    -9.47428e-05        0.0173021       0.0530776      2.01831e-06     0.000146281         0.929194       -0.361722
                       -0.884095       -0.417054      -0.00016275     0.000109642       -0.0426807        0.153269     -1.63739e-05     0.000205789
                     5.66026e-05    -3.50062e-05         0.929123       -0.362442     -1.42359e-05        0.000218        0.0230334       0.0512105
281750                -0.0927906        0.129298      0.000249586    -0.000296783        -0.884248       -0.417099      7.90557e-05    -8.57037e-05
                     0.000415726    -9.47916e-05        0.0173255       0.0530643      1.98657e-06      0.00014623         0.929056       -0.362076
                       -0.884317       -0.416589     -0.000162598     0.000109703       -0.0425847        0.153274     -1.62993e-05     0.000205801
                     5.66732e-05     -3.5003e-05         0.928985       -0.362797     -1.41314e-05     0.000217991        0.0230461        0.051199
281752                -0.0927192        0.129324      0.000249314    -0.000296876         -0.88447       -0.416634      7.90531e-05    -8.57832e-05
                     0.000416319    -9.48407e-05        0.0173489       0.0530509      1.95593e-06     0.000146185         0.928918        -0.36243
                       -0.884539       -0.416125     -0.000162446     0.000109764       -0.0424887         0.15328     -1.62247e-05     0.000205814
                     5.67436e-05    -3.50006e-05         0.928848       -0.363151      -1.4025e-05      0.00021798        0.0230587       0.0511875
281754                -0.0926478         0.12935      0.000249044    -0.000296966        -0.884692       -0.416169      7.90502e-05    -8.58625e-05
                     0.000416908    -9.48894e-05        0.0173723       0.0530376      1.92541e-06     0.000146143          0.92878       -0.362784
                       -0.884761        -0.41566     -0.000162293     0.000109825       -0.0423927        0.153285     -1.61501e-05     0.000205826
                     5.68132e-05    -3.50006e-05          0.92871       -0.363505     -1.39182e-05     0.000217969        0.0230714        0.051176
281756                -0.0925767        0.129375       0.00024878    -0.000297058        -0.884914       -0.415704      7.90471e-05    -8.59416e-05
                     0.000417461    -9.49005e-05        0.0173956       0.0530243      1.89478e-06     0.000146101         0.928642       -0.363138
                       -0.884981       -0.415201      -0.00016214     0.000109885       -0.0422967        0.153291     -1.60754e-05     0.000205838
                     5.68686e-05    -3.50017e-05         0.928572        -0.36386     -1.38114e-05     0.000217957        0.0230841       0.0511645
281758                 -0.092505        0.129402      0.000248517    -0.000297157        -0.885136       -0.415239      7.90436e-05    -8.60205e-05
                     0.000418136    -9.49891e-05         0.017419       0.0530109      1.86396e-06      0.00014606         0.928504       -0.363492
                       -0.885204        -0.41473     -0.000161987     0.000109945       -0.0422007        0.153296     -1.60006e-05      0.00020585
                     5.69436e-05    -3.49778e-05         0.928434       -0.364214     -1.37047e-05     0.000217946        0.0230967        0.051153
281760                -0.0924336        0.129427      0.000248247    -0.000297259        -0.885357       -0.414774      7.90398e-05    -8.60993e-05
                      0.00041872    -9.50435e-05        0.0174424       0.0529976      1.83292e-06      0.00014602         0.928365       -0.363846
                       -0.885426       -0.414265     -0.000161834     0.000110005       -0.0421048        0.153302     -1.59259e-05     0.000205863
                     5.70202e-05    -3.49755e-05         0.928295       -0.364568     -1.35979e-05     0.000217933        0.0231094       0.0511415
281762                -0.0923622        0.129453      0.000247974    -0.000297359        -0.885579       -0.414308      7.90357e-05    -8.61781e-05
                     0.000419313    -9.50959e-05        0.0174657       0.0529842      1.80164e-06     0.000145979         0.928227         -0.3642
                       -0.885646         -0.4138     -0.000161669     0.000110064       -0.0420088        0.153307     -1.58513e-05     0.000205875
