! TOUCHSTONE file generated by CST MICROWAVE STUDIO
! Date and time: Tue Oct 14 07:30:58 2025
! Project name: Teste_Macro_Metasurface_Nanopilar.cst
! Parameters = {H=600; L_x=165; L_y=170; Lambda=1064; Max_L=200; Min_L=70; PathPara=1; Phi=0; Step_L=10; Theta=0; p=520; phaseX=180; phaseY=0}
! Header version: 2018
! Port assignment regex: !\s*Touchstone port\s*([0-9]+)\s*=\s*(CST MWS port|CST DS port)\s*([0-9]+|Zmin|Zmax)\s*\(\"(.*)\"\)(\s*mode\s*([0-9]+))?.*
! Touchstone port assignment:
! Touchstone port 1 = CST MWS port Zmax ("") mode 1
! Touchstone port 2 = CST MWS port Zmax ("") mode 2
! Touchstone port 3 = CST MWS port Zmin ("") mode 1
! Touchstone port 4 = CST MWS port Zmin ("") mode 2
! S-Parameters are not renormalized. Each port impedance will be approximated by the real part at minimum frequency. The values are described via the [Reference] keyword.
! Default impedance is overridden by [Reference]
[Version] 2.0
# GHz S RI R 376.73
[Number of Ports] 4
[Reference]
376.73 376.73 259.814 259.814 
[Number of Frequencies] 51
[Network Data]
281700                 -0.182993      -0.0522998      9.70624e-05    -0.000206383         0.844808         0.49287      1.45007e-05     -0.00011865
                     0.000165525    -0.000102416        -0.178296      -0.0453909      0.000123558     1.55647e-05         0.819294        0.537016
                        0.845485        0.493137      0.000120546    -1.43158e-05         0.134483        0.130961      0.000240557    -0.000160096
                     3.44521e-05     6.01406e-05         0.819332        0.536946      0.000209234    -0.000200723         0.111899        0.142738
281702                 -0.183013       -0.052263      9.68142e-05    -0.000206272         0.845012        0.492526      1.42092e-05    -0.000118844
                     0.000165595    -0.000102393        -0.178313      -0.0453555      0.000123398     1.55539e-05         0.819513        0.536682
                        0.845687        0.492791      0.000120651     -1.2361e-05         0.134571        0.130887      0.000240355    -0.000160294
                     3.49253e-05     6.02949e-05         0.819553        0.536608      0.000208933    -0.000200787         0.111992        0.142676
281704                 -0.183034      -0.0522263      9.65666e-05     -0.00020616         0.845215        0.492182      1.39091e-05    -0.000119036
                     0.000165653    -0.000102362        -0.178331      -0.0453201      0.000123239      1.5543e-05         0.819732        0.536347
                        0.845888        0.492446      0.000120724      -9.859e-06         0.134658        0.130812       0.00024016    -0.000160484
                     3.53843e-05     6.04515e-05         0.819774        0.536269      0.000208632    -0.000200852         0.112084        0.142613
281706                 -0.183055      -0.0521896      9.63192e-05    -0.000206046         0.845418        0.491838      1.35995e-05    -0.000119225
                     0.000165698    -0.000102321        -0.178348      -0.0452846      0.000123082     1.55321e-05          0.81995        0.536012
                         0.84609          0.4921      0.000120723    -6.48396e-06         0.134746        0.130738      0.000239972    -0.000160664
                     3.58272e-05     6.06121e-05         0.819995         0.53593       0.00020833    -0.000200916         0.112176        0.142551
281708                 -0.183076      -0.0521528      9.60718e-05     -0.00020593          0.84562        0.491494        1.328e-05    -0.000119411
                     0.000165729     -0.00010227        -0.178365      -0.0452492      0.000122925      1.5521e-05         0.820168        0.535677
                        0.846291        0.491754      0.000120536     -1.5883e-06         0.134833        0.130663      0.000239793    -0.000160835
                     3.62519e-05      6.0779e-05         0.820216        0.535592      0.000208027    -0.000200979         0.112268        0.142488
281710                 -0.183097       -0.052116      9.58239e-05    -0.000205811         0.845822        0.491149      1.29496e-05    -0.000119593
                     0.000165744    -0.000102208        -0.178383      -0.0452138       0.00012277     1.55098e-05         0.820385        0.535341
                        0.846491        0.491407      0.000119811     6.32007e-06          0.13492        0.130589      0.000239622    -0.000160996
                      3.6656e-05     6.09545e-05         0.820436        0.535253      0.000207723    -0.000201042          0.11236        0.142426
281712                 -0.183117      -0.0520792      9.55749e-05     -0.00020569         0.846023        0.490805      1.26075e-05    -0.000119772
                     0.000165742    -0.000102134          -0.1784      -0.0451784      0.000122617     1.54984e-05         0.820603        0.535005
                        0.846692        0.491061      0.000117058     2.15734e-05         0.135008        0.130514       0.00023946    -0.000161144
                     3.70369e-05     6.11417e-05         0.820656        0.534914      0.000207417    -0.000201104         0.112453        0.142364
281714                 -0.183138      -0.0520424      9.53236e-05    -0.000205566         0.846224         0.49046      1.22525e-05    -0.000119947
                     0.000165721    -0.000102046        -0.178417      -0.0451429      0.000122465     1.54868e-05          0.82082        0.534668
                        0.846892        0.490714      0.000100216     6.29488e-05         0.135095        0.130439      0.000239308    -0.000161281
                     3.73919e-05     6.13443e-05         0.820875        0.534575       0.00020711    -0.000201166         0.112545        0.142301
281716                 -0.183159      -0.0520056      9.50689e-05    -0.000205438         0.846425        0.490116      1.18835e-05    -0.000120118
                      0.00016568    -0.000101943        -0.178435      -0.0451075      0.000122315      1.5475e-05         0.821037        0.534331
                        0.847091        0.490367     -0.000178726    -2.74563e-05         0.135182        0.130364      0.000239165    -0.000161403
                     3.77179e-05     6.15667e-05         0.821095        0.534236      0.000206801    -0.000201227         0.112637        0.142239
281718                  -0.18318      -0.0519688      9.48084e-05    -0.000205306         0.846625        0.489771      1.14989e-05    -0.000120286
                     0.000165616    -0.000101824        -0.178452      -0.0450721      0.000122167     1.54629e-05         0.821254        0.533993
                        0.847291        0.490021      9.32394e-05    -0.000103011         0.135268        0.130289      0.000239033     -0.00016151
                     3.80115e-05     6.18142e-05         0.821314        0.533897       0.00020649    -0.000201288         0.112729        0.142177
281720                 -0.183201      -0.0519319      9.45389e-05    -0.000205168         0.846824        0.489426      1.10968e-05    -0.000120448
                     0.000165526    -0.000101686        -0.178469      -0.0450366      0.000122022     1.54504e-05          0.82147        0.533655
                         0.84749        0.489673      0.000113279    -6.57798e-05         0.135355        0.130214      0.000238911      -0.0001616
                     3.82689e-05     6.20938e-05         0.821532        0.533559      0.000206176    -0.000201348         0.112821        0.142114
281722                 -0.183221       -0.051895      9.42552e-05    -0.000205024         0.847022        0.489081       1.0675e-05    -0.000120608
                     0.000165408    -0.000101527        -0.178486      -0.0450012       0.00012188     1.54375e-05         0.821687        0.533317
                        0.847689        0.489326      0.000117978    -5.13653e-05         0.135442        0.130139      0.000238801    -0.000161671
                     3.84858e-05     6.24138e-05         0.821751         0.53322      0.000205859    -0.000201407         0.112913        0.142052
281724                 -0.183242      -0.0518581      9.39488e-05    -0.000204873          0.84722        0.488736      1.02304e-05    -0.000120764
                     0.000165258    -0.000101343        -0.178503      -0.0449658      0.000121742     1.54239e-05         0.821903        0.532978
                        0.847888        0.488979      0.000120007    -4.36771e-05         0.135528        0.130064      0.000238703    -0.000161722
                     3.86574e-05     6.27852e-05         0.821969        0.532881      0.000205538    -0.000201466         0.113005         0.14199
281726                 -0.183263      -0.0518212      9.36049e-05    -0.000204715         0.847416         0.48839      9.75954e-06    -0.000120919
                      0.00016507     -0.00010113         -0.17852      -0.0449303      0.000121608     1.54096e-05          0.82212        0.532638
                        0.848087        0.488631      0.000121213    -3.87848e-05         0.135614        0.129989      0.000238619    -0.000161749
                      3.8778e-05     6.32223e-05         0.822187        0.532542      0.000205213    -0.000201524         0.113097        0.141928
281728                 -0.183284      -0.0517842      9.31965e-05    -0.000204552         0.847611        0.488044      9.25767e-06    -0.000121076
                      0.00016484    -0.000100882        -0.178537      -0.0448949       0.00012148     1.53941e-05         0.822336        0.532298
                        0.848285        0.488284      0.000122091    -3.52952e-05         0.135701        0.129914       0.00023855    -0.000161749
                     3.88408e-05     6.37443e-05         0.822404        0.532203      0.000204882    -0.000201582         0.113189        0.141865
281730                 -0.183305      -0.0517472      9.26699e-05    -0.000204396         0.847805        0.487696       8.7189e-06     -0.00012124
                      0.00016456    -0.000100593        -0.178554      -0.0448594      0.000121358     1.53773e-05         0.822553        0.531957
                        0.848483        0.487936      0.000122819    -3.25884e-05         0.135787        0.129838      0.000238498    -0.000161719
                     3.88379e-05      6.4378e-05         0.822622        0.531864      0.000204543    -0.000201639         0.113282        0.141803
281732                 -0.183325      -0.0517102      9.19075e-05    -0.000204301         0.847997        0.487347      8.13609e-06    -0.000121422
                      0.00016422     -0.00010025        -0.178571      -0.0448239      0.000121247     1.53584e-05          0.82277        0.531616
                         0.84868        0.487589      0.000123473    -3.03428e-05         0.135873        0.129763      0.000238464    -0.000161654
                     3.87588e-05     6.51617e-05         0.822839        0.531525      0.000204195    -0.000201694         0.113374         0.14174
281734                 -0.183346      -0.0516731      9.06319e-05     -0.00020451         0.848188        0.486995      7.50175e-06    -0.000121638
                     0.000163804    -9.98377e-05        -0.178588      -0.0447884      0.000121148     1.53368e-05         0.822987        0.531275
                        0.848877        0.487241       0.00012409    -2.83697e-05         0.135958        0.129688      0.000238453    -0.000161548
                     3.85899e-05     6.61528e-05         0.823055        0.531186      0.000203833    -0.000201749         0.113466        0.141678
281736                 -0.183367       -0.051636      8.85311e-05    -0.000206454         0.848378        0.486639      6.81189e-06    -0.000121923
                     0.000163292    -9.93317e-05        -0.178605      -0.0447528      0.000121067     1.53108e-05         0.823205        0.530933
                        0.849074        0.486894      0.000124683    -2.65465e-05         0.136044        0.129612      0.000238469    -0.000161393
                     3.83115e-05     6.74427e-05         0.823272        0.530847      0.000203453    -0.000201801         0.113557        0.141615
281738                 -0.183388      -0.0515987      9.15899e-05    -0.000212042         0.848568        0.486276       6.0789e-06    -0.000122332
                     0.000162649    -9.86909e-05        -0.178622      -0.0447171      0.000121013     1.52782e-05         0.823423        0.530591
                        0.849271        0.486547      0.000125251    -2.47859e-05          0.13613        0.129537      0.000238522    -0.000161179
                     3.78922e-05     6.91861e-05         0.823488        0.530508      0.000203047    -0.000201851         0.113649        0.141553
281740                 -0.183409      -0.0515613      9.63791e-05    -0.000208722         0.848764        0.485905      5.36742e-06     -0.00012295
                     0.000161812    -9.78425e-05        -0.178638      -0.0446813      0.000121002     1.52346e-05         0.823642        0.530249
                        0.849466          0.4862      0.000125781    -2.30212e-05         0.136215        0.129461      0.000238624    -0.000160892
                     3.72752e-05     7.16704e-05         0.823704        0.530169      0.000202598    -0.000201897         0.113741         0.14149
281742                 -0.183431      -0.0515235      9.63244e-05    -0.000206146         0.848975        0.485526      4.86443e-06    -0.000123837
                     0.000160657    -9.66431e-05        -0.178655      -0.0446455      0.000121065     1.51706e-05         0.823862        0.529907
                        0.849661        0.485855      0.000126244    -2.12004e-05           0.1363        0.129385        0.0002388    -0.000160511
                     3.63359e-05     7.54992e-05          0.82392         0.52983      0.000202078    -0.000201935         0.113833        0.141428
281744                 -0.183452      -0.0514852      9.59294e-05    -0.000204861          0.84921        0.485151       4.8821e-06    -0.000124837
                     0.000158884    -9.47637e-05        -0.178672      -0.0446095      0.000121276     1.50638e-05         0.824083        0.529565
                        0.849854        0.485513      0.000126597    -1.92859e-05         0.136385        0.129309      0.000239095    -0.000160006
                     3.47186e-05     8.21961e-05         0.824135        0.529491      0.000201417    -0.000201956         0.113925        0.141365
281746                 -0.183475      -0.0514454      9.56518e-05    -0.000203959         0.849469        0.484807      5.47997e-06    -0.000125421
                     0.000155517    -9.12527e-05        -0.178688      -0.0445734      0.000121849     1.48419e-05         0.824305        0.529223
                        0.850042        0.485178       0.00012678    -1.72597e-05         0.136468        0.129232      0.000239602    -0.000159337
                     3.08433e-05     9.70325e-05          0.82435        0.529151      0.000200408    -0.000201928         0.114017        0.141302
281748                 -0.183497      -0.0513993      9.54678e-05    -0.000203127         0.849717        0.484517      6.12322e-06    -0.000125256
                     0.000144726    -8.19551e-05        -0.178705      -0.0445372      0.000123818     1.40922e-05         0.824529        0.528881
                        0.850212        0.484869      0.000126722    -1.51316e-05          0.13655        0.129151      0.000240531    -0.000158459
                     4.14311e-06     0.000157026         0.824565        0.528812      0.000197992    -0.000201614         0.114109        0.141239
281750                 -0.183479      -0.0513505      9.53062e-05    -0.000202221         0.849903        0.484251      6.35128e-06     -0.00012465
                      9.3898e-05    -0.000205307        -0.178722      -0.0445009      0.000126347    -4.55095e-05         0.824759        0.528538
                        0.849896        0.484672      0.000126346    -1.29493e-05         0.136651        0.129055      0.000242417    -0.000157438
                    -1.03839e-06    -7.25296e-05         0.824779        0.528472      0.000227312     -0.00016444           0.1142        0.141176
281752                 -0.183515      -0.0513473       9.5062e-05    -0.000201159         0.850035        0.483946      6.18254e-06    -0.000123976
                     0.000169878    -0.000121367        -0.178739      -0.0444645      0.000114362     1.62304e-05         0.825002        0.528179
                        0.850687        0.483939      0.000125595    -1.08029e-05         0.136745        0.129005      0.000246521     -0.00015733
                     3.24388e-05      1.6649e-05         0.824994        0.528132      0.000205141     -0.00020224         0.114292        0.141114
281754                 -0.183544      -0.0513096      9.45794e-05    -0.000199928         0.850171        0.483586      5.78565e-06    -0.000123372
                     0.000165777    -0.000110904        -0.178756      -0.0444282      0.000116624     1.59399e-05         0.825179        0.527755
                        0.850872         0.48366      0.000124456    -8.81717e-06         0.136824        0.128933      0.000251494    -0.000163608
                     3.28064e-05      3.4473e-05         0.825208        0.527792      0.000202911    -0.000202374         0.114384        0.141051
281756                 -0.183568      -0.0512715      9.36764e-05    -0.000198642         0.850335        0.483205      5.28095e-06    -0.000122843
                     0.000163289    -0.000107149        -0.178773      -0.0443918       0.00011725     1.58146e-05         0.825347        0.527478
                        0.851062        0.483329      0.000122974    -7.12495e-06         0.136907        0.128858      0.000245481    -0.000170943
                     3.14912e-05     4.21241e-05         0.825422        0.527451      0.000201863    -0.000202412         0.114475        0.140988
281758                  -0.18359      -0.0512337      9.22718e-05    -0.000197583         0.850521        0.482826      4.73173e-06    -0.000122362
                      0.00016135    -0.000105122         -0.17879      -0.0443554      0.000117477     1.57567e-05         0.825576         0.52716
                        0.851255        0.482987      0.000121259     -5.8301e-06         0.136991        0.128782      0.000239845    -0.000169446
                      2.9668e-05     4.64635e-05         0.825636         0.52711      0.000201089    -0.000202428         0.114566        0.140926
281760                 -0.183612      -0.0511961      9.05496e-05    -0.000197069         0.850719        0.482453      4.16962e-06    -0.000121899
                     0.000159582     -0.00010379        -0.178807      -0.0443191      0.000117544     1.57347e-05         0.825801        0.526828
                        0.851449        0.482639      0.000119457    -4.97634e-06         0.137075        0.128706      0.000237792    -0.000167102
                     2.74775e-05     4.93078e-05         0.825851        0.526768      0.000200383    -0.000202415         0.114653        0.140865
281762                 -0.183634      -0.0511586      8.88958e-05    -0.000197178          0.85092        0.482088       3.6116e-06    -0.000121434
                      0.00015782    -0.000102811        -0.178824      -0.0442828      0.000117531     1.57392e-05         0.826022        0.526492
                        0.851644        0.482289      0.000117711    -4.53942e-06          0.13716        0.128631      0.000236948    -0.000165341
