! TOUCHSTONE file generated by CST MICROWAVE STUDIO
! Date and time: Tue Oct 14 07:26:05 2025
! Project name: Teste_Macro_Metasurface_Nanopilar.cst
! Parameters = {H=600; L_x=90; L_y=95; Lambda=1064; Max_L=200; Min_L=70; PathPara=1; Phi=0; Step_L=10; Theta=0; p=520; phaseX=180; phaseY=0}
! Header version: 2018
! Port assignment regex: !\s*Touchstone port\s*([0-9]+)\s*=\s*(CST MWS port|CST DS port)\s*([0-9]+|Zmin|Zmax)\s*\(\"(.*)\"\)(\s*mode\s*([0-9]+))?.*
! Touchstone port assignment:
! Touchstone port 1 = CST MWS port Zmax ("") mode 1
! Touchstone port 2 = CST MWS port Zmax ("") mode 2
! Touchstone port 3 = CST MWS port Zmin ("") mode 1
! Touchstone port 4 = CST MWS port Zmin ("") mode 2
! S-Parameters are not renormalized. Each port impedance will be approximated by the real part at minimum frequency. The values are described via the [Reference] keyword.
! Default impedance is overridden by [Reference]
[Version] 2.0
# GHz S RI R 376.73
[Number of Ports] 4
[Reference]
376.73 376.73 259.814 259.814 
[Number of Frequencies] 51
[Network Data]
281700              -0.000625983       0.0664291     -4.19977e-05     0.000153731         0.962621       -0.258797       0.00032766     0.000804374
                    -0.000100327     0.000358582       -0.0064381       0.0830303      0.000179153     0.000697802         0.980286       -0.175779
                        0.962422       -0.258931      0.000138844     0.000597543        0.0335995       0.0574247     -1.71299e-05     0.000215925
                    -4.78513e-05      0.00064094         0.980035       -0.175828     -2.19471e-05     0.000365102        0.0346805       0.0758189
281702              -0.000599108       0.0664223     -4.17044e-05     0.000153802         0.962524        -0.25916      0.000327873     0.000804206
                    -0.000100107     0.000358649      -0.00640617       0.0830266      0.000179425     0.000697761         0.980221       -0.176144
                        0.962324       -0.259294      0.000139072     0.000597573         0.033616       0.0574068     -1.70161e-05      0.00021589
                    -4.75415e-05     0.000641079         0.979969       -0.176194     -2.17517e-05     0.000365115        0.0347058       0.0758007
281704              -0.000572217       0.0664154     -4.14113e-05     0.000153874         0.962426       -0.259523      0.000328086      0.00080404
                    -9.98869e-05     0.000358715      -0.00637426       0.0830229      0.000179697      0.00069772         0.980156        -0.17651
                        0.962227       -0.259657      0.000139299     0.000597603        0.0336325       0.0573889     -1.69021e-05     0.000215857
                    -4.72315e-05     0.000641217         0.979904       -0.176559     -2.15562e-05     0.000365127        0.0347311       0.0757825
281706              -0.000545259       0.0664086     -4.11183e-05     0.000153948         0.962329       -0.259886      0.000328299     0.000803875
                    -9.96673e-05     0.000358781      -0.00634234       0.0830192      0.000179969     0.000697679          0.98009       -0.176875
                        0.962128        -0.26002      0.000139527     0.000597634         0.033649       0.0573709     -1.67878e-05     0.000215824
                    -4.69213e-05     0.000641355         0.979838       -0.176924     -2.13606e-05     0.000365139        0.0347563       0.0757642
281708              -0.000517483        0.066403     -4.08253e-05     0.000154021         0.962231       -0.260249      0.000328512     0.000803711
                    -9.94477e-05     0.000358847      -0.00631043       0.0830155      0.000180241     0.000697638         0.980025       -0.177241
                        0.962039       -0.260385      0.000139755     0.000597664        0.0336655        0.057353     -1.66732e-05     0.000215791
                     -4.6611e-05     0.000641492         0.979772       -0.177289     -2.11649e-05     0.000365151        0.0347816        0.075746
281710              -0.000492349       0.0663935     -4.05325e-05     0.000154096         0.962133       -0.260611      0.000328724     0.000803548
                    -9.92283e-05     0.000358913      -0.00627852       0.0830118      0.000180514     0.000697597         0.979959       -0.177606
                        0.961936       -0.260746      0.000139983     0.000597694         0.033682       0.0573351     -1.65584e-05      0.00021576
                    -4.63005e-05     0.000641629         0.979706       -0.177654     -2.09692e-05     0.000365163        0.0348068       0.0757278
281712              -0.000465242       0.0663869     -4.02397e-05     0.000154171         0.962035       -0.260974      0.000328937     0.000803386
                    -9.90092e-05     0.000358978      -0.00624662        0.083008      0.000180786     0.000697556         0.979893       -0.177971
                        0.961837       -0.261109      0.000140211     0.000597724        0.0336985       0.0573172     -1.64434e-05     0.000215729
                    -4.59899e-05     0.000641765          0.97964       -0.178019     -2.07734e-05     0.000365175        0.0348321       0.0757095
281714              -0.000438348       0.0663801      -3.9947e-05     0.000154247         0.961937       -0.261337       0.00032915     0.000803226
                    -9.87904e-05     0.000359043      -0.00621472       0.0830043      0.000181059     0.000697514         0.979827       -0.178337
                        0.961739       -0.261471      0.000140439     0.000597753         0.033715       0.0572992     -1.63281e-05     0.000215699
                    -4.56791e-05       0.0006419         0.979573       -0.178385     -2.05775e-05     0.000365186        0.0348573       0.0756912
281716              -0.000411499       0.0663731     -3.96544e-05     0.000154322         0.961839         -0.2617      0.000329363     0.000803067
                    -9.85721e-05     0.000359108      -0.00618282       0.0830005      0.000181331     0.000697473         0.979761       -0.178702
                         0.96164       -0.261834      0.000140667     0.000597783        0.0337314       0.0572813     -1.62125e-05     0.000215669
                    -4.53681e-05     0.000642034         0.979507        -0.17875     -2.03815e-05     0.000365198        0.0348825        0.075673
281718               -0.00038467       0.0663661     -3.93617e-05     0.000154399         0.961741       -0.262063      0.000329576      0.00080291
                    -9.83545e-05     0.000359172      -0.00615092       0.0829968      0.000181604     0.000697431         0.979695       -0.179067
                        0.961542       -0.262196      0.000140896     0.000597813        0.0337479       0.0572633     -1.60967e-05      0.00021564
                    -4.50568e-05     0.000642167          0.97944       -0.179115     -2.01855e-05     0.000365209        0.0349077       0.0756547
281720              -0.000357853       0.0663591     -3.90691e-05     0.000154475         0.961642       -0.262425      0.000329788     0.000802753
                    -9.81379e-05     0.000359236      -0.00611903        0.082993      0.000181877      0.00069739         0.979629       -0.179433
                        0.961443       -0.262559      0.000141124     0.000597843        0.0337643       0.0572454     -1.59807e-05     0.000215612
                    -4.47449e-05     0.000642298         0.979374        -0.17948     -1.99894e-05     0.000365221        0.0349329       0.0756364
281722              -0.000331044       0.0663521     -3.87765e-05     0.000154551         0.961544       -0.262788      0.000330001     0.000802598
                    -9.79227e-05     0.000359299      -0.00608714       0.0829892       0.00018215     0.000697348         0.979562       -0.179798
                        0.961344       -0.262922      0.000141353     0.000597872        0.0337807       0.0572274     -1.58644e-05     0.000215584
                     -4.4432e-05     0.000642427         0.979307       -0.179845     -1.97931e-05     0.000365232        0.0349581       0.0756181
281724              -0.000304243        0.066345     -3.84839e-05     0.000154628         0.961445       -0.263151      0.000330214     0.000802444
                    -9.77098e-05     0.000359361      -0.00605525       0.0829854      0.000182422     0.000697306         0.979496       -0.180163
                        0.961245       -0.263284      0.000141582     0.000597902        0.0337971       0.0572095     -1.57478e-05     0.000215557
                    -4.41173e-05     0.000642554          0.97924        -0.18021     -1.95969e-05     0.000365243        0.0349833       0.0755998
281726              -0.000277448        0.066338     -3.81913e-05     0.000154704         0.961346       -0.263513      0.000330426     0.000802292
                    -9.75005e-05      0.00035942      -0.00602336       0.0829816      0.000182696     0.000697264         0.979429       -0.180528
                        0.961146       -0.263647      0.000141811     0.000597931        0.0338136       0.0571915      -1.5631e-05     0.000215531
                    -4.37989e-05     0.000642678         0.979173       -0.180575     -1.94005e-05     0.000365254        0.0350085       0.0755815
281728              -0.000250659       0.0663309     -3.78986e-05     0.000154781         0.961247       -0.263876      0.000330639      0.00080214
                     -9.7296e-05     0.000359473      -0.00599148       0.0829777      0.000182969     0.000697222         0.979362       -0.180893
                        0.961047       -0.264009       0.00014204     0.000597961          0.03383       0.0571736      -1.5514e-05     0.000215505
                    -4.34743e-05     0.000642801         0.979105       -0.180939      -1.9204e-05     0.000365265        0.0350336       0.0755632
281730              -0.000223876       0.0663238      -3.7606e-05     0.000154857         0.961148       -0.264238      0.000330851      0.00080199
                    -9.70952e-05     0.000359509      -0.00595961       0.0829739      0.000183242      0.00069718         0.979295       -0.181259
                        0.960948       -0.264372       0.00014227      0.00059799        0.0338463       0.0571556     -1.53967e-05     0.000215481
                     -4.3141e-05     0.000642926         0.979038       -0.181304     -1.90075e-05     0.000365275        0.0350588       0.0755449
281732              -0.000197099       0.0663167     -3.73132e-05     0.000154933         0.961049       -0.264601      0.000331064     0.000801841
                    -9.68754e-05     0.000359514      -0.00592773         0.08297      0.000183515     0.000697137         0.979228       -0.181624
                        0.960849       -0.264734      0.000142499     0.000598019        0.0338627       0.0571376     -1.52791e-05     0.000215456
                    -4.28013e-05     0.000643061          0.97897       -0.181669     -1.88109e-05     0.000365286        0.0350839       0.0755266
281734              -0.000170326       0.0663096     -3.70204e-05     0.000155009         0.960949       -0.264963      0.000331276     0.000801694
                     -9.6593e-05     0.000359529      -0.00589586       0.0829662      0.000183789     0.000697095         0.979161       -0.181989
                        0.960749       -0.265096      0.000142729     0.000598048        0.0338791       0.0571197     -1.51613e-05     0.000215433
                    -4.24642e-05      0.00064321         0.978903       -0.182034     -1.86142e-05     0.000365296        0.0351091       0.0755082
281736               -0.00014356       0.0663025     -3.67275e-05     0.000155085          0.96085       -0.265326      0.000331489     0.000801547
                    -9.63105e-05     0.000359613      -0.00586399       0.0829623      0.000184062     0.000697052         0.979093       -0.182354
                         0.96065       -0.265459       0.00014296     0.000598077        0.0338955       0.0571017     -1.50433e-05      0.00021541
                    -4.21379e-05     0.000643365         0.978835       -0.182399     -1.84174e-05     0.000365307        0.0351342       0.0754899
281738              -0.000116798       0.0662954     -3.64346e-05     0.000155161          0.96075       -0.265688      0.000331701     0.000801402
                    -9.60701e-05     0.000359709      -0.00583212       0.0829584      0.000184336      0.00069701         0.979026       -0.182719
                         0.96055       -0.265821       0.00014319     0.000598106        0.0339118       0.0570837      -1.4925e-05     0.000215388
                    -4.18215e-05     0.000643518         0.978767       -0.182764     -1.82206e-05     0.000365317        0.0351593       0.0754715
281740              -9.00409e-05       0.0662882     -3.61416e-05     0.000155236          0.96065        -0.26605      0.000331914     0.000801258
                    -9.58468e-05     0.000359793      -0.00580026       0.0829545       0.00018461     0.000696967         0.978958       -0.183084
                         0.96045       -0.266183      0.000143421     0.000598134        0.0339282       0.0570657     -1.48064e-05     0.000215366
                    -4.15102e-05     0.000643666         0.978699       -0.183128     -1.80237e-05     0.000365327        0.0351844       0.0754532
281742              -6.32892e-05       0.0662811     -3.58484e-05     0.000155311          0.96055       -0.266413      0.000332126     0.000801115
                    -9.56277e-05     0.000359868       -0.0057684       0.0829506      0.000184884     0.000696924          0.97889       -0.183449
                         0.96035       -0.266546      0.000143652     0.000598163        0.0339445       0.0570477     -1.46876e-05     0.000215345
                    -4.12004e-05     0.000643809         0.978631       -0.183493     -1.78266e-05     0.000365337        0.0352095       0.0754348
281744              -3.65425e-05       0.0662739     -3.55552e-05     0.000155385          0.96045       -0.266775      0.000332338     0.000800974
                    -9.54092e-05     0.000359938      -0.00573654       0.0829466      0.000185157     0.000696881         0.978822       -0.183814
                         0.96025       -0.266908      0.000143883     0.000598191        0.0339608       0.0570298     -1.45686e-05     0.000215325
                    -4.08904e-05     0.000643948         0.978562       -0.183858     -1.76295e-05     0.000365347        0.0352346       0.0754164
281746              -9.80078e-06       0.0662667     -3.52619e-05     0.000155459          0.96035       -0.267137       0.00033255     0.000800834
                    -9.51904e-05     0.000360004      -0.00570469       0.0829427      0.000185432     0.000696838         0.978754       -0.184179
                        0.960149        -0.26727      0.000144114     0.000598219        0.0339771       0.0570118     -1.44493e-05     0.000215305
                    -4.05796e-05     0.000644085         0.978494       -0.184223     -1.74323e-05     0.000365356        0.0352597        0.075398
281748                1.6936e-05       0.0662596     -3.49685e-05     0.000155532         0.960249       -0.267499      0.000332763     0.000800695
                    -9.49711e-05     0.000360069      -0.00567284       0.0829388      0.000185706     0.000696795         0.978686       -0.184544
                        0.960049       -0.267632      0.000144346     0.000598247        0.0339935       0.0569938     -1.43297e-05     0.000215286
                    -4.02679e-05      0.00064422         0.978425       -0.184587     -1.72351e-05     0.000365366        0.0352848       0.0753796
281750                4.3668e-05       0.0662524     -3.46749e-05     0.000155605         0.960149       -0.267862      0.000332975     0.000800557
                    -9.47513e-05     0.000360131      -0.00564099       0.0829348       0.00018598     0.000696752         0.978618       -0.184909
                        0.959948       -0.267994      0.000144578     0.000598274        0.0340098       0.0569758     -1.42099e-05     0.000215268
                    -3.99553e-05     0.000644354         0.978356       -0.184952     -1.70377e-05     0.000365375        0.0353098       0.0753612
281752                7.0395e-05       0.0662451     -3.43813e-05     0.000155678         0.960048       -0.268224      0.000333187      0.00080042
                    -9.45312e-05     0.000360193      -0.00560915       0.0829308      0.000186254     0.000696709         0.978549       -0.185273
                        0.959847       -0.268356       0.00014481     0.000598301         0.034026       0.0569578     -1.40898e-05      0.00021525
                    -3.96419e-05     0.000644487         0.978287       -0.185316     -1.68402e-05     0.000365385        0.0353349       0.0753428
281754               9.71172e-05       0.0662379     -3.40875e-05     0.000155749         0.959948       -0.268586      0.000333399     0.000800285
                    -9.43108e-05     0.000360254      -0.00557731       0.0829268      0.000186529     0.000696665         0.978481       -0.185638
                        0.959747       -0.268718      0.000145042     0.000598328        0.0340423       0.0569397     -1.39694e-05     0.000215233
                    -3.93279e-05     0.000644619         0.978218       -0.185681     -1.66427e-05     0.000365394        0.0353599       0.0753244
281756               0.000123835       0.0662307     -3.37935e-05     0.000155821         0.959847       -0.268948      0.000333611     0.000800151
                    -9.40902e-05     0.000360315      -0.00554547       0.0829228      0.000186803     0.000696622         0.978412       -0.186003
                        0.959646        -0.26908      0.000145275     0.000598354        0.0340586       0.0569217     -1.38488e-05     0.000215217
                    -3.90133e-05     0.000644751         0.978149       -0.186046     -1.64451e-05     0.000365403        0.0353849        0.075306
281758               0.000150547       0.0662235     -3.34995e-05     0.000155891         0.959746        -0.26931      0.000333824     0.000800019
                    -9.38694e-05     0.000360375      -0.00551364       0.0829188      0.000187078     0.000696578         0.978343       -0.186368
                        0.959544       -0.269442      0.000145508      0.00059838        0.0340749       0.0569037     -1.37278e-05     0.000215201
                    -3.86982e-05     0.000644882          0.97808        -0.18641     -1.62473e-05     0.000365412          0.03541       0.0752875
281760               0.000177255       0.0662162     -3.32053e-05     0.000155962         0.959644       -0.269672      0.000334036     0.000799888
                    -9.36484e-05     0.000360434       -0.0054818       0.0829148      0.000187353     0.000696534         0.978274       -0.186733
                        0.959443       -0.269804       0.00014574     0.000598406        0.0340911       0.0568857     -1.36065e-05     0.000215186
                    -3.83827e-05     0.000645012          0.97801       -0.186775     -1.60494e-05     0.000365421         0.035435       0.0752691
281762               0.000203958        0.066209      -3.2911e-05     0.000156031         0.959543       -0.270034      0.000334249      0.00079976
                    -9.34274e-05     0.000360493      -0.00544998       0.0829108      0.000187628     0.000696491         0.978205       -0.187097
                        0.959342       -0.270166      0.000145973     0.000598431        0.0341074       0.0568677     -1.34848e-05     0.000215172
