! TOUCHSTONE file generated by CST MICROWAVE STUDIO
! Date and time: Tue Oct 14 07:26:27 2025
! Project name: Teste_Macro_Metasurface_Nanopilar.cst
! Parameters = {H=600; L_x=95; L_y=120; Lambda=1064; Max_L=200; Min_L=70; PathPara=1; Phi=0; Step_L=10; Theta=0; p=520; phaseX=180; phaseY=0}
! Header version: 2018
! Port assignment regex: !\s*Touchstone port\s*([0-9]+)\s*=\s*(CST MWS port|CST DS port)\s*([0-9]+|Zmin|Zmax)\s*\(\"(.*)\"\)(\s*mode\s*([0-9]+))?.*
! Touchstone port assignment:
! Touchstone port 1 = CST MWS port Zmax ("") mode 1
! Touchstone port 2 = CST MWS port Zmax ("") mode 2
! Touchstone port 3 = CST MWS port Zmin ("") mode 1
! Touchstone port 4 = CST MWS port Zmin ("") mode 2
! S-Parameters are not renormalized. Each port impedance will be approximated by the real part at minimum frequency. The values are described via the [Reference] keyword.
! Default impedance is overridden by [Reference]
[Version] 2.0
# GHz S RI R 376.73
[Number of Ports] 4
[Reference]
376.73 376.73 259.814 259.814 
[Number of Frequencies] 51
[Network Data]
281700                 -0.165949      -0.0194255      9.60971e-05     0.000257582         -0.25761       -0.944333     -0.000566793    -0.000152922
                     9.61606e-05     0.000243882        0.0159006     -0.00359959     -0.000444128    -0.000282802         0.798841       -0.597563
                       -0.257658       -0.944606     -0.000510564    -0.000213911        -0.132199        0.101103      0.000270425    -9.02391e-05
                     -0.00054821    -0.000262091         0.799071       -0.597487      0.000327248      -0.0001181      -0.00801313       0.0149751
281702                 -0.165962      -0.0193654      9.62295e-05     0.000257505        -0.258073       -0.944205     -0.000566706    -0.000152639
                     9.62949e-05     0.000243897         0.015904     -0.00361769     -0.000444286    -0.000282676         0.798601       -0.597882
                       -0.258121       -0.944478     -0.000510631    -0.000213713        -0.132142        0.101188      0.000270364    -9.03147e-05
                    -0.000548326     -0.00026177         0.798832       -0.597806      0.000327231    -0.000118262      -0.00801975       0.0149797
281704                 -0.165974      -0.0193052      9.63619e-05     0.000257427        -0.258536       -0.944076     -0.000566618    -0.000152356
                     9.64292e-05     0.000243911        0.0159074      -0.0036358     -0.000444444     -0.00028255         0.798362       -0.598202
                       -0.258584       -0.944349     -0.000510697    -0.000213516        -0.132084        0.101273      0.000270302    -9.03902e-05
                    -0.000548442    -0.000261449         0.798592       -0.598125      0.000327215    -0.000118424      -0.00802636       0.0149843
281706                 -0.165987      -0.0192451      9.64944e-05     0.000257349        -0.258999       -0.943948     -0.000566529    -0.000152074
                     9.65634e-05     0.000243925        0.0159107     -0.00365392     -0.000444603    -0.000282423         0.798122       -0.598521
                       -0.259047       -0.944221     -0.000510764    -0.000213319        -0.132027        0.101357      0.000270241    -9.04655e-05
                    -0.000548558    -0.000261127         0.798352       -0.598445      0.000327198    -0.000118587      -0.00803297       0.0149889
281708                    -0.166      -0.0191849      9.66269e-05     0.000257271        -0.259462       -0.943819     -0.000566441    -0.000151791
                     9.66975e-05     0.000243939        0.0159141     -0.00367203     -0.000444761    -0.000282297         0.797882        -0.59884
                        -0.25951       -0.944092      -0.00051083    -0.000213122        -0.131969        0.101442      0.000270179    -9.05406e-05
                    -0.000548673    -0.000260806         0.798113       -0.598764      0.000327182    -0.000118749      -0.00803958       0.0149935
281710                 -0.166013      -0.0191248      9.67594e-05     0.000257193        -0.259925        -0.94369     -0.000566352    -0.000151508
                     9.68315e-05     0.000243953        0.0159175     -0.00369015     -0.000444919     -0.00028217         0.797643       -0.599159
                       -0.259972       -0.943963     -0.000510897    -0.000212925        -0.131911        0.101526      0.000270116    -9.06155e-05
                    -0.000548788    -0.000260485         0.797873       -0.599083      0.000327165    -0.000118912      -0.00804618       0.0149981
281712                 -0.166025      -0.0190646       9.6892e-05     0.000257115        -0.260388        -0.94356     -0.000566263    -0.000151226
                     9.69654e-05     0.000243967        0.0159208     -0.00370827     -0.000445078    -0.000282043         0.797403       -0.599478
                       -0.260435       -0.943833     -0.000510963    -0.000212728        -0.131854        0.101611      0.000270053    -9.06902e-05
                    -0.000548904    -0.000260163         0.797633       -0.599401      0.000327148    -0.000119074      -0.00805279       0.0150027
281714                 -0.166038      -0.0190044      9.70246e-05     0.000257036        -0.260851       -0.943431     -0.000566174    -0.000150943
                     9.70992e-05     0.000243981        0.0159242      -0.0037264     -0.000445237    -0.000281916         0.797162       -0.599797
                       -0.260898       -0.943704     -0.000511029    -0.000212531        -0.131796        0.101695       0.00026999    -9.07645e-05
                    -0.000549018    -0.000259842         0.797392        -0.59972      0.000327131    -0.000119236      -0.00805939       0.0150073
281716                 -0.166051      -0.0189442      9.71572e-05     0.000256958        -0.261313       -0.943301     -0.000566084    -0.000150661
                      9.7233e-05     0.000243994        0.0159275     -0.00374452     -0.000445395    -0.000281789         0.796922       -0.600116
                       -0.261361       -0.943574     -0.000511096    -0.000212334        -0.131738        0.101779      0.000269926    -9.08383e-05
                    -0.000549133    -0.000259521         0.797152       -0.600039      0.000327114    -0.000119399      -0.00806599       0.0150119
281718                 -0.166063       -0.018884      9.72899e-05     0.000256879        -0.261776       -0.943171     -0.000565995    -0.000150379
                     9.73666e-05     0.000244007        0.0159308     -0.00376265     -0.000445554    -0.000281661         0.796682       -0.600435
                       -0.261823       -0.943444     -0.000511162    -0.000212137         -0.13168        0.101864      0.000269863    -9.09116e-05
                    -0.000549248      -0.0002592         0.796912       -0.600357      0.000327096    -0.000119561      -0.00807258       0.0150165
281720                 -0.166076      -0.0188238      9.74226e-05       0.0002568        -0.262239       -0.943041     -0.000565905    -0.000150097
                     9.75002e-05      0.00024402        0.0159341     -0.00378079     -0.000445713    -0.000281534         0.796441       -0.600754
                       -0.262286       -0.943314     -0.000511228     -0.00021194        -0.131622        0.101948      0.000269801    -9.09844e-05
                    -0.000549362    -0.000258879         0.796671       -0.600676      0.000327079    -0.000119723      -0.00807917       0.0150212
281722                 -0.166089      -0.0187636      9.75553e-05     0.000256721        -0.262701        -0.94291     -0.000565816    -0.000149815
                     9.76337e-05     0.000244033        0.0159374     -0.00379893     -0.000445872    -0.000281406         0.796201       -0.601072
                       -0.262749       -0.943183     -0.000511294    -0.000211743        -0.131564        0.102032       0.00026974    -9.10585e-05
                    -0.000549476    -0.000258557          0.79643       -0.600994      0.000327061    -0.000119886      -0.00808577       0.0150259
281724                 -0.166101      -0.0187033      9.76881e-05     0.000256641        -0.263164       -0.942779     -0.000565729    -0.000149534
                     9.77671e-05     0.000244046        0.0159407     -0.00381706     -0.000446031    -0.000281278          0.79596       -0.601391
                       -0.263211       -0.943053      -0.00051136    -0.000211547        -0.131506        0.102116      0.000269678    -9.11354e-05
                     -0.00054959    -0.000258236          0.79619       -0.601313      0.000327043    -0.000120048      -0.00809236       0.0150306
281726                 -0.166114      -0.0186431      9.78209e-05     0.000256562        -0.263626       -0.942648     -0.000565653    -0.000149245
                     9.79004e-05     0.000244059         0.015944     -0.00383521      -0.00044619     -0.00028115         0.795719       -0.601709
                       -0.263674       -0.942922     -0.000511426     -0.00021135        -0.131448        0.102201      0.000269613    -9.12129e-05
                    -0.000549703    -0.000257915         0.795949       -0.601631      0.000327026     -0.00012021      -0.00809894       0.0150352
281728                 -0.166126      -0.0185828      9.79537e-05     0.000256483        -0.264089       -0.942517     -0.000565537    -0.000148947
                     9.80337e-05     0.000244071        0.0159473     -0.00385335      -0.00044635    -0.000281022         0.795478       -0.602028
                       -0.264136       -0.942791     -0.000511492    -0.000211153         -0.13139        0.102285      0.000269547    -9.12893e-05
                    -0.000549817    -0.000257594         0.795707       -0.601949      0.000327008    -0.000120373      -0.00810553       0.0150399
281730                 -0.166139      -0.0185226      9.80865e-05     0.000256403        -0.264551       -0.942386     -0.000565443    -0.000148674
                     9.81668e-05     0.000244084        0.0159505      -0.0038715     -0.000446509    -0.000280894         0.795237       -0.602346
                       -0.264598       -0.942659     -0.000511558    -0.000210956        -0.131332        0.102369       0.00026948    -9.13648e-05
                     -0.00054993    -0.000257273         0.795466       -0.602267       0.00032699    -0.000120535      -0.00811211       0.0150446
281732                 -0.166151      -0.0184623      9.82194e-05     0.000256323        -0.265014       -0.942254     -0.000565351    -0.000148394
                     9.82999e-05     0.000244096        0.0159538     -0.00388965     -0.000446668    -0.000280765         0.794996       -0.602664
                       -0.265061       -0.942528     -0.000511624     -0.00021076        -0.131274        0.102453      0.000269413    -9.14397e-05
                    -0.000550043    -0.000256952         0.795225       -0.602585      0.000326971    -0.000120697      -0.00811869       0.0150493
281734                 -0.166164       -0.018402      9.83522e-05     0.000256243        -0.265476       -0.942122     -0.000565259    -0.000148113
                     9.84329e-05     0.000244108         0.015957     -0.00390781     -0.000446828    -0.000280636         0.794754       -0.602982
                       -0.265523       -0.942396      -0.00051169    -0.000210563        -0.131215        0.102537      0.000269346    -9.15143e-05
                    -0.000550155    -0.000256631         0.794983       -0.602903      0.000326953     -0.00012086      -0.00812527       0.0150541
281736                 -0.166176      -0.0183417      9.84851e-05     0.000256163        -0.265938        -0.94199     -0.000565166    -0.000147831
                     9.85659e-05      0.00024412        0.0159603     -0.00392597     -0.000446988    -0.000280507         0.794513         -0.6033
                       -0.265985       -0.942264     -0.000511755    -0.000210367        -0.131157        0.102621      0.000269278    -9.15888e-05
                    -0.000550268     -0.00025631         0.794742        -0.60322      0.000326935    -0.000121022      -0.00813185       0.0150588
281738                 -0.166188      -0.0182814       9.8618e-05     0.000256082          -0.2664       -0.941858     -0.000565074    -0.000147549
                     9.86987e-05     0.000244132        0.0159635     -0.00394413     -0.000447147    -0.000280378         0.794271       -0.603618
                       -0.266447       -0.942132     -0.000511821     -0.00021017        -0.131099        0.102705      0.000269211    -9.16632e-05
                     -0.00055038     -0.00025599           0.7945       -0.603538      0.000326916    -0.000121184      -0.00813842       0.0150635
281740                 -0.166201      -0.0182211      9.87509e-05     0.000256002        -0.266862       -0.941725      -0.00056498    -0.000147267
                     9.88315e-05     0.000244144        0.0159667     -0.00396229     -0.000447307    -0.000280249         0.794029       -0.603935
                       -0.266909       -0.941999     -0.000511886    -0.000209974         -0.13104        0.102789      0.000269142    -9.17374e-05
                    -0.000550492    -0.000255669         0.794258       -0.603856      0.000326897    -0.000121347      -0.00814499       0.0150683
281742                 -0.166213      -0.0181608      9.88838e-05     0.000255921        -0.267325       -0.941593     -0.000564886    -0.000146985
                     9.89642e-05     0.000244155        0.0159699     -0.00398046     -0.000447467     -0.00028012         0.793787       -0.604253
                       -0.267371       -0.941866     -0.000511952    -0.000209777        -0.130982        0.102873      0.000269074    -9.18117e-05
                    -0.000550604    -0.000255348         0.794016       -0.604173      0.000326879    -0.000121509      -0.00815156        0.015073
281744                 -0.166225      -0.0181005      9.90167e-05      0.00025584        -0.267787        -0.94146     -0.000564792    -0.000146703
                     9.90968e-05     0.000244167        0.0159731     -0.00399863     -0.000447627     -0.00027999         0.793545       -0.604571
                       -0.267833       -0.941733     -0.000512017    -0.000209581        -0.130923        0.102957      0.000269005    -9.18859e-05
                    -0.000550716    -0.000255027         0.793774        -0.60449       0.00032686    -0.000121671      -0.00815813       0.0150778
281746                 -0.166238      -0.0180401      9.91496e-05     0.000255759        -0.268248       -0.941326     -0.000564698    -0.000146421
                     9.92293e-05     0.000244178        0.0159763      -0.0040168     -0.000447787     -0.00027986         0.793303       -0.604888
                       -0.268295         -0.9416     -0.000512082    -0.000209384        -0.130864        0.103041      0.000268936    -9.19601e-05
                    -0.000550827    -0.000254706         0.793532       -0.604808      0.000326841    -0.000121834       -0.0081647       0.0150826
281748                  -0.16625      -0.0179798      9.92825e-05     0.000255678         -0.26871       -0.941193     -0.000564603    -0.000146138
                     9.93618e-05     0.000244189        0.0159794     -0.00403497     -0.000447947     -0.00027973         0.793061       -0.605206
                       -0.268757       -0.941467     -0.000512148    -0.000209188        -0.130806        0.103125      0.000268866    -9.20343e-05
                    -0.000550939    -0.000254385         0.793289       -0.605125      0.000326822    -0.000121996      -0.00817126       0.0150874
281750                 -0.166262      -0.0179194      9.94154e-05     0.000255596        -0.269172       -0.941059     -0.000564508    -0.000145856
                     9.94942e-05       0.0002442        0.0159826     -0.00405315     -0.000448108      -0.0002796         0.792818       -0.605523
                       -0.269218       -0.941333     -0.000512213    -0.000208992        -0.130747        0.103208      0.000268796    -9.21085e-05
                     -0.00055105    -0.000254064         0.793047       -0.605442      0.000326802    -0.000122158      -0.00817782       0.0150922
281752                 -0.166274      -0.0178591      9.95483e-05     0.000255515        -0.269634       -0.940925     -0.000564413    -0.000145573
                     9.96265e-05     0.000244211        0.0159858     -0.00407133     -0.000448268     -0.00027947         0.792576        -0.60584
                        -0.26968       -0.941199     -0.000512278    -0.000208795        -0.130688        0.103292      0.000268726    -9.21827e-05
                    -0.000551161    -0.000253744         0.792804       -0.605759      0.000326783    -0.000122321      -0.00818438        0.015097
281754                 -0.166287      -0.0177987      9.96811e-05     0.000255433        -0.270096       -0.940791     -0.000564317    -0.000145291
                     9.97588e-05     0.000244222        0.0159889     -0.00408952     -0.000448429     -0.00027934         0.792333       -0.606157
                       -0.270142       -0.941065     -0.000512342    -0.000208599        -0.130629        0.103376      0.000268655    -9.22569e-05
                    -0.000551271    -0.000253423         0.792561       -0.606076      0.000326763    -0.000122483      -0.00819093       0.0151018
281756                 -0.166299      -0.0177383       9.9814e-05     0.000255351        -0.270557       -0.940657      -0.00056422    -0.000145009
                     9.98909e-05     0.000244233         0.015992     -0.00410771     -0.000448589    -0.000279209          0.79209       -0.606474
                       -0.270603       -0.940931     -0.000512407    -0.000208403         -0.13057        0.103459      0.000268583    -9.23312e-05
                    -0.000551382    -0.000253102         0.792319       -0.606393      0.000326744    -0.000122645      -0.00819748       0.0151066
281758                 -0.166311      -0.0176779      9.99468e-05     0.000255269        -0.271019       -0.940522     -0.000564124    -0.000144726
                     0.000100023     0.000244243        0.0159951      -0.0041259      -0.00044875    -0.000279078         0.791847       -0.606791
                       -0.271065       -0.940796     -0.000512472    -0.000208207        -0.130511        0.103543      0.000268512    -9.24055e-05
                    -0.000551492    -0.000252781         0.792075       -0.606709      0.000326724    -0.000122807      -0.00820403       0.0151115
281760                 -0.166323      -0.0176175       0.00010008     0.000255187        -0.271481       -0.940387     -0.000564027    -0.000144444
                     0.000100155     0.000244254        0.0159983     -0.00414409     -0.000448911    -0.000278947         0.791604       -0.607108
                       -0.271526       -0.940661     -0.000512536    -0.000208011        -0.130452        0.103627       0.00026844    -9.24798e-05
                    -0.000551602    -0.000252461         0.791832       -0.607026      0.000326704    -0.000122969      -0.00821058       0.0151163
281762                 -0.166335      -0.0175571      0.000100212     0.000255104        -0.271942       -0.940252      -0.00056393    -0.000144161
                     0.000100287     0.000244264        0.0160014     -0.00416228     -0.000449072    -0.000278816         0.791361       -0.607425
                       -0.271988       -0.940526     -0.000512601    -0.000207814        -0.130393         0.10371      0.000268367    -9.25542e-05
