! TOUCHSTONE file generated by CST MICROWAVE STUDIO
! Date and time: Tue Oct 14 07:28:37 2025
! Project name: Teste_Macro_Metasurface_Nanopilar.cst
! Parameters = {H=600; L_x=130; L_y=110; Lambda=1064; Max_L=200; Min_L=70; PathPara=1; Phi=0; Step_L=10; Theta=0; p=520; phaseX=180; phaseY=0}
! Header version: 2018
! Port assignment regex: !\s*Touchstone port\s*([0-9]+)\s*=\s*(CST MWS port|CST DS port)\s*([0-9]+|Zmin|Zmax)\s*\(\"(.*)\"\)(\s*mode\s*([0-9]+))?.*
! Touchstone port assignment:
! Touchstone port 1 = CST MWS port Zmax ("") mode 1
! Touchstone port 2 = CST MWS port Zmax ("") mode 2
! Touchstone port 3 = CST MWS port Zmin ("") mode 1
! Touchstone port 4 = CST MWS port Zmin ("") mode 2
! S-Parameters are not renormalized. Each port impedance will be approximated by the real part at minimum frequency. The values are described via the [Reference] keyword.
! Default impedance is overridden by [Reference]
[Version] 2.0
# GHz S RI R 376.73
[Number of Ports] 4
[Reference]
376.73 376.73 259.814 259.814 
[Number of Frequencies] 51
[Network Data]
281700                 -0.174664      -0.0268109     -0.000235704     0.000387493         -0.62515       -0.749296     -0.000344358    -0.000705724
                    -0.000199499     0.000386251      -0.00215534     -0.00275036      0.000514603    -0.000603221        -0.816527        0.561821
                       -0.625182        -0.74938      0.000598274    -0.000555839      -0.00506716        0.175702      0.000176936     0.000605444
                    -0.000331295    -0.000651327        -0.816966         0.56207       0.00019976      0.00058261      -0.00293498    -0.000259442
281702                 -0.174673      -0.0267431     -0.000235567     0.000387673        -0.625535       -0.748975     -0.000344836    -0.000705568
                    -0.000199472     0.000386416      -0.00215296     -0.00278169      0.000514378     -0.00060345         -0.81624        0.562238
                       -0.625567       -0.749059       0.00059802    -0.000556182      -0.00495503        0.175703      0.000177427     0.000605422
                    -0.000331633    -0.000651143        -0.816679        0.562487      0.000200022     0.000582483      -0.00296633    -0.000265979
281704                 -0.174682      -0.0266753      -0.00023543     0.000387852        -0.625919       -0.748653     -0.000345315     -0.00070541
                    -0.000199445     0.000386582      -0.00215061     -0.00281303      0.000514153    -0.000603678        -0.815953        0.562655
                       -0.625952       -0.748737      0.000597766    -0.000556525       -0.0048429        0.175705      0.000177918       0.0006054
                    -0.000331971    -0.000650959        -0.816392        0.562905      0.000200283     0.000582357      -0.00299768    -0.000272477
281706                 -0.174691      -0.0266076     -0.000235293     0.000388032        -0.626304       -0.748331     -0.000345793    -0.000705253
                    -0.000199417     0.000386747      -0.00214828     -0.00284437      0.000513927    -0.000603907        -0.815666        0.563073
                       -0.626337       -0.748415      0.000597512    -0.000556867      -0.00473077        0.175707      0.000178409     0.000605377
                     -0.00033231    -0.000650775        -0.816104        0.563322      0.000200544      0.00058223      -0.00302904    -0.000278935
281708                   -0.1747      -0.0265398     -0.000235155     0.000388211        -0.626688       -0.748009     -0.000346272    -0.000705094
                     -0.00019939     0.000386912      -0.00214597      -0.0028757      0.000513702    -0.000604135        -0.815378         0.56349
                       -0.626721       -0.748093      0.000597257     -0.00055721      -0.00461863        0.175708      0.000178901     0.000605354
                    -0.000332649    -0.000650591        -0.815817        0.563739      0.000200806     0.000582104      -0.00306041    -0.000285354
281710                 -0.174709       -0.026472     -0.000235017     0.000388391        -0.627073       -0.747686      -0.00034675    -0.000704935
                    -0.000199362     0.000387077       -0.0021437     -0.00290704      0.000513476    -0.000604364        -0.815091        0.563906
                       -0.627105        -0.74777      0.000597002    -0.000557552      -0.00450649         0.17571      0.000179393      0.00060533
                    -0.000332988    -0.000650407        -0.815529        0.564156      0.000201067     0.000581977      -0.00309179    -0.000291733
281712                 -0.174718      -0.0264042     -0.000234879      0.00038857        -0.627457       -0.747363     -0.000347229    -0.000704775
                    -0.000199334     0.000387243      -0.00214144     -0.00293838       0.00051325    -0.000604593        -0.814803        0.564323
                       -0.627489       -0.747448      0.000596746    -0.000557895      -0.00439436        0.175711      0.000179886     0.000605306
                    -0.000333328    -0.000650222        -0.815241        0.564573      0.000201328     0.000581851      -0.00312318    -0.000298072
281714                 -0.174727      -0.0263364      -0.00023474      0.00038875        -0.627841       -0.747041     -0.000347707    -0.000704615
                    -0.000199305     0.000387408      -0.00213921     -0.00296972      0.000513024    -0.000604822        -0.814515         0.56474
                       -0.627873       -0.747125       0.00059649    -0.000558237      -0.00428222        0.175712      0.000180379      0.00060528
                    -0.000333668    -0.000650038        -0.814953        0.564989      0.000201589     0.000581725      -0.00315457    -0.000304372
281716                 -0.174735      -0.0262686     -0.000234601     0.000388929        -0.628225       -0.746717     -0.000348186    -0.000704454
                    -0.000199276     0.000387573      -0.00213701     -0.00300106      0.000512798    -0.000605052        -0.814227        0.565156
                       -0.628257       -0.746802      0.000596234    -0.000558579      -0.00417007        0.175714      0.000180872     0.000605255
                    -0.000334009    -0.000649854        -0.814664        0.565406       0.00020185     0.000581599      -0.00318597    -0.000310633
281718                 -0.174744      -0.0262008     -0.000234462     0.000389108        -0.628608       -0.746394     -0.000348665    -0.000704292
                    -0.000199247     0.000387738      -0.00213483      -0.0030324      0.000512571    -0.000605281        -0.813938        0.565572
                       -0.628641       -0.746479      0.000595977    -0.000558921      -0.00405793        0.175715      0.000181366     0.000605228
                     -0.00033435    -0.000649669        -0.814375        0.565822      0.000202111     0.000581472      -0.00321738    -0.000316853
281720                 -0.174753       -0.026133     -0.000234323     0.000389287        -0.628992       -0.746071     -0.000349144     -0.00070413
                    -0.000199218     0.000387902      -0.00213268     -0.00306374      0.000512345     -0.00060551        -0.813649        0.565988
                       -0.629024       -0.746155      0.000595719    -0.000559263      -0.00394578        0.175716       0.00018186     0.000605201
                    -0.000334691    -0.000649484        -0.814086        0.566238      0.000202372     0.000581346      -0.00324879    -0.000323034
281722                 -0.174762      -0.0260652     -0.000234183     0.000389467        -0.629375       -0.745747     -0.000349623    -0.000703967
                    -0.000199189     0.000388067      -0.00213055     -0.00309508      0.000512118     -0.00060574        -0.813361        0.566404
                       -0.629408       -0.745832      0.000595461    -0.000559605      -0.00383364        0.175717      0.000182355     0.000605173
                    -0.000335033      -0.0006493        -0.813797        0.566654      0.000202633      0.00058122      -0.00328022    -0.000329176
281724                  -0.17477      -0.0259974     -0.000234044     0.000389646        -0.629758       -0.745423     -0.000350102    -0.000703803
                    -0.000199159     0.000388232      -0.00212845     -0.00312642      0.000511891     -0.00060597        -0.813072         0.56682
                       -0.629791       -0.745508      0.000595203    -0.000559946      -0.00372149        0.175718       0.00018285     0.000605145
                    -0.000335375    -0.000649115        -0.813508         0.56707      0.000202894     0.000581094      -0.00331165    -0.000335278
281726                 -0.174779      -0.0259296     -0.000233903     0.000389825        -0.630141       -0.745099     -0.000350582    -0.000703639
                    -0.000199129     0.000388396      -0.00212637     -0.00315777      0.000511664      -0.0006062        -0.812782        0.567235
                       -0.630174       -0.745184      0.000594944    -0.000560288      -0.00360934        0.175719      0.000183345     0.000605116
                    -0.000335718     -0.00064893        -0.813219        0.567486      0.000203154     0.000580968      -0.00334308    -0.000341341
281728                 -0.174788      -0.0258617     -0.000233763     0.000390004        -0.630524       -0.744775     -0.000351061    -0.000703474
                    -0.000199098     0.000388561      -0.00212432     -0.00318911      0.000511437     -0.00060643        -0.812493        0.567651
                       -0.630557        -0.74486      0.000594685    -0.000560629      -0.00349719        0.175719      0.000183841     0.000605087
                     -0.00033606    -0.000648746        -0.812929        0.567901      0.000203415     0.000580842      -0.00337453    -0.000347363
281730                 -0.174796      -0.0257939     -0.000233623     0.000390183        -0.630906        -0.74445      -0.00035154    -0.000703308
                    -0.000199068     0.000388725       -0.0021223     -0.00322045       0.00051121     -0.00060666        -0.812203        0.568066
                        -0.63094       -0.744535      0.000594426    -0.000560971      -0.00338503         0.17572      0.000184337     0.000605057
                    -0.000336404    -0.000648561        -0.812639        0.568317      0.000203675     0.000580716      -0.00340598    -0.000353347
281732                 -0.174805      -0.0257261     -0.000233482     0.000390362        -0.631289       -0.744126      -0.00035202    -0.000703141
                    -0.000199037      0.00038889      -0.00212029      -0.0032518      0.000510983     -0.00060689        -0.811913        0.568481
                       -0.631322       -0.744211      0.000594166    -0.000561312      -0.00327288        0.175721      0.000184833     0.000605026
                    -0.000336747    -0.000648376        -0.812349        0.568732      0.000203936      0.00058059      -0.00343744     -0.00035929
281734                 -0.174814      -0.0256582     -0.000233341     0.000390541        -0.631671       -0.743801       -0.0003525    -0.000702974
                    -0.000199006     0.000389054      -0.00211832     -0.00328315      0.000510755    -0.000607121        -0.811623        0.568896
                       -0.631705       -0.743886      0.000593905    -0.000561653      -0.00316072        0.175721       0.00018533     0.000604994
                    -0.000337091    -0.000648191        -0.812058        0.569147      0.000204196     0.000580464      -0.00346891    -0.000365194
281736                 -0.174822      -0.0255904     -0.000233199     0.000390719        -0.632053       -0.743476     -0.000352979    -0.000702807
                    -0.000198974     0.000389218      -0.00211637     -0.00331449      0.000510527    -0.000607352        -0.811333        0.569311
                       -0.632087       -0.743561      0.000593644    -0.000561994      -0.00304857        0.175722      0.000185827     0.000604962
                    -0.000337436    -0.000648006        -0.811768        0.569562      0.000204456     0.000580339      -0.00350038    -0.000371059
281738                 -0.174831      -0.0255225     -0.000233058     0.000390898        -0.632435        -0.74315     -0.000353459    -0.000702638
                    -0.000198942     0.000389382      -0.00211444     -0.00334584        0.0005103    -0.000607583        -0.811042        0.569726
                       -0.632469       -0.743236      0.000593383    -0.000562334      -0.00293641        0.175722      0.000186324      0.00060493
                     -0.00033778     -0.00064782        -0.811477        0.569976      0.000204717     0.000580213      -0.00353186    -0.000376884
281740                 -0.174839      -0.0254547     -0.000232916     0.000391077        -0.632817       -0.742825     -0.000353939    -0.000702469
                     -0.00019891     0.000389546      -0.00211254     -0.00337718      0.000510072    -0.000607814        -0.810751         0.57014
                       -0.632851        -0.74291      0.000593122    -0.000562675      -0.00282425        0.175722      0.000186822     0.000604897
                    -0.000338125    -0.000647635        -0.811186        0.570391      0.000204977     0.000580087      -0.00356335    -0.000382669
281742                 -0.174847      -0.0253868     -0.000232774     0.000391256        -0.633199       -0.742499      -0.00035442    -0.000702299
                    -0.000198878      0.00038971      -0.00211067     -0.00340853      0.000509844    -0.000608045         -0.81046        0.570555
                       -0.633232       -0.742585      0.000592859    -0.000563016      -0.00271209        0.175723       0.00018732     0.000604863
                    -0.000338471     -0.00064745        -0.810895        0.570805      0.000205237     0.000579961      -0.00359484    -0.000388414
281744                 -0.174856       -0.025319     -0.000232631     0.000391434        -0.633581       -0.742173       -0.0003549    -0.000702128
                    -0.000198845     0.000389874      -0.00210882     -0.00343988      0.000509617    -0.000608276        -0.810169        0.570969
                       -0.633614       -0.742259      0.000592597    -0.000563356      -0.00259993        0.175723      0.000187818     0.000604828
                    -0.000338817    -0.000647265        -0.810604         0.57122      0.000205497     0.000579836      -0.00362634    -0.000394121
281746                 -0.174864      -0.0252511     -0.000232489     0.000391613        -0.633962       -0.741847      -0.00035538    -0.000701957
                    -0.000198813     0.000390038        -0.002107     -0.00347123       0.00050939    -0.000608509        -0.809878        0.571383
                       -0.633995       -0.741933      0.000592334    -0.000563696      -0.00248777        0.175723      0.000188316     0.000604793
                    -0.000339163    -0.000647079        -0.810312        0.571634      0.000205757      0.00057971      -0.00365785    -0.000399787
281748                 -0.174873      -0.0251832     -0.000232346     0.000391791        -0.634343       -0.741521     -0.000355861    -0.000701785
                    -0.000198779     0.000390201       -0.0021052     -0.00350258      0.000509167    -0.000608743        -0.809586        0.571797
                       -0.634377       -0.741607      0.000592071    -0.000564037       -0.0023756        0.175723      0.000188815     0.000604757
                    -0.000339509    -0.000646894         -0.81002        0.572048      0.000206016     0.000579585      -0.00368937    -0.000405414
281750                 -0.174881      -0.0251154     -0.000232203      0.00039197        -0.634724       -0.741194     -0.000356342    -0.000701612
                    -0.000198746     0.000390365      -0.00210342     -0.00353393      0.000508909    -0.000608958        -0.809294         0.57221
                       -0.634758        -0.74128      0.000591807    -0.000564377      -0.00226344        0.175723      0.000189314     0.000604721
                    -0.000339856    -0.000646708        -0.809728        0.572462      0.000206278     0.000579456      -0.00372089    -0.000411001
281752                 -0.174889      -0.0250475      -0.00023206     0.000392148        -0.635105       -0.740868     -0.000356823    -0.000701438
                    -0.000198712     0.000390529      -0.00210168     -0.00356527      0.000508695    -0.000609199        -0.809002        0.572624
                       -0.635139       -0.740954      0.000591543    -0.000564717      -0.00215128        0.175723      0.000189813     0.000604684
                    -0.000340204    -0.000646523        -0.809436        0.572875      0.000206536     0.000579333      -0.00375242    -0.000416549
281754                 -0.174897      -0.0249796     -0.000231917     0.000392326        -0.635486       -0.740541     -0.000357304    -0.000701263
                    -0.000198678     0.000390692      -0.00209995     -0.00359662      0.000508468    -0.000609432         -0.80871        0.573037
                       -0.635519       -0.740627      0.000591279    -0.000565057      -0.00203911        0.175722      0.000190312     0.000604646
                    -0.000340551    -0.000646337        -0.809143        0.573289      0.000206796     0.000579208      -0.00378395    -0.000422057
281756                 -0.174905      -0.0249117     -0.000231773     0.000392505        -0.635866       -0.740214     -0.000357786    -0.000701085
                    -0.000198644     0.000390855      -0.00209826     -0.00362797       0.00050824    -0.000609665        -0.808418        0.573451
                         -0.6359         -0.7403      0.000591015    -0.000565397      -0.00192695        0.175722       0.00019081     0.000604608
                    -0.000340899    -0.000646151        -0.808851        0.573702      0.000207055     0.000579082      -0.00381549    -0.000427526
281758                 -0.174914      -0.0248438     -0.000231632     0.000392684        -0.636247       -0.739886     -0.000358248    -0.000700893
                    -0.000198609     0.000391019      -0.00209658     -0.00365932      0.000508012    -0.000609897        -0.808125        0.573864
                       -0.636281       -0.739973      0.000590754    -0.000565739      -0.00181478        0.175722      0.000191299     0.000604568
                    -0.000341248    -0.000645965        -0.808558        0.574115      0.000207315     0.000578957      -0.00384705    -0.000432959
281760                 -0.174922      -0.0247759     -0.000231461     0.000392882        -0.636627       -0.739559     -0.000358739    -0.000700743
                    -0.000198575     0.000391182      -0.00209494     -0.00369069      0.000507783     -0.00061013        -0.807832        0.574277
                       -0.636661       -0.739645      0.000590462    -0.000566073      -0.00170261        0.175721      0.000191834     0.000604523
                    -0.000341596    -0.000645779        -0.808265        0.574528      0.000207574     0.000578832       -0.0038786    -0.000438336
281762                  -0.17493       -0.024708     -0.000231334     0.000393039        -0.637007       -0.739231     -0.000359224    -0.000700564
                    -0.000198539     0.000391345      -0.00209332     -0.00372203      0.000507554    -0.000610363        -0.807539        0.574689
                       -0.637041       -0.739318      0.000590209    -0.000566413      -0.00159045        0.175721      0.000192324     0.000604488
