! TOUCHSTONE file generated by CST MICROWAVE STUDIO
! Date and time: Tue Oct 14 07:31:50 2025
! Project name: Teste_Macro_Metasurface_Nanopilar.cst
! Parameters = {H=600; L_x=180; L_y=135; Lambda=1064; Max_L=200; Min_L=70; PathPara=1; Phi=0; Step_L=10; Theta=0; p=520; phaseX=180; phaseY=0}
! Header version: 2018
! Port assignment regex: !\s*Touchstone port\s*([0-9]+)\s*=\s*(CST MWS port|CST DS port)\s*([0-9]+|Zmin|Zmax)\s*\(\"(.*)\"\)(\s*mode\s*([0-9]+))?.*
! Touchstone port assignment:
! Touchstone port 1 = CST MWS port Zmax ("") mode 1
! Touchstone port 2 = CST MWS port Zmax ("") mode 2
! Touchstone port 3 = CST MWS port Zmin ("") mode 1
! Touchstone port 4 = CST MWS port Zmin ("") mode 2
! S-Parameters are not renormalized. Each port impedance will be approximated by the real part at minimum frequency. The values are described via the [Reference] keyword.
! Default impedance is overridden by [Reference]
[Version] 2.0
# GHz S RI R 376.73
[Number of Ports] 4
[Reference]
376.73 376.73 259.814 259.814 
[Number of Frequencies] 51
[Network Data]
281700                  -0.25321       -0.405835     -0.000216922    -1.65335e-05         0.665177        0.543218      0.000633473    -0.000598471
                    -0.000379548    -7.86922e-05        -0.173087       0.0113465      0.000314084    -0.000819395         0.763066         0.61604
                        0.665508          0.5434      0.000287613    -0.000678576         0.447018        0.127899      0.000602939     -0.00022115
                      0.00060784    -0.000699033         0.763061        0.616083      0.000580545    -0.000275848        0.0248984        0.166983
281702                 -0.253596       -0.406021     -0.000217319    -1.65658e-05         0.665443        0.542531      0.000633469    -0.000599445
                    -0.000380103    -7.87239e-05        -0.173085       0.0113662      0.000313568     -0.00082025         0.763328        0.615716
                        0.665789        0.542683      0.000287018    -0.000679057         0.447506         0.12741      0.000603714    -0.000221894
                     0.000607737    -0.000699921         0.763323        0.615759      0.000581055    -0.000276829        0.0250222        0.166965
281704                 -0.253982       -0.406208     -0.000217714    -1.65981e-05         0.665709        0.541841      0.000633464     -0.00060042
                    -0.000380743    -7.87707e-05        -0.173084       0.0113859      0.000313051    -0.000821105         0.763589        0.615393
                        0.666069        0.541965      0.000286422    -0.000679536         0.447995         0.12692      0.000604492    -0.000222641
                     0.000607633    -0.000700842         0.763585        0.615436      0.000581565    -0.000277813         0.025146        0.166947
281706                 -0.254369       -0.406394     -0.000218108    -1.66301e-05         0.665975         0.54115      0.000633457    -0.000601396
                    -0.000381491     -7.8837e-05        -0.173083       0.0114056      0.000312531    -0.000821962         0.763851        0.615069
                        0.666348        0.541246      0.000285824    -0.000680012         0.448484        0.126428       0.00060527    -0.000223392
                     0.000607527      -0.0007018         0.763846        0.615112      0.000582077    -0.000278802        0.0252698        0.166929
281708                 -0.254757       -0.406581     -0.000218501    -1.66618e-05          0.66624        0.540456      0.000633448    -0.000602374
                    -0.000382374     -7.8929e-05        -0.173081       0.0114253       0.00031201    -0.000822819         0.764112        0.614745
                        0.666625        0.540527      0.000285224    -0.000680485         0.448975        0.125934      0.000606051    -0.000224147
                      0.00060742    -0.000702806         0.764108        0.614788      0.000582589    -0.000279794        0.0253936        0.166911
281710                 -0.255146       -0.406767     -0.000218892    -1.66929e-05         0.666504        0.539761      0.000633438    -0.000603353
                     -0.00038343    -7.90557e-05         -0.17308        0.011445      0.000311488    -0.000823677         0.764373         0.61442
                        0.666901        0.539806      0.000284623    -0.000680956         0.449467        0.125439      0.000606833    -0.000224905
                     0.000607313    -0.000703869         0.764369        0.614464      0.000583102     -0.00028079        0.0255173        0.166893
281712                 -0.255536       -0.406953     -0.000219281    -1.67232e-05         0.666769        0.539064      0.000633425    -0.000604333
                    -0.000384713    -7.92306e-05        -0.173079       0.0114647      0.000310964    -0.000824536         0.764634        0.614096
                        0.667175        0.539084       0.00028402    -0.000681423         0.449959        0.124942      0.000607617    -0.000225667
                     0.000607208    -0.000705004          0.76463         0.61414      0.000583616    -0.000281791         0.025641        0.166875
281714                 -0.255926       -0.407139     -0.000219668    -1.67526e-05         0.667032        0.538365      0.000633411    -0.000605315
                    -0.000386303    -7.94748e-05        -0.173077       0.0114844      0.000310439    -0.000825396         0.764895        0.613772
                        0.667448        0.538361      0.000283416    -0.000681887         0.450452        0.124444      0.000608403    -0.000226433
                     0.000607106    -0.000706234         0.764891        0.613816      0.000584133    -0.000282796        0.0257647        0.166857
281716                 -0.256317       -0.407324     -0.000220054    -1.67807e-05         0.667295        0.537665      0.000633395    -0.000606297
                     -0.00038832    -7.98233e-05        -0.173076       0.0115041      0.000309913    -0.000826258         0.765156        0.613447
                        0.667719        0.537637       0.00028281    -0.000682348         0.450946        0.123944      0.000609191    -0.000227203
                     0.000607014    -0.000707585         0.765152        0.613491      0.000584651    -0.000283806        0.0258884        0.166839
281718                 -0.256709        -0.40751     -0.000220437    -1.68073e-05         0.667557        0.536962      0.000633377    -0.000607281
                    -0.000390961    -8.03379e-05        -0.173075       0.0115238      0.000309386    -0.000827122         0.765416        0.613123
                        0.667988         0.53691      0.000282202    -0.000682806         0.451441        0.123443      0.000609981    -0.000227977
                      0.00060694    -0.000709103         0.765413        0.613167      0.000585173     -0.00028482        0.0260121        0.166821
281720                 -0.257102       -0.407695     -0.000220817     -1.6832e-05         0.667819        0.536259      0.000633356    -0.000608265
                    -0.000394557    -8.11366e-05        -0.173074       0.0115435      0.000308859    -0.000827989         0.765677        0.612798
                        0.668255        0.536182      0.000281592     -0.00068326         0.451936         0.12294      0.000610774    -0.000228755
                     0.000606901    -0.000710851         0.765673        0.612842      0.000585699    -0.000285841        0.0261357        0.166802
281722                 -0.257496       -0.407881     -0.000221196    -1.68546e-05          0.66808        0.535554      0.000633333     -0.00060925
                    -0.000399725     -8.2471e-05        -0.173072       0.0115633      0.000308332    -0.000828858         0.765937        0.612473
                        0.668519         0.53545       0.00028098     -0.00068371         0.452432        0.122436      0.000611568    -0.000229537
                     0.000606931    -0.000712934         0.765934        0.612518       0.00058623    -0.000286867        0.0262594        0.166784
281724                 -0.257891       -0.408065     -0.000221572    -1.68746e-05          0.66834        0.534847      0.000633308    -0.000610236
                    -0.000407751    -8.49685e-05        -0.173071        0.011583      0.000307806    -0.000829732         0.766197        0.612148
                        0.668779        0.534715      0.000280365    -0.000684157         0.452929         0.12193      0.000612365    -0.000230324
                     0.000607105    -0.000715524         0.766194        0.612193      0.000586767    -0.000287901        0.0263829        0.166765
281726                 -0.258287        -0.40825     -0.000221945    -1.68916e-05           0.6686        0.534139      0.000633281    -0.000611223
                    -0.000421764    -9.06054e-05         -0.17307       0.0116028      0.000307282    -0.000830611         0.766457        0.611823
                        0.669034        0.533977      0.000279748    -0.000684599         0.453426        0.121422      0.000613165    -0.000231116
                     0.000607597    -0.000718931         0.766454        0.611868      0.000587314    -0.000288945        0.0265065        0.166747
281728                 -0.258683       -0.408435     -0.000222316    -1.69052e-05         0.668859        0.533429       0.00063325    -0.000612209
                    -0.000451264    -0.000108685        -0.173069       0.0116225      0.000306762    -0.000831499         0.766717        0.611498
                        0.669282        0.533235      0.000279128    -0.000685038         0.453924        0.120914      0.000613968    -0.000231913
                     0.000608883    -0.000723739         0.766714        0.611543      0.000587873    -0.000290002        0.0266301        0.166728
281730                 -0.259081       -0.408618     -0.000222685    -1.69149e-05         0.669117        0.532718      0.000633216    -0.000613196
                    -0.000508654    -0.000232042        -0.173067       0.0116423      0.000306249    -0.000832399         0.766976        0.611173
                        0.669518        0.532492      0.000278505    -0.000685472         0.454422        0.120403      0.000614774    -0.000232715
                      0.00061249    -0.000731063         0.766974        0.611218      0.000588448    -0.000291078        0.0267536        0.166709
281732                 -0.259479       -0.408802     -0.000223051    -1.69202e-05         0.669375        0.532006      0.000633178    -0.000614182
                    -0.000213887     -0.00018436        -0.173066        0.011662      0.000305746    -0.000833318         0.767236        0.610847
                         0.66974         0.53175      0.000277879    -0.000685902          0.45492        0.119892      0.000615584    -0.000233523
                     0.000624409    -0.000741823         0.767234        0.610893      0.000589044    -0.000292184        0.0268771        0.166691
281734                 -0.259879       -0.408984     -0.000223414    -1.69205e-05         0.669631        0.531293      0.000633135    -0.000615168
                    -0.000289594    -9.29205e-05        -0.173065       0.0116818       0.00030526    -0.000834271         0.767495        0.610522
                        0.669945         0.53102       0.00027725    -0.000686327         0.455419        0.119378      0.000616398    -0.000234338
                     0.000660213    -0.000737201         0.767493        0.610568      0.000589664    -0.000293342        0.0270006        0.166672
281736                 -0.260279       -0.409166     -0.000223776    -1.69155e-05         0.669887        0.530578      0.000633084    -0.000616151
                    -0.000319462    -8.13842e-05        -0.173064       0.0117016      0.000304804    -0.000835289         0.767754        0.610196
                        0.670141        0.530312      0.000276616    -0.000686748         0.455918        0.118864      0.000617216    -0.000235161
                     0.000658051    -0.000688817         0.767753        0.610242      0.000590304     -0.00029459        0.0271241        0.166653
281738                 -0.260681       -0.409345     -0.000224136    -1.69044e-05         0.670142        0.529863      0.000633023    -0.000617132
                    -0.000333484    -7.83031e-05        -0.173062       0.0117214      0.000304396    -0.000836459         0.768014        0.609871
                        0.670343         0.52963      0.000275978    -0.000687165         0.456418        0.118348      0.000618041    -0.000235993
                     0.000631228    -0.000683474         0.768012        0.609917      0.000590915    -0.000295998        0.0272476        0.166633
281740                 -0.261082       -0.409523     -0.000224495    -1.68868e-05         0.670396        0.529146      0.000632946    -0.000618111
                      -0.0003415    -7.71377e-05        -0.173061       0.0117412      0.000304017    -0.000838097         0.768273        0.609545
                        0.670567        0.528965      0.000275335    -0.000687577         0.456918         0.11783      0.000618873    -0.000236836
                     0.000620167    -0.000688844         0.768271        0.609591       0.00059133    -0.000297616         0.027371        0.166614
281742                 -0.261482       -0.409696     -0.000224852    -1.68622e-05          0.67065        0.528428      0.000632841    -0.000619089
                    -0.000346662    -7.66007e-05         -0.17306       0.0117609      0.000302115    -0.000841447         0.768531        0.609219
                        0.670815        0.528299      0.000274688    -0.000687984         0.457418        0.117311      0.000619713    -0.000237693
                       0.0006153    -0.000693431          0.76853        0.609265      0.000591268    -0.000299225        0.0274944        0.166595
281744                 -0.261876       -0.409866      -0.00022521    -1.68301e-05         0.670902        0.527709      0.000632685    -0.000620082
                    -0.000350253    -7.63177e-05        -0.173059       0.0117807      0.000298287    -0.000838242          0.76879        0.608893
                        0.671077        0.527621      0.000274034    -0.000688387         0.457918         0.11679      0.000620563    -0.000238571
                     0.000612737    -0.000696861         0.768789         0.60894      0.000590923     -0.00030029        0.0276178        0.166576
281746                 -0.262259        -0.41004     -0.000225567    -1.67901e-05         0.671154        0.526989      0.000632453    -0.000621151
                    -0.000352892    -7.61515e-05        -0.173058       0.0118005      0.000299699    -0.000838214         0.769048        0.608567
                        0.671346        0.526929      0.000273375    -0.000688785         0.458419        0.116268      0.000621427    -0.000239478
                     0.000611188    -0.000699506         0.769048        0.608614      0.000590906    -0.000300916        0.0277412        0.166556
281748                 -0.262636       -0.410229     -0.000225926    -1.67419e-05         0.671405        0.526267       0.00063224    -0.000622445
                    -0.000354908    -7.60441e-05        -0.173056       0.0118204      0.000299792    -0.000839154         0.769307        0.608241
                        0.671614        0.526227      0.000272709    -0.000689179         0.458919        0.115744      0.000622304    -0.000240432
                     0.000610155     -0.00070164         0.769306        0.608288      0.000591246    -0.000301552        0.0278645        0.166537
281750                 -0.263027       -0.410432     -0.000226286    -1.66852e-05         0.671654        0.525545      0.000632372    -0.000623809
                    -0.000356498     -7.5968e-05        -0.173055       0.0118402      0.000299508    -0.000840101         0.769565        0.607915
                        0.671879        0.525516      0.000272035    -0.000689569          0.45942        0.115219      0.000623192    -0.000241466
                     0.000609412    -0.000703432         0.769565        0.607962      0.000591739    -0.000302324        0.0279879        0.166517
281752                 -0.263431       -0.410634     -0.000226649    -1.66201e-05         0.671903        0.524822      0.000632617    -0.000624868
                    -0.000357782    -7.59091e-05        -0.173054         0.01186      0.000299087    -0.000841017         0.769823        0.607588
                         0.67214          0.5248      0.000271354    -0.000689956         0.459921        0.114692      0.000624058    -0.000242646
                     0.000608847    -0.000704987         0.769823        0.607635      0.000592274    -0.000303203        0.0281112        0.166497
281754                 -0.263841       -0.410828     -0.000227016    -1.65467e-05         0.672151        0.524098      0.000632723    -0.000625804
                     -0.00035884      -7.586e-05        -0.173053       0.0118798        0.0002986    -0.000841912         0.770081        0.607262
                        0.672398        0.524081      0.000270665     -0.00069034         0.460422        0.114164      0.000624752    -0.000244078
                     0.000608395    -0.000706373         0.770081        0.607309      0.000592811    -0.000304151        0.0282345        0.166478
281756                 -0.264253       -0.411018     -0.000227387    -1.64652e-05         0.672398        0.523373      0.000632741    -0.000626743
                    -0.000359726    -7.58162e-05        -0.173052       0.0118997      0.000298077    -0.000842789         0.770339        0.606935
                        0.672652        0.523359      0.000269967    -0.000690722         0.460923        0.113634      0.000624788    -0.000245637
                     0.000608021    -0.000707634         0.770339        0.606983      0.000593341    -0.000305144        0.0283577        0.166458
281758                 -0.264665       -0.411206     -0.000227765    -1.63765e-05         0.672644        0.522648       0.00063272    -0.000627704
                    -0.000360478    -7.57752e-05        -0.173051       0.0119195      0.000297529    -0.000843652         0.770597        0.606609
                        0.672903        0.522635      0.000269261    -0.000691104         0.461423        0.113103      0.000624209    -0.000246164
                     0.000607702    -0.000708801         0.770597        0.606656      0.000593859    -0.000306165         0.028481        0.166438
281760                 -0.265078       -0.411391     -0.000228148    -1.62815e-05         0.672888        0.521921      0.000632681    -0.000628683
                    -0.000361124    -7.57355e-05        -0.173049       0.0119394      0.000296963    -0.000844504         0.770854        0.606282
                        0.673151        0.521909      0.000268545    -0.000691485         0.461924         0.11257      0.000624654    -0.000245908
                     0.000607422    -0.000709895         0.770855        0.606329      0.000594365    -0.000307207        0.0286042        0.166418
281762                  -0.26549       -0.411575      -0.00022854    -1.61821e-05         0.673132        0.521193      0.000632631    -0.000629674
                    -0.000361686    -7.56958e-05        -0.173048       0.0119592       0.00029638    -0.000845341         0.771111        0.605955
                        0.673397        0.521182      0.000267822    -0.000691868         0.462425        0.112035      0.000625734    -0.000246146
