! TOUCHSTONE file generated by CST MICROWAVE STUDIO
! Date and time: Tue Oct 14 07:26:49 2025
! Project name: Teste_Macro_Metasurface_Nanopilar.cst
! Parameters = {H=600; L_x=100; L_y=145; Lambda=1064; Max_L=200; Min_L=70; PathPara=1; Phi=0; Step_L=10; Theta=0; p=520; phaseX=180; phaseY=0}
! Header version: 2018
! Port assignment regex: !\s*Touchstone port\s*([0-9]+)\s*=\s*(CST MWS port|CST DS port)\s*([0-9]+|Zmin|Zmax)\s*\(\"(.*)\"\)(\s*mode\s*([0-9]+))?.*
! Touchstone port assignment:
! Touchstone port 1 = CST MWS port Zmax ("") mode 1
! Touchstone port 2 = CST MWS port Zmax ("") mode 2
! Touchstone port 3 = CST MWS port Zmin ("") mode 1
! Touchstone port 4 = CST MWS port Zmin ("") mode 2
! S-Parameters are not renormalized. Each port impedance will be approximated by the real part at minimum frequency. The values are described via the [Reference] keyword.
! Default impedance is overridden by [Reference]
[Version] 2.0
# GHz S RI R 376.73
[Number of Ports] 4
[Reference]
376.73 376.73 259.814 259.814 
[Number of Frequencies] 51
[Network Data]
281700                -0.0217032       -0.106533     -2.95672e-05    -0.000435089        -0.325139        0.932453     -0.000186838     6.51013e-05
                     2.66329e-05    -0.000320092       -0.0751263       -0.115241      0.000199125     2.07619e-05        0.0642236       -0.982905
                       -0.324916        0.932315       0.00023856     -3.2003e-05       -0.0824037       0.0714606       0.00022818    -0.000194695
                    -0.000141311    -7.86369e-05        0.0642016       -0.983089      0.000144169    -0.000405755       -0.0881238        0.105072
281702                -0.0217471       -0.106549     -2.97535e-05    -0.000435099        -0.324697        0.932604     -0.000186825     6.55959e-05
                      2.6559e-05    -0.000320113       -0.0751754        -0.11523      0.000199184     2.06876e-05        0.0637681       -0.982931
                       -0.324474        0.932467      0.000238651    -3.21753e-05       -0.0823806       0.0715233      0.000228045    -0.000194287
                    -0.000141483    -7.86109e-05         0.063746       -0.983116      0.000143877    -0.000405876       -0.0880739        0.105137
281704                -0.0217911       -0.106564     -2.99397e-05    -0.000435108        -0.324255        0.932756     -0.000186812     6.60912e-05
                      2.6485e-05    -0.000320135       -0.0752245       -0.115219      0.000199243     2.06134e-05        0.0633127       -0.982958
                       -0.324032        0.932618      0.000238742    -3.23475e-05       -0.0823574        0.071586       0.00022791    -0.000193878
                    -0.000141654    -7.85847e-05        0.0632903       -0.983143      0.000143586    -0.000405996       -0.0880239        0.105202
281706                -0.0218351       -0.106579     -3.01258e-05    -0.000435118        -0.323813        0.932907     -0.000186799     6.65871e-05
                     2.64111e-05    -0.000320157       -0.0752737       -0.115208      0.000199302     2.05392e-05        0.0628572       -0.982984
                        -0.32359         0.93277      0.000238833    -3.25197e-05       -0.0823341       0.0716486      0.000227775    -0.000193468
                    -0.000141826    -7.85582e-05        0.0628346       -0.983169      0.000143295    -0.000406117       -0.0879739        0.105267
281708                -0.0218791       -0.106595     -3.03119e-05    -0.000435127        -0.323371        0.933058     -0.000186786     6.70836e-05
                     2.63372e-05    -0.000320179       -0.0753228       -0.115197      0.000199361     2.04651e-05        0.0624016        -0.98301
                       -0.323148        0.932921      0.000238924     -3.2692e-05       -0.0823109       0.0717113      0.000227639    -0.000193057
                    -0.000141998    -7.85313e-05        0.0623789       -0.983196      0.000143004    -0.000406237       -0.0879239        0.105332
281710                -0.0219231        -0.10661     -3.04978e-05    -0.000435136        -0.322928        0.933209     -0.000186772     6.75807e-05
                     2.62632e-05    -0.000320201       -0.0753719       -0.115186      0.000199419      2.0391e-05        0.0619461       -0.983036
                       -0.322706        0.933072      0.000239016    -3.28641e-05       -0.0822876        0.071774      0.000227503    -0.000192645
                     -0.00014217    -7.85043e-05        0.0619232       -0.983222      0.000142713    -0.000406358       -0.0878738        0.105397
281712                -0.0219671       -0.106625     -3.06837e-05    -0.000435146        -0.322486        0.933359     -0.000186759     6.80785e-05
                     2.61893e-05    -0.000320223       -0.0754211       -0.115176      0.000199478     2.03171e-05        0.0614906       -0.983062
                       -0.322264        0.933222      0.000239108    -3.30363e-05       -0.0822642       0.0718366      0.000227367    -0.000192232
                    -0.000142342    -7.84769e-05        0.0614674       -0.983247      0.000142423    -0.000406478       -0.0878237        0.105462
281714                -0.0220111        -0.10664     -3.08696e-05    -0.000435155        -0.322044         0.93351     -0.000186746      6.8577e-05
                     2.61153e-05    -0.000320246       -0.0754702       -0.115165      0.000199536     2.02431e-05         0.061035       -0.983087
                       -0.321822        0.933373        0.0002392    -3.32085e-05       -0.0822408       0.0718993       0.00022723    -0.000191818
                    -0.000142514    -7.84492e-05        0.0610117       -0.983273      0.000142133    -0.000406598       -0.0877735        0.105527
281716                -0.0220551       -0.106656     -3.10553e-05    -0.000435164        -0.321601         0.93366     -0.000186732      6.9076e-05
                     2.60414e-05    -0.000320268       -0.0755194       -0.115154      0.000199594     2.01693e-05        0.0605794       -0.983112
                       -0.321379        0.933523      0.000239292    -3.33806e-05       -0.0822173       0.0719619      0.000227093    -0.000191402
                    -0.000142686    -7.84212e-05        0.0605559       -0.983298      0.000141844    -0.000406719       -0.0877233        0.105591
281718                -0.0220992       -0.106671     -3.12409e-05    -0.000435172        -0.321159         0.93381     -0.000186719     6.95757e-05
                     2.59675e-05     -0.00032029       -0.0755685       -0.115143      0.000199652     2.00954e-05        0.0601238       -0.983137
                       -0.320937        0.933673      0.000239384    -3.35527e-05       -0.0821938       0.0720246      0.000226955    -0.000190986
                    -0.000142859     -7.8393e-05        0.0601001       -0.983323      0.000141554    -0.000406839        -0.087673        0.105656
281720                -0.0221432       -0.106686     -3.14265e-05    -0.000435181        -0.320716         0.93396     -0.000186706      7.0076e-05
                     2.58935e-05    -0.000320313       -0.0756177       -0.115132       0.00019971     2.00217e-05        0.0596682       -0.983162
                       -0.320495        0.933823      0.000239476    -3.37248e-05       -0.0821702       0.0720873      0.000226817    -0.000190569
                    -0.000143031    -7.83644e-05        0.0596443       -0.983348      0.000141265    -0.000406959       -0.0876227        0.105721
281722                -0.0221873       -0.106701      -3.1612e-05     -0.00043519        -0.320274        0.934109     -0.000186692     7.05769e-05
                     2.58196e-05    -0.000320335       -0.0756668       -0.115121      0.000199767      1.9948e-05        0.0592125       -0.983186
                       -0.320052        0.933973      0.000239569    -3.38968e-05       -0.0821466       0.0721499      0.000226678     -0.00019015
                    -0.000143203    -7.83356e-05        0.0591884       -0.983373      0.000140977    -0.000407079       -0.0875723        0.105786
281724                -0.0222313       -0.106717     -3.17973e-05    -0.000435198        -0.319831        0.934258     -0.000186679     7.10785e-05
                     2.57456e-05    -0.000320358        -0.075716        -0.11511      0.000199824     1.98743e-05        0.0587569       -0.983211
                        -0.31961        0.934122      0.000239662    -3.40688e-05        -0.082123       0.0722126      0.000226539    -0.000189731
                    -0.000143376    -7.83064e-05        0.0587326       -0.983398      0.000140689    -0.000407199       -0.0875219         0.10585
281726                -0.0222754       -0.106732     -3.19826e-05    -0.000435207        -0.319388        0.934408     -0.000186665     7.15807e-05
                     2.56717e-05    -0.000320381       -0.0757651       -0.115099      0.000199882     1.98007e-05        0.0583012       -0.983235
                       -0.319167        0.934272      0.000239755    -3.42407e-05       -0.0820993       0.0722752        0.0002264     -0.00018931
                    -0.000143549     -7.8277e-05        0.0582767       -0.983422      0.000140401    -0.000407319       -0.0874714        0.105915
281728                -0.0223195       -0.106747     -3.21678e-05    -0.000435215        -0.318946        0.934556     -0.000186651     7.20835e-05
                     2.55977e-05    -0.000320404       -0.0758143       -0.115087      0.000199938     1.97272e-05        0.0578455       -0.983259
                       -0.318725        0.934421      0.000239848    -3.44126e-05       -0.0820756       0.0723378      0.000226259    -0.000188889
                    -0.000143722    -7.82473e-05        0.0578208       -0.983446      0.000140113    -0.000407439       -0.0874209         0.10598
281730                -0.0223636       -0.106762     -3.23529e-05    -0.000435223        -0.318503        0.934705     -0.000186638     7.25869e-05
                     2.55238e-05    -0.000320426       -0.0758635       -0.115076      0.000199995     1.96537e-05        0.0573898       -0.983283
                       -0.318282        0.934569      0.000239941    -3.45845e-05       -0.0820518       0.0724005      0.000226119    -0.000188466
                    -0.000143895    -7.82172e-05        0.0573649        -0.98347      0.000139826    -0.000407559       -0.0873704        0.106044
281732                -0.0224078       -0.106777     -3.25379e-05    -0.000435231         -0.31806        0.934854     -0.000186624      7.3091e-05
                     2.54498e-05    -0.000320449       -0.0759126       -0.115065      0.000200051     1.95802e-05         0.056934       -0.983306
                       -0.317839        0.934718      0.000240034    -3.47563e-05       -0.0820279       0.0724631      0.000225978    -0.000188042
                    -0.000144068    -7.81869e-05         0.056909       -0.983494      0.000139539    -0.000407678       -0.0873198        0.106109
281734                -0.0224519       -0.106792     -3.27228e-05    -0.000435239        -0.317617        0.935002     -0.000186611     7.35956e-05
                     2.53759e-05    -0.000320472       -0.0759618       -0.115054      0.000200107     1.95068e-05        0.0564783       -0.983329
                       -0.317396        0.934866      0.000240128     -3.4928e-05       -0.0820041       0.0725257      0.000225836    -0.000187617
                    -0.000144241    -7.81563e-05        0.0564531       -0.983517      0.000139253    -0.000407798       -0.0872692        0.106173
281736                 -0.022496       -0.106807     -3.29076e-05    -0.000435247        -0.317174         0.93515     -0.000186597     7.41009e-05
                     2.53019e-05    -0.000320496        -0.076011       -0.115043      0.000200163     1.94334e-05        0.0560225       -0.983352
                       -0.316953        0.935015      0.000240222    -3.50997e-05       -0.0819801       0.0725884      0.000225694    -0.000187191
                    -0.000144414    -7.81253e-05        0.0559971        -0.98354      0.000138967    -0.000407918       -0.0872185        0.106238
281738                -0.0225402       -0.106822     -3.30923e-05    -0.000435255        -0.316731        0.935298     -0.000186583     7.46068e-05
                      2.5228e-05    -0.000320519       -0.0760602       -0.115032      0.000200219     1.93599e-05        0.0555667       -0.983375
                       -0.316511        0.935163      0.000240316    -3.52714e-05       -0.0819561        0.072651      0.000225551    -0.000186764
                    -0.000144587     -7.8094e-05        0.0555412       -0.983563      0.000138681    -0.000408037       -0.0871677        0.106302
281740                -0.0225843       -0.106837     -3.32769e-05    -0.000435262        -0.316288        0.935445     -0.000186569     7.51134e-05
                      2.5154e-05    -0.000320542       -0.0761093        -0.11502      0.000200274     1.92864e-05        0.0551109       -0.983398
                       -0.316068         0.93531       0.00024041     -3.5443e-05       -0.0819321       0.0727136      0.000225407    -0.000186336
                    -0.000144761    -7.80625e-05        0.0550852       -0.983586      0.000138396    -0.000408156        -0.087117        0.106367
281742                -0.0226285       -0.106852     -3.34614e-05     -0.00043527        -0.315845        0.935593     -0.000186556     7.56205e-05
                     2.50801e-05    -0.000320565       -0.0761585       -0.115009      0.000200329     1.92127e-05        0.0546551        -0.98342
                       -0.315624        0.935458      0.000240505    -3.56145e-05       -0.0819081       0.0727762      0.000225263    -0.000185906
                    -0.000144934    -7.80305e-05        0.0546292       -0.983609      0.000138112    -0.000408275       -0.0870661        0.106431
281744                -0.0226727       -0.106867     -3.36458e-05    -0.000435277        -0.315401         0.93574     -0.000186542     7.61283e-05
                     2.50061e-05    -0.000320589       -0.0762077       -0.114998      0.000200383     1.91387e-05        0.0541993       -0.983443
                       -0.315181        0.935605      0.000240599     -3.5786e-05       -0.0818839       0.0728388      0.000225118    -0.000185475
                    -0.000145108    -7.79983e-05        0.0541731       -0.983631      0.000137829    -0.000408393       -0.0870153        0.106496
281746                -0.0227169       -0.106882     -3.38301e-05    -0.000435284        -0.314958        0.935887     -0.000186528     7.66368e-05
                     2.49321e-05    -0.000320612       -0.0762569       -0.114987      0.000200436     1.90638e-05        0.0537434       -0.983465
                       -0.314738        0.935752      0.000240694    -3.59574e-05       -0.0818598       0.0729015      0.000224972    -0.000185043
                    -0.000145281    -7.79656e-05        0.0537171       -0.983653      0.000137547     -0.00040851       -0.0869643         0.10656
281748                -0.0227611       -0.106897     -3.40143e-05    -0.000435292        -0.314514        0.936034     -0.000186514     7.71459e-05
                     2.48582e-05    -0.000320635       -0.0763061       -0.114975      0.000200487     1.89862e-05        0.0532875       -0.983487
                       -0.314295        0.935899      0.000240789    -3.61289e-05       -0.0818356       0.0729641      0.000224824    -0.000184608
                    -0.000145454    -7.79323e-05        0.0532611       -0.983675       0.00013727    -0.000408623       -0.0869134        0.106625
281750                -0.0228053       -0.106912     -3.41985e-05    -0.000435299        -0.314071         0.93618       -0.0001865     7.76559e-05
                     2.47843e-05    -0.000320657       -0.0763553       -0.114964      0.000200521     1.88898e-05        0.0528317       -0.983508
                       -0.313852        0.936046      0.000240884    -3.63005e-05       -0.0818113       0.0730267      0.000224674    -0.000184171
                    -0.000145627    -7.78978e-05         0.052805       -0.983697       0.00013702    -0.000408708       -0.0868624        0.106689
281752                -0.0228495       -0.106927     -3.43828e-05    -0.000435306        -0.313628        0.936326     -0.000186486     7.81672e-05
                     2.47112e-05    -0.000320665       -0.0764045       -0.114953      0.000200642     1.88928e-05        0.0523758        -0.98353
                       -0.313408        0.936192      0.000240979    -3.64729e-05        -0.081787       0.0730892      0.000224515    -0.000183727
                    -0.000145789    -7.78458e-05        0.0523489       -0.983719      0.000136626    -0.000408934       -0.0868113        0.106753
281754                -0.0228938       -0.106942     -3.45683e-05    -0.000435317        -0.313184        0.936472     -0.000186465     7.86877e-05
                     2.46358e-05    -0.000320711       -0.0764537       -0.114941      0.000200672     1.87937e-05        0.0519198       -0.983551
                       -0.312965        0.936339      0.000241072    -3.66531e-05       -0.0817627       0.0731518      0.000224217    -0.000183108
                    -0.000145981    -7.78387e-05        0.0518928        -0.98374      0.000136384    -0.000409018       -0.0867602        0.106818
281756                 -0.022938       -0.106957     -3.47451e-05    -0.000435315         -0.31274        0.936618     -0.000186459      7.9182e-05
                      2.4562e-05    -0.000320733       -0.0765029        -0.11493      0.000200721     1.87162e-05        0.0514639       -0.983572
                       -0.312521        0.936485      0.000241177    -3.68053e-05       -0.0817383       0.0732144      0.000224281    -0.000182902
                    -0.000146153    -7.78022e-05        0.0514367       -0.983761      0.000136109     -0.00040913        -0.086709        0.106882
281758                -0.0229823       -0.106972     -3.49311e-05    -0.000435323        -0.312297        0.936764     -0.000186445     7.96963e-05
                      2.4488e-05    -0.000320757       -0.0765521       -0.114918      0.000200772     1.86417e-05         0.051008       -0.983592
                       -0.312078        0.936631      0.000241271    -3.69796e-05       -0.0817138        0.073277      0.000224113     -0.00018245
                    -0.000146327    -7.77672e-05        0.0509806       -0.983782       0.00013583    -0.000409247       -0.0866578        0.106946
281760                -0.0230266       -0.106987      -3.5115e-05     -0.00043533        -0.311853        0.936909     -0.000186432     8.02095e-05
                      2.4414e-05     -0.00032078       -0.0766013       -0.114907      0.000200825     1.85682e-05         0.050552       -0.983613
                       -0.311634        0.936776      0.000241367     -3.7151e-05       -0.0816893       0.0733396      0.000223958    -0.000182007
                    -0.000146501    -7.77323e-05        0.0505244       -0.983803       0.00013555    -0.000409365       -0.0866066        0.107011
281762                -0.0230708       -0.107001     -3.52984e-05    -0.000435336        -0.311409        0.937055     -0.000186418     8.07229e-05
                       2.434e-05    -0.000320804       -0.0766505       -0.114896      0.000200877     1.84953e-05         0.050096       -0.983633
                        -0.31119        0.936922      0.000241463    -3.73219e-05       -0.0816648       0.0734022      0.000223805    -0.000181564
