! TOUCHSTONE file generated by CST MICROWAVE STUDIO
! Date and time: Tue Oct 14 07:25:08 2025
! Project name: Teste_Macro_Metasurface_Nanopilar.cst
! Parameters = {H=600; L_x=75; L_y=95; Lambda=1064; Max_L=200; Min_L=70; PathPara=1; Phi=0; Step_L=10; Theta=0; p=520; phaseX=180; phaseY=0}
! Header version: 2018
! Port assignment regex: !\s*Touchstone port\s*([0-9]+)\s*=\s*(CST MWS port|CST DS port)\s*([0-9]+|Zmin|Zmax)\s*\(\"(.*)\"\)(\s*mode\s*([0-9]+))?.*
! Touchstone port assignment:
! Touchstone port 1 = CST MWS port Zmax ("") mode 1
! Touchstone port 2 = CST MWS port Zmax ("") mode 2
! Touchstone port 3 = CST MWS port Zmin ("") mode 1
! Touchstone port 4 = CST MWS port Zmin ("") mode 2
! S-Parameters are not renormalized. Each port impedance will be approximated by the real part at minimum frequency. The values are described via the [Reference] keyword.
! Default impedance is overridden by [Reference]
[Version] 2.0
# GHz S RI R 376.73
[Number of Ports] 4
[Reference]
376.73 376.73 259.814 259.814 
[Number of Frequencies] 51
[Network Data]
281700                -0.0159593       0.0910188      0.000280713    -0.000478692         0.990081       -0.101079        5.147e-05    -0.000368099
                     0.000296369    -0.000517756       -0.0437413         0.12297      0.000199362    -0.000667871          0.98473         0.11207
                        0.989851       -0.100616      9.38815e-05    -0.000546489         0.033826       0.0860377     -0.000219212    -0.000312256
                     0.000116795    -0.000594684          0.98472        0.112213     -4.82222e-05     -0.00055346        0.0148613        0.129693
281702                -0.0159259       0.0910187      0.000280234    -0.000478968         0.990044       -0.101445      5.13663e-05    -0.000368203
                     0.000296146    -0.000518065       -0.0436989        0.122981      0.000199334    -0.000667868         0.984771        0.111714
                        0.989814       -0.100982      9.37568e-05    -0.000546631        0.0338568       0.0860193     -0.000219078    -0.000312135
                      0.00011672    -0.000594811         0.984761        0.111858     -4.78693e-05    -0.000553484        0.0149112        0.129683
281704                -0.0158925       0.0910187      0.000279752    -0.000479241         0.990007       -0.101811      5.12627e-05    -0.000368308
                     0.000295924    -0.000518373       -0.0436566        0.122992      0.000199305    -0.000667865         0.984812        0.111359
                        0.989777       -0.101347      9.36319e-05    -0.000546773        0.0338877        0.086001     -0.000218943    -0.000312015
                     0.000116645    -0.000594937         0.984802        0.111502     -4.75154e-05    -0.000553508        0.0149611        0.129674
281706                -0.0158592       0.0910187      0.000279265    -0.000479508          0.98997       -0.102177      5.11591e-05    -0.000368414
                     0.000295701    -0.000518682       -0.0436143        0.123003      0.000199276    -0.000667863         0.984852        0.111003
                        0.989739       -0.101712      9.35068e-05    -0.000546914        0.0339185       0.0859826     -0.000218809    -0.000311896
                      0.00011657    -0.000595064         0.984842        0.111146     -4.71604e-05    -0.000553532        0.0150109        0.129664
281708                -0.0158258       0.0910186      0.000278776    -0.000479768         0.989932       -0.102542      5.10556e-05    -0.000368521
                     0.000295478    -0.000518991       -0.0435719        0.123014      0.000199247     -0.00066786         0.984893        0.110648
                        0.989702       -0.102078      9.33815e-05    -0.000547056        0.0339493       0.0859643     -0.000218673    -0.000311777
                     0.000116495    -0.000595191         0.984883        0.110791     -4.68045e-05    -0.000553557        0.0150608        0.129654
281710                -0.0157924       0.0910185      0.000278287    -0.000480017         0.989895       -0.102908      5.09521e-05    -0.000368628
                     0.000295255      -0.0005193       -0.0435296        0.123025      0.000199217    -0.000667858         0.984933        0.110292
                        0.989665       -0.102443      9.32561e-05    -0.000547198          0.03398       0.0859459     -0.000218537     -0.00031166
                      0.00011642    -0.000595317         0.984923        0.110435     -4.64475e-05    -0.000553583        0.0151106        0.129645
281712                 -0.015759       0.0910184      0.000277803    -0.000480255         0.989857       -0.103274      5.08487e-05    -0.000368737
                     0.000295032    -0.000519609       -0.0434872        0.123036      0.000199187    -0.000667857         0.984974        0.109937
                        0.989627       -0.102809      9.31304e-05     -0.00054734        0.0340108       0.0859275     -0.000218401    -0.000311543
                     0.000116345    -0.000595444         0.984963        0.110079     -4.60896e-05    -0.000553609        0.0151605        0.129635
281714                -0.0157256       0.0910184      0.000277331    -0.000480486          0.98982        -0.10364      5.07454e-05    -0.000368846
                     0.000294809    -0.000519918       -0.0434449        0.123047      0.000199157    -0.000667856         0.985014        0.109581
                        0.989589       -0.103174      9.30045e-05    -0.000547482        0.0340416       0.0859091     -0.000218264    -0.000311428
                      0.00011627    -0.000595571         0.985004        0.109724     -4.57306e-05    -0.000553635        0.0152103        0.129626
281716                -0.0156923       0.0910183      0.000276872    -0.000480717         0.989782       -0.104005      5.06421e-05    -0.000368955
                     0.000294586    -0.000520227       -0.0434025        0.123058      0.000199127    -0.000667855         0.985054        0.109226
                        0.989551       -0.103539      9.28784e-05    -0.000547624        0.0340724       0.0858907     -0.000218127    -0.000311313
                     0.000116195    -0.000595697         0.985044        0.109368     -4.53707e-05    -0.000553662        0.0152601        0.129616
281718                -0.0156589       0.0910181      0.000276424    -0.000480955         0.989744       -0.104371      5.05388e-05    -0.000369066
                     0.000294363    -0.000520536       -0.0433601        0.123069      0.000199098    -0.000667855         0.985094         0.10887
                        0.989513       -0.103905       9.2752e-05    -0.000547766        0.0341031       0.0858723      -0.00021799    -0.000311199
                     0.000116121    -0.000595824         0.985084        0.109012     -4.50098e-05    -0.000553689        0.0153099        0.129606
281720                -0.0156255        0.091018       0.00027598    -0.000481203         0.989706       -0.104737      5.04355e-05    -0.000369177
                     0.000294139    -0.000520845       -0.0433178         0.12308      0.000199068    -0.000667856         0.985134        0.108514
                        0.989475        -0.10427      9.26254e-05    -0.000547908        0.0341338       0.0858539     -0.000217852    -0.000311086
                     0.000116046     -0.00059595         0.985123        0.108656     -4.46479e-05    -0.000553716        0.0153598        0.129596
281722                -0.0155922       0.0910179      0.000275535    -0.000481459         0.989667       -0.105102      5.03323e-05    -0.000369289
                     0.000293916    -0.000521154       -0.0432754        0.123091       0.00019904    -0.000667857         0.985173        0.108159
                        0.989437       -0.104635      9.24983e-05    -0.000548049        0.0341646       0.0858355     -0.000217714    -0.000310974
                     0.000115972    -0.000596077         0.985163        0.108301      -4.4285e-05    -0.000553744        0.0154096        0.129587
281724                -0.0155588       0.0910177      0.000275087    -0.000481722         0.989629       -0.105468      5.02291e-05    -0.000369402
                     0.000293692    -0.000521464       -0.0432331        0.123102      0.000199011    -0.000667858         0.985213        0.107803
                        0.989399       -0.105001      9.23709e-05    -0.000548191        0.0341953        0.085817     -0.000217575    -0.000310863
                     0.000115897    -0.000596204         0.985202        0.107945     -4.39211e-05    -0.000553772        0.0154594        0.129577
281726                -0.0155254       0.0910175      0.000274634    -0.000481987          0.98959       -0.105834      5.01259e-05    -0.000369516
                     0.000293469    -0.000521773       -0.0431907        0.123112      0.000198984    -0.000667859         0.985252        0.107448
                         0.98936       -0.105366       9.2243e-05    -0.000548333         0.034226       0.0857985     -0.000217436    -0.000310753
                     0.000115823     -0.00059633         0.985242        0.107589     -4.35563e-05      -0.0005538        0.0155092        0.129567
281728                -0.0154921       0.0910174      0.000274178    -0.000482254         0.989552       -0.106199      5.00227e-05    -0.000369631
                     0.000293245    -0.000522083       -0.0431483        0.123123      0.000198956     -0.00066786         0.985292        0.107092
                        0.989321       -0.105731      9.21144e-05    -0.000548475        0.0342567       0.0857801     -0.000217296    -0.000310644
                     0.000115748    -0.000596457         0.985281        0.107233     -4.31906e-05    -0.000553828         0.015559        0.129558
281730                -0.0154587       0.0910172      0.000273717    -0.000482522         0.989513       -0.106565      4.99195e-05    -0.000369746
                     0.000293021    -0.000522392       -0.0431059        0.123134       0.00019893    -0.000667861         0.985331        0.106736
                        0.989283       -0.106096      9.19852e-05    -0.000548616        0.0342874       0.0857616     -0.000217156    -0.000310536
                     0.000115674    -0.000596584          0.98532        0.106877     -4.28239e-05    -0.000553856        0.0156088        0.129548
281732                -0.0154253        0.091017      0.000273253    -0.000482789         0.989474        -0.10693      4.98163e-05    -0.000369863
                     0.000292798    -0.000522702       -0.0430636        0.123145      0.000198903    -0.000667862          0.98537        0.106381
                        0.989244       -0.106462       9.1855e-05    -0.000548757        0.0343181       0.0857431     -0.000217016    -0.000310429
                     0.000115599     -0.00059671         0.985359        0.106522     -4.24562e-05    -0.000553885        0.0156586        0.129538
281734                 -0.015392       0.0910168      0.000272787    -0.000483055         0.989435       -0.107296       4.9713e-05     -0.00036998
                     0.000292574    -0.000523011       -0.0430212        0.123156      0.000198877    -0.000667863         0.985409        0.106025
                        0.989205       -0.106827      9.17237e-05    -0.000548897        0.0343487       0.0857246     -0.000216875    -0.000310323
                     0.000115525    -0.000596837         0.985398        0.106166     -4.20876e-05    -0.000553913        0.0157084        0.129528
281736                -0.0153586       0.0910165      0.000272319     -0.00048332         0.989396       -0.107662      4.96098e-05    -0.000370098
                      0.00029235    -0.000523321       -0.0429788        0.123167      0.000198851    -0.000667863         0.985448        0.105669
                        0.989165       -0.107192      9.15915e-05    -0.000549035        0.0343794       0.0857061     -0.000216734    -0.000310218
                     0.000115451    -0.000596964         0.985437         0.10581     -4.17181e-05    -0.000553942        0.0157581        0.129518
281738                -0.0153253       0.0910163      0.000271849    -0.000483584         0.989356       -0.108027      4.95065e-05    -0.000370217
                     0.000292125    -0.000523631       -0.0429364        0.123178      0.000198826    -0.000667863         0.985486        0.105313
                        0.989126       -0.107557      9.14591e-05     -0.00054917        0.0344101       0.0856876     -0.000216592    -0.000310114
                     0.000115376     -0.00059709         0.985475        0.105454     -4.13477e-05    -0.000553971        0.0158079        0.129508
281740                -0.0152919        0.091016      0.000271377    -0.000483847         0.989317       -0.108393      4.94031e-05    -0.000370337
                     0.000291901    -0.000523941        -0.042894        0.123188        0.0001988    -0.000667863         0.985525        0.104958
                        0.989087       -0.107922       9.1329e-05    -0.000549301        0.0344407        0.085669      -0.00021645    -0.000310012
                     0.000115302    -0.000597217         0.985514        0.105098     -4.09764e-05    -0.000553999        0.0158577        0.129498
281742                -0.0152586       0.0910158      0.000270904    -0.000484109         0.989277       -0.108758      4.92998e-05    -0.000370457
                     0.000291677    -0.000524251       -0.0428516        0.123199      0.000198774    -0.000667862         0.985563        0.104602
                        0.989047       -0.108288      9.12043e-05     -0.00054943        0.0344713       0.0856505     -0.000216307     -0.00030991
                     0.000115228    -0.000597344         0.985552        0.104742     -4.06042e-05    -0.000554028        0.0159074        0.129489
281744                -0.0152252       0.0910155       0.00027043    -0.000484371         0.989237       -0.109124      4.91963e-05    -0.000370579
                     0.000291452     -0.00052456       -0.0428093         0.12321      0.000198749    -0.000667861         0.985601        0.104246
                        0.989007       -0.108653      9.10855e-05    -0.000549562         0.034502       0.0856319     -0.000216165     -0.00030981
                     0.000115153    -0.000597471          0.98559        0.104386     -4.02311e-05    -0.000554057        0.0159572        0.129479
281746                -0.0151919       0.0910152      0.000269955    -0.000484631         0.989197       -0.109489      4.90928e-05    -0.000370701
                     0.000291228     -0.00052487       -0.0427669        0.123221      0.000198723     -0.00066786          0.98564         0.10389
                        0.988967       -0.109018      9.09688e-05      -0.0005497        0.0345326       0.0856134     -0.000216021     -0.00030971
                     0.000115079    -0.000597597         0.985628         0.10403     -3.98572e-05    -0.000554085        0.0160069        0.129469
281748                -0.0151585       0.0910149      0.000269478     -0.00048489         0.989157       -0.109855      4.89893e-05    -0.000370825
                     0.000291003     -0.00052518       -0.0427245        0.123231      0.000198697    -0.000667859         0.985678        0.103534
                        0.988927       -0.109383      9.08502e-05    -0.000549842        0.0345632       0.0855948     -0.000215878    -0.000309612
                     0.000115005    -0.000597724         0.985666        0.103674     -3.94824e-05    -0.000554114        0.0160567        0.129459
281750                -0.0151252       0.0910146      0.000269001    -0.000485149         0.989117        -0.11022      4.88857e-05    -0.000370949
                     0.000290778     -0.00052549       -0.0426821        0.123242      0.000198671    -0.000667858         0.985716        0.103179
                        0.988887       -0.109748      9.07286e-05    -0.000549987        0.0345938       0.0855762     -0.000215734    -0.000309515
                     0.000114931    -0.000597851         0.985704        0.103318     -3.91067e-05    -0.000554142        0.0161064        0.129449
281752                -0.0150918       0.0910143      0.000268523    -0.000485407         0.989077       -0.110586      4.87819e-05    -0.000371074
                     0.000290553      -0.0005258       -0.0426397        0.123253      0.000198646    -0.000667857         0.985753        0.102823
                        0.988847       -0.110113      9.06045e-05    -0.000550131        0.0346244       0.0855576     -0.000215589     -0.00030942
                     0.000114857    -0.000597978         0.985742        0.102962     -3.87302e-05    -0.000554171        0.0161562        0.129439
281754                -0.0150585        0.091014      0.000268043    -0.000485664         0.989037       -0.110951      4.86781e-05      -0.0003712
                     0.000290328    -0.000526111       -0.0425973        0.123263       0.00019862    -0.000667856         0.985791        0.102467
                        0.988806       -0.110478      9.04786e-05    -0.000550276         0.034655        0.085539     -0.000215445    -0.000309325
                     0.000114783    -0.000598104         0.985779        0.102606     -3.83528e-05    -0.000554199        0.0162059        0.129429
281756                -0.0150252       0.0910136      0.000267563    -0.000485921         0.988996       -0.111316      4.85743e-05    -0.000371327
                     0.000290103    -0.000526421       -0.0425549        0.123274      0.000198594    -0.000667855         0.985828        0.102111
                        0.988766       -0.110843      9.03516e-05     -0.00055042        0.0346855       0.0855204       -0.0002153    -0.000309232
                     0.000114708    -0.000598231         0.985817         0.10225     -3.79746e-05    -0.000554227        0.0162556        0.129419
281758                -0.0149918       0.0910132      0.000267082    -0.000486177         0.988955       -0.111682      4.84703e-05    -0.000371455
                     0.000289878    -0.000526731       -0.0425125        0.123285      0.000198569    -0.000667853         0.985866        0.101755
                        0.988725       -0.111209      9.02236e-05    -0.000550563        0.0347161       0.0855018     -0.000215154     -0.00030914
                     0.000114634    -0.000598358         0.985854        0.101894     -3.75956e-05    -0.000554255        0.0163053        0.129409
281760                -0.0149585       0.0910129        0.0002666    -0.000486432         0.988914       -0.112047      4.83662e-05    -0.000371584
                     0.000289653    -0.000527041         -0.04247        0.123295      0.000198543    -0.000667852         0.985903        0.101399
                        0.988684       -0.111574      9.00949e-05    -0.000550707        0.0347466       0.0854831     -0.000215009    -0.000309049
                      0.00011456    -0.000598485         0.985891        0.101538     -3.72159e-05    -0.000554283        0.0163551        0.129399
281762                -0.0149252       0.0910125      0.000266118    -0.000486688         0.988873       -0.112413       4.8262e-05    -0.000371713
                     0.000289427    -0.000527352       -0.0424276        0.123306      0.000198518    -0.000667852          0.98594        0.101043
                        0.988643       -0.111939      8.99655e-05     -0.00055085        0.0347772       0.0854645     -0.000214862     -0.00030896
