! TOUCHSTONE file generated by CST MICROWAVE STUDIO
! Date and time: Tue Oct 14 07:32:18 2025
! Project name: Teste_Macro_Metasurface_Nanopilar.cst
! Parameters = {H=600; L_x=185; L_y=200; Lambda=1064; Max_L=200; Min_L=70; PathPara=1; Phi=0; Step_L=10; Theta=0; p=520; phaseX=180; phaseY=0}
! Header version: 2018
! Port assignment regex: !\s*Touchstone port\s*([0-9]+)\s*=\s*(CST MWS port|CST DS port)\s*([0-9]+|Zmin|Zmax)\s*\(\"(.*)\"\)(\s*mode\s*([0-9]+))?.*
! Touchstone port assignment:
! Touchstone port 1 = CST MWS port Zmax ("") mode 1
! Touchstone port 2 = CST MWS port Zmax ("") mode 2
! Touchstone port 3 = CST MWS port Zmin ("") mode 1
! Touchstone port 4 = CST MWS port Zmin ("") mode 2
! S-Parameters are not renormalized. Each port impedance will be approximated by the real part at minimum frequency. The values are described via the [Reference] keyword.
! Default impedance is overridden by [Reference]
[Version] 2.0
# GHz S RI R 376.73
[Number of Ports] 4
[Reference]
376.73 376.73 259.814 259.814 
[Number of Frequencies] 51
[Network Data]
281700                 -0.444362       -0.172028     -0.000239181    -0.000216185         0.875022      -0.0182649     -0.000182401    -0.000534361
                    -0.000267735    -7.84872e-05        -0.340444       -0.150202     -0.000145403    -0.000493571         0.921807       0.0775029
                        0.875161      -0.0178012     -0.000156797    -0.000607925         0.434973       -0.190206      4.09814e-05    -0.000646736
                    -7.87404e-05    -0.000564248         0.922248       0.0776933      8.15355e-05    -0.000712063         0.358891      -0.0922537
281702                 -0.444421       -0.171887     -0.000240542    -0.000214603         0.874976      -0.0187111     -0.000182812    -0.000532783
                    -0.000266821    -8.02543e-05        -0.340501       -0.150108     -0.000226296    -0.000370339         0.921833       0.0771298
                        0.875159      -0.0181725     -0.000157416    -0.000607307         0.434877       -0.190435      4.17449e-05    -0.000646103
                    -7.93316e-05    -0.000565381         0.922271       0.0773167      8.44079e-05    -0.000717615         0.358859       -0.092439
281704                  -0.44448       -0.171747      -0.00024189       -0.000213         0.874911      -0.0191011     -0.000183268    -0.000531302
                    -0.000265906    -8.20629e-05        -0.340558       -0.150013     -5.89348e-05    -0.000230509         0.921859       0.0767567
                        0.875157      -0.0185438     -0.000158029    -0.000606685         0.434781       -0.190663      4.23976e-05     -0.00064539
                     -7.9939e-05    -0.000566538         0.922293         0.07694      8.79431e-05    -0.000722879         0.358826      -0.0926243
281706                 -0.444539       -0.171607     -0.000243227    -0.000211376         0.874864      -0.0194626     -0.000183765    -0.000529922
                    -0.000264989     -8.3916e-05        -0.340615       -0.149919      4.37397e-05    -0.000312579         0.921884       0.0763836
                        0.875155      -0.0189151     -0.000158638     -0.00060606         0.434684        -0.19089      4.29308e-05    -0.000644604
                    -8.05653e-05    -0.000567722         0.922316       0.0765633      9.21027e-05    -0.000727726         0.358792      -0.0928097
281708                 -0.444598       -0.171467     -0.000244551    -0.000209729         0.874833      -0.0198173       -0.0001843    -0.000528643
                    -0.000264075    -8.58167e-05        -0.340673       -0.149824      5.65179e-05    -0.000369007         0.921908       0.0760104
                        0.875152      -0.0192863     -0.000159241    -0.000605431         0.434588       -0.191118      4.33357e-05    -0.000643748
                    -8.12132e-05    -0.000568934         0.922337       0.0761866       9.6815e-05    -0.000732032         0.358759       -0.092995
281710                 -0.444657       -0.171326     -0.000245864    -0.000208061         0.874813       -0.020172     -0.000184869    -0.000527467
                    -0.000263165    -8.77684e-05         -0.34073       -0.149729      5.45257e-05    -0.000399337         0.921933       0.0756373
                        0.875148      -0.0196576     -0.000159839    -0.000604797         0.434491       -0.191345      4.36044e-05     -0.00064283
                    -8.18862e-05    -0.000570179         0.922359       0.0758099      0.000101978    -0.000735696         0.358725      -0.0931804
281712                 -0.444715       -0.171186     -0.000247164    -0.000206371         0.874797      -0.0205282     -0.000185468    -0.000526396
                    -0.000262262    -8.97747e-05        -0.340787       -0.149635      5.06451e-05    -0.000417729         0.921957       0.0752642
                        0.875145      -0.0200288     -0.000160431    -0.000604158         0.434394       -0.191573      4.37294e-05    -0.000641857
                    -8.25888e-05     -0.00057146          0.92238       0.0754333      0.000107464    -0.000738641         0.358691      -0.0933659
281714                 -0.444774       -0.171046     -0.000248453     -0.00020466         0.874785      -0.0208861     -0.000186094    -0.000525429
                    -0.000261369    -9.18396e-05        -0.340844        -0.14954       4.6999e-05    -0.000430216         0.921981       0.0748911
                        0.875141         -0.0204     -0.000161018    -0.000603514         0.434297         -0.1918       4.3704e-05    -0.000640838
                    -8.33262e-05    -0.000572782         0.922401       0.0750566      0.000113133    -0.000740829         0.358657      -0.0935514
281716                 -0.444832       -0.170905     -0.000249731    -0.000202928         0.874774      -0.0212454     -0.000186742    -0.000524568
                    -0.000260489    -9.39672e-05        -0.340901       -0.149445      4.38791e-05    -0.000439457         0.922004       0.0745179
                        0.875137      -0.0207712     -0.000161598    -0.000602864         0.434201       -0.192026      4.35227e-05    -0.000639781
                    -8.41053e-05    -0.000574149         0.922422         0.07468      0.000118843    -0.000742254         0.358623      -0.0937369
281718                  -0.44489       -0.170765     -0.000250997    -0.000201176         0.874764      -0.0216058     -0.000187409    -0.000523811
                    -0.000259625    -9.61621e-05        -0.340958       -0.149351      4.12307e-05    -0.000446758         0.922027       0.0741448
                        0.875132      -0.0211424     -0.000162172    -0.000602207         0.434104       -0.192253      4.31816e-05    -0.000638697
                    -8.49347e-05    -0.000575567         0.922442       0.0743034      0.000124458    -0.000742948         0.358589      -0.0939225
281720                 -0.444948       -0.170624     -0.000252251    -0.000199404         0.874755       -0.021967     -0.000188091    -0.000523158
                    -0.000258781    -9.84294e-05        -0.341015       -0.149256       3.8945e-05    -0.000452825          0.92205       0.0737716
                        0.875127      -0.0215135     -0.000162741    -0.000601542         0.434007        -0.19248      4.26781e-05    -0.000637596
                    -8.58254e-05    -0.000577043         0.922462       0.0739268      0.000129862    -0.000742973         0.358554      -0.0941082
281722                 -0.445006       -0.170484     -0.000253494    -0.000197613         0.874746       -0.022329     -0.000188786    -0.000522606
                    -0.000257962    -0.000100775        -0.341072       -0.149161      3.69186e-05    -0.000458069         0.922072       0.0733985
                        0.875122      -0.0218846     -0.000163303    -0.000600868          0.43391       -0.192706       4.2012e-05     -0.00063649
                    -8.67918e-05    -0.000578585         0.922482       0.0735502      0.000134961     -0.00074241         0.358519      -0.0942939
281724                 -0.445064       -0.170343     -0.000254725    -0.000195806         0.874737      -0.0226915      -0.00018949    -0.000522152
                    -0.000257172    -0.000103205        -0.341129       -0.149066      3.50622e-05    -0.000462749         0.922094       0.0730254
                        0.875116      -0.0222557      -0.00016386    -0.000600184         0.433813       -0.192932      4.11853e-05    -0.000635389
                    -8.78528e-05    -0.000580202         0.922501       0.0731737      0.000139693    -0.000741354         0.358484      -0.0944796
281726                 -0.445122       -0.170202     -0.000255945    -0.000193985         0.874729      -0.0230544     -0.000190203    -0.000521793
                    -0.000256416    -0.000105728        -0.341186       -0.148972      3.32969e-05    -0.000467034         0.922116       0.0726522
                         0.87511      -0.0226267     -0.000164412    -0.000599488         0.433716       -0.193158       4.0203e-05    -0.000634304
                     -8.9034e-05    -0.000581906          0.92252       0.0727973      0.000144018    -0.000739907         0.358449      -0.0946655
281728                 -0.445179       -0.170062     -0.000257151    -0.000192154          0.87472      -0.0234177     -0.000190922    -0.000521521
                    -0.000255697    -0.000108352        -0.341243       -0.148877      3.15483e-05    -0.000471045         0.922138       0.0722791
                        0.875103      -0.0229977      -0.00016496    -0.000598777         0.433619       -0.193384      3.90734e-05    -0.000633243
                    -9.03699e-05    -0.000583708         0.922539       0.0724209      0.000147926    -0.000738164         0.358414      -0.0948513
281730                 -0.445236       -0.169921     -0.000258342    -0.000190318         0.874711      -0.0237814     -0.000191648    -0.000521329
                    -0.000255019    -0.000111092          -0.3413       -0.148782      2.97389e-05    -0.000474871         0.922159        0.071906
                        0.875097      -0.0233685     -0.000165504     -0.00059805         0.433521        -0.19361      3.78087e-05    -0.000632216
                    -9.19093e-05    -0.000585624         0.922558       0.0720446      0.000151425    -0.000736221         0.358379      -0.0950373
281732                 -0.445293        -0.16978     -0.000259516    -0.000188484         0.874702      -0.0241453     -0.000192384    -0.000521206
                    -0.000254385    -0.000113962        -0.341357       -0.148687      2.77791e-05    -0.000478582          0.92218        0.071533
                        0.875089      -0.0237393     -0.000166048    -0.000597303         0.433424       -0.193836      3.64256e-05    -0.000631228
                    -9.37218e-05    -0.000587668         0.922576       0.0716685      0.000154545    -0.000734159         0.358343      -0.0952232
281734                  -0.44535       -0.169639     -0.000260667    -0.000186666         0.874693      -0.0245095     -0.000193132    -0.000521137
                    -0.000253793    -0.000116989        -0.341414       -0.148592      2.55543e-05    -0.000482241           0.9222         0.07116
                        0.875081      -0.0241099     -0.000166596     -0.00059653         0.433327       -0.194061      3.49466e-05    -0.000630281
                    -9.59107e-05    -0.000589856         0.922594       0.0712925       0.00015733    -0.000732054         0.358308      -0.0954092
281736                 -0.445407       -0.169498     -0.000261788    -0.000184882         0.874684      -0.0248738     -0.000193899    -0.000521104
                    -0.000253237     -0.00012021        -0.341471       -0.148497      2.29032e-05    -0.000485909          0.92222        0.070787
                        0.875073      -0.0244804     -0.000167153    -0.000595726          0.43323       -0.194286      3.34014e-05    -0.000629373
                    -9.86355e-05    -0.000592196         0.922612       0.0709167      0.000159838    -0.000729975         0.358272      -0.0955952
281738                 -0.445463       -0.169356     -0.000262865    -0.000183161         0.874675      -0.0252385     -0.000194696    -0.000521078
                    -0.000252698    -0.000123688        -0.341528       -0.148403      1.95785e-05    -0.000489651         0.922241       0.0704141
                        0.875064      -0.0248505     -0.000167728    -0.000594881         0.433132       -0.194511      3.18283e-05    -0.000628495
                    -0.000102154    -0.000594679          0.92263       0.0705412      0.000162139    -0.000727989         0.358236      -0.0957811
281740                  -0.44552       -0.169215     -0.000263878    -0.000181552         0.874667      -0.0256033     -0.000195535    -0.000521022
                    -0.000252129    -0.000127539        -0.341585       -0.148308      1.51663e-05    -0.000493541         0.922261       0.0700413
                        0.875054      -0.0252203     -0.000168339    -0.000593983         0.433035       -0.194736      3.02781e-05     -0.00062763
                    -0.000106912    -0.000597232         0.922648       0.0701662      0.000164322    -0.000726172         0.358201       -0.095967
281742                 -0.445576       -0.169072      -0.00026479    -0.000180135         0.874658      -0.0259685     -0.000196436     -0.00052088
                    -0.000251417    -0.000131994        -0.341643       -0.148213      8.90237e-06    -0.000497666          0.92228       0.0696687
                        0.875042      -0.0255893     -0.000169011    -0.000593015         0.432938       -0.194959      2.88188e-05    -0.000626751
                    -0.000113741     -0.00059959         0.922666       0.0697918      0.000166493    -0.000724627         0.358165      -0.0961529
281744                 -0.445633        -0.16893     -0.000265538    -0.000179062         0.874651       -0.026334     -0.000197417     -0.00052057
                    -0.000250251    -0.000137596          -0.3417       -0.148118     -8.09466e-07    -0.000502081           0.9223       0.0692962
                        0.875029       -0.025957     -0.000169795    -0.000591948         0.432841       -0.195181      2.75435e-05    -0.000625814
                    -0.000124337    -0.000600762         0.922685       0.0694185      0.000168781    -0.000723518         0.358129      -0.0963387
281746                  -0.44569       -0.168787     -0.000266014    -0.000178627         0.874646      -0.0267002     -0.000198496    -0.000519965
                    -0.000247486    -0.000145935        -0.341758       -0.148024     -1.79374e-05     -0.00050649          0.92232        0.068924
                         0.87501      -0.0263215     -0.000170781    -0.000590738         0.432749       -0.195401      2.65854e-05    -0.000624755
                     -0.00014217    -0.000596507         0.922706        0.069047      0.000171324    -0.000723154         0.358092      -0.0965244
281748                 -0.445748       -0.168644     -0.000266033    -0.000179493         0.874649      -0.0270674     -0.000199672    -0.000518867
                    -0.000235301    -0.000163857        -0.341815       -0.147931      -5.5345e-05    -0.000507309         0.922341        0.068552
                        0.874977      -0.0266743     -0.000172154    -0.000589312         0.432673        -0.19563      2.61433e-05     -0.00062348
                    -0.000166551     -0.00056641          0.92273       0.0686792      0.000174171    -0.000724156         0.358056        -0.09671
281750                 -0.445807         -0.1685     -0.000265369    -0.000183423          0.87469      -0.0274301     -0.000200873    -0.000516954
                     -0.00015822       -5.59e-05        -0.341869        -0.14784     -0.000168491    -0.000445629         0.922363       0.0681805
                        0.874762      -0.0268118     -0.000174332    -0.000587538         0.432566       -0.195882      2.65314e-05    -0.000621861
                    -0.000122338    -0.000509392         0.922762       0.0683205      0.000176818    -0.000727707         0.358019      -0.0968954
281752                 -0.445867       -0.168357     -0.000265104    -0.000196454          0.87449      -0.0276457     -0.000201827    -0.000513735
                    -0.000258521    -0.000107126        -0.341917       -0.147739      0.000125708    -0.000233924         0.922387       0.0678092
                        0.875099      -0.0275064     -0.000178431    -0.000585182         0.432457       -0.196105      2.82801e-05    -0.000619726
                    -7.65746e-05    -0.000547103         0.922818       0.0679949      0.000176701     -0.00073512         0.357983      -0.0970807
281754                 -0.445929       -0.168215     -0.000293807    -0.000236468         0.874534      -0.0281273     -0.000201732     -0.00050857
                    -0.000260439    -0.000124357        -0.341976       -0.147636      0.000129754    -0.000426848         0.922415       0.0674374
                        0.875039      -0.0278501     -0.000188453    -0.000582027         0.432355       -0.196328      3.23556e-05    -0.000616887
                    -8.08815e-05    -0.000574736         0.922868       0.0679926       0.00016856     -0.00074325         0.357945       -0.097266
281756                 -0.445992       -0.168074     -0.000361859    -0.000169952         0.874539      -0.0285044     -0.000198666    -0.000501218
                    -0.000261195    -0.000132344        -0.342037       -0.147537      0.000101206    -0.000466533          0.92245       0.0670618
                        0.875014      -0.0282127     -0.000229553    -0.000587549         0.432255       -0.196552      4.06713e-05     -0.00061332
                    -9.08771e-05    -0.000586229         0.922437        0.067092      0.000155208    -0.000742483         0.357908      -0.0974512
281758                 -0.446056       -0.167934     -0.000330561    -0.000141176         0.874533      -0.0288735     -0.000189718    -0.000493809
                    -0.000262195    -0.000137681        -0.342095        -0.14744      8.64571e-05    -0.000482406         0.922495       0.0666711
                        0.874997      -0.0285795     -0.000121864    -0.000686948         0.432156       -0.196776      5.73098e-05    -0.000610121
                    -9.99785e-05    -0.000590315         0.922612       0.0667122       0.00014728     -0.00073468          0.35787      -0.0976365
281760                 -0.446119       -0.167794     -0.000320539    -0.000138295         0.874524      -0.0292405     -0.000175169    -0.000492289
                    -0.000263482    -0.000141845        -0.342153       -0.147343      7.78711e-05    -0.000491543         0.922526       0.0662473
                        0.874981      -0.0289478     -0.000125055    -0.000613621         0.432057          -0.197      9.06017e-05    -0.000614461
                    -0.000107112    -0.000590387         0.922663       0.0663472      0.000144855    -0.000727353         0.357832       -0.097822
281762                 -0.446181       -0.167655     -0.000319243    -0.000137242         0.874513      -0.0296067     -0.000162209     -0.00049939
                    -0.000265025    -0.000145331         -0.34221       -0.147245       7.2369e-05    -0.000497957         0.922508       0.0658265
                        0.874966      -0.0293169       -0.0001282    -0.000600232         0.431958       -0.197225      0.000142431    -0.000659601
