! TOUCHSTONE file generated by CST MICROWAVE STUDIO
! Date and time: Tue Oct 14 07:25:39 2025
! Project name: Teste_Macro_Metasurface_Nanopilar.cst
! Parameters = {H=600; L_x=80; L_y=185; Lambda=1064; Max_L=200; Min_L=70; PathPara=1; Phi=0; Step_L=10; Theta=0; p=520; phaseX=180; phaseY=0}
! Header version: 2018
! Port assignment regex: !\s*Touchstone port\s*([0-9]+)\s*=\s*(CST MWS port|CST DS port)\s*([0-9]+|Zmin|Zmax)\s*\(\"(.*)\"\)(\s*mode\s*([0-9]+))?.*
! Touchstone port assignment:
! Touchstone port 1 = CST MWS port Zmax ("") mode 1
! Touchstone port 2 = CST MWS port Zmax ("") mode 2
! Touchstone port 3 = CST MWS port Zmin ("") mode 1
! Touchstone port 4 = CST MWS port Zmin ("") mode 2
! S-Parameters are not renormalized. Each port impedance will be approximated by the real part at minimum frequency. The values are described via the [Reference] keyword.
! Default impedance is overridden by [Reference]
[Version] 2.0
# GHz S RI R 376.73
[Number of Ports] 4
[Reference]
376.73 376.73 259.814 259.814 
[Number of Frequencies] 51
[Network Data]
281700                 -0.094794       -0.281315      -0.00051836    -0.000278599         0.341569        0.885221      0.000213796     0.000194099
                    -0.000523779     -0.00034989          0.03598       0.0282986     -0.000440681     -0.00014252         0.871633       -0.485281
                        0.341317        0.885261     -0.000517962    -2.76081e-05         0.120868        0.269593      0.000775123     0.000154687
                     0.000249041     0.000134955          0.87156        -0.48529      0.000827123     5.57703e-05        0.0051383       0.0460506
281702                -0.0949029       -0.281331     -0.000518379    -0.000278351         0.341988        0.885042      0.000213908     0.000194009
                    -0.000523898    -0.000349649        0.0359967       0.0282771     -0.000440794    -0.000142326         0.871446       -0.485617
                        0.341735        0.885082     -0.000518121    -2.72494e-05         0.121058        0.269562      0.000775258     0.000154356
                     0.000249176     0.000134816         0.871372       -0.485627      0.000827107      5.5412e-05       0.00514653       0.0460496
281704                -0.0950119       -0.281347     -0.000518397    -0.000278104         0.342406        0.884864      0.000214019     0.000193919
                    -0.000524018    -0.000349407        0.0360133       0.0282556     -0.000440908    -0.000142131         0.871258       -0.485953
                        0.342153        0.884904      -0.00051828    -2.68904e-05         0.121248        0.269531      0.000775392     0.000154024
                     0.000249311     0.000134678         0.871184       -0.485963       0.00082709     5.50536e-05       0.00515476       0.0460485
281706                -0.0951208       -0.281362     -0.000518415    -0.000277857         0.342825        0.884685      0.000214131     0.000193829
                    -0.000524138    -0.000349166          0.03603        0.028234     -0.000441021    -0.000141936          0.87107       -0.486289
                        0.342571        0.884725     -0.000518438     -2.6531e-05         0.121438        0.269499      0.000775526     0.000153693
                     0.000249446     0.000134539         0.870996       -0.486299      0.000827072     5.46953e-05       0.00516299       0.0460475
281708                -0.0952298       -0.281378     -0.000518433    -0.000277611         0.343243        0.884506      0.000214242      0.00019374
                    -0.000524258    -0.000348925        0.0360467       0.0282124     -0.000441134    -0.000141741         0.870883       -0.486626
                        0.342989        0.884546     -0.000518596    -2.61712e-05         0.121628        0.269468       0.00077566     0.000153361
                      0.00024958       0.0001344         0.870808       -0.486636      0.000827055      5.4337e-05       0.00517122       0.0460464
281710                -0.0953389       -0.281394      -0.00051845    -0.000277364         0.343661        0.884326      0.000214354      0.00019365
                    -0.000524379    -0.000348683        0.0360633       0.0281909     -0.000441247    -0.000141545         0.870695       -0.486962
                        0.343407        0.884367     -0.000518754    -2.58112e-05         0.121818        0.269436      0.000775794     0.000153029
                     0.000249714     0.000134261          0.87062       -0.486972      0.000827037     5.39787e-05       0.00517945       0.0460454
281712                -0.0954479        -0.28141     -0.000518467    -0.000277118          0.34408        0.884147      0.000214465      0.00019356
                      -0.0005245    -0.000348441          0.03608       0.0281693      -0.00044136     -0.00014135         0.870506       -0.487298
                        0.343825        0.884188     -0.000518911    -2.54509e-05         0.122007        0.269405      0.000775927     0.000152698
                     0.000249848     0.000134122         0.870432       -0.487308      0.000827019     5.36205e-05       0.00518768       0.0460444
281714                 -0.095557       -0.281426     -0.000518484    -0.000276873         0.344498        0.883967      0.000214577      0.00019347
                    -0.000524622      -0.0003482        0.0360966       0.0281477     -0.000441473    -0.000141154         0.870318       -0.487634
                        0.344243        0.884008     -0.000519068    -2.50904e-05         0.122197        0.269373      0.000776061     0.000152366
                     0.000249981     0.000133983         0.870244       -0.487644      0.000827001     5.32622e-05       0.00519591       0.0460433
281716                -0.0956661       -0.281441       -0.0005185    -0.000276627         0.344916        0.883787      0.000214688      0.00019338
                    -0.000524744    -0.000347958        0.0361132       0.0281261     -0.000441586    -0.000140958          0.87013        -0.48797
                        0.344661        0.883828     -0.000519224    -2.47298e-05         0.122387        0.269341      0.000776194     0.000152034
                     0.000250114     0.000133844         0.870055        -0.48798      0.000826982      5.2904e-05       0.00520414       0.0460423
281718                -0.0957752       -0.281457     -0.000518516    -0.000276382         0.345333        0.883607      0.000214799     0.000193291
                    -0.000524866    -0.000347716        0.0361299       0.0281045     -0.000441699    -0.000140761         0.869941       -0.488305
                        0.345079        0.883648      -0.00051938    -2.43692e-05         0.122577        0.269309      0.000776327     0.000151702
                     0.000250246     0.000133705         0.869867       -0.488316      0.000826963     5.25459e-05       0.00521237       0.0460413
281720                -0.0958844       -0.281473     -0.000518532    -0.000276137         0.345751        0.883427       0.00021491     0.000193201
                    -0.000524989    -0.000347474        0.0361465       0.0280829     -0.000441811    -0.000140565         0.869753       -0.488641
                        0.345496        0.883468     -0.000519535    -2.40086e-05         0.122767        0.269277       0.00077646      0.00015137
                     0.000250379     0.000133566         0.869678       -0.488652      0.000826944     5.21877e-05        0.0052206       0.0460403
281722                -0.0959935       -0.281488     -0.000518547    -0.000275893         0.346169        0.883246      0.000215021     0.000193111
                    -0.000525112    -0.000347232        0.0361631       0.0280613     -0.000441923    -0.000140368         0.869564       -0.488977
                        0.345914        0.883288     -0.000519688     -2.3648e-05         0.122957        0.269245      0.000776593     0.000151038
                      0.00025051     0.000133427         0.869489       -0.488988      0.000826925     5.18297e-05       0.00522883       0.0460392
281724                -0.0961027       -0.281504     -0.000518563    -0.000275648         0.346586        0.883066      0.000215132     0.000193022
                    -0.000525236     -0.00034699        0.0361796       0.0280396     -0.000442035    -0.000140171         0.869375       -0.489312
                        0.346331        0.883107     -0.000519839    -2.32867e-05         0.123147        0.269212      0.000776725     0.000150706
                     0.000250642     0.000133288           0.8693       -0.489324      0.000826906     5.14717e-05       0.00523706       0.0460382
281726                 -0.096212       -0.281519     -0.000518578    -0.000275404         0.347004        0.882885      0.000215243     0.000192932
                     -0.00052536    -0.000346747        0.0361962        0.028018     -0.000442147    -0.000139974         0.869186       -0.489648
                        0.346748        0.882926     -0.000519989    -2.29232e-05         0.123337         0.26918      0.000776858     0.000150373
                     0.000250773     0.000133149         0.869111       -0.489659      0.000826886     5.11137e-05       0.00524529       0.0460372
281728                -0.0963212       -0.281535     -0.000518592    -0.000275161         0.347421        0.882703      0.000215354     0.000192843
                    -0.000525484    -0.000346505        0.0362128       0.0279963     -0.000442259    -0.000139777         0.868997       -0.489983
                        0.347165        0.882745     -0.000520138    -2.25567e-05         0.123527        0.269147       0.00077699     0.000150041
                     0.000250904      0.00013301         0.868921       -0.489995      0.000826866     5.07559e-05       0.00525352       0.0460362
281730                -0.0964305        -0.28155     -0.000518607    -0.000274917         0.347839        0.882522      0.000215465     0.000192753
                    -0.000525609    -0.000346262        0.0362293       0.0279747      -0.00044237    -0.000139579         0.868808       -0.490319
                        0.347583        0.882564     -0.000520289    -2.21886e-05         0.123717        0.269114      0.000777122     0.000149708
                     0.000251035     0.000132871         0.868732        -0.49033      0.000826846     5.03981e-05       0.00526175       0.0460351
281732                -0.0965398       -0.281566     -0.000518621    -0.000274674         0.348256         0.88234      0.000215576     0.000192664
                    -0.000525734     -0.00034602        0.0362459        0.027953     -0.000442482    -0.000139382         0.868618       -0.490654
                           0.348        0.882382     -0.000520441    -2.18203e-05         0.123907        0.269081      0.000777254     0.000149376
                     0.000251165     0.000132732         0.868542       -0.490666      0.000826825     5.00405e-05       0.00526998       0.0460341
281734                -0.0966491       -0.281581     -0.000518635    -0.000274431         0.348673        0.882159      0.000215687     0.000192575
                     -0.00052586    -0.000345777        0.0362624       0.0279314     -0.000442593    -0.000139184         0.868429       -0.490989
                        0.348417        0.882201     -0.000520594    -2.14525e-05         0.124097        0.269048      0.000777386     0.000149043
                     0.000251295     0.000132593         0.868353       -0.491001      0.000826804     4.96829e-05        0.0052782       0.0460331
281736                -0.0967585       -0.281596     -0.000518648    -0.000274189          0.34909        0.881977      0.000215797     0.000192485
                    -0.000525986    -0.000345534        0.0362789       0.0279097     -0.000442704    -0.000138985         0.868239       -0.491325
                        0.348833        0.882019     -0.000520746    -2.10851e-05         0.124288        0.269015      0.000777518      0.00014871
                     0.000251425     0.000132454         0.868163       -0.491337      0.000826784     4.93255e-05       0.00528643       0.0460321
281738                -0.0968679       -0.281612     -0.000518662    -0.000273947         0.349507        0.881795      0.000215908     0.000192396
                    -0.000526112    -0.000345291        0.0362954        0.027888     -0.000442814    -0.000138787         0.868049        -0.49166
                         0.34925        0.881837     -0.000520898    -2.07177e-05         0.124478        0.268982      0.000777649     0.000148378
                     0.000251554     0.000132315         0.867973       -0.491672      0.000826762     4.89682e-05       0.00529466       0.0460311
281740                -0.0969773       -0.281627     -0.000518675    -0.000273705         0.349924        0.881612      0.000216019     0.000192307
                    -0.000526238    -0.000345047        0.0363119       0.0278663     -0.000442925    -0.000138588         0.867859       -0.491995
                        0.349667        0.881655     -0.000521049    -2.03503e-05         0.124668        0.268948      0.000777781     0.000148045
                     0.000251683     0.000132176         0.867783       -0.492007      0.000826741     4.86111e-05       0.00530289       0.0460301
281742                -0.0970867       -0.281642     -0.000518688    -0.000273463         0.350341         0.88143      0.000216129     0.000192218
                    -0.000526365    -0.000344804        0.0363284       0.0278446     -0.000443035     -0.00013839         0.867669        -0.49233
                        0.350083        0.881472       -0.0005212    -1.99827e-05         0.124858        0.268915      0.000777912     0.000147711
                     0.000251812     0.000132037         0.867593       -0.492342      0.000826719     4.82541e-05       0.00531111       0.0460291
281744                -0.0971962       -0.281658     -0.000518701    -0.000273222         0.350758        0.881247       0.00021624     0.000192129
                    -0.000526493     -0.00034456        0.0363449       0.0278229     -0.000443145    -0.000138191         0.867479       -0.492665
                          0.3505        0.881289     -0.000521349     -1.9615e-05         0.125048        0.268881      0.000778043     0.000147378
                     0.000251941     0.000131898         0.867402       -0.492677      0.000826697     4.78973e-05       0.00531934       0.0460281
281746                -0.0973056       -0.281673     -0.000518713    -0.000272981         0.351174        0.881064       0.00021635     0.000192041
                     -0.00052662    -0.000344316        0.0363614       0.0278012     -0.000443255    -0.000137991         0.867289       -0.492999
                        0.350916        0.881106     -0.000521498    -1.92476e-05         0.125238        0.268847      0.000778174     0.000147045
                     0.000252069     0.000131759         0.867212       -0.493012      0.000826675     4.75407e-05       0.00532757       0.0460271
281748                -0.0974152       -0.281688     -0.000518726     -0.00027274         0.351591         0.88088      0.000216461     0.000191952
                    -0.000526747    -0.000344072        0.0363779       0.0277794     -0.000443364    -0.000137792         0.867098       -0.493334
                        0.351333        0.880923     -0.000521643    -1.88848e-05         0.125428        0.268813      0.000778305     0.000146711
                     0.000252198      0.00013162         0.867021       -0.493347      0.000826652     4.71843e-05        0.0053358       0.0460261
281750                -0.0975247       -0.281703     -0.000518738    -0.000272499         0.352007        0.880697      0.000216571     0.000191863
                    -0.000526881    -0.000343831        0.0363943       0.0277577     -0.000443474    -0.000137592         0.866908       -0.493669
                        0.351749         0.88074     -0.000521806    -1.85185e-05         0.125619        0.268779      0.000778436     0.000146377
                     0.000252318     0.000131479         0.866831       -0.493682      0.000826629     4.68281e-05       0.00534402       0.0460251
281752                -0.0976342       -0.281718      -0.00051875    -0.000272259         0.352423        0.880513      0.000216681     0.000191775
                    -0.000527007    -0.000343585        0.0364108        0.027736     -0.000443583    -0.000137393         0.866717       -0.494003
                        0.352165        0.880557     -0.000521954    -1.81428e-05         0.125809        0.268745      0.000778567     0.000146043
                     0.000252449     0.000131343          0.86664       -0.494016      0.000826606     4.64721e-05       0.00535225       0.0460241
281754                -0.0977438       -0.281733     -0.000518765     -0.00027202          0.35284         0.88033      0.000216793     0.000191689
                    -0.000527136     -0.00034334        0.0364272       0.0277142     -0.000443692    -0.000137193         0.866526       -0.494338
                        0.352581        0.880373       -0.0005221    -1.77718e-05         0.125999        0.268711      0.000778703     0.000145706
                     0.000252576     0.000131204         0.866449       -0.494351      0.000826583     4.61163e-05       0.00536048       0.0460231
281756                -0.0978534       -0.281748     -0.000518769    -0.000271782         0.353256        0.880146      0.000216901     0.000191592
                    -0.000527265    -0.000343096        0.0364436       0.0276924       -0.0004438    -0.000136992         0.866335       -0.494672
                        0.352997        0.880189     -0.000522247    -1.74013e-05         0.126189        0.268676      0.000778825     0.000145382
                     0.000252703     0.000131066         0.866258       -0.494686      0.000826559     4.57608e-05        0.0053687       0.0460221
281758                -0.0979631       -0.281764     -0.000518782    -0.000271541         0.353672        0.879961      0.000217011     0.000191508
                    -0.000527395    -0.000342851          0.03646       0.0276707     -0.000443909    -0.000136792         0.866144       -0.495007
                        0.353413        0.880005     -0.000522393    -1.70307e-05          0.12638        0.268642      0.000778956     0.000145045
                      0.00025283     0.000130927         0.866066        -0.49502      0.000826535     4.54054e-05       0.00537693       0.0460211
281760                -0.0980727       -0.281778     -0.000518793    -0.000271301         0.354088        0.879777      0.000217122      0.00019142
                    -0.000527525    -0.000342606        0.0364764       0.0276489     -0.000444017    -0.000136592         0.865953       -0.495341
                        0.353828        0.879821      -0.00052254    -1.66597e-05          0.12657        0.268607      0.000779086      0.00014471
                     0.000252956     0.000130789         0.865875       -0.495355      0.000826511     4.50503e-05       0.00538516       0.0460201
281762                -0.0981824       -0.281793     -0.000518804    -0.000271062         0.354504        0.879592      0.000217232     0.000191332
                    -0.000527656    -0.000342361        0.0364928       0.0276271     -0.000444125    -0.000136391         0.865761       -0.495675
                        0.354244        0.879636     -0.000522685    -1.62884e-05          0.12676        0.268572      0.000779216     0.000144375
