! TOUCHSTONE file generated by CST MICROWAVE STUDIO
! Date and time: Tue Oct 14 07:30:09 2025
! Project name: Teste_Macro_Metasurface_Nanopilar.cst
! Parameters = {H=600; L_x=155; L_y=90; Lambda=1064; Max_L=200; Min_L=70; PathPara=1; Phi=0; Step_L=10; Theta=0; p=520; phaseX=180; phaseY=0}
! Header version: 2018
! Port assignment regex: !\s*Touchstone port\s*([0-9]+)\s*=\s*(CST MWS port|CST DS port)\s*([0-9]+|Zmin|Zmax)\s*\(\"(.*)\"\)(\s*mode\s*([0-9]+))?.*
! Touchstone port assignment:
! Touchstone port 1 = CST MWS port Zmax ("") mode 1
! Touchstone port 2 = CST MWS port Zmax ("") mode 2
! Touchstone port 3 = CST MWS port Zmin ("") mode 1
! Touchstone port 4 = CST MWS port Zmin ("") mode 2
! S-Parameters are not renormalized. Each port impedance will be approximated by the real part at minimum frequency. The values are described via the [Reference] keyword.
! Default impedance is overridden by [Reference]
[Version] 2.0
# GHz S RI R 376.73
[Number of Ports] 4
[Reference]
376.73 376.73 259.814 259.814 
[Number of Frequencies] 51
[Network Data]
281700                 0.0245866      -0.0375129     -0.000385814     0.000315714         0.686995       -0.721848     -0.000199738     0.000333365
                    -0.000418706     0.000245516       -0.0192716       -0.130489     -0.000175798     0.000271758        -0.259443        0.949971
                        0.686665       -0.722071     -0.000232648     0.000263459        -0.036023       0.0273627     -7.95495e-05     0.000418526
                    -0.000114067     0.000347624        -0.259166        0.950002     -0.000140815     0.000574116       -0.0819581        0.103944
281702                 0.0245782      -0.0375375     -0.000385622     0.000315975           0.6867       -0.722128     -0.000199695     0.000333504
                    -0.000418495     0.000245916       -0.0193257       -0.130506     -0.000175703     0.000271842        -0.258994         0.95009
                        0.686369        -0.72235     -0.000232612     0.000263542       -0.0360258       0.0273852     -7.96427e-05     0.000418688
                     -0.00011399     0.000347821        -0.258717        0.950122     -0.000140591     0.000574216       -0.0819155        0.104008
281704                 0.0245699       -0.037562      -0.00038543     0.000316235         0.686404       -0.722408     -0.000199651     0.000333643
                    -0.000418284     0.000246316       -0.0193798       -0.130522     -0.000175608     0.000271926        -0.258546        0.950209
                        0.686073        -0.72263     -0.000232576     0.000263625       -0.0360286       0.0274077     -7.97357e-05      0.00041885
                    -0.000113914     0.000348018        -0.258268        0.950241     -0.000140366     0.000574316       -0.0818728        0.104072
281706                 0.0245616      -0.0375866     -0.000385237     0.000316495         0.686108       -0.722688     -0.000199608     0.000333782
                    -0.000418072     0.000246717       -0.0194339       -0.130539     -0.000175512      0.00027201        -0.258097        0.950328
                        0.685778        -0.72291     -0.000232541     0.000263708       -0.0360315       0.0274302     -7.98283e-05     0.000419012
                    -0.000113839     0.000348214        -0.257819         0.95036     -0.000140141     0.000574415       -0.0818301        0.104136
281708                 0.0245532      -0.0376111     -0.000385043     0.000316755         0.685812       -0.722967     -0.000199564     0.000333921
                    -0.000417859     0.000247118        -0.019488       -0.130555     -0.000175416     0.000272093        -0.257648        0.950447
                        0.685481       -0.723189     -0.000232505     0.000263791       -0.0360343       0.0274528     -7.99205e-05     0.000419174
                    -0.000113764      0.00034841         -0.25737        0.950479     -0.000139915     0.000574514       -0.0817873          0.1042
281710                 0.0245448      -0.0376356     -0.000384849     0.000317015         0.685516       -0.723247      -0.00019952     0.000334061
                    -0.000417647     0.000247521       -0.0195421       -0.130572     -0.000175321     0.000272176        -0.257199        0.950566
                        0.685185       -0.723469     -0.000232471     0.000263874        -0.036037       0.0274753     -8.00125e-05     0.000419335
                     -0.00011369     0.000348606        -0.256921        0.950597      -0.00013969     0.000574613       -0.0817444        0.104264
281712                 0.0245364      -0.0376602     -0.000384655     0.000317275          0.68522       -0.723526     -0.000199476       0.0003342
                    -0.000417434     0.000247923       -0.0195962       -0.130588     -0.000175225     0.000272259         -0.25675        0.950684
                        0.684889       -0.723748     -0.000232436     0.000263957       -0.0360398       0.0274978     -8.01041e-05     0.000419497
                    -0.000113616     0.000348801        -0.256471        0.950716     -0.000139464     0.000574712       -0.0817015        0.104328
281714                  0.024528      -0.0376847      -0.00038446     0.000317534         0.684924       -0.723805     -0.000199432     0.000334339
                     -0.00041722     0.000248326       -0.0196504       -0.130604      -0.00017513     0.000272341        -0.256301        0.950802
                        0.684592       -0.724027     -0.000232402     0.000264041       -0.0360426       0.0275204     -8.01954e-05     0.000419659
                    -0.000113543     0.000348995        -0.256022        0.950834     -0.000139238      0.00057481       -0.0816586        0.104392
281716                 0.0245196      -0.0377092     -0.000384265     0.000317793         0.684627       -0.724084     -0.000199388     0.000334478
                    -0.000417007      0.00024873       -0.0197045       -0.130621     -0.000175034     0.000272423        -0.255851         0.95092
                        0.684296       -0.724306     -0.000232368     0.000264125       -0.0360453        0.027543     -8.02863e-05     0.000419821
                     -0.00011347      0.00034919        -0.255573        0.950952     -0.000139011     0.000574908       -0.0816156        0.104456
281718                 0.0245112      -0.0377338     -0.000384069     0.000318051         0.684331       -0.724363     -0.000199344     0.000334616
                    -0.000416793     0.000249134       -0.0197587       -0.130637     -0.000174939     0.000272505        -0.255402        0.951038
                        0.683999       -0.724585     -0.000232334     0.000264209        -0.036048       0.0275655     -8.03769e-05     0.000419983
                    -0.000113398     0.000349384        -0.255123        0.951069     -0.000138785     0.000575005       -0.0815726         0.10452
281720                 0.0245027      -0.0377583     -0.000383873      0.00031831         0.684034       -0.724642       -0.0001993     0.000334755
                    -0.000416578     0.000249539       -0.0198129       -0.130653     -0.000174845     0.000272587        -0.254953        0.951156
                        0.683702       -0.724864       -0.0002323     0.000264293       -0.0360508       0.0275881     -8.04672e-05     0.000420145
                    -0.000113327     0.000349577        -0.254674        0.951187     -0.000138558     0.000575102       -0.0815295        0.104584
281722                 0.0244943      -0.0377828     -0.000383677     0.000318568         0.683737       -0.724921     -0.000199256     0.000334894
                    -0.000416363     0.000249945       -0.0198671       -0.130669      -0.00017475      0.00027267        -0.254504        0.951273
                        0.683406       -0.725143     -0.000232267     0.000264377       -0.0360535       0.0276107     -8.05571e-05     0.000420306
                    -0.000113256      0.00034977        -0.254224        0.951304     -0.000138331     0.000575199       -0.0814863        0.104647
281724                 0.0244858      -0.0378074     -0.000383479     0.000318826          0.68344         -0.7252     -0.000199211     0.000335033
                    -0.000416148     0.000250351       -0.0199213       -0.130686     -0.000174656     0.000272752        -0.254054         0.95139
                        0.683109       -0.725421     -0.000232235     0.000264462       -0.0360562       0.0276333     -8.06467e-05     0.000420468
                    -0.000113186     0.000349963        -0.253774        0.951421     -0.000138104     0.000575295       -0.0814431        0.104711
281726                 0.0244773      -0.0378319     -0.000383282     0.000319083         0.683143       -0.725478     -0.000199167     0.000335172
                    -0.000415933     0.000250758       -0.0199755       -0.130702     -0.000174562     0.000272834        -0.253605        0.951507
                        0.682811       -0.725699     -0.000232202     0.000264547       -0.0360588       0.0276559      -8.0736e-05      0.00042063
                    -0.000113116     0.000350155        -0.253325        0.951538     -0.000137877     0.000575391       -0.0813999        0.104775
281728                 0.0244688      -0.0378564     -0.000383084     0.000319341         0.682846       -0.725756     -0.000199122      0.00033531
                    -0.000415717     0.000251165       -0.0200297       -0.130718     -0.000174468     0.000272917        -0.253156        0.951624
                        0.682514       -0.725978      -0.00023217     0.000264632       -0.0360615       0.0276786     -8.08248e-05     0.000420792
                    -0.000113047     0.000350347        -0.252875        0.951655      -0.00013765     0.000575487       -0.0813566        0.104839
281730                 0.0244603       -0.037881     -0.000382885     0.000319598         0.682549       -0.726035     -0.000199077     0.000335449
                    -0.000415501     0.000251573       -0.0200839       -0.130734     -0.000174373        0.000273        -0.252706         0.95174
                        0.682217       -0.726256     -0.000232138     0.000264717       -0.0360642       0.0277012     -8.09134e-05     0.000420953
                    -0.000112978     0.000350538        -0.252425        0.951771     -0.000137422     0.000575582       -0.0813133        0.104903
281732                 0.0244518      -0.0379055     -0.000382686     0.000319854         0.682252       -0.726313     -0.000199032     0.000335587
                    -0.000415285     0.000251981       -0.0201382        -0.13075     -0.000174279     0.000273083        -0.252257        0.951857
                        0.681919       -0.726534     -0.000232106     0.000264803       -0.0360668       0.0277238     -8.10015e-05     0.000421115
                     -0.00011291     0.000350729        -0.251976        0.951887     -0.000137195     0.000575676       -0.0812699        0.104966
281734                 0.0244433        -0.03793     -0.000382486     0.000320111         0.681954       -0.726591     -0.000198987     0.000335725
                    -0.000415068      0.00025239       -0.0201924       -0.130766     -0.000174185     0.000273166        -0.251807        0.951973
                        0.681622       -0.726812     -0.000232075     0.000264888       -0.0360694       0.0277465     -8.10893e-05     0.000421276
                    -0.000112842      0.00035092        -0.251526        0.952003     -0.000136967     0.000575771       -0.0812264         0.10503
281736                 0.0244347      -0.0379545     -0.000382286     0.000320367         0.681657       -0.726869     -0.000198942     0.000335863
                    -0.000414851     0.000252799       -0.0202467       -0.130782      -0.00017409     0.000273249        -0.251358        0.952089
                        0.681324        -0.72709     -0.000232044     0.000264974        -0.036072       0.0277691     -8.11767e-05     0.000421438
                    -0.000112775      0.00035111        -0.251076        0.952119     -0.000136739     0.000575865        -0.081183        0.105094
281738                 0.0244261      -0.0379791     -0.000382086     0.000320623         0.681359       -0.727147     -0.000198896     0.000336001
                    -0.000414634      0.00025321        -0.020301       -0.130798     -0.000173995     0.000273333        -0.250908        0.952204
                        0.681026       -0.727367     -0.000232014      0.00026506       -0.0360746       0.0277918     -8.12638e-05     0.000421599
                    -0.000112709       0.0003513        -0.250626        0.952235     -0.000136512     0.000575958       -0.0811394        0.105158
281740                 0.0244176      -0.0380036     -0.000381885     0.000320879         0.681061       -0.727424     -0.000198851     0.000336139
                    -0.000414416      0.00025362       -0.0203552       -0.130815       -0.0001739     0.000273416        -0.250458         0.95232
                        0.680728       -0.727645     -0.000231983     0.000265146       -0.0360772       0.0278145     -8.13504e-05      0.00042176
                    -0.000112643     0.000351489        -0.250176         0.95235     -0.000136284     0.000576051       -0.0810958        0.105221
281742                  0.024409      -0.0380281     -0.000381684     0.000321134         0.680763       -0.727702     -0.000198805     0.000336277
                    -0.000414198     0.000254031       -0.0204095       -0.130831     -0.000173805       0.0002735        -0.250008        0.952435
                         0.68043       -0.727923     -0.000231953     0.000265233       -0.0360798       0.0278372     -8.14366e-05     0.000421922
                    -0.000112578     0.000351678        -0.249726        0.952465     -0.000136056     0.000576143       -0.0810522        0.105285
281744                 0.0244004      -0.0380526     -0.000381482     0.000321389         0.680465       -0.727979     -0.000198759     0.000336414
                     -0.00041398     0.000254443       -0.0204638       -0.130847      -0.00017371     0.000273583        -0.249559         0.95255
                        0.680132         -0.7282     -0.000231924     0.000265319       -0.0360824       0.0278599     -8.15223e-05     0.000422083
                    -0.000112513     0.000351867        -0.249276         0.95258     -0.000135828     0.000576235       -0.0810085        0.105349
281746                 0.0243917      -0.0380772     -0.000381279     0.000321644         0.680167       -0.728257     -0.000198712      0.00033655
                    -0.000413761     0.000254855       -0.0205181       -0.130863     -0.000173614     0.000273667        -0.249109        0.952665
                        0.679834       -0.728477     -0.000231894     0.000265406       -0.0360849       0.0278826     -8.16075e-05     0.000422243
                    -0.000112448     0.000352055        -0.248826        0.952695       -0.0001356     0.000576327       -0.0809648        0.105413
281748                 0.0243831      -0.0381017     -0.000381076     0.000321899         0.679869       -0.728534     -0.000198665     0.000336685
                    -0.000413542     0.000255268       -0.0205725       -0.130878     -0.000173518      0.00027375        -0.248659        0.952779
                        0.679535       -0.728754     -0.000231866     0.000265493       -0.0360874       0.0279053     -8.16919e-05     0.000422403
                    -0.000112385     0.000352242        -0.248376        0.952809     -0.000135373     0.000576418        -0.080921        0.105476
281750                 0.0243745      -0.0381262     -0.000380873     0.000322153          0.67957       -0.728811     -0.000198615     0.000336818
                    -0.000413323     0.000255681       -0.0206268       -0.130894     -0.000173422     0.000273834        -0.248209        0.952894
                        0.679237       -0.729031     -0.000231837     0.000265581         -0.03609        0.027928      -8.1775e-05     0.000422562
                    -0.000112321     0.000352429        -0.247925        0.952924     -0.000135145     0.000576508       -0.0808772         0.10554
281752                 0.0243658      -0.0381507     -0.000380669     0.000322407         0.679272       -0.729088     -0.000198562     0.000336942
                    -0.000413104     0.000256095       -0.0206811        -0.13091     -0.000173326     0.000273917        -0.247759        0.953008
                        0.678938       -0.729308     -0.000231809     0.000265668       -0.0360925       0.0279507     -8.18546e-05     0.000422717
                    -0.000112259     0.000352616        -0.247475        0.953038     -0.000134918     0.000576597       -0.0808333        0.105604
281754                 0.0243571      -0.0381752     -0.000380465     0.000322661         0.678973       -0.729365     -0.000198478     0.000336972
                    -0.000412884     0.000256509       -0.0207355       -0.130926     -0.000173229        0.000274        -0.247309        0.953121
                        0.678639       -0.729585     -0.000231782     0.000265756        -0.036095       0.0279735     -8.18791e-05     0.000422792
                    -0.000112197     0.000352803        -0.247025        0.953152     -0.000134691     0.000576685       -0.0807894        0.105667
281756                 0.0243484      -0.0381997     -0.000380258     0.000322914         0.678675       -0.729641     -0.000198535     0.000337306
                    -0.000412664     0.000256924       -0.0207899       -0.130942     -0.000173132     0.000274083        -0.246859        0.953235
                         0.67834       -0.729861     -0.000231758     0.000265845       -0.0360974       0.0279962     -8.20503e-05     0.000423074
                    -0.000112135     0.000352988        -0.246574        0.953265     -0.000134468     0.000576771       -0.0807454        0.105731
281758                 0.0243397      -0.0382243     -0.000380057     0.000323172         0.678376       -0.729917      -0.00019846     0.000337411
                    -0.000412444      0.00025734       -0.0208442       -0.130958     -0.000173035     0.000274166        -0.246409        0.953349
                        0.678041       -0.730138     -0.000231713     0.000265927       -0.0361006       0.0280189     -8.21249e-05     0.000423224
                    -0.000112074     0.000353174        -0.246124        0.953379     -0.000134252     0.000576864       -0.0807014        0.105794
281760                  0.024331      -0.0382488     -0.000379851     0.000323422         0.678077       -0.730195     -0.000198407      0.00033754
                    -0.000412223     0.000257756       -0.0208986       -0.130974     -0.000172936     0.000274248        -0.245959        0.953462
                        0.677742       -0.730414     -0.000231694     0.000266019       -0.0361024       0.0280418     -8.22055e-05     0.000423382
                    -0.000112014     0.000353359        -0.245674        0.953492     -0.000134026     0.000576967       -0.0806573        0.105858
281762                 0.0243223      -0.0382733     -0.000379644     0.000323674         0.677778       -0.730471     -0.000198358     0.000337673
                    -0.000412003     0.000258173        -0.020953       -0.130989     -0.000172838     0.000274326        -0.245508        0.953575
                        0.677443        -0.73069     -0.000231668     0.000266108       -0.0361048       0.0280645     -8.22871e-05     0.000423541
