! TOUCHSTONE file generated by CST MICROWAVE STUDIO
! Date and time: Tue Oct 14 07:32:26 2025
! Project name: Teste_Macro_Metasurface_Nanopilar.cst
! Parameters = {H=600; L_x=190; L_y=120; Lambda=1064; Max_L=200; Min_L=70; PathPara=1; Phi=0; Step_L=10; Theta=0; p=520; phaseX=180; phaseY=0}
! Header version: 2018
! Port assignment regex: !\s*Touchstone port\s*([0-9]+)\s*=\s*(CST MWS port|CST DS port)\s*([0-9]+|Zmin|Zmax)\s*\(\"(.*)\"\)(\s*mode\s*([0-9]+))?.*
! Touchstone port assignment:
! Touchstone port 1 = CST MWS port Zmax ("") mode 1
! Touchstone port 2 = CST MWS port Zmax ("") mode 2
! Touchstone port 3 = CST MWS port Zmin ("") mode 1
! Touchstone port 4 = CST MWS port Zmin ("") mode 2
! S-Parameters are not renormalized. Each port impedance will be approximated by the real part at minimum frequency. The values are described via the [Reference] keyword.
! Default impedance is overridden by [Reference]
[Version] 2.0
# GHz S RI R 376.73
[Number of Ports] 4
[Reference]
376.73 376.73 259.814 259.814 
[Number of Frequencies] 51
[Network Data]
281700                -0.0888856       -0.105633      0.000222675    -0.000233956       0.00722262        0.985606     -0.000185574     0.000196997
                      0.00015031    -0.000379598        -0.158839        0.067749     -0.000354821     0.000126482         0.720662        0.664211
                      0.00736642        0.985203     -0.000297028     4.28284e-05       -0.0857465        0.106956      0.000258956    -5.96039e-06
                    -0.000120931     0.000119124          0.72057        0.664207      3.91539e-05    -0.000142609       -0.0546267        0.157328
281702                -0.0889569       -0.105632      0.000222323    -0.000234121       0.00766024          0.9856     -0.000206509      0.00024886
                     0.000257448    -0.000305581        -0.158818       0.0677496     -0.000354773     0.000126815         0.720978        0.663902
                      0.00778856        0.985169     -0.000298291     4.25965e-05       -0.0856877        0.107024      0.000289732     4.36404e-06
                    -7.92185e-05     1.95403e-05          0.72087        0.663891      3.92036e-05    -0.000142262       -0.0544925        0.157355
281704                -0.0888884       -0.105691      0.000221973    -0.000234286       0.00809781        0.985593     -0.000200837     0.000280211
                      0.00025448    -0.000322516        -0.158796       0.0677502     -0.000354708     0.000127139         0.721298         0.66359
                      0.00821706        0.985135     -0.000299537     4.23694e-05       -0.0856288        0.107092      0.000309119     1.95077e-05
                    -5.20013e-05     6.44123e-06         0.721169        0.663574      3.93021e-05    -0.000141932       -0.0543573        0.157381
281706                -0.0889471       -0.105629      0.000221624    -0.000234453       0.00853534        0.985587     -0.000192194     0.000295957
                     0.000252942    -0.000327772        -0.158775       0.0677508     -0.000354627     0.000127455         0.721623         0.66327
                      0.00865121        0.985104     -0.000300768     4.21477e-05         -0.08557         0.10716       0.00031958     3.39055e-05
                    -3.91632e-05     3.50534e-06         0.721468        0.663258      3.94471e-05    -0.000141625       -0.0542212        0.157407
281708                -0.0889922       -0.105613      0.000221278     -0.00023462       0.00897286         0.98558     -0.000185488     0.000304038
                     0.000252074    -0.000330545        -0.158754       0.0677513     -0.000354532     0.000127759         0.721948        0.662939
                       0.0090901        0.985075     -0.000301983     4.19323e-05       -0.0855111        0.107228      0.000324403     4.54793e-05
                    -3.19343e-05     2.68261e-06         0.721766        0.662942      3.96357e-05    -0.000141342       -0.0540843        0.157433
281710                -0.0890323       -0.105603      0.000220933    -0.000234789       0.00941035        0.985574     -0.000180935     0.000308355
                     0.000251506    -0.000332389        -0.158733       0.0677519     -0.000354424     0.000128052         0.722265        0.662597
                      0.00953275        0.985049      -0.00030318     4.17241e-05       -0.0854523        0.107296      0.000326011      5.4001e-05
                     -2.7354e-05     2.49344e-06         0.722065        0.662625      3.98651e-05    -0.000141088       -0.0539466         0.15746
281712                -0.0890707       -0.105593       0.00022059    -0.000234959       0.00984785        0.985567     -0.000178054      0.00031069
                     0.000251097    -0.000333788        -0.158712       0.0677525     -0.000354303     0.000128331         0.722568         0.66225
                      0.00997813        0.985027     -0.000304361     4.15239e-05       -0.0853934        0.107364      0.000325881     5.98919e-05
                    -2.42167e-05     2.53806e-06         0.722363        0.662308      4.01325e-05    -0.000140864       -0.0538084        0.157486
281714                -0.0891082       -0.105584      0.000220248     -0.00023513        0.0102853        0.985561     -0.000176391     0.000311895
                     0.000250779    -0.000334938        -0.158691        0.067753     -0.000354171     0.000128597         0.722858        0.661908
                       0.0104252        0.985009     -0.000305525     4.13328e-05       -0.0853344        0.107432      0.000324848     6.36893e-05
                     -2.1948e-05     2.68124e-06         0.722661        0.661991      4.04351e-05    -0.000140672       -0.0536696        0.157513
281716                -0.0891454       -0.105575      0.000219906    -0.000235302        0.0107228        0.985554     -0.000175615      0.00031241
                      0.00025052    -0.000335934         -0.15867       0.0677536     -0.000354029     0.000128847         0.723143        0.661573
                       0.0108731        0.984994     -0.000306671      4.1152e-05       -0.0852755          0.1075      0.000323366     6.58699e-05
                    -2.02416e-05     2.87039e-06         0.722959        0.661674      4.07704e-05    -0.000140515       -0.0535305         0.15754
281718                -0.0891822       -0.105566      0.000219566    -0.000235476        0.0111604        0.985547     -0.000175491     0.000312476
                       0.0002503    -0.000336829        -0.158649       0.0677541     -0.000353879     0.000129083         0.723427        0.661246
                       0.0113209        0.984983       -0.0003078     4.09826e-05       -0.0852165        0.107568       0.00032168     6.68126e-05
                    -1.89195e-05     3.08326e-06         0.723257        0.661357      4.11363e-05    -0.000140392        -0.053391        0.157567
281720                -0.0892189       -0.105558      0.000219225    -0.000235652        0.0115979        0.985541     -0.000175854     0.000312234
                     0.000250106    -0.000337653        -0.158628       0.0677546     -0.000353722     0.000129302         0.723713        0.660924
                       0.0117679        0.984974     -0.000308911      4.0826e-05       -0.0851575        0.107636      0.000319919      6.6807e-05
                    -1.78713e-05     3.31008e-06         0.723554         0.66104      4.15314e-05    -0.000140304       -0.0532513        0.157594
281722                -0.0892554       -0.105549      0.000218882    -0.000235829        0.0120354        0.985534     -0.000176587     0.000311769
                     0.000249932    -0.000338425        -0.158606       0.0677552     -0.000353559     0.000129506            0.724        0.660605
                       0.0122137        0.984968     -0.000310004     4.06839e-05       -0.0850985        0.107704      0.000318147     6.60717e-05
                    -1.70249e-05     3.54665e-06         0.723851        0.660723      4.19549e-05    -0.000140253       -0.0531114        0.157621
281724                -0.0892919       -0.105541      0.000218538    -0.000236007         0.012473        0.985527     -0.000177603     0.000311136
                     0.000249772    -0.000339158        -0.158585       0.0677557     -0.000353391     0.000129694         0.724289        0.660286
                       0.0126579        0.984963     -0.000311078      4.0558e-05       -0.0850394        0.107771      0.000316397     6.47719e-05
                    -1.63314e-05     3.79139e-06         0.724149        0.660405      4.24073e-05    -0.000140239       -0.0529714        0.157649
281726                -0.0893283       -0.105532      0.000218188    -0.000236186        0.0129106         0.98552     -0.000178838     0.000310372
                     0.000249621     -0.00033986        -0.158565       0.0677562     -0.000353219     0.000129866         0.724579        0.659969
                       0.0131003        0.984959     -0.000312135     4.04505e-05       -0.0849803        0.107839      0.000314684     6.30333e-05
                    -1.57558e-05     4.04403e-06         0.724446        0.660087      4.28903e-05    -0.000140263       -0.0528312        0.157676
281728                -0.0893647       -0.105523      0.000217832    -0.000236366        0.0133483        0.985512     -0.000180242     0.000309501
                     0.000249479    -0.000340536        -0.158544       0.0677568     -0.000353043     0.000130023         0.724871        0.659652
                        0.013541        0.984955     -0.000313172     4.03639e-05       -0.0849211        0.107907      0.000313012     6.09529e-05
                     -1.5273e-05     4.30498e-06         0.724743         0.65977      4.34081e-05    -0.000140327        -0.052691        0.157704
281730                 -0.089401       -0.105515      0.000217466    -0.000236544        0.0137859        0.985505     -0.000181777     0.000308541
                     0.000249342    -0.000341192        -0.158523       0.0677573     -0.000352862     0.000130164         0.725163        0.659334
                       0.0139803        0.984951      -0.00031419     4.03013e-05        -0.084862        0.107975      0.000311385     5.86066e-05
                    -1.48639e-05     4.57497e-06          0.72504        0.659452      4.39678e-05    -0.000140433       -0.0525507        0.157731
281732                -0.0894373       -0.105506      0.000217085     -0.00023672        0.0142236        0.985497     -0.000183412     0.000307507
                     0.000249208     -0.00034183        -0.158502       0.0677578     -0.000352677      0.00013029         0.725456        0.659016
                       0.0144184        0.984946     -0.000315187     4.02664e-05       -0.0848027        0.108042      0.000309802     5.60551e-05
                    -1.45139e-05     4.85492e-06         0.725337        0.659134      4.45815e-05    -0.000140588       -0.0524104        0.157759
281734                -0.0894735       -0.105498      0.000216683    -0.000236888        0.0146614        0.985489     -0.000185122      0.00030641
                     0.000249076    -0.000342452        -0.158481       0.0677584     -0.000352484     0.000130399         0.725749        0.658698
                       0.0148555        0.984941     -0.000316163     4.02639e-05       -0.0847434         0.10811      0.000308266     5.33483e-05
                    -1.42112e-05     5.14582e-06         0.725633        0.658816      4.52686e-05    -0.000140804       -0.0522701        0.157787
281736                -0.0895097       -0.105489       0.00021625    -0.000237042        0.0150991        0.985482     -0.000186886     0.000305259
                     0.000248945    -0.000343059         -0.15846        0.067759     -0.000352279     0.000130492         0.726042        0.658379
                       0.0152922        0.984934     -0.000317115     4.02997e-05        -0.084684        0.108177      0.000306781     5.05292e-05
                    -1.39465e-05      5.4487e-06          0.72593        0.658498      4.60614e-05    -0.000141108       -0.0521298        0.157814
281738                -0.0895459       -0.105481      0.000215774     -0.00023717        0.0155369        0.985473     -0.000188684     0.000304062
                     0.000248812    -0.000343652         -0.15844       0.0677597     -0.000352053     0.000130566         0.726335         0.65806
                       0.0157286        0.984927     -0.000318039     4.03811e-05       -0.0846246        0.108245      0.000305353     4.76375e-05
                    -1.37118e-05     5.76453e-06         0.726227        0.658179      4.70127e-05    -0.000141556       -0.0519895        0.157842
281740                -0.0895821       -0.105472       0.00021524    -0.000237247        0.0159748        0.985465       -0.0001905     0.000302828
                     0.000248678    -0.000344231        -0.158419       0.0677605     -0.000351789     0.000130612         0.726628        0.657741
                        0.016165        0.984918     -0.000318929     4.05175e-05       -0.0845649        0.108312      0.000303991     4.47128e-05
                    -1.35001e-05     6.09425e-06         0.726523        0.657861      4.82037e-05     -0.00014229       -0.0518492        0.157869
281742                -0.0896183       -0.105463      0.000214632     -0.00023723        0.0164126        0.985456     -0.000192318     0.000301566
                     0.000248539    -0.000344797        -0.158399       0.0677615     -0.000351446     0.000130614         0.726921        0.657421
                       0.0166017        0.984909     -0.000319774       4.072e-05       -0.0845049        0.108379      0.000302705     4.17991e-05
                    -1.33053e-05     6.43871e-06          0.72682        0.657543      4.97093e-05    -0.000143684        -0.051709        0.157897
281744                -0.0896544       -0.105455      0.000213951    -0.000237038        0.0168503        0.985447     -0.000194122     0.000300285
                     0.000248394     -0.00034535        -0.158381       0.0677623     -0.000350912     0.000130502         0.727214        0.657101
                       0.0170388        0.984898     -0.000320554     4.10012e-05       -0.0844438        0.108446        0.0003015     3.89495e-05
                    -1.31218e-05      6.7986e-06         0.727117        0.657224      5.11587e-05    -0.000146736       -0.0515688        0.157924
281746                -0.0896905       -0.105446      0.000213255    -0.000236539         0.017288        0.985438     -0.000195896     0.000298996
                      0.00024824    -0.000345889        -0.158364       0.0677597     -0.000349761     0.000129874         0.727506         0.65678
                       0.0174763        0.984888     -0.000321239     4.13724e-05       -0.0843784        0.108515      0.000300374     3.62299e-05
                    -1.29441e-05     7.17441e-06         0.727413        0.656905      4.93903e-05    -0.000152134       -0.0514286        0.157951
281748                -0.0897266       -0.105437      0.000212765    -0.000235598        0.0177249        0.985427     -0.000197621     0.000297714
                     0.000248074    -0.000346414         -0.15834       0.0677528      -0.00035074      0.00012164         0.727798        0.656458
                       0.0179144        0.984876     -0.000321778     4.18353e-05       -0.0843248        0.108591      0.000299298     3.37195e-05
                     -1.2767e-05     7.56635e-06          0.72771        0.656587      4.27704e-05    -0.000152631       -0.0512884        0.157978
281750                -0.0897626       -0.105428      0.000212911    -0.000234318        0.0181864        0.985413     -0.000199275     0.000296458
                     0.000247892    -0.000346925        -0.158315        0.067754      -0.00035511     0.000130652          0.72809        0.656136
                       0.0183529        0.984865     -0.000322097     4.23634e-05       -0.0842685        0.108656      0.000298201     3.14991e-05
                     -1.2585e-05     7.97425e-06         0.728006        0.656268      4.07121e-05    -0.000148788       -0.0511483        0.158005
281752                -0.0897987       -0.105419      0.000213921    -0.000233305        0.0186065        0.985413     -0.000200831     0.000295252
                     0.000247688    -0.000347423        -0.158293       0.0677558      -0.00035345     0.000131197         0.728381        0.655813
                        0.018792        0.984853     -0.000322115     4.28686e-05       -0.0842093        0.108722      0.000296952     2.96184e-05
                    -1.23927e-05     8.39744e-06         0.728303        0.655949      4.13615e-05    -0.000146609       -0.0510082        0.158031
281754                -0.0898348        -0.10541      0.000215287    -0.000233115        0.0190433        0.985403     -0.000202251     0.000294133
                     0.000247457     -0.00034791        -0.158272       0.0677569     -0.000352835     0.000131287         0.728671        0.655489
                       0.0192315        0.984841     -0.000321802     4.31715e-05       -0.0841497        0.108789      0.000295383     2.80442e-05
                    -1.21843e-05     8.83456e-06           0.7286         0.65563      4.23168e-05    -0.000145705       -0.0508681        0.158058
281756                 -0.089871       -0.105401      0.000216371    -0.000233568        0.0194811        0.985392     -0.000203482     0.000293155
                     0.000247191    -0.000348389        -0.158251       0.0677576     -0.000352498     0.000131328          0.72896        0.655164
                       0.0196714        0.984828     -0.000321288     4.30526e-05       -0.0840899        0.108856      0.000293355     2.66275e-05
                    -1.19536e-05     9.28335e-06         0.728896        0.655311      4.31569e-05    -0.000145393       -0.0507281        0.158084
281758                -0.0899072       -0.105392      0.000217038    -0.000234223        0.0199192        0.985382     -0.000204443     0.000292402
                     0.000246881    -0.000348867         -0.15823       0.0677581     -0.000352275     0.000131357         0.729248        0.654836
                       0.0201116        0.984816     -0.000320883      4.2437e-05       -0.0840301        0.108923      0.000290847     2.51453e-05
                    -1.16939e-05     9.74036e-06         0.729193        0.654992      4.38591e-05    -0.000145372       -0.0505881         0.15811
281760                -0.0899436       -0.105382      0.000217419     -0.00023484        0.0203574        0.985371     -0.000205001     0.000292021
                      0.00024652    -0.000349357        -0.158209       0.0677585     -0.000352112     0.000131384         0.729536        0.654506
                       0.0205522        0.984804     -0.000320866     4.15207e-05       -0.0839703        0.108991      0.000287982     2.34109e-05
                    -1.13978e-05     1.02006e-05         0.729489        0.654672      4.44521e-05    -0.000145508       -0.0504481        0.158136
281762                -0.0899802       -0.105373      0.000217651    -0.000235351        0.0207957         0.98536     -0.000204917     0.000292276
                       0.0002461    -0.000349875        -0.158188       0.0677588     -0.000351986     0.000131408         0.729823         0.65417
                       0.0209931        0.984791     -0.000321273     4.06076e-05       -0.0839104        0.109058       0.00028495     2.13554e-05
