! TOUCHSTONE file generated by CST MICROWAVE STUDIO
! Date and time: Tue Oct 14 07:28:24 2025
! Project name: Teste_Macro_Metasurface_Nanopilar.cst
! Parameters = {H=600; L_x=125; L_y=150; Lambda=1064; Max_L=200; Min_L=70; PathPara=1; Phi=0; Step_L=10; Theta=0; p=520; phaseX=180; phaseY=0}
! Header version: 2018
! Port assignment regex: !\s*Touchstone port\s*([0-9]+)\s*=\s*(CST MWS port|CST DS port)\s*([0-9]+|Zmin|Zmax)\s*\(\"(.*)\"\)(\s*mode\s*([0-9]+))?.*
! Touchstone port assignment:
! Touchstone port 1 = CST MWS port Zmax ("") mode 1
! Touchstone port 2 = CST MWS port Zmax ("") mode 2
! Touchstone port 3 = CST MWS port Zmin ("") mode 1
! Touchstone port 4 = CST MWS port Zmin ("") mode 2
! S-Parameters are not renormalized. Each port impedance will be approximated by the real part at minimum frequency. The values are described via the [Reference] keyword.
! Default impedance is overridden by [Reference]
[Version] 2.0
# GHz S RI R 376.73
[Number of Ports] 4
[Reference]
376.73 376.73 259.814 259.814 
[Number of Frequencies] 51
[Network Data]
281700                  -0.14424       -0.237735      0.000250254    -0.000113711         0.501455        0.813451      0.000355639     3.31387e-05
                     0.000135095    -6.20745e-05       -0.0669187      -0.0945125      0.000482534     -0.00012611        -0.213255        0.964083
                        0.501682        0.813113      0.000629194     -0.00010305         0.148872         0.23182      0.000226603     8.29196e-05
                     0.000473291    -0.000100684         -0.21318        0.964284      0.000439209     9.11491e-05        -0.099214       0.0584637
281702                 -0.144332       -0.237744      0.000212046    -9.64422e-05         0.501832        0.813199      0.000355551     3.30053e-05
                     0.000135151    -6.20689e-05       -0.0669676      -0.0945422      0.000482498    -0.000126186        -0.212812        0.964179
                        0.502059        0.812861      0.000587616    -0.000131347         0.149061        0.231763      0.000226676     8.28514e-05
                     0.000473024     -0.00010094        -0.212743        0.964303      0.000439156     9.07635e-05       -0.0991931        0.058537
281704                 -0.144423       -0.237753      0.000212019     -9.6564e-05         0.502208        0.812947        0.0003554     3.28804e-05
                     0.000135209    -6.20653e-05       -0.0670043      -0.0945395      0.000482463    -0.000126263        -0.212369        0.964275
                        0.502435        0.812609      0.000587594    -0.000131579          0.14925        0.231706      0.000226694     8.27776e-05
                     0.000472758    -0.000101195          -0.2123        0.964398      0.000439102     9.03782e-05       -0.0991721       0.0586104
281706                 -0.144515       -0.237763      0.000211981    -9.66796e-05         0.502584        0.812694      0.000355181     3.27646e-05
                     0.000135268    -6.20622e-05        -0.067041      -0.0945369      0.000482427    -0.000126339        -0.211927        0.964371
                        0.502812        0.812356      0.000587565    -0.000131816         0.149439        0.231648      0.000226653     8.26981e-05
                     0.000472492     -0.00010145        -0.211857        0.964494      0.000439048      8.9993e-05        -0.099151       0.0586839
281708                 -0.144607       -0.237772      0.000211942    -9.67936e-05         0.502961        0.812442      0.000354889     3.26589e-05
                     0.000135327    -6.20595e-05       -0.0670778      -0.0945343      0.000482391    -0.000126416        -0.211484        0.964467
                        0.503188        0.812104      0.000587533    -0.000132055         0.149628        0.231591       0.00022655     8.26128e-05
                     0.000472225    -0.000101704        -0.211413        0.964589      0.000438994      8.9608e-05       -0.0991298       0.0587575
281710                 -0.144698       -0.237781      0.000211901     -9.6907e-05         0.503337        0.812189       0.00035452     3.25639e-05
                     0.000135387     -6.2057e-05       -0.0671145      -0.0945317      0.000482356    -0.000126492         -0.21104        0.964563
                        0.503564        0.811851      0.000587501    -0.000132295         0.149817        0.231533      0.000226379     8.25216e-05
                     0.000471959    -0.000101959         -0.21097        0.964684      0.000438939     8.92232e-05       -0.0991085       0.0588312
281712                  -0.14479        -0.23779       0.00021186      -9.702e-05         0.503713        0.811936      0.000354071     3.24804e-05
                     0.000135447    -6.20549e-05       -0.0671512       -0.094529      0.000482319    -0.000126569        -0.210597        0.964658
                         0.50394        0.811598      0.000587468    -0.000132535         0.150006        0.231475      0.000226139     8.24249e-05
                     0.000471693    -0.000102213        -0.210527        0.964779      0.000438884     8.88386e-05       -0.0990872        0.058905
281714                 -0.144882       -0.237799      0.000211819    -9.71328e-05         0.504089        0.811683      0.000353539     3.24089e-05
                     0.000135508    -6.20529e-05       -0.0671879      -0.0945263      0.000482283    -0.000126646        -0.210154        0.964754
                        0.504316        0.811345      0.000587435    -0.000132775         0.150195        0.231417      0.000225829     8.23233e-05
                     0.000471426    -0.000102466        -0.210083        0.964874      0.000438828     8.84541e-05       -0.0990659       0.0589789
281716                 -0.144974       -0.237808      0.000211778    -9.72454e-05         0.504465         0.81143      0.000352926     3.23496e-05
                      0.00013557    -6.20513e-05       -0.0672247      -0.0945236      0.000482247    -0.000126724         -0.20971         0.96485
                        0.504692        0.811092      0.000587402    -0.000133015         0.150384        0.231359       0.00022545     8.22182e-05
                      0.00047116     -0.00010272         -0.20964        0.964969      0.000438773     8.80698e-05       -0.0990445       0.0590527
281718                 -0.145066       -0.237817      0.000211736    -9.73579e-05          0.50484        0.811176      0.000352241     3.23023e-05
                     0.000135632    -6.20499e-05       -0.0672614      -0.0945209      0.000482211    -0.000126804        -0.209267        0.964945
                        0.505068        0.810838      0.000587368    -0.000133255         0.150573        0.231301      0.000225009     8.21119e-05
                     0.000470893    -0.000102973        -0.209196        0.965063      0.000438717     8.76856e-05       -0.0990231       0.0591267
281720                 -0.145157       -0.237826      0.000211695    -9.74702e-05         0.505216        0.810922        0.0003515      3.2266e-05
                     0.000135695    -6.20487e-05       -0.0672981      -0.0945182      0.000482176    -0.000126885        -0.208823         0.96504
                        0.505443        0.810584      0.000587335    -0.000133495         0.150762        0.231242      0.000224522     8.20083e-05
                     0.000470627    -0.000103226        -0.208753        0.965157       0.00043866     8.73015e-05       -0.0990017       0.0592006
281722                 -0.145249       -0.237835      0.000211653    -9.75825e-05         0.505591        0.810668      0.000350736     3.22386e-05
                     0.000135758    -6.20479e-05       -0.0673349      -0.0945155      0.000482145    -0.000126966         -0.20838        0.965135
                        0.505819         0.81033      0.000587301    -0.000133735         0.150951        0.231184      0.000224016     8.19139e-05
                      0.00047036    -0.000103479        -0.208309        0.965251      0.000438604     8.69174e-05       -0.0989802       0.0592744
281724                 -0.145341       -0.237844      0.000211612    -9.76947e-05         0.505967        0.810414      0.000350006      3.2216e-05
                     0.000135822    -6.20473e-05       -0.0673716      -0.0945127      0.000482117    -0.000127042        -0.207936         0.96523
                        0.506194        0.810076      0.000587268    -0.000133975          0.15114        0.231125       0.00022354      8.1839e-05
                     0.000470093    -0.000103732        -0.207865        0.965345      0.000438547     8.65333e-05       -0.0989588       0.0593481
281726                 -0.145433       -0.237853       0.00021157    -9.78067e-05         0.506342         0.81016      0.000349405     3.21905e-05
                     0.000135886     -6.2047e-05       -0.0674084        -0.09451      0.000482086    -0.000127116        -0.207493        0.965324
                        0.506569        0.809822      0.000587234    -0.000134216          0.15133        0.231066      0.000223176     8.17998e-05
                     0.000469827    -0.000103984        -0.207422        0.965438       0.00043849     8.61487e-05       -0.0989372       0.0594216
281728                 -0.145525       -0.237862      0.000211528    -9.79187e-05         0.506717        0.809905      0.000349092     3.21492e-05
                     0.000135951     -6.2047e-05       -0.0674451      -0.0945072      0.000482053    -0.000127189         -0.20705        0.965417
                        0.506945        0.809567        0.0005872    -0.000134456         0.151519        0.231008      0.000223057     8.18208e-05
                      0.00046956    -0.000104236        -0.206978        0.965532      0.000438434     8.57626e-05       -0.0989157       0.0594949
281730                 -0.145617       -0.237871      0.000211487    -9.80307e-05         0.507092        0.809651      0.000349316      3.2069e-05
                     0.000136017    -6.20472e-05       -0.0674819      -0.0945044      0.000482019    -0.000127262        -0.206608        0.965509
                         0.50732        0.809312      0.000587167    -0.000134696         0.151708        0.230948      0.000223395     8.19381e-05
                     0.000469293    -0.000104487        -0.206534        0.965625      0.000438375     8.53669e-05        -0.098894       0.0595676
281732                 -0.145709        -0.23788      0.000211445    -9.81425e-05         0.507467        0.809396      0.000350464     3.19079e-05
                     0.000136083    -6.20478e-05       -0.0675186      -0.0945016      0.000481984    -0.000127336        -0.206166          0.9656
                        0.507695        0.809058      0.000587133    -0.000134936         0.151897        0.230889      0.000224523     8.22004e-05
                     0.000469027    -0.000104739        -0.206091        0.965718       0.00043829     8.50094e-05       -0.0988723       0.0596395
281734                 -0.145801       -0.237889      0.000211403    -9.82543e-05         0.507842         0.80914      0.000353103      3.1589e-05
                     0.000136149    -6.20486e-05       -0.0675554      -0.0944988      0.000481948     -0.00012741        -0.205727        0.965688
                         0.50807        0.808802      0.000587099    -0.000135177         0.152087         0.23083      0.000226947     8.26647e-05
                      0.00046876     -0.00010499        -0.205647         0.96581      0.000438247     8.46269e-05       -0.0988508       0.0597099
281736                 -0.145894       -0.237898      0.000211362    -9.83659e-05         0.508217        0.808885      0.000358001     3.09704e-05
                     0.000136216    -6.20497e-05       -0.0675922      -0.0944959      0.000481913    -0.000127485        -0.205291        0.965772
                        0.508444        0.808547      0.000587065    -0.000135417         0.152276        0.230771       0.00023139      8.3373e-05
                     0.000468493    -0.000105241        -0.205203        0.965903      0.000438191     8.42427e-05       -0.0988301       0.0597776
281738                 -0.145986       -0.237907       0.00021132    -9.84775e-05         0.508591         0.80863      0.000366045     2.98034e-05
                     0.000136284    -6.20512e-05        -0.067629      -0.0944931      0.000481877    -0.000127561        -0.204868        0.965846
                        0.508819        0.808291      0.000587031    -0.000135657         0.152465        0.230711      0.000238797      8.4292e-05
                     0.000468226    -0.000105491        -0.204759        0.965995      0.000438133     8.38595e-05       -0.0988139       0.0598398
281740                 -0.146078       -0.237916      0.000211278    -9.85891e-05         0.508966        0.808374      0.000377946     2.77086e-05
                     0.000136352    -6.20529e-05       -0.0676657      -0.0944902      0.000481842    -0.000127636        -0.204517        0.965907
                        0.509194        0.808036      0.000586997    -0.000135897         0.152654        0.230651      0.000250167     8.52007e-05
                     0.000467959    -0.000105742        -0.204315        0.966087      0.000438074     8.34768e-05        -0.098818       0.0599007
281742                  -0.14617       -0.237925      0.000211237    -9.87005e-05          0.50934        0.808118      0.000393661      2.4265e-05
                     0.000136421     -6.2055e-05       -0.0677025      -0.0944873      0.000481806    -0.000127712        -0.204084        0.966312
                        0.509568         0.80778      0.000586963    -0.000136137         0.152844        0.230591      0.000266062     8.55825e-05
                     0.000467693    -0.000105992        -0.203871        0.966179      0.000438015     8.30945e-05       -0.0988278       0.0600067
281744                 -0.146262       -0.237934      0.000211195    -9.88119e-05         0.509714        0.807862      0.000411821     1.93192e-05
                      0.00013649    -6.20574e-05       -0.0677393      -0.0944844      0.000481771    -0.000127787        -0.203485        0.966301
                        0.509942        0.807524      0.000586929    -0.000136378         0.153033        0.230531      0.000285822     8.47249e-05
                     0.000467426    -0.000106242        -0.203427        0.966271      0.000437955     8.27124e-05       -0.0987903       0.0601071
281746                 -0.146355       -0.237943      0.000211153    -9.89232e-05         0.510088        0.807605      0.000429843     1.33633e-05
                      0.00013656    -6.20601e-05       -0.0677761      -0.0944815      0.000481736    -0.000127863        -0.203033        0.966352
                        0.510316        0.807267      0.000586895    -0.000136618         0.153222        0.230471      0.000307065     8.22299e-05
                     0.000467159    -0.000106491        -0.202983        0.966362      0.000437895     8.23305e-05       -0.0987553       0.0601848
281748                 -0.146447       -0.237952      0.000211112    -9.90344e-05         0.510462        0.807349       0.00044507     7.48373e-06
                     0.000136631    -6.20631e-05       -0.0678129      -0.0944785        0.0004817    -0.000127938        -0.202589        0.966427
                        0.510691        0.807011      0.000586861    -0.000136858         0.153412        0.230411      0.000326405     7.85715e-05
                     0.000466892     -0.00010674        -0.202539        0.966454      0.000437834     8.19488e-05       -0.0987268       0.0602582
281750                 -0.146539       -0.237961       0.00021107    -9.91455e-05         0.510836        0.807092      0.000456028     2.73583e-06
                     0.000136702    -6.20665e-05       -0.0678497      -0.0944756      0.000481665    -0.000128014        -0.202145        0.966511
                        0.511065        0.806754      0.000586827    -0.000137098         0.153601         0.23035      0.000341196     7.48911e-05
                     0.000466625    -0.000106989        -0.202095        0.966545      0.000437773     8.15673e-05       -0.0987014       0.0603311
281752                 -0.146632        -0.23797      0.000211028    -9.92566e-05          0.51121        0.806835      0.000462702    -4.12632e-07
                     0.000136773    -6.20701e-05       -0.0678865      -0.0944726       0.00048163     -0.00012809        -0.201702        0.966598
                        0.511438        0.806497      0.000586792    -0.000137339         0.153791         0.23029      0.000350636     7.21469e-05
                     0.000466358    -0.000107238        -0.201651        0.966636      0.000437712     8.11859e-05       -0.0986775        0.060404
281754                 -0.146724       -0.237979      0.000210987    -9.93675e-05         0.511584        0.806578      0.000465957    -2.08448e-06
                     0.000136845    -6.20742e-05       -0.0679233      -0.0944696      0.000481595    -0.000128165        -0.201259        0.966687
                        0.511812         0.80624      0.000586758    -0.000137579          0.15398        0.230229      0.000355445     7.06262e-05
                     0.000466091    -0.000107487        -0.201207        0.966726      0.000437651     8.08047e-05       -0.0986543        0.060477
281756                 -0.146817       -0.237988      0.000210945    -9.94784e-05         0.511958        0.806321      0.000466867     -2.6778e-06
                     0.000136918    -6.20785e-05       -0.0679601      -0.0944667       0.00048156    -0.000128241        -0.200815        0.966776
                        0.512186        0.805983      0.000586724    -0.000137819          0.15417        0.230168      0.000356943     7.01144e-05
                     0.000465824    -0.000107735        -0.200763        0.966817      0.000437589     8.04236e-05       -0.0986315       0.0605502
281758                 -0.146909       -0.237997      0.000210903    -9.95892e-05         0.512331        0.806063      0.000466341     -2.6018e-06
                     0.000136991    -6.20832e-05       -0.0679969      -0.0944636      0.000481525    -0.000128316        -0.200371        0.966866
                        0.512559        0.805725       0.00058669    -0.000138059         0.154359        0.230107      0.000356383     7.02458e-05
                     0.000465557    -0.000107983        -0.200318        0.966907      0.000437527     8.00426e-05        -0.098609       0.0606234
281760                 -0.147002       -0.238006      0.000210862       -9.97e-05         0.512704        0.805805      0.000465029    -2.16772e-06
                     0.000137064    -6.20883e-05       -0.0680338      -0.0944606       0.00048149    -0.000128392        -0.199927        0.966957
                        0.512933        0.805467      0.000586655    -0.000138299         0.154548        0.230046      0.000354701     7.07089e-05
                     0.000465291    -0.000108231        -0.199874        0.966997      0.000437465     7.96618e-05       -0.0985866       0.0606966
281762                 -0.147094       -0.238015       0.00021082    -9.98106e-05         0.513078        0.805547      0.000463356    -1.57881e-06
                     0.000137138    -6.20937e-05       -0.0680706      -0.0944576      0.000481455    -0.000128467        -0.199483        0.967047
                        0.513306        0.805209      0.000586621    -0.000138539         0.154738        0.229985      0.000352511     7.12976e-05
