! TOUCHSTONE file generated by CST MICROWAVE STUDIO
! Date and time: Tue Oct 14 07:26:22 2025
! Project name: Teste_Macro_Metasurface_Nanopilar.cst
! Parameters = {H=600; L_x=95; L_y=85; Lambda=1064; Max_L=200; Min_L=70; PathPara=1; Phi=0; Step_L=10; Theta=0; p=520; phaseX=180; phaseY=0}
! Header version: 2018
! Port assignment regex: !\s*Touchstone port\s*([0-9]+)\s*=\s*(CST MWS port|CST DS port)\s*([0-9]+|Zmin|Zmax)\s*\(\"(.*)\"\)(\s*mode\s*([0-9]+))?.*
! Touchstone port assignment:
! Touchstone port 1 = CST MWS port Zmax ("") mode 1
! Touchstone port 2 = CST MWS port Zmax ("") mode 2
! Touchstone port 3 = CST MWS port Zmin ("") mode 1
! Touchstone port 4 = CST MWS port Zmin ("") mode 2
! S-Parameters are not renormalized. Each port impedance will be approximated by the real part at minimum frequency. The values are described via the [Reference] keyword.
! Default impedance is overridden by [Reference]
[Version] 2.0
# GHz S RI R 376.73
[Number of Ports] 4
[Reference]
376.73 376.73 259.814 259.814 
[Number of Frequencies] 51
[Network Data]
281700                -0.0191153       0.0993675      -0.00020305    -4.77168e-05          0.99239      -0.0629261      0.000291813    -7.46171e-05
                    -9.76521e-05      -0.0001069      -0.00611259       0.0743033      4.03584e-05     4.10443e-06         0.974827       -0.204505
                        0.991983      -0.0632573     -6.17546e-06    -0.000189659        0.0313144       0.0963036      3.11979e-05     2.18531e-05
                    -2.07695e-06    -0.000102817         0.975247       -0.204897     -5.17756e-07    -0.000209597        0.0352753        0.065791
281702                -0.0190791       0.0993698     -0.000202969    -4.77864e-05         0.992367      -0.0632921      0.000291937    -7.44843e-05
                    -9.75583e-05    -0.000106803      -0.00608363       0.0742994      4.06085e-05     3.79346e-06          0.97475        -0.20487
                         0.99196      -0.0636223     -6.24748e-06    -0.000189663        0.0313495       0.0962874      3.10075e-05     2.20075e-05
                    -2.13403e-06    -0.000102805         0.975171       -0.205262     -5.44602e-07     -0.00020975        0.0352964       0.0657726
281704                -0.0190428       0.0993721     -0.000202887    -4.78559e-05         0.992344       -0.063658      0.000292061    -7.43513e-05
                    -9.74645e-05    -0.000106706      -0.00605468       0.0742955      4.08587e-05     3.48074e-06         0.974674       -0.205235
                        0.991937      -0.0639873     -6.31948e-06    -0.000189668        0.0313845       0.0962712       3.0817e-05     2.21618e-05
                    -2.19104e-06    -0.000102792         0.975095       -0.205627     -5.70894e-07    -0.000209904        0.0353175       0.0657543
281706                -0.0190065       0.0993744     -0.000202806    -4.79254e-05         0.992321      -0.0640239      0.000292184    -7.42181e-05
                    -9.73707e-05     -0.00010661      -0.00602572       0.0742917      4.11089e-05     3.16628e-06         0.974597       -0.205599
                        0.991913      -0.0643523     -6.39143e-06    -0.000189672        0.0314196        0.096255      3.06263e-05     2.23162e-05
                    -2.24801e-06     -0.00010278         0.975018       -0.205993     -5.96603e-07    -0.000210059        0.0353386       0.0657359
281708                -0.0189702       0.0993767     -0.000202725    -4.79947e-05         0.992298      -0.0643899      0.000292308    -7.40848e-05
                    -9.72769e-05    -0.000106513      -0.00599677       0.0742878       4.1359e-05      2.8501e-06          0.97452       -0.205964
                         0.99189      -0.0647173     -6.46335e-06    -0.000189676        0.0314547       0.0962388      3.04354e-05     2.24707e-05
                    -2.30492e-06    -0.000102767         0.974941       -0.206358     -6.21704e-07    -0.000210215        0.0353596       0.0657175
281710                -0.0189339        0.099379     -0.000202644     -4.8064e-05         0.992275      -0.0647558      0.000292432    -7.39513e-05
                    -9.71831e-05    -0.000106416      -0.00596782       0.0742838      4.16093e-05     2.53223e-06         0.974444       -0.206329
                        0.991866      -0.0650823     -6.53523e-06     -0.00018968        0.0314897       0.0962226      3.02444e-05     2.26251e-05
                    -2.36177e-06    -0.000102755         0.974864       -0.206723     -6.46174e-07    -0.000210372        0.0353807       0.0656991
281712                -0.0188976       0.0993812     -0.000202563    -4.81332e-05         0.992252      -0.0651217      0.000292555    -7.38176e-05
                    -9.70893e-05     -0.00010632      -0.00593887       0.0742799      4.18595e-05     2.21268e-06         0.974366       -0.206693
                        0.991842      -0.0654473     -6.60707e-06    -0.000189685        0.0315248       0.0962063      3.00532e-05     2.27796e-05
                    -2.41857e-06    -0.000102742         0.974787       -0.207088      -6.6999e-07     -0.00021053        0.0354018       0.0656807
281714                -0.0188613       0.0993835     -0.000202482    -4.82023e-05         0.992228      -0.0654876      0.000292679    -7.36837e-05
                    -9.69954e-05    -0.000106223      -0.00590993        0.074276      4.21097e-05     1.89148e-06         0.974289       -0.207058
                        0.991818      -0.0658123     -6.67888e-06    -0.000189689        0.0315598       0.0961901      2.98618e-05     2.29341e-05
                    -2.47531e-06    -0.000102729          0.97471       -0.207453     -6.93134e-07    -0.000210688        0.0354228       0.0656623
281716                 -0.018825       0.0993857     -0.000202401    -4.82713e-05         0.992204      -0.0658535      0.000292803    -7.35497e-05
                    -9.69016e-05    -0.000106127      -0.00588099       0.0742721        4.236e-05     1.56864e-06         0.974212       -0.207423
                        0.991794      -0.0661773     -6.75065e-06    -0.000189693        0.0315948       0.0961738      2.96703e-05     2.30886e-05
                      -2.532e-06    -0.000102717         0.974633       -0.207818     -7.15587e-07    -0.000210847        0.0354438       0.0656439
281718                -0.0187888       0.0993879      -0.00020232    -4.83402e-05         0.992181      -0.0662194      0.000292927    -7.34155e-05
                    -9.68077e-05    -0.000106031      -0.00585205       0.0742681      4.26103e-05     1.24419e-06         0.974134       -0.207787
                        0.991769      -0.0665422     -6.82237e-06    -0.000189698        0.0316298       0.0961576      2.94786e-05     2.32431e-05
                    -2.58863e-06    -0.000102704         0.974555       -0.208183     -7.37334e-07    -0.000211008        0.0354649       0.0656255
281720                -0.0187525       0.0993901      -0.00020224     -4.8409e-05         0.992157      -0.0665853      0.000293051    -7.32811e-05
                    -9.67139e-05    -0.000105935      -0.00582311       0.0742641      4.28607e-05      9.1816e-07         0.974057       -0.208152
                        0.991745      -0.0669072     -6.89406e-06    -0.000189702        0.0316648       0.0961413      2.92868e-05     2.33976e-05
                     -2.6452e-06    -0.000102691         0.974478       -0.208548      -7.5836e-07    -0.000211169        0.0354859       0.0656071
281722                -0.0187162       0.0993923     -0.000202159    -4.84777e-05         0.992133      -0.0669512      0.000293175    -7.31466e-05
                      -9.662e-05    -0.000105839      -0.00579418       0.0742602       4.3111e-05     5.90562e-07         0.973979       -0.208516
                         0.99172      -0.0672721     -6.96571e-06    -0.000189707        0.0316998        0.096125      2.90948e-05     2.35522e-05
                    -2.70173e-06    -0.000102679           0.9744       -0.208913     -7.78654e-07     -0.00021133        0.0355069       0.0655887
281724                -0.0186799       0.0993945     -0.000202079    -4.85464e-05         0.992108      -0.0673171      0.000293298    -7.30118e-05
                    -9.65261e-05    -0.000105743      -0.00576525       0.0742562      4.33614e-05     2.61423e-07         0.973901       -0.208881
                        0.991695      -0.0676371     -7.03732e-06    -0.000189711        0.0317348       0.0961086      2.89026e-05     2.37067e-05
                    -2.75819e-06    -0.000102666         0.974322       -0.209278     -7.98205e-07    -0.000211492        0.0355279       0.0655703
281726                -0.0186436       0.0993967     -0.000201998    -4.86149e-05         0.992084      -0.0676829      0.000293422    -7.28769e-05
                    -9.64323e-05    -0.000105647      -0.00573633       0.0742522      4.36118e-05    -6.92319e-08         0.973823       -0.209245
                         0.99167       -0.068002     -7.10889e-06    -0.000189716        0.0317698       0.0960923      2.87103e-05     2.38613e-05
                     -2.8146e-06    -0.000102653         0.974244       -0.209642     -8.17006e-07    -0.000211655        0.0355489       0.0655518
281728                -0.0186073       0.0993988     -0.000201918    -4.86833e-05         0.992059      -0.0680488      0.000293546    -7.27419e-05
                    -9.63384e-05    -0.000105551       -0.0057074       0.0742482      4.38622e-05    -4.01379e-07         0.973745        -0.20961
                        0.991645      -0.0683669     -7.18042e-06     -0.00018972        0.0318048        0.096076      2.85178e-05     2.40159e-05
                    -2.87095e-06     -0.00010264         0.974166       -0.210007      -8.3505e-07    -0.000211819        0.0355698       0.0655334
281730                 -0.018571       0.0994009     -0.000201838    -4.87515e-05         0.992035      -0.0684147       0.00029367    -7.26066e-05
                    -9.62445e-05    -0.000105456      -0.00567848       0.0742441      4.41127e-05    -7.34993e-07         0.973667       -0.209974
                         0.99162      -0.0687318     -7.25191e-06    -0.000189725        0.0318397       0.0960596      2.83251e-05     2.41705e-05
                    -2.92725e-06    -0.000102627         0.974088       -0.210372     -8.52331e-07    -0.000211983        0.0355908        0.065515
281732                -0.0185348       0.0994031     -0.000201758    -4.88197e-05          0.99201      -0.0687805      0.000293794    -7.24712e-05
                    -9.61506e-05     -0.00010536      -0.00564956       0.0742401      4.43632e-05    -1.07005e-06         0.973588       -0.210338
                        0.991595      -0.0690967     -7.32336e-06    -0.000189729        0.0318747       0.0960433      2.81323e-05     2.43252e-05
                    -2.98349e-06    -0.000102614          0.97401       -0.210737     -8.68847e-07    -0.000212148        0.0356118       0.0654965
281734                -0.0184985       0.0994052     -0.000201678    -4.88878e-05         0.991985      -0.0691464      0.000293918    -7.23356e-05
                    -9.60567e-05    -0.000105265      -0.00562065       0.0742361      4.46138e-05    -1.40652e-06          0.97351       -0.210703
                         0.99157      -0.0694616     -7.39477e-06    -0.000189734        0.0319096       0.0960269      2.79393e-05     2.44798e-05
                    -3.03967e-06    -0.000102601         0.973931       -0.211101     -8.84596e-07    -0.000212313        0.0356327       0.0654781
281736                -0.0184622       0.0994073     -0.000201598    -4.89557e-05          0.99196      -0.0695122      0.000294042    -7.21998e-05
                    -9.59628e-05     -0.00010517      -0.00559174        0.074232      4.48644e-05    -1.74438e-06         0.973431       -0.211067
                        0.991544      -0.0698265     -7.46614e-06    -0.000189738        0.0319446       0.0960105      2.77461e-05     2.46344e-05
                     -3.0958e-06    -0.000102588         0.973852       -0.211466     -8.99578e-07    -0.000212478        0.0356537       0.0654596
281738                -0.0184259       0.0994094     -0.000201518    -4.90236e-05         0.991935      -0.0698781      0.000294166    -7.20639e-05
                    -9.58689e-05    -0.000105075      -0.00556283       0.0742279       4.5115e-05    -2.08359e-06         0.973352       -0.211431
                        0.991518      -0.0701914     -7.53747e-06    -0.000189743        0.0319795       0.0959941      2.75527e-05     2.47891e-05
                    -3.15187e-06    -0.000102575         0.973774       -0.211831     -9.13794e-07    -0.000212644        0.0356746       0.0654411
281740                -0.0183896       0.0994114     -0.000201438    -4.90913e-05          0.99191      -0.0702439       0.00029429    -7.19277e-05
                     -9.5775e-05     -0.00010498      -0.00553392       0.0742239      4.53657e-05    -2.42415e-06         0.973273       -0.211796
                        0.991493      -0.0705563     -7.60876e-06    -0.000189748        0.0320144       0.0959777      2.73592e-05     2.49437e-05
                    -3.20789e-06    -0.000102562         0.973695       -0.212196     -9.27248e-07    -0.000212811        0.0356955       0.0654226
281742                -0.0183534       0.0994135     -0.000201359    -4.91589e-05         0.991884      -0.0706097      0.000294414    -7.17914e-05
                    -9.56811e-05    -0.000104885      -0.00550502       0.0742198      4.56165e-05    -2.76601e-06         0.973194        -0.21216
                        0.991467      -0.0709211     -7.68001e-06    -0.000189753        0.0320494       0.0959613      2.71655e-05     2.50984e-05
                    -3.26385e-06    -0.000102549         0.973616        -0.21256     -9.39942e-07    -0.000212978        0.0357164       0.0654042
281744                -0.0183171       0.0994155     -0.000201279    -4.92263e-05         0.991859      -0.0709756      0.000294538    -7.16549e-05
                    -9.55872e-05    -0.000104791      -0.00547612       0.0742157      4.58673e-05    -3.10914e-06         0.973115       -0.212524
                         0.99144       -0.071286     -7.75122e-06    -0.000189758        0.0320843       0.0959448      2.69716e-05     2.52531e-05
                    -3.31975e-06    -0.000102536         0.973536       -0.212925     -9.51883e-07    -0.000213145        0.0357373       0.0653857
281746                -0.0182808       0.0994176       -0.0002012    -4.92937e-05         0.991833      -0.0713414      0.000294662    -7.15182e-05
                    -9.54934e-05    -0.000104697      -0.00544722       0.0742116      4.61182e-05    -3.45353e-06         0.973035       -0.212888
                        0.991414      -0.0716508     -7.82239e-06    -0.000189763        0.0321192       0.0959284      2.67776e-05     2.54078e-05
                     -3.3756e-06    -0.000102523         0.973457       -0.213289     -9.63077e-07    -0.000213313        0.0357582       0.0653672
281748                -0.0182445       0.0994196      -0.00020112    -4.93609e-05         0.991807      -0.0717072      0.000294787    -7.13814e-05
                    -9.53995e-05    -0.000104602      -0.00541832       0.0742075      4.63691e-05    -3.79913e-06         0.972956       -0.213252
                        0.991388      -0.0720157     -7.89352e-06    -0.000189768        0.0321541       0.0959119      2.65833e-05     2.55625e-05
                    -3.43139e-06     -0.00010251         0.973378       -0.213654     -9.73531e-07    -0.000213481        0.0357791       0.0653487
281750                -0.0182082       0.0994216     -0.000201041     -4.9428e-05         0.991781       -0.072073      0.000294911    -7.12443e-05
                    -9.53056e-05    -0.000104508      -0.00538943       0.0742033      4.66201e-05    -4.14592e-06         0.972876       -0.213616
                        0.991361      -0.0723805     -7.96462e-06    -0.000189773        0.0321889       0.0958954      2.63889e-05     2.57172e-05
                    -3.48712e-06    -0.000102497         0.973298       -0.214018     -9.83253e-07    -0.000213649           0.0358       0.0653302
281752                -0.0181719       0.0994236     -0.000200962    -4.94949e-05         0.991755      -0.0724388      0.000295035     -7.1107e-05
                    -9.52118e-05    -0.000104414      -0.00536054       0.0741992      4.68713e-05    -4.49387e-06         0.972796       -0.213981
                        0.991335      -0.0727453     -8.03567e-06    -0.000189778        0.0322238        0.095879      2.61943e-05      2.5872e-05
                    -3.54279e-06    -0.000102484         0.973218       -0.214383     -9.92252e-07    -0.000213817        0.0358209       0.0653117
281754                -0.0181357       0.0994256     -0.000200882    -4.95617e-05         0.991729      -0.0728046      0.000295159    -7.09695e-05
                    -9.51179e-05    -0.000104321      -0.00533166        0.074195      4.71225e-05    -4.84295e-06         0.972716       -0.214345
                        0.991308      -0.0731101     -8.10669e-06    -0.000189783        0.0322587       0.0958625      2.59994e-05     2.60268e-05
                    -3.59841e-06    -0.000102471         0.973138       -0.214747     -1.00054e-06    -0.000213986        0.0358417       0.0652932
281756                -0.0180994       0.0994275     -0.000200803    -4.96284e-05         0.991702      -0.0731704      0.000295283    -7.08317e-05
                    -9.50241e-05    -0.000104227      -0.00530278       0.0741909      4.73738e-05    -5.19313e-06         0.972636       -0.214709
                        0.991281      -0.0734749     -8.17766e-06    -0.000189788        0.0322935        0.095846      2.58044e-05     2.61816e-05
                    -3.65398e-06    -0.000102457         0.973058       -0.215112     -1.00812e-06    -0.000214155        0.0358626       0.0652746
281758                -0.0180631       0.0994295     -0.000200724    -4.96949e-05         0.991676      -0.0735361      0.000295407    -7.06936e-05
                    -9.49303e-05    -0.000104134       -0.0052739       0.0741867      4.76252e-05    -5.54437e-06         0.972556       -0.215073
                        0.991254      -0.0738397      -8.2486e-06    -0.000189793        0.0323284       0.0958294      2.56091e-05     2.63366e-05
                    -3.70948e-06    -0.000102444         0.972978       -0.215476     -1.01502e-06    -0.000214324        0.0358834       0.0652561
281760                -0.0180268       0.0994314     -0.000200645    -4.97613e-05         0.991649      -0.0739019      0.000295531    -7.05551e-05
                    -9.48365e-05    -0.000104041      -0.00524502       0.0741825      4.78767e-05    -5.89665e-06         0.972476       -0.215437
                        0.991227      -0.0742045      -8.3195e-06    -0.000189799        0.0323632       0.0958129      2.54135e-05     2.64918e-05
                    -3.76493e-06    -0.000102431         0.972898       -0.215841     -1.02123e-06    -0.000214493        0.0359042       0.0652376
281762                -0.0179905       0.0994334     -0.000200566    -4.98275e-05         0.991622      -0.0742677      0.000295656    -7.04159e-05
                    -9.47427e-05    -0.000103948      -0.00521614       0.0741783      4.81283e-05    -6.24993e-06         0.972395       -0.215801
                        0.991199      -0.0745693     -8.39036e-06    -0.000189804        0.0323981       0.0957963      2.52174e-05     2.66473e-05
