! TOUCHSTONE file generated by CST MICROWAVE STUDIO
! Date and time: Tue Oct 14 07:31:31 2025
! Project name: Teste_Macro_Metasurface_Nanopilar.cst
! Parameters = {H=600; L_x=175; L_y=135; Lambda=1064; Max_L=200; Min_L=70; PathPara=1; Phi=0; Step_L=10; Theta=0; p=520; phaseX=180; phaseY=0}
! Header version: 2018
! Port assignment regex: !\s*Touchstone port\s*([0-9]+)\s*=\s*(CST MWS port|CST DS port)\s*([0-9]+|Zmin|Zmax)\s*\(\"(.*)\"\)(\s*mode\s*([0-9]+))?.*
! Touchstone port assignment:
! Touchstone port 1 = CST MWS port Zmax ("") mode 1
! Touchstone port 2 = CST MWS port Zmax ("") mode 2
! Touchstone port 3 = CST MWS port Zmin ("") mode 1
! Touchstone port 4 = CST MWS port Zmin ("") mode 2
! S-Parameters are not renormalized. Each port impedance will be approximated by the real part at minimum frequency. The values are described via the [Reference] keyword.
! Default impedance is overridden by [Reference]
[Version] 2.0
# GHz S RI R 376.73
[Number of Ports] 4
[Reference]
376.73 376.73 259.814 259.814 
[Number of Frequencies] 51
[Network Data]
281700                 -0.174821       -0.310761      7.39335e-05     -0.00062898         0.601626        0.702311       5.0423e-05     0.000144416
                     7.80987e-05    -0.000653868        -0.167727       0.0405753     -0.000340038    -0.000417805         0.692519        0.694259
                        0.602267        0.702365     -0.000196177    -0.000382594         0.282458        0.205528      0.000616967    -0.000167404
                     0.000150722     0.000229956         0.692461        0.694332      0.000916993    -9.08307e-05       -0.0407925        0.162151
281702                 -0.174989       -0.310856      7.33857e-05    -0.000629446         0.601999        0.701897      5.02719e-05      0.00014408
                     7.76624e-05    -0.000653542        -0.167711       0.0405874     -0.000340505    -0.000418339         0.692822        0.693961
                        0.602638        0.701952     -0.000196298    -0.000383105         0.282783        0.205351      0.000617126    -0.000167646
                     0.000150478      0.00023003         0.692763        0.694034      0.000917745    -9.10193e-05       -0.0406622        0.162172
281704                 -0.175157       -0.310952      7.28357e-05    -0.000629912         0.602373        0.701483      5.01184e-05     0.000143744
                     7.72223e-05    -0.000653222        -0.167696       0.0405996     -0.000340973    -0.000418874         0.693124        0.693663
                        0.603009        0.701539     -0.000196419    -0.000383617         0.283108        0.205173      0.000617286    -0.000167888
                     0.000150224     0.000230104         0.693065        0.693736        0.0009185    -9.12112e-05        -0.040532        0.162193
281706                 -0.175325       -0.311047      7.22832e-05    -0.000630376         0.602746        0.701068      4.99626e-05     0.000143408
                     7.67782e-05    -0.000652907         -0.16768       0.0406118     -0.000341442    -0.000419409         0.693425        0.693364
                         0.60338        0.701125      -0.00019654    -0.000384132         0.283433        0.204996      0.000617445     -0.00016813
                     0.000149961     0.000230177         0.693367        0.693437      0.000919258    -9.14067e-05       -0.0404018        0.162214
281708                 -0.175494       -0.311143      7.17282e-05    -0.000630839         0.603119        0.700652      4.98044e-05     0.000143073
                     7.63298e-05    -0.000652596        -0.167665        0.040624     -0.000341913    -0.000419945         0.693727        0.693066
                        0.603751        0.700711     -0.000196661     -0.00038465         0.283759        0.204817      0.000617604    -0.000168373
                     0.000149689      0.00023025         0.693669        0.693139      0.000920018     -9.1606e-05       -0.0402716        0.162235
281710                 -0.175663       -0.311238      7.11705e-05      -0.0006313         0.603492        0.700236      4.96439e-05     0.000142738
                     7.58771e-05    -0.000652288        -0.167649       0.0406362     -0.000342386    -0.000420481         0.694029        0.692767
                        0.604121        0.700296     -0.000196782    -0.000385171         0.284084        0.204638      0.000617763    -0.000168617
                      0.00014941     0.000230322         0.693971        0.692841       0.00092078    -9.18095e-05       -0.0401414        0.162255
281712                 -0.175832       -0.311334      7.06098e-05     -0.00063176         0.603864         0.69982      4.94811e-05     0.000142403
                       7.542e-05    -0.000651982        -0.167634       0.0406484      -0.00034286    -0.000421017          0.69433        0.692469
                        0.604491        0.699881     -0.000196902    -0.000385695          0.28441        0.204459      0.000617922    -0.000168861
                     0.000149123     0.000230393         0.694273        0.692542      0.000921546    -9.20174e-05       -0.0400112        0.162276
281714                 -0.176002        -0.31143      7.00458e-05    -0.000632217         0.604236        0.699404      4.93161e-05     0.000142068
                     7.49585e-05    -0.000651679        -0.167618       0.0406607     -0.000343336    -0.000421554         0.694632         0.69217
                        0.604861        0.699465     -0.000197022    -0.000386223         0.284736         0.20428      0.000618081    -0.000169105
                     0.000148828     0.000230464         0.694574        0.692243      0.000922314    -9.22301e-05        -0.039881        0.162296
281716                 -0.176172       -0.311526      6.94781e-05    -0.000632672         0.604609        0.698987      4.91489e-05     0.000141734
                     7.44929e-05    -0.000651377        -0.167603       0.0406729     -0.000343813     -0.00042209         0.694933        0.691871
                         0.60523        0.699049     -0.000197142    -0.000386756         0.285062          0.2041       0.00061824    -0.000169351
                     0.000148528     0.000230533         0.694876        0.691944      0.000923084    -9.24481e-05       -0.0397507        0.162317
281718                 -0.176342       -0.311622      6.89061e-05    -0.000633123          0.60498        0.698569      4.89796e-05     0.000141399
                     7.40232e-05    -0.000651076        -0.167587       0.0406851     -0.000344293    -0.000422627         0.695234        0.691572
                          0.6056        0.698633     -0.000197261    -0.000387293         0.285388        0.203919      0.000618399    -0.000169597
                     0.000148221       0.0002306         0.695177        0.691645      0.000923856    -9.26717e-05       -0.0396205        0.162337
281720                 -0.176512       -0.311718      6.83291e-05     -0.00063357         0.605352        0.698151      4.88081e-05     0.000141065
                     7.35497e-05    -0.000650775        -0.167572       0.0406973     -0.000344775    -0.000423163         0.695535        0.691273
                        0.605969        0.698216     -0.000197378    -0.000387838         0.285714        0.203738      0.000618558    -0.000169843
                     0.000147909     0.000230667         0.695478        0.691346       0.00092463    -9.29015e-05       -0.0394903        0.162357
281722                 -0.176683       -0.311814      6.77463e-05    -0.000634011         0.605724        0.697733      4.86346e-05      0.00014073
                     7.30725e-05    -0.000650475        -0.167556       0.0407095      -0.00034526    -0.000423698         0.695835        0.690974
                        0.606338        0.697798     -0.000197493     -0.00038839         0.286041        0.203557      0.000618717     -0.00017009
                     0.000147591     0.000230732         0.695779        0.691047      0.000925405    -9.31379e-05       -0.0393602        0.162378
281724                 -0.176853        -0.31191      6.71562e-05    -0.000634444         0.606095        0.697314       4.8459e-05     0.000140396
                      7.2592e-05    -0.000650174        -0.167541       0.0407218     -0.000345748    -0.000424233         0.696136        0.690675
                        0.606706         0.69738     -0.000197605    -0.000388951         0.286367        0.203375      0.000618875    -0.000170338
                     0.000147268     0.000230795          0.69608        0.690748      0.000926182    -9.33815e-05         -0.03923        0.162398
281726                 -0.177024       -0.312006      6.65574e-05    -0.000634864         0.606466        0.696895      4.82815e-05     0.000140061
                     7.21085e-05    -0.000649873        -0.167525        0.040734     -0.000346238    -0.000424766         0.696436        0.690375
                        0.607075        0.696962     -0.000197709    -0.000389526         0.286694        0.203193      0.000619034    -0.000170586
                     0.000146941     0.000230857         0.696381        0.690448      0.000926959    -9.36331e-05       -0.0390998        0.162418
281728                 -0.177196       -0.312103      6.59481e-05    -0.000635264         0.606837        0.696475       4.8102e-05     0.000139726
                      7.1622e-05    -0.000649571         -0.16751       0.0407463     -0.000346733    -0.000425299         0.696737        0.690076
                        0.607443        0.696543     -0.000197802    -0.000390116         0.287021        0.203011      0.000619193    -0.000170835
                      0.00014661     0.000230918         0.696681        0.690149      0.000927736    -9.38933e-05       -0.0389696        0.162437
281730                 -0.177367       -0.312199      6.53272e-05    -0.000635633         0.607207        0.696055      4.79207e-05     0.000139391
                     7.11331e-05    -0.000649268        -0.167494       0.0407585     -0.000347232     -0.00042583         0.697037        0.689776
                        0.607811        0.696124     -0.000197873    -0.000390727         0.287348        0.202828      0.000619351    -0.000171084
                     0.000146274     0.000230977         0.696982        0.689849      0.000928512     -9.4163e-05       -0.0388394        0.162457
281732                 -0.177539       -0.312296      6.46977e-05    -0.000635946         0.607578        0.695634      4.77374e-05     0.000139056
                     7.06418e-05    -0.000648964        -0.167479       0.0407707     -0.000347737     -0.00042636         0.697337        0.689476
                        0.608179        0.695704     -0.000197905    -0.000391358         0.287675        0.202644      0.000619509    -0.000171334
                     0.000145935     0.000231034         0.697282        0.689549      0.000929286    -9.44432e-05       -0.0387092        0.162477
281734                 -0.177711       -0.312392      6.40828e-05    -0.000636157         0.607948        0.695213      4.75524e-05      0.00013872
                     7.01484e-05    -0.000648659        -0.167463        0.040783     -0.000348247    -0.000426889         0.697637        0.689176
                        0.608547        0.695283     -0.000197864       -0.000392         0.288002         0.20246      0.000619668    -0.000171585
                     0.000145592      0.00023109         0.697582        0.689249      0.000930057    -9.47349e-05        -0.038579        0.162497
281736                 -0.177883       -0.312489      6.35858e-05    -0.000636194         0.608317        0.694791      4.73656e-05     0.000138384
                     6.96533e-05    -0.000648352        -0.167448       0.0407952     -0.000348765    -0.000427416         0.697937        0.688876
                        0.608914        0.694863      -0.00019771    -0.000392599          0.28833        0.202275      0.000619826    -0.000171836
                     0.000145246     0.000231144         0.697882        0.688949      0.000930822    -9.50396e-05       -0.0384489        0.162516
281738                 -0.178056       -0.312586      6.35226e-05    -0.000636137         0.608687        0.694369      4.71771e-05     0.000138048
                     6.91566e-05    -0.000648044        -0.167433       0.0408075     -0.000349291    -0.000427942         0.698236        0.688576
                        0.609281        0.694442     -0.000197458    -0.000393027         0.288658         0.20209      0.000619984    -0.000172089
                     0.000144897     0.000231197         0.698182        0.688649       0.00093158     -9.5359e-05       -0.0383187        0.162535
281740                 -0.178228       -0.312683      6.39222e-05    -0.000636711         0.609056        0.693946       4.6987e-05     0.000137712
                     6.86585e-05    -0.000647734        -0.167417       0.0408198     -0.000349827    -0.000428468         0.698536        0.688276
                        0.609648         0.69402     -0.000197307    -0.000393202         0.288986        0.201905      0.000620143    -0.000172341
                     0.000144544     0.000231248         0.698481        0.688348      0.000932327    -9.56953e-05       -0.0381885        0.162555
281742                 -0.178401        -0.31278      6.37338e-05     -0.00063792         0.609425        0.693523      4.67952e-05     0.000137374
                     6.81593e-05    -0.000647423        -0.167402        0.040832     -0.000350374    -0.000428995         0.698835        0.687975
                        0.610015        0.693598     -0.000197436    -0.000393323         0.289314        0.201718      0.000620301    -0.000172595
                     0.000144189     0.000231297         0.698781        0.688048      0.000933057    -9.60514e-05       -0.0380584        0.162574
281744                 -0.178575       -0.312877      6.30318e-05    -0.000638884         0.609794        0.693099      4.66019e-05     0.000137037
                     6.76592e-05     -0.00064711        -0.167387       0.0408443     -0.000350934    -0.000429525         0.699134        0.687675
                        0.610381        0.693175     -0.000197732    -0.000393596         0.289642        0.201531      0.000620459    -0.000172849
                     0.000143832     0.000231344          0.69908        0.687747      0.000933764    -9.64313e-05       -0.0379282        0.162593
281746                 -0.178748       -0.312974      6.22672e-05    -0.000639578         0.610162        0.692674      4.64071e-05     0.000136698
                     6.71583e-05    -0.000646796        -0.167371       0.0408566     -0.000351507    -0.000430059         0.699433        0.687374
                        0.610748        0.692752     -0.000198038    -0.000394017          0.28997        0.201344      0.000620617    -0.000173104
                     0.000143472      0.00023139          0.69938        0.687447      0.000934434    -9.68409e-05       -0.0377981        0.162612
281748                 -0.178922       -0.313071      6.15434e-05    -0.000640148          0.61053        0.692249      4.62109e-05     0.000136359
                     6.66568e-05     -0.00064648        -0.167356       0.0408688     -0.000352093    -0.000430601         0.699732        0.687073
                        0.611114        0.692329     -0.000198303    -0.000394515         0.290299        0.201156      0.000620775     -0.00017336
                      0.00014311     0.000231434         0.699679        0.687146      0.000935046    -9.72894e-05       -0.0376679        0.162631
281750                 -0.179096       -0.313169      6.08614e-05    -0.000640662         0.610897        0.691824      4.60132e-05      0.00013602
                     6.61548e-05    -0.000646163        -0.167341       0.0408811     -0.000352693    -0.000431152         0.700031        0.686772
                        0.611479        0.691905     -0.000198528    -0.000395049         0.290627        0.200967      0.000620933    -0.000173617
                     0.000142746     0.000231476         0.699978        0.686845       0.00093556    -9.77918e-05       -0.0375378         0.16265
281752                  -0.17927       -0.313266      6.02098e-05    -0.000641151         0.611263        0.691398      4.58143e-05      0.00013568
                     6.56526e-05    -0.000645844        -0.167325       0.0408934     -0.000353305    -0.000431716         0.700329        0.686471
                        0.611845        0.691481     -0.000198721    -0.000395597         0.290955        0.200778      0.000621092    -0.000173874
                     0.000142379     0.000231517         0.700277        0.686544       0.00093588    -9.83725e-05       -0.0374076        0.162669
281754                 -0.179444       -0.313364      5.95796e-05    -0.000641628         0.611628        0.690973      4.56141e-05     0.000135339
                     6.51503e-05    -0.000645524         -0.16731       0.0409057     -0.000353925    -0.000432294         0.700628         0.68617
                        0.612211        0.691056     -0.000198893    -0.000396151         0.291283        0.200588       0.00062125    -0.000174133
                     0.000142011     0.000231555         0.700575        0.686243      0.000935749    -9.90607e-05       -0.0372775        0.162687
281756                 -0.179619       -0.313461      5.89647e-05    -0.000642098         0.611994        0.690549      4.54128e-05     0.000134997
                      6.4648e-05    -0.000645202        -0.167295        0.040918     -0.000354552    -0.000432888         0.700926        0.685869
                        0.612576        0.690631     -0.000199049    -0.000396708         0.291611        0.200399      0.000621408    -0.000174392
                     0.000141642     0.000231592         0.700874        0.685941      0.000934177    -9.96733e-05       -0.0371474        0.162706
281758                 -0.179794       -0.313559      5.83609e-05    -0.000642566         0.612361        0.690125      4.52103e-05     0.000134654
                     6.41459e-05     -0.00064488        -0.167279       0.0409303     -0.000355181    -0.000433496         0.701224        0.685567
                        0.612941        0.690205     -0.000199194    -0.000397266         0.291939        0.200209      0.000621566    -0.000174652
                      0.00014127     0.000231627         0.701172         0.68564      0.000928323    -9.33976e-05       -0.0370172        0.162724
281760                 -0.179969       -0.313657      5.77658e-05    -0.000643034         0.612729          0.6897      4.50069e-05     0.000134311
                      6.3644e-05    -0.000644556        -0.167264       0.0409425     -0.000355808    -0.000434117         0.701522        0.685266
                        0.613306        0.689779      -0.00019933    -0.000397825         0.292267        0.200019      0.000621725    -0.000174913
                     0.000140897      0.00023166         0.701471        0.685338      0.000942833    -9.07095e-05       -0.0368871        0.162743
281762                 -0.180145       -0.313755      5.71776e-05    -0.000643502         0.613097        0.689273      4.48025e-05     0.000133966
                     6.31426e-05    -0.000644232        -0.167249       0.0409548     -0.000356432    -0.000434747          0.70182        0.684964
                         0.61367        0.689352     -0.000199459    -0.000398385         0.292596        0.199829      0.000621883    -0.000175175
