! TOUCHSTONE file generated by CST MICROWAVE STUDIO
! Date and time: Tue Oct 14 07:32:37 2025
! Project name: Teste_Macro_Metasurface_Nanopilar.cst
! Parameters = {H=600; L_x=195; L_y=70; Lambda=1064; Max_L=200; Min_L=70; PathPara=1; Phi=0; Step_L=10; Theta=0; p=520; phaseX=180; phaseY=0}
! Header version: 2018
! Port assignment regex: !\s*Touchstone port\s*([0-9]+)\s*=\s*(CST MWS port|CST DS port)\s*([0-9]+|Zmin|Zmax)\s*\(\"(.*)\"\)(\s*mode\s*([0-9]+))?.*
! Touchstone port assignment:
! Touchstone port 1 = CST MWS port Zmax ("") mode 1
! Touchstone port 2 = CST MWS port Zmax ("") mode 2
! Touchstone port 3 = CST MWS port Zmin ("") mode 1
! Touchstone port 4 = CST MWS port Zmin ("") mode 2
! S-Parameters are not renormalized. Each port impedance will be approximated by the real part at minimum frequency. The values are described via the [Reference] keyword.
! Default impedance is overridden by [Reference]
[Version] 2.0
# GHz S RI R 376.73
[Number of Ports] 4
[Reference]
376.73 376.73 259.814 259.814 
[Number of Frequencies] 51
[Network Data]
281700               -0.00125183       0.0901806      0.000290261     0.000121336         0.978616       -0.180912     -0.000171307     0.000229475
                     0.000265879     1.00112e-05       -0.0207893       -0.248866     -4.23902e-05      0.00023995        0.0711725        0.958781
                        0.979055       -0.180763     -6.79358e-05     0.000389865        0.0333341       0.0840162     -0.000142751    -0.000152505
                    -0.000202976     0.000170841        0.0706927        0.958941     -0.000120611    -0.000137072        0.0188377        0.248401
281702               -0.00121736       0.0901768       0.00029048     0.000121286         0.978549       -0.181273     -0.000171267     0.000229712
                      0.00026583     9.91686e-06        -0.020883       -0.248904     -4.23322e-05     0.000240016        0.0716398        0.958734
                        0.978988       -0.181125     -6.78066e-05     0.000389937        0.0333625       0.0840005     -0.000142788    -0.000152187
                    -0.000202943     0.000170938        0.0711598        0.958895     -0.000120714    -0.000136972        0.0189937        0.248434
281704               -0.00118288       0.0901731        0.0002907     0.000121235         0.978483       -0.181635     -0.000164036     0.000116098
                      0.00026578      9.8226e-06       -0.0209767       -0.248941     -4.22765e-05     0.000240087          0.07211        0.958685
                        0.978922       -0.181486     -6.76773e-05     0.000390009        0.0333909       0.0839847     -0.000152438    -0.000261537
                     -0.00020291     0.000171035        0.0716269        0.958849     -0.000120817    -0.000136871        0.0191502        0.248467
281706               -0.00114841       0.0901693      0.000290919     0.000121184         0.978416       -0.181996     -0.000167712     0.000116277
                      0.00026573     9.72837e-06       -0.0210704       -0.248979     -4.22207e-05     0.000240159         0.072585         0.95863
                        0.978855       -0.181848      -6.7548e-05      0.00039008        0.0334193       0.0839689     -0.000154291    -0.000261793
                    -0.000202877     0.000171133        0.0720939        0.958803     -0.000120918    -0.000136768        0.0193074        0.248502
281708               -0.00111395       0.0901656      0.000291139     0.000121133         0.978349       -0.182357     -0.000168528     0.000116428
                     0.000265681     9.63419e-06       -0.0211642       -0.249016     -4.21647e-05     0.000240231        0.0730679        0.958564
                        0.978788       -0.182209     -6.74188e-05      0.00039015        0.0334477       0.0839532     -0.000154787    -0.000261733
                    -0.000202844      0.00017123        0.0725609        0.958756     -0.000121018    -0.000136663        0.0194658        0.248538
281710               -0.00107948       0.0901618      0.000291359     0.000121081         0.978282       -0.182719     -0.000168808     0.000116543
                     0.000265631     9.54005e-06        -0.021258       -0.249054     -4.21086e-05     0.000240304        0.0735635        0.958471
                        0.978721       -0.182571     -6.72897e-05      0.00039022        0.0334761       0.0839374     -0.000155026    -0.000261621
                    -0.000202811     0.000171327        0.0730279         0.95871     -0.000121117    -0.000136553         0.019628         0.24858
281712               -0.00104502        0.090158      0.000291578      0.00012103         0.978215        -0.18308      -0.00016892     0.000116644
                     0.000265582     9.44597e-06       -0.0213518       -0.249091     -4.20524e-05     0.000240376        0.0740572         0.95828
                        0.978654       -0.182932     -6.71607e-05     0.000390289        0.0335045       0.0839216     -0.000155184    -0.000261494
                    -0.000202778     0.000171425        0.0734948        0.958663     -0.000121218    -0.000136438        0.0198101        0.248642
281714               -0.00101056       0.0901542      0.000291798     0.000120978         0.978148       -0.183441     -0.000168964     0.000116738
                     0.000265532     9.35195e-06       -0.0214457       -0.249128      -4.1996e-05     0.000240449        0.0741672        0.957994
                        0.978587       -0.183294     -6.70317e-05     0.000390358        0.0335328       0.0839058      -0.00015531    -0.000261362
                    -0.000202746     0.000171522        0.0739617        0.958616     -0.000121325    -0.000136316        0.0200088        0.248382
281716              -0.000976101       0.0901504      0.000292018     0.000120926          0.97808       -0.183802     -0.000168977     0.000116828
                     0.000265483       9.258e-06       -0.0215396       -0.249165     -4.19396e-05     0.000240522        0.0744878        0.958359
                        0.978519       -0.183655     -6.69029e-05     0.000390425        0.0335612       0.0838899     -0.000155422    -0.000261227
                    -0.000202713      0.00017162        0.0744286        0.958568     -0.000121443    -0.000136194        0.0200656        0.248595
281718              -0.000941645       0.0901466      0.000292238     0.000120874         0.978014       -0.184164     -0.000168974     0.000116916
                     0.000265433     9.16412e-06       -0.0216335       -0.249203     -4.18831e-05     0.000240595        0.0750694         0.95841
                        0.978452       -0.184016     -6.67742e-05     0.000390492        0.0335894        0.083874     -0.000155525    -0.000261092
                     -0.00020268     0.000171718        0.0748955        0.958521      -0.00012157     -0.00013608        0.0202261         0.24865
281720              -0.000907191       0.0901427      0.000292458     0.000120821         0.977945       -0.184525     -0.000168962     0.000117003
                     0.000265383     9.07031e-06       -0.0217274        -0.24924     -4.18264e-05     0.000240668         0.075591         0.95838
                        0.978384       -0.184378     -6.66456e-05     0.000390558        0.0336178       0.0838583     -0.000155625    -0.000260956
                    -0.000202648     0.000171816        0.0753623        0.958473     -0.000121697    -0.000135977        0.0203847         0.24869
281722               -0.00087274       0.0901389      0.000292678     0.000120768         0.977878       -0.184886     -0.000168945     0.000117089
                     0.000265333     8.97649e-06       -0.0218214       -0.249277     -4.17697e-05     0.000240741        0.0760853        0.958336
                        0.978316       -0.184739     -6.65171e-05     0.000390624        0.0336462       0.0838424     -0.000155722     -0.00026082
                    -0.000202616     0.000171913        0.0758291        0.958425     -0.000121818    -0.000135879        0.0205424        0.248725
281724              -0.000838291        0.090135      0.000292898     0.000120716          0.97781       -0.185247     -0.000168925     0.000117174
                     0.000265281     8.88233e-06       -0.0219154       -0.249314      -4.1713e-05     0.000240814        0.0765672        0.958289
                        0.978248         -0.1851     -6.63888e-05     0.000390689        0.0336745       0.0838266     -0.000155818    -0.000260683
                    -0.000202583     0.000172011        0.0762959        0.958377     -0.000121934    -0.000135782        0.0206996        0.248759
281726              -0.000803844       0.0901311      0.000293119     0.000120663         0.977742       -0.185608     -0.000168902     0.000117259
                     0.000265228     8.78602e-06       -0.0220094       -0.249352     -4.16561e-05     0.000240887        0.0770428        0.958241
                         0.97818       -0.185462     -6.62605e-05     0.000390753        0.0337028       0.0838107     -0.000155912    -0.000260547
                    -0.000202551     0.000172109        0.0767627        0.958328     -0.000122048    -0.000135683        0.0208567        0.248792
281728              -0.000769402       0.0901272      0.000293339     0.000120609         0.977673       -0.185969     -0.000168879     0.000117344
                     0.000265178     8.68159e-06       -0.0221035       -0.249389     -4.15992e-05     0.000240959        0.0775149        0.958192
                        0.978112       -0.185823     -6.61324e-05     0.000390816        0.0337311       0.0837949     -0.000156006    -0.000260411
                    -0.000202518     0.000172207        0.0772294        0.958279      -0.00012216    -0.000135583        0.0210136        0.248825
281730                -0.0007349       0.0901233      0.000293559     0.000120556         0.977605       -0.186331     -0.000168854     0.000117428
                     0.000265141     8.58378e-06       -0.0221975       -0.249426     -4.15421e-05     0.000241032        0.0779848        0.958142
                        0.978043       -0.186184     -6.60044e-05     0.000390879        0.0337594        0.083779       -0.0001561    -0.000260274
                    -0.000202486     0.000172305        0.0776961         0.95823     -0.000122271    -0.000135482        0.0211705        0.248857
281732              -0.000700508       0.0901194       0.00029378     0.000120502         0.977537       -0.186692     -0.000168829     0.000117512
                     0.000265098     8.49564e-06       -0.0222917       -0.249463      -4.1485e-05     0.000241105        0.0784533        0.958093
                        0.977975       -0.186545     -6.58765e-05     0.000390941        0.0337877       0.0837631     -0.000156193    -0.000260138
                    -0.000202461     0.000172405        0.0781628        0.958181     -0.000122382     -0.00013538        0.0213274        0.248889
281734              -0.000666072       0.0901155         0.000294     0.000120448         0.977468       -0.187053     -0.000168803     0.000117596
                     0.000265049     8.40535e-06       -0.0223858         -0.2495     -4.14279e-05     0.000241178         0.078921        0.958043
                        0.977906       -0.186906     -6.57487e-05     0.000391002         0.033816       0.0837472     -0.000156286    -0.000260002
                    -0.000202421     0.000172502        0.0786294        0.958132     -0.000122493    -0.000135277        0.0214843         0.24892
281736              -0.000631637       0.0901115      0.000294221     0.000120394         0.977399       -0.187414     -0.000168778      0.00011768
                     0.000265001     8.31359e-06         -0.02248       -0.249537     -4.13706e-05     0.000241251        0.0793881        0.957992
                        0.977838       -0.187268     -6.56211e-05     0.000391062        0.0338443       0.0837313     -0.000156378    -0.000259865
                    -0.000202389     0.000172601        0.0790961        0.958082     -0.000122604    -0.000135173        0.0216412        0.248952
281738              -0.000597204       0.0901076      0.000294441      0.00012034         0.977331       -0.187775     -0.000168752     0.000117764
                     0.000264952     8.22119e-06       -0.0225742       -0.249574     -4.13132e-05     0.000241324        0.0798548        0.957942
                        0.977769       -0.187629     -6.54935e-05     0.000391122        0.0338725       0.0837154     -0.000156471    -0.000259729
                    -0.000202357     0.000172699        0.0795627        0.958032     -0.000122715    -0.000135069        0.0217982        0.248983
281740              -0.000562772       0.0901036      0.000294662     0.000120285         0.977262       -0.188136     -0.000168726     0.000117847
                     0.000264904     8.12852e-06       -0.0226684       -0.249611     -4.12558e-05     0.000241397        0.0803212        0.957891
                          0.9777        -0.18799     -6.53661e-05     0.000391181        0.0339008       0.0836994     -0.000156563    -0.000259593
                    -0.000202325     0.000172797        0.0800292        0.957982     -0.000122827    -0.000134964        0.0219552        0.249014
281742              -0.000528343       0.0900996      0.000294883     0.000120231         0.977193       -0.188496       -0.0001687     0.000117931
                     0.000264855     8.03573e-06       -0.0227626       -0.249648     -4.11983e-05     0.000241469        0.0807875         0.95784
                        0.977631       -0.188351     -6.52388e-05     0.000391239        0.0339291       0.0836835     -0.000156655    -0.000259457
                    -0.000202293     0.000172896        0.0804958        0.957932     -0.000122939    -0.000134859        0.0221122        0.249045
281744              -0.000493917       0.0900956      0.000295104     0.000120176         0.977123       -0.188857     -0.000168673     0.000118015
                     0.000264807     7.94291e-06       -0.0228569       -0.249685     -4.11407e-05     0.000241542        0.0812537        0.957789
                        0.977561       -0.188712     -6.51116e-05     0.000391297        0.0339573       0.0836676     -0.000156747     -0.00025932
                     -0.00020226     0.000172995        0.0809623        0.957881     -0.000123051    -0.000134753        0.0222693        0.249076
281746              -0.000459492       0.0900916      0.000295324     0.000120121         0.977054       -0.189218     -0.000168647     0.000118098
                     0.000264759     7.85011e-06       -0.0229512       -0.249721     -4.10831e-05     0.000241614        0.0817199        0.957738
                        0.977492       -0.189073     -6.49845e-05     0.000391353        0.0339855       0.0836516     -0.000156839    -0.000259184
                    -0.000202228     0.000173093        0.0814287         0.95783     -0.000123164    -0.000134648        0.0224265        0.249107
281748               -0.00042507       0.0900876      0.000295545     0.000120065         0.976984       -0.189579     -0.000168621     0.000118182
                     0.000264711     7.75737e-06       -0.0230456       -0.249758     -4.10256e-05     0.000241686         0.082186        0.957686
                        0.977422       -0.189434     -6.48575e-05     0.000391409        0.0340138       0.0836356     -0.000156931    -0.000259048
                    -0.000202196     0.000173192        0.0818952        0.957779     -0.000123277    -0.000134543        0.0225837        0.249138
281750               -0.00039065       0.0900835      0.000295766      0.00012001         0.976915        -0.18994     -0.000168595     0.000118265
                     0.000264663      7.6647e-06         -0.02314       -0.249795     -4.09683e-05     0.000241758        0.0826522        0.957634
                        0.977353       -0.189795     -6.47307e-05     0.000391465         0.034042       0.0836197     -0.000157022    -0.000258912
                    -0.000202164     0.000173291        0.0823616        0.957728      -0.00012339    -0.000134437        0.0227409        0.249169
281752              -0.000356232       0.0900795      0.000295987     0.000119954         0.976845       -0.190301     -0.000168568     0.000118348
                     0.000264615     7.57211e-06       -0.0232344       -0.249832     -4.09119e-05     0.000241829        0.0831183        0.957582
                        0.977283       -0.190156      -6.4604e-05     0.000391519        0.0340702       0.0836037     -0.000157113    -0.000258775
                    -0.000202132      0.00017339         0.082828        0.957676     -0.000123504    -0.000134331        0.0228982        0.249199
281754              -0.000321817       0.0900754      0.000296209     0.000119898         0.976775       -0.190662     -0.000168542     0.000118432
                     0.000264568     7.47962e-06       -0.0233288       -0.249869      -4.0858e-05       0.0002419        0.0835845        0.957529
                        0.977213       -0.190517     -6.44773e-05     0.000391573        0.0340984       0.0835877     -0.000157205    -0.000258639
                    -0.000202099     0.000173489        0.0832944        0.957625     -0.000123617    -0.000134226        0.0230556         0.24923
281756              -0.000287404       0.0900713       0.00029643     0.000119842         0.976705       -0.191022     -0.000168515     0.000118515
                      0.00026452     7.38724e-06       -0.0234232       -0.249905     -4.08069e-05     0.000241975        0.0840507        0.957477
                        0.977143       -0.190878     -6.43508e-05     0.000391626        0.0341266       0.0835717     -0.000157296    -0.000258503
                    -0.000202067     0.000173588        0.0837607        0.957573     -0.000123732     -0.00013412         0.023213         0.24926
281758              -0.000252994       0.0900673      0.000296651     0.000119785         0.976635       -0.191383     -0.000168489     0.000118598
                     0.000264473     7.29498e-06       -0.0235177       -0.249942     -4.07508e-05     0.000242055        0.0845169        0.957424
                        0.977073       -0.191239     -6.42245e-05     0.000391678        0.0341548       0.0835557     -0.000157387    -0.000258367
                    -0.000202035     0.000173687         0.084227         0.95752     -0.000123846    -0.000134015        0.0233704        0.249291
281760              -0.000218585       0.0900632      0.000296872     0.000119729         0.976565       -0.191744     -0.000168463     0.000118682
                     0.000264425     7.20284e-06       -0.0236122       -0.249979       -4.069e-05     0.000242132        0.0849832        0.957371
                        0.977002       -0.191599     -6.40982e-05      0.00039173         0.034183       0.0835397     -0.000157478     -0.00025823
                    -0.000202003     0.000173786        0.0846933        0.957468      -0.00012396    -0.000133909         0.023528        0.249321
281762              -0.000184179        0.090059      0.000297093     0.000119672         0.976494       -0.192104     -0.000168436     0.000118765
                     0.000264378     7.11083e-06       -0.0237068       -0.250015     -4.06292e-05     0.000242207        0.0854494        0.957317
                        0.976932        -0.19196     -6.39721e-05     0.000391781        0.0342112       0.0835237     -0.000157568    -0.000258094
