! TOUCHSTONE file generated by CST MICROWAVE STUDIO
! Date and time: Tue Oct 14 07:30:54 2025
! Project name: Teste_Macro_Metasurface_Nanopilar.cst
! Parameters = {H=600; L_x=165; L_y=140; Lambda=1064; Max_L=200; Min_L=70; PathPara=1; Phi=0; Step_L=10; Theta=0; p=520; phaseX=180; phaseY=0}
! Header version: 2018
! Port assignment regex: !\s*Touchstone port\s*([0-9]+)\s*=\s*(CST MWS port|CST DS port)\s*([0-9]+|Zmin|Zmax)\s*\(\"(.*)\"\)(\s*mode\s*([0-9]+))?.*
! Touchstone port assignment:
! Touchstone port 1 = CST MWS port Zmax ("") mode 1
! Touchstone port 2 = CST MWS port Zmax ("") mode 2
! Touchstone port 3 = CST MWS port Zmin ("") mode 1
! Touchstone port 4 = CST MWS port Zmin ("") mode 2
! S-Parameters are not renormalized. Each port impedance will be approximated by the real part at minimum frequency. The values are described via the [Reference] keyword.
! Default impedance is overridden by [Reference]
[Version] 2.0
# GHz S RI R 376.73
[Number of Ports] 4
[Reference]
376.73 376.73 259.814 259.814 
[Number of Frequencies] 51
[Network Data]
281700                 -0.377658       -0.480345      8.16417e-05    -0.000211058          0.66731        0.361338     -0.000132724     0.000139375
                     2.33528e-06    -0.000260547         -0.18578       0.0734705      -0.00013184    -1.93559e-05         0.576454        0.785502
                         0.66731        0.361714      3.50776e-05      1.3438e-06         0.593898       -0.015823      6.51528e-05     6.43632e-05
                    -3.58582e-05    -5.98881e-05         0.576077        0.785873      0.000275412    -0.000118058        -0.124267        0.147734
281702                 -0.378339       -0.480455      8.18386e-05    -0.000212355         0.667282        0.360432     -0.000133081     0.000140362
                     2.09914e-06    -0.000260524        -0.185745       0.0734744     -0.000131255    -1.52969e-05         0.576814        0.785246
                         0.66727        0.360793      3.59458e-05     1.11484e-06         0.594354      -0.0167548      6.42464e-05     6.45656e-05
                    -3.59994e-05    -6.00498e-05         0.576438        0.785617      0.000274679    -0.000111373        -0.124124        0.147816
281704                 -0.379021       -0.480564      8.19924e-05    -0.000213639          0.66725        0.359524     -0.000133367      0.00014133
                     1.86432e-06      -0.0002605        -0.185711       0.0734782     -0.000130223      -1.132e-05         0.577175         0.78499
                        0.667228        0.359871      3.68511e-05     8.39937e-07          0.59481      -0.0176899      6.34099e-05     6.47984e-05
                     -3.6144e-05    -6.02197e-05         0.576799        0.785361      0.000269081    -0.000105536        -0.123981        0.147898
281706                 -0.379705       -0.480673      8.20991e-05    -0.000214908         0.667215        0.358613     -0.000133584     0.000142274
                     1.63098e-06    -0.000260474        -0.185676       0.0734821     -0.000128739    -7.50906e-06         0.577536        0.784734
                        0.667185        0.358948      3.77939e-05     5.09304e-07         0.595264      -0.0186283      6.26426e-05     6.50577e-05
                    -3.62918e-05    -6.03999e-05         0.577161        0.785105      0.000261176    -0.000104734        -0.123838         0.14798
281708                  -0.38039       -0.480782      8.21544e-05    -0.000216157         0.667176          0.3577     -0.000133734     0.000143188
                     1.39938e-06    -0.000260446        -0.185641        0.073486     -0.000126818    -3.95445e-06         0.577896        0.784478
                         0.66714        0.358024      3.87739e-05     1.10655e-07         0.595718        -0.01957      6.19439e-05     6.53396e-05
                    -3.64419e-05    -6.05936e-05         0.577522        0.784849      0.000255587    -0.000107966        -0.123695        0.148061
281710                 -0.381076        -0.48089      8.21535e-05    -0.000217382         0.667135        0.356786     -0.000133821     0.000144065
                     1.16977e-06    -0.000260417        -0.185607       0.0734898     -0.000124498    -7.47706e-07         0.578256        0.784222
                        0.667093        0.357099       3.9789e-05    -3.71505e-07         0.596171       -0.020515      6.13129e-05     6.56405e-05
                    -3.65921e-05    -6.08049e-05         0.577882        0.784593       0.00025302    -0.000111982        -0.123552        0.148143
281712                 -0.381764       -0.480997      8.20912e-05    -0.000218576          0.66709        0.355869     -0.000133848     0.000144903
                     9.42506e-07    -0.000260386        -0.185572       0.0734937     -0.000121841     2.02531e-06         0.578617        0.783966
                        0.667044        0.356173      4.08344e-05    -9.56782e-07         0.596623      -0.0214632      6.07486e-05     6.59568e-05
                    -3.67382e-05    -6.10387e-05         0.578243        0.784336      0.000252242    -0.000115368        -0.123409        0.148225
281714                 -0.382454       -0.481104      8.19618e-05    -0.000219732         0.667043        0.354951     -0.000133821     0.000145695
                     7.17981e-07    -0.000260352        -0.185538       0.0734976     -0.000118934     4.29221e-06         0.578977        0.783709
                        0.666994        0.355247      4.19007e-05    -1.66997e-06         0.597074      -0.0224147        6.025e-05      6.6285e-05
                    -3.68725e-05    -6.13004e-05         0.578604         0.78408      0.000252294    -0.000117967        -0.123266        0.148306
281716                 -0.383144        -0.48121      8.17595e-05    -0.000220841         0.666992         0.35403     -0.000133742     0.000146439
                       4.967e-07    -0.000260317        -0.185503       0.0735015      -0.00011588     6.00171e-06         0.579337        0.783452
                        0.666941        0.354319      4.29707e-05    -2.54214e-06         0.597525      -0.0233694      5.98158e-05     6.66218e-05
                     -3.6981e-05    -6.15938e-05         0.578964        0.783823      0.000252695    -0.000119946        -0.123122        0.148387
281718                 -0.383837       -0.481315      8.14779e-05    -0.000221893         0.666939        0.353108     -0.000133617     0.000147131
                     2.79279e-07     -0.00026028        -0.185469       0.0735054     -0.000112798     7.12961e-06         0.579697        0.783196
                        0.666887         0.35339      4.40148e-05    -3.61148e-06         0.597974      -0.0243273       5.9445e-05     6.69641e-05
                    -3.70429e-05     -6.1916e-05         0.579325        0.783566      0.000253232    -0.000121484        -0.122979        0.148468
281720                 -0.384531        -0.48142      8.11108e-05    -0.000222874         0.666882        0.352184     -0.000133452     0.000147769
                     6.64845e-08     -0.00026024        -0.185434       0.0735093     -0.000109808     7.68214e-06         0.580057        0.782939
                        0.666831         0.35246      4.49828e-05    -4.92253e-06         0.598423      -0.0252884       5.9136e-05     6.73088e-05
                    -3.70326e-05    -6.22486e-05         0.579685        0.783309      0.000253813    -0.000122712        -0.122836        0.148549
281722                 -0.385226       -0.481524      8.06522e-05    -0.000223766         0.666823        0.351258      -0.00013325     0.000148353
                    -1.40725e-07    -0.000260198          -0.1854       0.0735132     -0.000107027      7.6957e-06         0.580416        0.782682
                        0.666774        0.351529      4.57912e-05    -6.52161e-06         0.598871      -0.0262526      5.88874e-05     6.76529e-05
                    -3.69351e-05    -6.25497e-05         0.580045        0.783052        0.0002544    -0.000123722        -0.122693         0.14863
281724                 -0.385923       -0.481628      8.00972e-05    -0.000224548         0.666761        0.350331     -0.000133016     0.000148879
                    -3.41145e-07    -0.000260154        -0.185365       0.0735172     -0.000104554     7.23312e-06         0.580776        0.782425
                        0.666714        0.350598      4.63068e-05    -8.44246e-06         0.599318        -0.02722      5.86978e-05     6.79938e-05
                    -3.67696e-05    -6.27646e-05         0.580405        0.782794      0.000254978    -0.000124575         -0.12255        0.148711
281726                 -0.386621        -0.48173      7.94433e-05    -0.000225192         0.666697        0.349402     -0.000132755     0.000149348
                    -5.33261e-07    -0.000260108        -0.185331       0.0735211     -0.000102468       6.377e-06         0.581135        0.782167
                        0.666653        0.349665      4.63277e-05    -1.06717e-05         0.599764      -0.0281904      5.85656e-05     6.83289e-05
                    -3.65958e-05    -6.28623e-05         0.580764        0.782537      0.000255544    -0.000125313        -0.122406        0.148792
281728                 -0.387321       -0.481832      7.86927e-05    -0.000225663         0.666629        0.348471     -0.000132471      0.00014976
                    -7.15163e-07     -0.00026006        -0.185297        0.073525     -0.000100823     5.22144e-06         0.581495         0.78191
                         0.66659        0.348731      4.55846e-05    -1.30803e-05          0.60021       -0.029164      5.84892e-05     6.86558e-05
                    -3.64788e-05    -6.28631e-05         0.581124        0.782279      0.000256098    -0.000125965        -0.122263        0.148873
281730                 -0.388022       -0.481934      7.78557e-05    -0.000225918         0.666559        0.347538     -0.000132168     0.000150115
                    -8.84464e-07    -0.000260013        -0.185262        0.073529     -9.96469e-05     3.86362e-06         0.581854        0.781652
                        0.666524        0.347797      4.38082e-05    -1.53221e-05         0.600655      -0.0301406      5.84669e-05     6.89722e-05
                    -3.64475e-05    -6.28195e-05         0.581483        0.782021      0.000256645    -0.000126552         -0.12212        0.148953
281732                 -0.388724       -0.482034      7.69569e-05    -0.000225904         0.666487        0.346604      -0.00013185     0.000150414
                    -1.03822e-06    -0.000259966        -0.185228        0.073533     -9.89426e-05     2.39626e-06         0.582213        0.781394
                        0.666457        0.346861      4.09317e-05    -1.67772e-05         0.601098      -0.0311202      5.84971e-05     6.92762e-05
                    -3.64931e-05     -6.2777e-05         0.581843        0.781763      0.000257187     -0.00012709        -0.121976        0.149033
281734                 -0.389429       -0.482134      7.60436e-05     -0.00022556         0.666412        0.345669     -0.000131519     0.000150657
                    -1.17293e-06    -0.000259925        -0.185194       0.0735369      -9.8695e-05     9.01993e-07         0.582572        0.781136
                        0.666388        0.345924      3.73827e-05     -1.6732e-05         0.601541      -0.0321028      5.85783e-05     6.95659e-05
                    -3.65918e-05    -6.27587e-05         0.582202        0.781504      0.000257731    -0.000127589        -0.121833        0.149114
281736                 -0.390134       -0.482233      7.51981e-05    -0.000224827         0.666334        0.344732     -0.000131178     0.000150847
                    -1.28469e-06    -0.000259892         -0.18516       0.0735409      -9.8874e-05    -5.50395e-07          0.58293        0.780878
                        0.666317        0.344987      3.41177e-05    -1.48826e-05         0.601984      -0.0330884      5.87088e-05     6.98397e-05
                    -3.67219e-05    -6.27706e-05         0.582561        0.781246      0.000258281    -0.000128057        -0.121689        0.149194
281738                 -0.390842       -0.482331      7.45499e-05    -0.000223661         0.666254        0.343793      -0.00013083     0.000150983
                    -1.36987e-06    -0.000259878        -0.185126       0.0735449     -9.94403e-05    -1.90767e-06         0.583289         0.78062
                        0.666244        0.344048      3.20929e-05    -1.16996e-05         0.602425       -0.034077      5.88873e-05     7.00963e-05
                    -3.68685e-05    -6.28105e-05         0.582919        0.780987      0.000258843      -0.0001285        -0.121546        0.149274
281740                  -0.39155       -0.482429      7.42812e-05    -0.000222071         0.666172        0.342854     -0.000130476     0.000151067
                     -1.4266e-06    -0.000259893        -0.185091       0.0735489      -0.00010035    -3.13245e-06         0.583648        0.780362
                        0.666169        0.343108      3.16502e-05    -8.10834e-06         0.602866      -0.0350685      5.91125e-05     7.03347e-05
                    -3.70228e-05    -6.28736e-05         0.583278        0.780729      0.000259421    -0.000128923        -0.121403        0.149354
281742                  -0.39226       -0.482525      7.46073e-05    -0.000220165         0.666087        0.341913     -0.000130116     0.000151102
                    -1.45794e-06    -0.000259956        -0.185057       0.0735529     -0.000101559    -4.20247e-06         0.584006        0.780103
                        0.666092        0.342168      3.25097e-05    -4.86514e-06         0.603305      -0.0360628      5.93834e-05      7.0554e-05
                    -3.71797e-05    -6.29552e-05         0.583637         0.78047      0.000260024    -0.000129328        -0.121259        0.149434
281744                 -0.392972       -0.482621      7.57117e-05    -0.000218192            0.666         0.34097     -0.000129752     0.000151086
                    -1.47709e-06    -0.000260086        -0.185023       0.0735569     -0.000103023    -5.10931e-06         0.584364        0.779845
                        0.666013        0.341226      3.41735e-05    -2.30542e-06         0.603744        -0.03706      5.96991e-05     7.07537e-05
                    -3.73367e-05    -6.30514e-05         0.583995        0.780211      0.000260657    -0.000129718        -0.121116        0.149513
281746                 -0.393685       -0.482716      7.76346e-05    -0.000216529         0.665911        0.340027     -0.000129382     0.000151023
                    -1.51319e-06    -0.000260302        -0.184989       0.0735609     -0.000104705    -5.85711e-06         0.584722        0.779586
                        0.665931        0.340283      3.62211e-05     -4.5812e-07         0.604182        -0.03806      6.00596e-05     7.09337e-05
                    -3.74925e-05    -6.31591e-05         0.584353        0.779952      0.000261329    -0.000130093        -0.120972        0.149593
281748                 -0.394399        -0.48281      8.01799e-05    -0.000215568         0.665819        0.339082     -0.000129006     0.000150911
                     -1.6116e-06    -0.000260604        -0.184955       0.0735649     -0.000106571    -6.46143e-06          0.58508        0.779327
                        0.665848         0.33934      3.83827e-05     7.76986e-07         0.604619      -0.0390628      6.04651e-05     7.10942e-05
                    -3.76466e-05     -6.3276e-05         0.584711        0.779692      0.000262049    -0.000130453        -0.120829        0.149672
281750                 -0.395115       -0.482903      8.29395e-05    -0.000215539         0.665726        0.338136      -0.00012862     0.000150752
                    -1.81928e-06    -0.000260961        -0.184921       0.0735689     -0.000108592    -6.94867e-06         0.585438        0.779068
                        0.665763        0.338395      4.05074e-05     1.52386e-06         0.605056      -0.0400683      6.09167e-05      7.1236e-05
                     -3.7799e-05    -6.34005e-05         0.585069        0.779433      0.000262828    -0.000130795        -0.120685        0.149751
281752                 -0.395833       -0.482994      8.54568e-05    -0.000216402         0.665629        0.337189     -0.000128222     0.000150543
                     -2.1567e-06    -0.000261312        -0.184887       0.0735729     -0.000110746    -7.35615e-06         0.585795        0.778808
                        0.665675        0.337449      4.25161e-05     1.88966e-06         0.605491      -0.0410765      6.14169e-05     7.13602e-05
                    -3.79495e-05    -6.35312e-05         0.585427        0.779173      0.000263679    -0.000131115        -0.120542        0.149831
281754                 -0.396551       -0.483084       8.7405e-05    -0.000217902         0.665531        0.336241     -0.000127806     0.000150283
                    -2.60061e-06    -0.000261594        -0.184853        0.073577     -0.000113011    -7.73297e-06         0.586152        0.778549
                        0.665585        0.336502      4.43675e-05     1.95641e-06         0.605926      -0.0420875      6.19696e-05     7.14686e-05
                    -3.80984e-05    -6.36674e-05         0.585785        0.778913      0.000264619    -0.000131405        -0.120398         0.14991
281756                 -0.397272       -0.483173      8.86563e-05    -0.000219717         0.665431        0.335291     -0.000127363     0.000149967
                    -3.09875e-06    -0.000261776        -0.184819        0.073581     -0.000115368    -8.14184e-06          0.58651        0.778289
                        0.665493        0.335554      4.60375e-05     1.78427e-06          0.60636       -0.043101      6.25813e-05     7.15638e-05
                    -3.82459e-05    -6.38084e-05         0.586142        0.778653      0.000265668    -0.000131653        -0.120254        0.149989
281758                 -0.397995        -0.48326      8.92385e-05    -0.000221569         0.665328        0.334341     -0.000126884      0.00014959
                    -3.60045e-06    -0.000261862        -0.184785        0.073585     -0.000117795    -8.66173e-06         0.586867         0.77803
                        0.665398        0.334605      4.75085e-05     1.41738e-06         0.606793      -0.0441171      6.32619e-05      7.1649e-05
                     -3.8392e-05    -6.39539e-05           0.5865        0.778393      0.000266847    -0.000131842        -0.120111        0.150067
281760                 -0.398721       -0.483346      8.92567e-05    -0.000223276         0.665224         0.33339     -0.000126352     0.000149139
                    -4.07432e-06    -0.000261877        -0.184751       0.0735891     -0.000120255    -9.39095e-06         0.587223         0.77777
                        0.665301        0.333654      4.87644e-05     8.89311e-07         0.607225      -0.0451358      6.40271e-05     7.17287e-05
                     -3.8537e-05    -6.41037e-05         0.586857        0.778133      0.000268187    -0.000131943        -0.119967        0.150146
281762                  -0.39945       -0.483432      8.88325e-05    -0.000224735         0.665117        0.332437     -0.000125746     0.000148596
                    -4.50803e-06    -0.000261847        -0.184717       0.0735932     -0.000122689    -1.04492e-05          0.58758         0.77751
                        0.665201        0.332703      4.97884e-05     2.27425e-07         0.607656       -0.046157      6.49013e-05     7.18081e-05
