! TOUCHSTONE file generated by CST MICROWAVE STUDIO
! Date and time: Tue Oct 14 07:30:22 2025
! Project name: Teste_Macro_Metasurface_Nanopilar.cst
! Parameters = {H=600; L_x=155; L_y=180; Lambda=1064; Max_L=200; Min_L=70; PathPara=1; Phi=0; Step_L=10; Theta=0; p=520; phaseX=180; phaseY=0}
! Header version: 2018
! Port assignment regex: !\s*Touchstone port\s*([0-9]+)\s*=\s*(CST MWS port|CST DS port)\s*([0-9]+|Zmin|Zmax)\s*\(\"(.*)\"\)(\s*mode\s*([0-9]+))?.*
! Touchstone port assignment:
! Touchstone port 1 = CST MWS port Zmax ("") mode 1
! Touchstone port 2 = CST MWS port Zmax ("") mode 2
! Touchstone port 3 = CST MWS port Zmin ("") mode 1
! Touchstone port 4 = CST MWS port Zmin ("") mode 2
! S-Parameters are not renormalized. Each port impedance will be approximated by the real part at minimum frequency. The values are described via the [Reference] keyword.
! Default impedance is overridden by [Reference]
[Version] 2.0
# GHz S RI R 376.73
[Number of Ports] 4
[Reference]
376.73 376.73 259.814 259.814 
[Number of Frequencies] 51
[Network Data]
281700                 -0.197753      -0.0651029      0.000331766    -0.000161114         0.882186        0.414169      0.000519239    -0.000563014
                     0.000341801    -0.000155215        -0.175157      -0.0307394      0.000399631    -0.000801946         0.743753         0.63833
                        0.881997        0.414196      0.000346124    -0.000582439         0.175063        0.107916      0.000282106    -0.000579831
                     0.000520009    -0.000440512         0.744011        0.638735       0.00033963    -0.000672414        0.0564023        0.165545
281702                 -0.197781      -0.0650623      0.000331595    -0.000161558         0.882353        0.413805      0.000519363    -0.000563386
                     0.000341161    -0.000155125        -0.175166      -0.0307059      0.000399241    -0.000801892          0.74402        0.638022
                        0.882166        0.413832      0.000345993    -0.000583052         0.175138        0.107819       0.00028216    -0.000579783
                     0.000518331     -0.00044077         0.744276        0.638424      0.000339367    -0.000672322        0.0565094        0.165513
281704                 -0.197809      -0.0650217      0.000331423    -0.000161997          0.88252         0.41344      0.000519485    -0.000563759
                     0.000340546    -0.000155083        -0.175176      -0.0306724      0.000398847    -0.000801838         0.744287        0.637714
                        0.882335        0.413468      0.000345859    -0.000583661         0.175214        0.107721      0.000282213    -0.000579739
                     0.000516768    -0.000441097         0.744541        0.638114      0.000339105    -0.000672233        0.0566164        0.165481
281706                 -0.197837       -0.064981       0.00033125    -0.000162431         0.882686        0.413076      0.000519605    -0.000564132
                     0.000339958    -0.000155091        -0.175185      -0.0306389      0.000398448    -0.000801784         0.744553        0.637406
                        0.882504        0.413104       0.00034572    -0.000584266         0.175289        0.107624      0.000282265    -0.000579699
                     0.000515327    -0.000441497         0.744806        0.637803      0.000338847    -0.000672145        0.0567234        0.165449
281708                 -0.197865      -0.0649404      0.000331077    -0.000162861         0.882853        0.412711      0.000519724    -0.000564506
                       0.0003394    -0.000155152        -0.175195      -0.0306054      0.000398043     -0.00080173         0.744819        0.637097
                        0.882672         0.41274      0.000345578    -0.000584868         0.175364        0.107527      0.000282315    -0.000579662
                     0.000514016    -0.000441974         0.745071        0.637492      0.000338591    -0.000672059        0.0568304        0.165417
281710                 -0.197893      -0.0648997      0.000330902    -0.000163287          0.88302        0.412347       0.00051984     -0.00056488
                     0.000338875    -0.000155271        -0.175205      -0.0305718      0.000397629    -0.000801676         0.745085        0.636789
                         0.88284        0.412376      0.000345433    -0.000585467          0.17544         0.10743      0.000282363    -0.000579628
                     0.000512843    -0.000442534         0.745336        0.637181      0.000338339    -0.000671977        0.0569374        0.165385
281712                 -0.197921      -0.0648589      0.000330726    -0.000163708         0.883186        0.411983      0.000519956    -0.000565254
                     0.000338385     -0.00015545        -0.175214      -0.0305383      0.000397206    -0.000801621         0.745351         0.63648
                        0.883008        0.412012      0.000345284    -0.000586062         0.175515        0.107333       0.00028241    -0.000579597
                     0.000511818    -0.000443179           0.7456         0.63687      0.000338091    -0.000671898        0.0570443        0.165353
281714                 -0.197949      -0.0648182       0.00033055    -0.000164125         0.883353        0.411619       0.00052007    -0.000565629
                     0.000337935    -0.000155693        -0.175224      -0.0305048      0.000396771    -0.000801564         0.745617        0.636172
                        0.883176        0.411648      0.000345132    -0.000586654          0.17559        0.107236      0.000282455    -0.000579569
                      0.00051095    -0.000443916         0.745865        0.636559      0.000337849    -0.000671825        0.0571512        0.165321
281716                 -0.197977      -0.0647774      0.000330373    -0.000164538         0.883519        0.411254      0.000520182    -0.000566005
                     0.000337527    -0.000156005        -0.175234      -0.0304712      0.000396321    -0.000801502         0.745882        0.635863
                        0.883343        0.411284      0.000344977    -0.000587242         0.175666        0.107139      0.000282499    -0.000579545
                     0.000510251    -0.000444749         0.746129        0.636247      0.000337614     -0.00067176        0.0572581        0.165289
281718                 -0.198005      -0.0647366      0.000330195    -0.000164947         0.883686         0.41089      0.000520293    -0.000566381
                     0.000337168     -0.00015639        -0.175243      -0.0304377      0.000395852    -0.000801431         0.746148        0.635554
                         0.88351         0.41092      0.000344819    -0.000587828         0.175741        0.107042      0.000282542    -0.000579523
                     0.000509731    -0.000445682         0.746393        0.635936      0.000337387    -0.000671706        0.0573649        0.165256
281720                 -0.198032      -0.0646957      0.000330017    -0.000165352         0.883852        0.410526      0.000520403    -0.000566758
                     0.000336861    -0.000156851        -0.175253      -0.0304041       0.00039536    -0.000801345         0.746413        0.635245
                        0.883677        0.410556      0.000344657    -0.000588409         0.175817        0.106945      0.000282583    -0.000579504
                     0.000509404    -0.000446719         0.746657        0.635624      0.000337172    -0.000671669        0.0574717        0.165224
281722                  -0.19806      -0.0646548      0.000329838    -0.000165754         0.884018        0.410162      0.000520511    -0.000567135
                     0.000336611    -0.000157393        -0.175262      -0.0303705      0.000394841    -0.000801235         0.746678        0.634936
                        0.883843        0.410192      0.000344493    -0.000588988         0.175892        0.106848      0.000282622    -0.000579487
                     0.000509282    -0.000447863         0.746921        0.635313       0.00033697    -0.000671658        0.0575785        0.165191
281724                 -0.198088      -0.0646139      0.000329658    -0.000166151         0.884184        0.409798      0.000520618    -0.000567514
                     0.000336425    -0.000158019        -0.175272      -0.0303369      0.000394293    -0.000801083         0.746943        0.634627
                        0.884009        0.409827      0.000344326    -0.000589564         0.175967        0.106751       0.00028266    -0.000579474
                     0.000509375    -0.000449115         0.747185        0.635001      0.000336786     -0.00067169        0.0576853        0.165159
281726                 -0.198115       -0.064573      0.000329478    -0.000166545          0.88435        0.409433      0.000520724    -0.000567893
                     0.000336306    -0.000158732        -0.175282      -0.0303033      0.000393721    -0.000800864         0.747208        0.634317
                        0.884175        0.409463      0.000344156    -0.000590136         0.176042        0.106654      0.000282696    -0.000579463
                     0.000509695    -0.000450475         0.747448        0.634689      0.000336616      -0.0006718         0.057792        0.165126
281728                 -0.198143       -0.064532      0.000329297    -0.000166935         0.884516        0.409069      0.000520829    -0.000568272
                      0.00033626    -0.000159532        -0.175291      -0.0302697      0.000393149    -0.000800545         0.747473        0.634008
                        0.884341        0.409099      0.000343983    -0.000590705         0.176118        0.106556      0.000282731    -0.000579454
                     0.000510248     -0.00045194         0.747712        0.634377      0.000336438    -0.000672057        0.0578987        0.165094
281730                 -0.198171       -0.064491      0.000329115    -0.000167322         0.884681        0.408705      0.000520933    -0.000568653
                      0.00033629    -0.000160417        -0.175301      -0.0302361      0.000392634    -0.000800101         0.747738        0.633698
                        0.884507        0.408735      0.000343807    -0.000591271         0.176193        0.106459      0.000282765    -0.000579448
                     0.000511036    -0.000453503         0.747975        0.634065      0.000336123    -0.000672588        0.0580054        0.165061
281732                 -0.198198        -0.06445      0.000328934    -0.000167705         0.884847        0.408341      0.000521035    -0.000569034
                     0.000336397    -0.000161382         -0.17531      -0.0302025      0.000392266     -0.00079955         0.748002        0.633389
                        0.884672        0.408371      0.000343629    -0.000591834         0.176268        0.106362      0.000282796    -0.000579444
                     0.000512051     -0.00045515         0.748238        0.633753      0.000335166    -0.000673395         0.058112        0.165028
281734                 -0.198225      -0.0644089      0.000328751    -0.000168084         0.885012        0.407976      0.000521137    -0.000569417
                     0.000336576    -0.000162413         -0.17532      -0.0301689      0.000392118    -0.000798993         0.748266        0.633079
                        0.884837        0.408007      0.000343448    -0.000592395         0.176343        0.106265      0.000282827    -0.000579443
                     0.000513268    -0.000456861         0.748501        0.633441      0.000333192    -0.000673249        0.0582186        0.164995
281736                 -0.198253      -0.0643679      0.000328568    -0.000168461         0.885178        0.407612      0.000521238      -0.0005698
                     0.000336816    -0.000163489         -0.17533      -0.0301352      0.000392161    -0.000798574         0.748531        0.632769
                        0.885002        0.407642      0.000343265    -0.000592952         0.176418        0.106168      0.000282856    -0.000579444
                     0.000514636    -0.000458605         0.748764        0.633129      0.000332246    -0.000671758        0.0583252        0.164962
281738                  -0.19828      -0.0643269      0.000328385    -0.000168833         0.885343        0.407247      0.000521338    -0.000570184
                      0.00033709    -0.000164574        -0.175339      -0.0301016      0.000392267    -0.000798366         0.748795        0.632459
                        0.885167        0.407278      0.000343079    -0.000593506         0.176493        0.106071      0.000282883    -0.000579447
                     0.000516066    -0.000460334         0.749027        0.632816      0.000332305    -0.000670789        0.0584318        0.164929
281740                 -0.198308      -0.0642858      0.000328202    -0.000169203         0.885508        0.406883      0.000521437    -0.000570569
                     0.000337349    -0.000165609        -0.175349      -0.0300679      0.000392317    -0.000798329         0.749058        0.632149
                        0.885332        0.406914      0.000342892    -0.000594057         0.176568        0.105973      0.000282909    -0.000579452
                     0.000517405    -0.000461982          0.74929        0.632504      0.000332417    -0.000670336        0.0585383        0.164896
281742                 -0.198335      -0.0642448      0.000328018     -0.00016957         0.885673        0.406518      0.000521535    -0.000570954
                      0.00033751    -0.000166505        -0.175358      -0.0300343      0.000392267    -0.000798385         0.749322        0.631839
                        0.885497        0.406549      0.000342701    -0.000594606         0.176643        0.105876      0.000282934    -0.000579459
                     0.000518405     -0.00046345         0.749552        0.632191      0.000332425    -0.000670088        0.0586448        0.164863
281744                 -0.198362      -0.0642038      0.000327833    -0.000169933         0.885837        0.406153      0.000521633    -0.000571341
                     0.000337439    -0.000167124        -0.175368      -0.0300006      0.000392124    -0.000798471         0.749586        0.631528
                        0.885662        0.406184      0.000342509    -0.000595152         0.176718        0.105778      0.000282957    -0.000579468
                     0.000518676    -0.000464594         0.749815        0.631878      0.000332349    -0.000669921        0.0587513         0.16483
281746                  -0.19839      -0.0641628      0.000327648    -0.000170293         0.886002        0.405788       0.00052173    -0.000571728
                     0.000336928    -0.000167255        -0.175377      -0.0299669      0.000391911    -0.000798556         0.749849        0.631218
                        0.885827        0.405819      0.000342314    -0.000595695         0.176792        0.105681      0.000282978     -0.00057948
                     0.000517619    -0.000465194         0.750077        0.631566      0.000332218    -0.000669788        0.0588578        0.164797
281748                 -0.198418      -0.0641219      0.000327463     -0.00017065         0.886166        0.405424      0.000521826    -0.000572116
                     0.000335677    -0.000166577        -0.175387      -0.0299332      0.000391649    -0.000798627         0.750113        0.630907
                        0.885993        0.405453      0.000342117    -0.000596235         0.176867        0.105583      0.000282998    -0.000579493
                     0.000514346    -0.000464895         0.750339        0.631253      0.000332052    -0.000669669        0.0589642        0.164763
281750                 -0.198447      -0.0640811      0.000327278    -0.000171005          0.88633        0.405059      0.000521922    -0.000572506
                     0.000333296    -0.000164607        -0.175397      -0.0298995      0.000391356     -0.00079868         0.750376        0.630597
                        0.886159        0.405087      0.000341918    -0.000596772         0.176942        0.105486      0.000283017    -0.000579507
                     0.000507608    -0.000463088         0.750601         0.63094       0.00033186    -0.000669557        0.0590706         0.16473
281752                 -0.198477      -0.0640406      0.000327092    -0.000171356         0.886494        0.404693      0.000522017    -0.000572896
                     0.000329377    -0.000160631        -0.175406      -0.0298658      0.000391042    -0.000798716         0.750639        0.630286
                        0.886327         0.40472      0.000341717    -0.000597307         0.177016        0.105388      0.000283034    -0.000579524
                     0.000495804    -0.000458681         0.750863        0.630627      0.000331652    -0.000669448         0.059177        0.164696
281754                 -0.198508      -0.0640008      0.000326906    -0.000171704         0.886658        0.404328      0.000522111    -0.000573286
                     0.000323717    -0.000153681        -0.175416      -0.0298321      0.000390715    -0.000798737         0.750902        0.629975
                        0.886498        0.404353      0.000341514    -0.000597839         0.177091         0.10529      0.000283049    -0.000579542
                     0.000477283    -0.000449731         0.751125        0.630314      0.000331432     -0.00066934        0.0592833        0.164663
281756                 -0.198539      -0.0639625       0.00032672     -0.00017205         0.886822        0.403963      0.000522205    -0.000573678
                     0.000316738    -0.000142727        -0.175425      -0.0297984      0.000390379    -0.000798746         0.751164        0.629664
                        0.886676        0.403987      0.000341309    -0.000598369         0.177165        0.105192      0.000283063    -0.000579562
                     0.000451309    -0.000433135         0.751386            0.63      0.000331202    -0.000669232        0.0593896        0.164629
281758                  -0.19857      -0.0639261      0.000326534    -0.000172393         0.886985        0.403598      0.000522299    -0.000574071
                     0.000309878    -0.000127337        -0.175435      -0.0297646      0.000390037    -0.000798744         0.751427        0.629353
                        0.886862        0.403634      0.000341102    -0.000598896          0.17724        0.105094      0.000283076    -0.000579583
                     0.000419909    -0.000405215         0.751648        0.629687      0.000330966    -0.000669124        0.0594959        0.164596
281760                   -0.1986       -0.063891      0.000326347    -0.000172733         0.887149        0.403232      0.000522392    -0.000574464
                     0.000305236    -0.000108702        -0.175444      -0.0297309      0.000389691    -0.000798733         0.751689        0.629041
                        0.887035        0.403309      0.000340893     -0.00059942         0.177314        0.104996      0.000283087    -0.000579606
                      0.00038929    -0.000364534         0.751909        0.629373      0.000330725    -0.000669015        0.0596021        0.164562
281762                 -0.198627      -0.0638551       0.00032616     -0.00017307         0.887312        0.402866      0.000522485    -0.000574859
                     0.000304088    -8.97931e-05        -0.175454      -0.0296971      0.000389344    -0.000798715         0.751952         0.62873
                        0.887169        0.402971      0.000340683    -0.000599942         0.177388        0.104898      0.000283096    -0.000579631
