! TOUCHSTONE file generated by CST MICROWAVE STUDIO
! Date and time: Tue Oct 14 07:30:18 2025
! Project name: Teste_Macro_Metasurface_Nanopilar.cst
! Parameters = {H=600; L_x=155; L_y=150; Lambda=1064; Max_L=200; Min_L=70; PathPara=1; Phi=0; Step_L=10; Theta=0; p=520; phaseX=180; phaseY=0}
! Header version: 2018
! Port assignment regex: !\s*Touchstone port\s*([0-9]+)\s*=\s*(CST MWS port|CST DS port)\s*([0-9]+|Zmin|Zmax)\s*\(\"(.*)\"\)(\s*mode\s*([0-9]+))?.*
! Touchstone port assignment:
! Touchstone port 1 = CST MWS port Zmax ("") mode 1
! Touchstone port 2 = CST MWS port Zmax ("") mode 2
! Touchstone port 3 = CST MWS port Zmin ("") mode 1
! Touchstone port 4 = CST MWS port Zmin ("") mode 2
! S-Parameters are not renormalized. Each port impedance will be approximated by the real part at minimum frequency. The values are described via the [Reference] keyword.
! Default impedance is overridden by [Reference]
[Version] 2.0
# GHz S RI R 376.73
[Number of Ports] 4
[Reference]
376.73 376.73 259.814 259.814 
[Number of Frequencies] 51
[Network Data]
281700                 -0.266641        0.183847     -0.000630321     0.000622881         0.286288         0.88869     -1.46413e-05    -0.000385567
                    -0.000252166     0.000487332        -0.207796        0.123059      8.65407e-05    -0.000264205         0.438004        0.858292
                        0.285934        0.888796      7.83132e-05     -0.00030426        -0.311135      -0.0136056     -0.000890252      0.00015975
                    -8.02574e-05    -0.000234089         0.437211         0.85764     -0.000884435     7.70306e-05        -0.216744       0.0842435
281702                 -0.266458        0.183795     -0.000629921     0.000623385         0.286854        0.888584     -1.50012e-05     -0.00038527
                    -0.000251801      0.00048745        -0.207713        0.123037       8.6342e-05    -0.000264071         0.438449         0.85809
                        0.286502         0.88869      7.81409e-05    -0.000304215        -0.310975      -0.0132604     -0.000890229     0.000159555
                    -7.99654e-05    -0.000233406         0.437657         0.85744      -0.00088445     7.72861e-05        -0.216591        0.084418
281704                 -0.266275        0.183742      -0.00062952     0.000623888         0.287419        0.888477     -1.53604e-05    -0.000384972
                    -0.000251441     0.000487573        -0.207629        0.123016      8.61437e-05    -0.000263934         0.438895        0.857889
                        0.287069        0.888583      7.79677e-05    -0.000304172        -0.310814      -0.0129156     -0.000890207     0.000159362
                    -7.96727e-05    -0.000232725         0.438102        0.857239     -0.000884467      7.7541e-05        -0.216437       0.0845923
281706                 -0.266092         0.18369     -0.000629119      0.00062439         0.287985        0.888369     -1.57191e-05    -0.000384675
                    -0.000251085     0.000487703        -0.207546        0.122994      8.59456e-05    -0.000263793          0.43934        0.857687
                        0.287637        0.888475      7.77937e-05    -0.000304129        -0.310654      -0.0125713     -0.000890186     0.000159171
                    -7.93793e-05    -0.000232048         0.438547        0.857039     -0.000884486     7.77952e-05        -0.216284       0.0847665
281708                  -0.26591        0.183637     -0.000628717     0.000624892          0.28855        0.888262     -1.60772e-05    -0.000384377
                    -0.000250735      0.00048784        -0.207463        0.122973      8.57478e-05    -0.000263649         0.439785        0.857485
                        0.288204        0.888368      7.76186e-05    -0.000304088        -0.310493      -0.0122275     -0.000890165     0.000158982
                    -7.90853e-05    -0.000231373         0.438993        0.856838     -0.000884508     7.80485e-05         -0.21613       0.0849404
281710                 -0.265728        0.183584     -0.000628314     0.000625393         0.289115        0.888154     -1.64347e-05    -0.000384078
                    -0.000250389     0.000487982         -0.20738        0.122951      8.55502e-05    -0.000263502          0.44023        0.857282
                         0.28877        0.888259      7.74426e-05    -0.000304048        -0.310333      -0.0118841     -0.000890145     0.000158795
                    -7.87907e-05    -0.000230701         0.439437        0.856637     -0.000884531     7.83011e-05        -0.215976       0.0851141
281712                 -0.265546        0.183532     -0.000627912     0.000625893         0.289679        0.888045     -1.67917e-05     -0.00038378
                    -0.000250047     0.000488131        -0.207297         0.12293      8.53527e-05    -0.000263351         0.440675         0.85708
                        0.289337        0.888151      7.72655e-05    -0.000304008        -0.310172      -0.0115411     -0.000890125      0.00015861
                    -7.84955e-05    -0.000230032         0.439882        0.856435     -0.000884557     7.85529e-05        -0.215822       0.0852876
281714                 -0.265365        0.183479     -0.000627509     0.000626392         0.290244        0.887936     -1.71482e-05    -0.000383481
                    -0.000249711     0.000488286        -0.207215        0.122908      8.51552e-05    -0.000263197          0.44112        0.856877
                        0.289903        0.888042      7.70874e-05     -0.00030397        -0.310011      -0.0111986     -0.000890105     0.000158427
                    -7.81997e-05    -0.000229366         0.440327        0.856234     -0.000884585     7.88038e-05        -0.215668       0.0854608
281716                 -0.265184        0.183427     -0.000627105     0.000626891         0.290808        0.887827     -1.75041e-05    -0.000383182
                    -0.000249378     0.000488448        -0.207132        0.122887      8.49577e-05     -0.00026304         0.441564        0.856674
                        0.290469        0.887932      7.69082e-05    -0.000303933         -0.30985      -0.0108565     -0.000890086     0.000158246
                    -7.79034e-05    -0.000228703         0.440771        0.856032     -0.000884615     7.90538e-05        -0.215515       0.0856339
281718                 -0.265003        0.183374     -0.000626702     0.000627389         0.291371        0.887717     -1.78596e-05    -0.000382882
                    -0.000249051     0.000488616        -0.207049        0.122866        8.476e-05    -0.000262879         0.442008        0.856471
                        0.291034        0.887822      7.67279e-05    -0.000303897        -0.309688      -0.0105149     -0.000890066     0.000158066
                    -7.76066e-05    -0.000228042         0.441216         0.85583     -0.000884648     7.93028e-05        -0.215361       0.0858068
281720                 -0.264822        0.183322     -0.000626298     0.000627886         0.291935        0.887606     -1.82146e-05    -0.000382583
                    -0.000248727      0.00048879        -0.206967        0.122844      8.45621e-05    -0.000262714         0.442452        0.856267
                          0.2916        0.887712      7.65463e-05    -0.000303863        -0.309527      -0.0101737     -0.000890047     0.000157889
                    -7.73094e-05    -0.000227384          0.44166        0.855628     -0.000884682     7.95508e-05        -0.215207       0.0859795
281722                 -0.264642        0.183269     -0.000625894     0.000628382         0.292498        0.887496     -1.85692e-05    -0.000382283
                    -0.000248408     0.000488971        -0.206884        0.122823      8.43638e-05    -0.000262546         0.442896        0.856064
                        0.292165        0.887602      7.63635e-05    -0.000303829        -0.309365     -0.00983296     -0.000890027     0.000157714
                    -7.70117e-05    -0.000226729         0.442103        0.855426     -0.000884719     7.97978e-05        -0.215053        0.086152
281724                 -0.264461        0.183216      -0.00062549     0.000628877         0.293061        0.887385     -1.89233e-05    -0.000381983
                    -0.000248093     0.000489158        -0.206802        0.122801      8.41652e-05    -0.000262375          0.44334         0.85586
                         0.29273         0.88749      7.61794e-05    -0.000303797        -0.309203     -0.00949266     -0.000890008      0.00015754
                    -7.67135e-05    -0.000226077         0.442547        0.855223     -0.000884759     8.00438e-05        -0.214899       0.0863242
281726                 -0.264281        0.183164     -0.000625086     0.000629371         0.293624        0.887273      -1.9277e-05    -0.000381682
                    -0.000247783     0.000489352        -0.206719         0.12278      8.39661e-05    -0.000262199         0.443783        0.855656
                        0.293294        0.887379       7.5994e-05    -0.000303766        -0.309041     -0.00915281     -0.000889988     0.000157368
                     -7.6415e-05    -0.000225428         0.442991         0.85502     -0.000884801     8.02886e-05        -0.214744       0.0864963
281728                 -0.264102        0.183111     -0.000624683     0.000629865         0.294186        0.887161     -1.96304e-05    -0.000381382
                    -0.000247477     0.000489552        -0.206637        0.122759      8.37664e-05    -0.000262021         0.444227        0.855451
                        0.293858        0.887267      7.58072e-05    -0.000303736        -0.308879     -0.00881339     -0.000889968     0.000157198
                    -7.61161e-05    -0.000224781         0.443434        0.854817     -0.000884845     8.05323e-05         -0.21459       0.0866681
281730                 -0.263922        0.183059     -0.000624279     0.000630357         0.294748        0.887049     -1.99834e-05    -0.000381081
                    -0.000247175     0.000489758        -0.206555        0.122737       8.3566e-05    -0.000261838          0.44467        0.855247
                        0.294422        0.887155      7.56189e-05    -0.000303708        -0.308716     -0.00847442     -0.000889948     0.000157029
                    -7.58169e-05    -0.000224137         0.443877        0.854614     -0.000884891     8.07748e-05        -0.214436       0.0868398
281732                 -0.263743        0.183006     -0.000623875     0.000630849          0.29531        0.886936      -2.0336e-05     -0.00038078
                    -0.000246877     0.000489971        -0.206473        0.122716      8.33648e-05    -0.000261652         0.445113        0.855042
                        0.294986        0.887042      7.54291e-05    -0.000303681        -0.308554     -0.00813588     -0.000889927     0.000156863
                    -7.55173e-05    -0.000223496          0.44432         0.85441      -0.00088494     8.10162e-05        -0.214282       0.0870112
281734                 -0.263564        0.182953     -0.000623471     0.000631339         0.295872        0.886823     -2.06884e-05    -0.000380479
                    -0.000246583      0.00049019        -0.206391        0.122694      8.31627e-05    -0.000261462         0.445556        0.854837
                        0.295549        0.886929      7.52377e-05    -0.000303655        -0.308391     -0.00779779     -0.000889906     0.000156697
                    -7.52175e-05    -0.000222858         0.444763        0.854206     -0.000884991     8.12562e-05        -0.214127       0.0871825
281736                 -0.263385        0.182901     -0.000623068     0.000631829         0.296433         0.88671     -2.10404e-05    -0.000380177
                    -0.000246293     0.000490416        -0.206309        0.122673      8.29596e-05    -0.000261269         0.445998        0.854632
                        0.296113        0.886815      7.50446e-05     -0.00030363        -0.308228     -0.00746013     -0.000889885     0.000156534
                    -7.49174e-05    -0.000222222         0.445206        0.854002     -0.000885044      8.1495e-05        -0.213973       0.0873535
281738                 -0.263207        0.182848     -0.000622665     0.000632318         0.296994        0.886596     -2.13922e-05    -0.000379876
                    -0.000246008     0.000490648        -0.206227        0.122652      8.27553e-05    -0.000261072         0.446441        0.854426
                        0.296675        0.886701      7.48498e-05    -0.000303606        -0.308065     -0.00712291     -0.000889863     0.000156372
                     -7.4617e-05    -0.000221589         0.445648        0.853798     -0.000885099     8.17325e-05        -0.213818       0.0875244
281740                 -0.263029        0.182795     -0.000622262     0.000632806         0.297555        0.886481     -2.17438e-05    -0.000379574
                    -0.000245726     0.000490887        -0.206146         0.12263      8.25499e-05    -0.000260871         0.446883        0.854221
                        0.297238        0.886587      7.46532e-05    -0.000303584        -0.307902     -0.00678614     -0.000889841     0.000156211
                    -7.43164e-05    -0.000220959          0.44609        0.853593     -0.000885157     8.19687e-05        -0.213664        0.087695
281742                 -0.262851        0.182743      -0.00062186     0.000633293         0.298115        0.886367     -2.20952e-05    -0.000379273
                    -0.000245448     0.000491132        -0.206064        0.122609      8.23431e-05    -0.000260666         0.447325        0.854015
                          0.2978        0.886472      7.44547e-05    -0.000303564        -0.307739      -0.0064498     -0.000889819     0.000156052
                    -7.40156e-05    -0.000220331         0.446532        0.853388     -0.000885217     8.22035e-05        -0.213509       0.0878654
281744                 -0.262673         0.18269     -0.000621458      0.00063378         0.298675        0.886251     -2.24464e-05    -0.000378971
                    -0.000245174     0.000491384        -0.205983        0.122588      8.21348e-05    -0.000260458         0.447767        0.853809
                        0.298362        0.886357      7.42542e-05    -0.000303544        -0.307575     -0.00611389     -0.000889795     0.000155895
                    -7.37146e-05    -0.000219706         0.446974        0.853184      -0.00088528      8.2437e-05        -0.213355       0.0880356
281746                 -0.262496        0.182637     -0.000621056     0.000634265         0.299235        0.886136     -2.27974e-05    -0.000378669
                    -0.000244904     0.000491642        -0.205901        0.122566       8.1925e-05    -0.000260246         0.448209        0.853602
                        0.298924        0.886241      7.40517e-05    -0.000303526        -0.307411     -0.00577843     -0.000889771     0.000155738
                    -7.34135e-05    -0.000219084         0.447416        0.852978     -0.000885345      8.2669e-05          -0.2132       0.0882057
281748                 -0.262318        0.182585     -0.000620655      0.00063475         0.299795         0.88602     -2.31483e-05    -0.000378368
                    -0.000244637     0.000491907         -0.20582        0.122545      8.17134e-05    -0.000260031          0.44865        0.853396
                        0.299486        0.886125      7.38471e-05    -0.000303509        -0.307248      -0.0054434     -0.000889747     0.000155583
                    -7.31122e-05    -0.000218464         0.447858        0.852773     -0.000885411     8.28996e-05        -0.213045       0.0883755
281750                 -0.262142        0.182532     -0.000620254     0.000635233         0.300354        0.885903     -2.34991e-05    -0.000378066
                    -0.000244375     0.000492178        -0.205738        0.122524         8.15e-05    -0.000259811         0.449092        0.853189
                        0.300047        0.886009      7.36402e-05    -0.000303493        -0.307084     -0.00510881     -0.000889722      0.00015543
                    -7.28108e-05    -0.000217847         0.448299        0.852567      -0.00088548     8.31288e-05        -0.212891       0.0885451
281752                 -0.261965        0.182479     -0.000619854     0.000635716         0.300914        0.885787     -2.38499e-05    -0.000377764
                    -0.000244116     0.000492456        -0.205657        0.122502      8.12847e-05    -0.000259588         0.449533        0.852982
                        0.300608        0.885892       7.3431e-05    -0.000303479        -0.306919     -0.00477465     -0.000889696     0.000155278
                    -7.25092e-05    -0.000217233          0.44874        0.852361     -0.000885551     8.33565e-05        -0.212736       0.0887145
281754                 -0.261788        0.182427     -0.000619454     0.000636199         0.301472        0.885669     -2.42006e-05    -0.000377463
                     -0.00024386     0.000492741        -0.205576        0.122481      8.10673e-05    -0.000259362         0.449974        0.852775
                        0.301168        0.885775      7.32194e-05    -0.000303466        -0.306755     -0.00444092      -0.00088967     0.000155126
                    -7.22076e-05    -0.000216621         0.449181        0.852155     -0.000885624     8.35827e-05        -0.212581       0.0888837
281756                 -0.261612        0.182374     -0.000619055      0.00063668         0.302031        0.885552     -2.45513e-05    -0.000377161
                    -0.000243608     0.000493032        -0.205495         0.12246      8.08477e-05    -0.000259131         0.450415        0.852567
                        0.301729        0.885657      7.30053e-05    -0.000303454        -0.306591     -0.00410764     -0.000889643     0.000154976
                    -7.19059e-05    -0.000216012         0.449622        0.851949     -0.000885699     8.38075e-05        -0.212426       0.0890527
281758                 -0.261436        0.182321     -0.000618656     0.000637161         0.302589        0.885434     -2.49021e-05     -0.00037686
                     -0.00024336     0.000493329        -0.205414        0.122439      8.06259e-05    -0.000258897         0.450856         0.85236
                        0.302289        0.885539      7.27887e-05    -0.000303443        -0.306426     -0.00377478     -0.000889615     0.000154828
                    -7.16042e-05    -0.000215405         0.450063        0.851742     -0.000885776     8.40308e-05        -0.212271       0.0892215
281760                 -0.261261        0.182268     -0.000618258     0.000637641         0.303147        0.885315     -2.52528e-05    -0.000376558
                    -0.000243115     0.000493634        -0.205333        0.122417      8.04016e-05    -0.000258659         0.451296        0.852152
                        0.302849         0.88542      7.25693e-05    -0.000303433        -0.306261     -0.00344236     -0.000889586      0.00015468
                    -7.13023e-05    -0.000214801         0.450503        0.851536     -0.000885855     8.42526e-05        -0.212116       0.0893902
281762                 -0.261085        0.182216      -0.00061786      0.00063812         0.303705        0.885197     -2.56037e-05    -0.000376257
                    -0.000242873     0.000493944        -0.205252        0.122396      8.01748e-05    -0.000258418         0.451737        0.851944
                        0.303408        0.885302      7.23473e-05    -0.000303424        -0.306096     -0.00311037     -0.000889557     0.000154533
