! TOUCHSTONE file generated by CST MICROWAVE STUDIO
! Date and time: Tue Oct 14 07:31:11 2025
! Project name: Teste_Macro_Metasurface_Nanopilar.cst
! Parameters = {H=600; L_x=170; L_y=125; Lambda=1064; Max_L=200; Min_L=70; PathPara=1; Phi=0; Step_L=10; Theta=0; p=520; phaseX=180; phaseY=0}
! Header version: 2018
! Port assignment regex: !\s*Touchstone port\s*([0-9]+)\s*=\s*(CST MWS port|CST DS port)\s*([0-9]+|Zmin|Zmax)\s*\(\"(.*)\"\)(\s*mode\s*([0-9]+))?.*
! Touchstone port assignment:
! Touchstone port 1 = CST MWS port Zmax ("") mode 1
! Touchstone port 2 = CST MWS port Zmax ("") mode 2
! Touchstone port 3 = CST MWS port Zmin ("") mode 1
! Touchstone port 4 = CST MWS port Zmin ("") mode 2
! S-Parameters are not renormalized. Each port impedance will be approximated by the real part at minimum frequency. The values are described via the [Reference] keyword.
! Default impedance is overridden by [Reference]
[Version] 2.0
# GHz S RI R 376.73
[Number of Ports] 4
[Reference]
376.73 376.73 259.814 259.814 
[Number of Frequencies] 51
[Network Data]
281700                -0.0871987        -0.12087     -0.000289219     0.000427823        0.0697289        0.981496      -0.00112527    -0.000236067
                    -0.000286726     0.000204452        -0.242592        0.207878     -0.000963126     0.000539137         0.363893        0.864411
                       0.0693678        0.981914     -0.000936215     0.000455617       -0.0679443        0.131743     -0.000760942     -0.00072368
                     -0.00111689    -0.000289626         0.364422         0.86449     -0.000794606    -0.000685271        -0.310239       0.0134283
281702                -0.0872405       -0.120862      -0.00028904      0.00042776        0.0701637        0.981462      -0.00112513    -0.000235417
                     -0.00028634     0.000204866         -0.24245        0.207848     -0.000962557     0.000539616         0.364382        0.864256
                       0.0698031         0.98188     -0.000935885     0.000456108       -0.0678699        0.131801     -0.000761132    -0.000722988
                     -0.00111679    -0.000288809          0.36491        0.864335      -0.00079467    -0.000684609        -0.310102       0.0136993
281704                -0.0872823       -0.120854     -0.000288861     0.000427697        0.0705985        0.981428      -0.00112498    -0.000234766
                    -0.000285956      0.00020528        -0.242308        0.207817     -0.000961988     0.000540093         0.364872        0.864101
                       0.0702383        0.981845     -0.000935555     0.000456599       -0.0677953         0.13186     -0.000761322    -0.000722296
                     -0.00111669    -0.000287993         0.365399        0.864179     -0.000794733    -0.000683948        -0.309964         0.01397
281706                -0.0873241       -0.120846     -0.000288683     0.000427636        0.0710333        0.981394      -0.00112484    -0.000234116
                    -0.000285574     0.000205695        -0.242167        0.207787     -0.000961419      0.00054057         0.365361        0.863945
                       0.0706735         0.98181     -0.000935225      0.00045709       -0.0677207        0.131918     -0.000761511    -0.000721605
                     -0.00111659    -0.000287178         0.365888        0.864023     -0.000794795    -0.000683288        -0.309827       0.0142405
281708                 -0.087366       -0.120838     -0.000288506     0.000427575        0.0714681        0.981359      -0.00112469    -0.000233466
                    -0.000285193      0.00020611        -0.242025        0.207757      -0.00096085     0.000541045          0.36585        0.863789
                       0.0711086        0.981775     -0.000934894     0.000457581       -0.0676461        0.131977     -0.000761699    -0.000720913
                     -0.00111649    -0.000286364         0.366376        0.863866     -0.000794857    -0.000682629        -0.309689       0.0145108
281710                -0.0874078        -0.12083     -0.000288329     0.000427515        0.0719028        0.981324      -0.00112454    -0.000232816
                    -0.000284815     0.000206525        -0.241884        0.207727     -0.000960282      0.00054152         0.366339        0.863633
                       0.0715438         0.98174     -0.000934562     0.000458072       -0.0675714        0.132035     -0.000761887    -0.000720222
                     -0.00111639     -0.00028555         0.366864        0.863709     -0.000794919     -0.00068197        -0.309551       0.0147808
281712                -0.0874496       -0.120822     -0.000288153     0.000427456        0.0723376        0.981289       -0.0011244    -0.000232166
                    -0.000284439      0.00020694        -0.241743        0.207696     -0.000959713     0.000541994         0.366828        0.863477
                       0.0719789        0.981705      -0.00093423     0.000458563       -0.0674967        0.132094     -0.000762074    -0.000719531
                     -0.00111629    -0.000284738         0.367352        0.863552      -0.00079498    -0.000681311        -0.309412       0.0150505
281714                -0.0874914       -0.120814     -0.000287977     0.000427398        0.0727723        0.981254      -0.00112425    -0.000231517
                    -0.000284064     0.000207356        -0.241602        0.207666     -0.000959145     0.000542466         0.367317         0.86332
                        0.072414         0.98167     -0.000933898     0.000459054        -0.067422        0.132152     -0.000762261     -0.00071884
                     -0.00111619    -0.000283926          0.36784        0.863395     -0.000795041    -0.000680653        -0.309274         0.01532
281716                -0.0875333       -0.120806     -0.000287802     0.000427341         0.073207        0.981219       -0.0011241    -0.000230868
                    -0.000283691     0.000207771        -0.241461        0.207636     -0.000958577     0.000542938         0.367806        0.863163
                       0.0728491        0.981634     -0.000933565     0.000459545       -0.0673472        0.132211     -0.000762447     -0.00071815
                     -0.00111608    -0.000283115         0.368328        0.863237     -0.000795101    -0.000679996        -0.309136       0.0155892
281718                -0.0875751       -0.120798     -0.000287627     0.000427285        0.0736416        0.981183      -0.00112396    -0.000230219
                    -0.000283321     0.000208187         -0.24132        0.207605      -0.00095801     0.000543409         0.368294        0.863006
                       0.0732842        0.981598     -0.000933232     0.000460036       -0.0672723        0.132269     -0.000762633    -0.000717459
                     -0.00111598    -0.000282305         0.368816        0.863079     -0.000795161     -0.00067934        -0.308997       0.0158582
281720                 -0.087617        -0.12079     -0.000287453     0.000427229        0.0740763        0.981148      -0.00112381     -0.00022957
                    -0.000282952     0.000208603         -0.24118        0.207575     -0.000957442     0.000543879         0.368782        0.862848
                       0.0737193        0.981562     -0.000932899     0.000460527       -0.0671974        0.132327     -0.000762817    -0.000716769
                     -0.00111587    -0.000281496         0.369303        0.862921     -0.000795221    -0.000678684        -0.308858        0.016127
281722                -0.0876588       -0.120782      -0.00028728     0.000427175        0.0745109        0.981112      -0.00112366    -0.000228921
                    -0.000282584      0.00020902        -0.241039        0.207544     -0.000956874     0.000544348          0.36927         0.86269
                       0.0741543        0.981526     -0.000932565     0.000461018       -0.0671225        0.132385     -0.000763002     -0.00071608
                     -0.00111577    -0.000280687          0.36979        0.862763      -0.00079528    -0.000678028        -0.308719       0.0163954
281724                -0.0877006       -0.120774     -0.000287107     0.000427121        0.0749455        0.981076      -0.00112352    -0.000228273
                    -0.000282219     0.000209436        -0.240899        0.207514     -0.000956307     0.000544816         0.369758        0.862532
                       0.0745893        0.981489     -0.000932231     0.000461509       -0.0670475        0.132444     -0.000763185     -0.00071539
                     -0.00111566     -0.00027988         0.370277        0.862604     -0.000795338    -0.000677373         -0.30858       0.0166637
281726                -0.0877425       -0.120766     -0.000286934     0.000427068        0.0753801         0.98104      -0.00112337    -0.000227625
                    -0.000281855     0.000209853        -0.240759        0.207483      -0.00095574     0.000545283         0.370246        0.862373
                       0.0750243        0.981453     -0.000931896        0.000462       -0.0669724        0.132502     -0.000763369    -0.000714701
                     -0.00111556    -0.000279073         0.370764        0.862445     -0.000795397    -0.000676719        -0.308441       0.0169317
281728                -0.0877843       -0.120758     -0.000286762     0.000427016        0.0758147        0.981003      -0.00112322    -0.000226977
                    -0.000281494     0.000210269        -0.240619        0.207453     -0.000955173     0.000545749         0.370733        0.862215
                       0.0754593        0.981416     -0.000931561     0.000462491       -0.0668973         0.13256     -0.000763551    -0.000714012
                     -0.00111545    -0.000278267         0.371251        0.862285     -0.000795455    -0.000676065        -0.308302       0.0171994
281730                -0.0878262        -0.12075     -0.000286591     0.000426965        0.0762493        0.980966      -0.00112307    -0.000226329
                    -0.000281134     0.000210687        -0.240479        0.207422     -0.000954606     0.000546214         0.371221        0.862056
                       0.0758942        0.981379     -0.000931225     0.000462982       -0.0668222        0.132618     -0.000763733    -0.000713324
                     -0.00111535    -0.000277462         0.371737        0.862126     -0.000795512    -0.000675412        -0.308162       0.0174669
281732                 -0.087868       -0.120742      -0.00028642     0.000426915        0.0766838         0.98093      -0.00112292    -0.000225682
                    -0.000280775     0.000211104        -0.240339        0.207392     -0.000954039     0.000546678         0.371708        0.861896
                       0.0763292        0.981342     -0.000930889     0.000463474        -0.066747        0.132676     -0.000763915    -0.000712636
                     -0.00111524    -0.000276658         0.372224        0.861966     -0.000795569     -0.00067476        -0.308023       0.0177342
281734                -0.0879099       -0.120734      -0.00028625     0.000426865        0.0771183        0.980893      -0.00112277    -0.000225035
                    -0.000280419     0.000211521        -0.240199        0.207361     -0.000953472     0.000547141         0.372195        0.861737
                       0.0767641        0.981305     -0.000930552     0.000463965       -0.0666718        0.132734     -0.000764096    -0.000711948
                     -0.00111513    -0.000275854          0.37271        0.861806     -0.000795626    -0.000674107        -0.307883       0.0180012
281736                -0.0879518       -0.120725      -0.00028608     0.000426817        0.0775528        0.980855      -0.00112263    -0.000224388
                    -0.000280064     0.000211939        -0.240059         0.20733     -0.000952906     0.000547603         0.372681        0.861577
                        0.077199        0.981267     -0.000930216     0.000464456       -0.0665966        0.132792     -0.000764276     -0.00071126
                     -0.00111502    -0.000275051         0.373196        0.861645     -0.000795682    -0.000673456        -0.307743       0.0182679
281738                -0.0879936       -0.120717      -0.00028591     0.000426769        0.0779873        0.980818      -0.00112248    -0.000223741
                    -0.000279711     0.000212356         -0.23992          0.2073     -0.000952339     0.000548064         0.373168        0.861416
                       0.0776338        0.981229     -0.000929878     0.000464947       -0.0665213         0.13285     -0.000764456    -0.000710573
                     -0.00111491     -0.00027425         0.373682        0.861484     -0.000795738    -0.000672805        -0.307603       0.0185344
281740                -0.0880355       -0.120709     -0.000285741     0.000426722        0.0784217         0.98078      -0.00112233    -0.000223095
                    -0.000279359     0.000212774        -0.239781        0.207269     -0.000951773     0.000548524         0.373655        0.861256
                       0.0780687        0.981191      -0.00092954     0.000465438       -0.0664459        0.132908     -0.000764635    -0.000709886
                      -0.0011148    -0.000273448         0.374167        0.861323     -0.000795793    -0.000672154        -0.307463       0.0188007
281742                -0.0880773       -0.120701     -0.000285573     0.000426676        0.0788561        0.980743      -0.00112218    -0.000222449
                    -0.000279009     0.000213192        -0.239641        0.207238     -0.000951206     0.000548984         0.374141        0.861095
                       0.0785035        0.981153     -0.000929202     0.000465929       -0.0663705        0.132965     -0.000764814      -0.0007092
                     -0.00111469    -0.000272648         0.374653        0.861162     -0.000795848    -0.000671504        -0.307323       0.0190667
281744                -0.0881192       -0.120693     -0.000285405     0.000426631        0.0792905        0.980705      -0.00112203    -0.000221803
                    -0.000278661     0.000213611        -0.239502        0.207208      -0.00095064     0.000549442         0.374627        0.860934
                       0.0789383        0.981115     -0.000928863      0.00046642       -0.0662951        0.133023     -0.000764993    -0.000708514
                     -0.00111458    -0.000271849         0.375138           0.861     -0.000795903    -0.000670855        -0.307182       0.0193325
281746                -0.0881611       -0.120685     -0.000285237     0.000426587        0.0797249        0.980666      -0.00112188    -0.000221157
                    -0.000278314     0.000214029        -0.239363        0.207177     -0.000950074     0.000549899         0.375113        0.860773
                       0.0793731        0.981076     -0.000928524     0.000466911       -0.0662196        0.133081      -0.00076517    -0.000707828
                     -0.00111447     -0.00027105         0.375623        0.860838     -0.000795957    -0.000670206        -0.307042        0.019598
281748                 -0.088203       -0.120677      -0.00028507     0.000426543        0.0801593        0.980628      -0.00112173    -0.000220512
                    -0.000277969     0.000214448        -0.239224        0.207146     -0.000949508     0.000550356         0.375599        0.860611
                       0.0798079        0.981038     -0.000928185     0.000467402        -0.066144        0.133139     -0.000765348    -0.000707143
                     -0.00111436    -0.000270252         0.376108        0.860676     -0.000796011    -0.000669557        -0.306901       0.0198633
281750                -0.0882448       -0.120668     -0.000284904     0.000426501        0.0805936        0.980589      -0.00112158    -0.000219867
                    -0.000277626     0.000214866        -0.239086        0.207115     -0.000948942     0.000550811         0.376084        0.860449
                       0.0802426        0.980999     -0.000927845     0.000467893       -0.0660685        0.133196     -0.000765524    -0.000706458
                     -0.00111424    -0.000269455         0.376593        0.860514     -0.000796065    -0.000668909         -0.30676       0.0201283
281752                -0.0882867        -0.12066     -0.000284737     0.000426459         0.081028        0.980551      -0.00112143    -0.000219222
                    -0.000277284     0.000215285        -0.238947        0.207085     -0.000948376     0.000551265          0.37657        0.860287
                       0.0806773         0.98096     -0.000927504     0.000468384       -0.0659928        0.133254       -0.0007657    -0.000705773
                     -0.00111413    -0.000268658         0.377078        0.860351     -0.000796119    -0.000668262        -0.306619        0.020393
281754                -0.0883286       -0.120652     -0.000284571     0.000426418        0.0814623        0.980512      -0.00112128    -0.000218577
                    -0.000276943     0.000215704        -0.238809        0.207054      -0.00094781     0.000551719         0.377055        0.860124
                        0.081112         0.98092     -0.000927163     0.000468876       -0.0659172        0.133311     -0.000765876    -0.000705089
                     -0.00111402    -0.000267863         0.377562        0.860188     -0.000796172    -0.000667614        -0.306478       0.0206576
281756                -0.0883705       -0.120644     -0.000284406     0.000426378        0.0818965        0.980473      -0.00112113    -0.000217933
                    -0.000276605     0.000216124         -0.23867        0.207023     -0.000947244     0.000552171          0.37754        0.859962
                       0.0815467        0.980881     -0.000926822     0.000469367       -0.0658414        0.133369     -0.000766051    -0.000704405
                      -0.0011139    -0.000267068         0.378047        0.860024     -0.000796224    -0.000666968        -0.306337       0.0209219
281758                -0.0884124       -0.120635     -0.000284241     0.000426339        0.0823308        0.980433      -0.00112098    -0.000217289
                    -0.000276267     0.000216543        -0.238532        0.206992     -0.000946679     0.000552623         0.378025        0.859799
                       0.0819814        0.980841      -0.00092648     0.000469858       -0.0657657        0.133426     -0.000766226    -0.000703722
                     -0.00111379    -0.000266274         0.378531        0.859861     -0.000796277    -0.000666321        -0.306196       0.0211859
281760                -0.0884543       -0.120627     -0.000284076       0.0004263         0.082765        0.980394      -0.00112083    -0.000216645
                    -0.000275932     0.000216963        -0.238394        0.206961     -0.000946113     0.000553074          0.37851        0.859635
                        0.082416        0.980801     -0.000926138     0.000470349       -0.0656899        0.133484       -0.0007664    -0.000703039
                     -0.00111367    -0.000265481         0.379015        0.859697     -0.000796329    -0.000665675        -0.306054       0.0214497
281762                -0.0884961       -0.120619     -0.000283911     0.000426262        0.0831993        0.980354      -0.00112068    -0.000216002
                    -0.000275597     0.000217382        -0.238256         0.20693     -0.000945548     0.000553523         0.378994        0.859472
                       0.0828506        0.980761     -0.000925795      0.00047084        -0.065614        0.133541     -0.000766574    -0.000702357
