! TOUCHSTONE file generated by CST MICROWAVE STUDIO
! Date and time: Tue Oct 14 07:30:36 2025
! Project name: Teste_Macro_Metasurface_Nanopilar.cst
! Parameters = {H=600; L_x=160; L_y=145; Lambda=1064; Max_L=200; Min_L=70; PathPara=1; Phi=0; Step_L=10; Theta=0; p=520; phaseX=180; phaseY=0}
! Header version: 2018
! Port assignment regex: !\s*Touchstone port\s*([0-9]+)\s*=\s*(CST MWS port|CST DS port)\s*([0-9]+|Zmin|Zmax)\s*\(\"(.*)\"\)(\s*mode\s*([0-9]+))?.*
! Touchstone port assignment:
! Touchstone port 1 = CST MWS port Zmax ("") mode 1
! Touchstone port 2 = CST MWS port Zmax ("") mode 2
! Touchstone port 3 = CST MWS port Zmin ("") mode 1
! Touchstone port 4 = CST MWS port Zmin ("") mode 2
! S-Parameters are not renormalized. Each port impedance will be approximated by the real part at minimum frequency. The values are described via the [Reference] keyword.
! Default impedance is overridden by [Reference]
[Version] 2.0
# GHz S RI R 376.73
[Number of Ports] 4
[Reference]
376.73 376.73 259.814 259.814 
[Number of Frequencies] 51
[Network Data]
281700                 -0.582385         0.27365       0.00119672    -0.000836096        -0.100766        0.708936      0.000989118     0.000244876
                      0.00112377    -0.000506208        -0.188727       0.0910055      0.000660372     0.000779656         0.521255        0.819821
                       -0.100217        0.708928       0.00126329     0.000697656        -0.386906       -0.484407      0.000916785      0.00116181
                     0.000777118     0.000407593           0.5214        0.819493      0.000884134      0.00103158        -0.159817        0.123749
281702                 -0.581555        0.273916        0.0011946    -0.000837458       -0.0999858        0.709709      0.000989024     0.000243102
                      0.00112254    -0.000508587        -0.188678       0.0910009      0.000674057     0.000823563         0.521646        0.819586
                      -0.0994382        0.709699       0.00126323     0.000695271        -0.387407       -0.483211      0.000918242      0.00116044
                     0.000778312     0.000406208         0.521791         0.81926      0.000818603      0.00101924        -0.159674        0.123861
281704                 -0.580726        0.274179       0.00119248    -0.000838816       -0.0992056        0.710477      0.000988927     0.000241337
                      0.00112131    -0.000510957        -0.188628       0.0909963      0.000677858     0.000827622         0.522037        0.819352
                      -0.0986579        0.710466       0.00126318     0.000692888        -0.387904       -0.482018      0.000919689      0.00115907
                      0.00077949     0.000404826         0.522181        0.819027      0.000809053      0.00101942        -0.159531        0.123973
281706                 -0.579899         0.27444       0.00119036    -0.000840169       -0.0984263        0.711239      0.000988826     0.000239581
                      0.00112008    -0.000513317        -0.188579       0.0909917      0.000663465     0.000772883         0.522427        0.819117
                      -0.0978766        0.711231       0.00126312     0.000690507        -0.388397       -0.480826      0.000921125       0.0011577
                     0.000780643     0.000403454         0.522571        0.818793      0.000887742      0.00102812        -0.159387        0.124085
281708                 -0.579073        0.274699       0.00118823    -0.000841517       -0.0976487        0.711995      0.000988722     0.000237834
                      0.00111886    -0.000515662        -0.188529       0.0909871      0.000684788     0.000669837         0.522818        0.818882
                      -0.0970941        0.711993       0.00126305     0.000688128        -0.388887       -0.479636      0.000922549      0.00115633
                     0.000781726     0.000402099         0.522961         0.81856      0.000960447      0.00110534        -0.159244        0.124197
281710                 -0.578248        0.274956       0.00118611    -0.000842861       -0.0968747        0.712741      0.000988615     0.000236096
                      0.00111769    -0.000517931         -0.18848       0.0909825      0.000755413     0.000601244         0.523208        0.818647
                      -0.0963106        0.712753       0.00126298     0.000685752        -0.389373       -0.478449      0.000923963      0.00115497
                     0.000782425     0.000400526         0.523351        0.818326      0.000967256      0.00116899          -0.1591        0.124309
281712                 -0.577424        0.275211       0.00118398      -0.0008442       -0.0961084        0.713472      0.000988505     0.000234368
                       0.0011163    -0.000520035        -0.188431       0.0909779      0.000815262     0.000581998         0.523598        0.818412
                      -0.0955259        0.713509       0.00126291     0.000683378        -0.389855       -0.477268      0.000925365      0.00115361
                     0.000784332     0.000398783         0.523741        0.818093      0.000959785      0.00119824        -0.158957         0.12442
281714                 -0.576601        0.275464       0.00118185    -0.000845534       -0.0953603        0.714173      0.000988392     0.000232648
                      0.00111487    -0.000522473        -0.188381       0.0909734      0.000850803      0.00058007         0.523988        0.818176
                      -0.0947402        0.714262       0.00126284     0.000681005        -0.390331       -0.476097      0.000926757      0.00115226
                     0.000785491     0.000397605         0.524131        0.817859      0.000954015      0.00121129        -0.158813        0.124531
281716                 -0.575779        0.275715       0.00117972    -0.000846863       -0.0946725        0.714781      0.000988276     0.000230938
                      0.00111358    -0.000524863        -0.188332       0.0909688      0.000871053     0.000581205         0.524378        0.817941
                      -0.0939536        0.715013       0.00126276     0.000678635        -0.390794       -0.474958      0.000928137      0.00115091
                     0.000786614     0.000396268         0.524521        0.817624      0.000950778      0.00121738        -0.158669        0.124642
281718                 -0.574958        0.275964       0.00117758    -0.000848187       -0.0945112        0.714399      0.000988156     0.000229237
                      0.00111231    -0.000527202        -0.188283       0.0909642      0.000883076     0.000582017         0.524768        0.817705
                      -0.0931661        0.715761       0.00126268     0.000676267        -0.391009       -0.474043      0.000929507      0.00114956
                     0.000787736     0.000394895          0.52491         0.81739      0.000949222      0.00122022        -0.158526        0.124753
281720                 -0.574139         0.27621       0.00117544    -0.000849506       -0.0923168        0.717244      0.000988034     0.000227544
                      0.00111102    -0.000529518        -0.188234       0.0909597      0.000890618     0.000582027         0.525157        0.817469
                      -0.0923775        0.716506        0.0012626     0.000673901         -0.39172       -0.472271      0.000930867      0.00114822
                     0.000788855     0.000393508         0.525299        0.817156      0.000948689       0.0012214        -0.158382        0.124864
281722                  -0.57332        0.276455       0.00117331    -0.000850819       -0.0918455        0.717629      0.000987909     0.000225861
                      0.00110973    -0.000531819        -0.188185       0.0909551      0.000895608     0.000581358         0.525547        0.817233
                       -0.091588        0.717248       0.00126251     0.000671537        -0.392218       -0.471193      0.000932215      0.00114688
                     0.000789968     0.000392116         0.525688        0.816921      0.000948775      0.00122165        -0.158238        0.124975
281724                 -0.572503        0.276698       0.00117117    -0.000852127       -0.0911294        0.718278      0.000987781     0.000224187
                      0.00110843    -0.000534109        -0.188136       0.0909506      0.000899074     0.000580198         0.525936        0.816997
                      -0.0907974        0.717988       0.00126242     0.000669174        -0.392684       -0.470039      0.000933553      0.00114555
                     0.000791075      0.00039072         0.526077        0.816686      0.000949244      0.00122136        -0.158095        0.125086
281726                 -0.571687        0.276938       0.00116902     -0.00085343       -0.0903696        0.718974       0.00098765     0.000222522
                      0.00110713    -0.000536389        -0.188087       0.0909461      0.000901595       0.0005787         0.526325         0.81676
                      -0.0900059        0.718724       0.00126233     0.000666814        -0.393144       -0.468869      0.000934881      0.00114422
                     0.000792174     0.000389321         0.526466        0.816451      0.000949957      0.00122073        -0.157951        0.125196
281728                 -0.570872        0.277177       0.00116688    -0.000854727       -0.0895938        0.719687      0.000987516     0.000220865
                      0.00110582    -0.000538659        -0.188038       0.0909416      0.000903508     0.000576971         0.526714        0.816523
                      -0.0892134        0.719458       0.00126223     0.000664456          -0.3936       -0.467695      0.000936198      0.00114289
                     0.000793266     0.000387921         0.526855        0.816216      0.000950825       0.0012199        -0.157807        0.125306
281730                 -0.570058        0.277414       0.00116473    -0.000856018       -0.0888102        0.720405       0.00098738     0.000219218
                       0.0011045    -0.000540921        -0.187989        0.090937       0.00090502     0.000575085         0.527103        0.816287
                      -0.0884199        0.720189       0.00126213     0.000662099        -0.394052       -0.466519      0.000937505      0.00114157
                     0.000794351     0.000386519         0.527244         0.81598      0.000951797      0.00121892        -0.157663        0.125417
281732                 -0.569245        0.277649       0.00116258    -0.000857304       -0.0880219        0.721125      0.000987241     0.000217579
                      0.00110317    -0.000543174         -0.18794       0.0909325      0.000906262      0.00057309         0.527492         0.81605
                      -0.0876255        0.720918       0.00126202     0.000659744        -0.394501       -0.465342      0.000938801      0.00114025
                     0.000795428     0.000385116         0.527632        0.815745      0.000952835      0.00121785         -0.15752        0.125527
281734                 -0.568433        0.277881       0.00116043    -0.000858584       -0.0872305        0.721845        0.0009871      0.00021595
                      0.00110185    -0.000545419        -0.187891        0.090928      0.000907317     0.000571021          0.52788        0.815812
                      -0.0868301        0.721643       0.00126191     0.000657392        -0.394947       -0.464165      0.000940087      0.00113893
                     0.000796497     0.000383712          0.52802        0.815509      0.000953919      0.00121672        -0.157376        0.125637
281736                 -0.567623        0.278112       0.00115828    -0.000859857       -0.0864367        0.722564      0.000986956     0.000214329
                      0.00110051    -0.000547656        -0.187842       0.0909235      0.000908242     0.000568901         0.528268        0.815575
                      -0.0860338        0.722366        0.0012618     0.000655041        -0.395389       -0.462989      0.000941363      0.00113763
                     0.000797559     0.000382307         0.528409        0.815273      0.000955033      0.00121555        -0.157232        0.125746
281738                 -0.566814        0.278341       0.00115612    -0.000861125       -0.0856412        0.723282      0.000986809     0.000212717
                      0.00109917    -0.000549885        -0.187793       0.0909191      0.000909075     0.000566744         0.528657        0.815338
                      -0.0852367        0.723086       0.00126168     0.000652691        -0.395828       -0.461813       0.00094263      0.00113632
                     0.000798614     0.000380902         0.528797        0.815037      0.000956165      0.00121434        -0.157088        0.125856
281740                 -0.566006        0.278568       0.00115397    -0.000862387       -0.0848441        0.723997       0.00098666     0.000211113
                      0.00109783    -0.000552105        -0.187744       0.0909146      0.000909842     0.000564563         0.529045          0.8151
                      -0.0844386        0.723804       0.00126156     0.000650344        -0.396264       -0.460639      0.000943886      0.00113502
                      0.00079966     0.000379496         0.529184        0.814801       0.00095731      0.00121311        -0.156944        0.125965
281742                 -0.565199        0.278793       0.00115181    -0.000863643       -0.0840456        0.724711      0.000986509     0.000209518
                      0.00109647    -0.000554318        -0.187696       0.0909101      0.000910562     0.000562365         0.529433        0.814862
                      -0.0836396        0.724518       0.00126143     0.000647999        -0.396697       -0.459465      0.000945132      0.00113372
                     0.000800699     0.000378089         0.529572        0.814564      0.000958462      0.00121187          -0.1568        0.126075
281744                 -0.564393        0.279016       0.00114965    -0.000864892        -0.083246        0.725422      0.000986356     0.000207932
                      0.00109512    -0.000556522        -0.187647       0.0909057      0.000911247     0.000560155          0.52982        0.814624
                      -0.0828397         0.72523        0.0012613     0.000645655        -0.397126       -0.458292      0.000946369      0.00113243
                     0.000801731     0.000376682          0.52996        0.814328      0.000959618      0.00121062        -0.156656        0.126184
281746                 -0.563588        0.279237       0.00114748    -0.000866136       -0.0824453         0.72613        0.0009862     0.000206354
                      0.00109376    -0.000558719        -0.187598       0.0909012      0.000911906     0.000557937         0.530208        0.814386
                       -0.082039        0.725939       0.00126117     0.000643313        -0.397551        -0.45712      0.000947596      0.00113115
                     0.000802755     0.000375275         0.530347        0.814091      0.000960774      0.00120936        -0.156512        0.126293
281748                 -0.562785        0.279456       0.00114532    -0.000867373       -0.0816436        0.726836      0.000986042     0.000204785
                      0.00109239    -0.000560908         -0.18755       0.0908967      0.000912547     0.000555715         0.530595        0.814148
                      -0.0812374        0.726646       0.00126103     0.000640973        -0.397974        -0.45595      0.000948813      0.00112986
                     0.000803772     0.000373867         0.530734        0.813854       0.00096193       0.0012081        -0.156368        0.126402
281750                 -0.561982        0.279674       0.00114315    -0.000868603       -0.0808409        0.727539      0.000985882     0.000203224
                      0.00109102    -0.000563089        -0.187501       0.0908923      0.000913173      0.00055349         0.530983        0.813909
                      -0.0804349        0.727349       0.00126089     0.000638635        -0.398393        -0.45478      0.000950021      0.00112859
                     0.000804781     0.000372459         0.531122        0.813617      0.000963084      0.00120683        -0.156224        0.126511
281752                 -0.561181        0.279889       0.00114098    -0.000869827       -0.0800373         0.72824      0.000985719     0.000201671
                      0.00108964    -0.000565263        -0.187453       0.0908879      0.000913789     0.000551263          0.53137         0.81367
                      -0.0796316         0.72805       0.00126074     0.000636299         -0.39881       -0.453611      0.000951219      0.00112731
                     0.000805783      0.00037105         0.531509        0.813379      0.000964235      0.00120556         -0.15608        0.126619
281754                 -0.560381        0.280103       0.00113881    -0.000871045       -0.0792329        0.728938      0.000985555     0.000200127
                      0.00108826    -0.000567429        -0.187404       0.0908834      0.000914396     0.000549035         0.531757        0.813432
                      -0.0788275        0.728749       0.00126059     0.000633964        -0.399222       -0.452444      0.000952408      0.00112605
                     0.000806778     0.000369641         0.531895        0.813142      0.000965383      0.00120429        -0.155935        0.126728
281756                 -0.559582        0.280314       0.00113664    -0.000872256       -0.0784275        0.729633      0.000985388      0.00019859
                      0.00108687    -0.000569587        -0.187356        0.090879      0.000914996     0.000546808         0.532144        0.813192
                      -0.0780226        0.729444       0.00126043     0.000631632        -0.399632       -0.451278      0.000953588      0.00112478
                     0.000807766     0.000368232         0.532282        0.812904      0.000966527      0.00120302        -0.155791        0.126836
281758                 -0.558785        0.280524       0.00113446     -0.00087346       -0.0776214        0.730325       0.00098522     0.000197062
                      0.00108548    -0.000571737        -0.187308       0.0908746      0.000915591     0.000544581          0.53253        0.812953
                      -0.0772168        0.730137       0.00126027       0.0006293        -0.400039       -0.450113      0.000954759      0.00112352
                     0.000808746     0.000366822         0.532669        0.812666      0.000967667      0.00120175        -0.155647        0.126944
281760                 -0.557988        0.280732       0.00113228    -0.000874658       -0.0768144        0.731015      0.000985049     0.000195542
                      0.00108409     -0.00057388        -0.187259       0.0908702      0.000916182     0.000542356         0.532917        0.812714
                      -0.0764102        0.730827        0.0012601      0.00062697        -0.400442       -0.448949      0.000955921      0.00112227
                     0.000809719     0.000365412         0.533055        0.812428      0.000968802      0.00120048        -0.155503        0.127052
281762                 -0.557193        0.280938       0.00113011     -0.00087585       -0.0760066        0.731702      0.000984877     0.000194029
                      0.00108268    -0.000576015        -0.187211       0.0908658      0.000916768     0.000540131         0.533303        0.812474
                      -0.0756029        0.731514       0.00125992     0.000624641        -0.400842       -0.447786      0.000957075      0.00112102
