! TOUCHSTONE file generated by CST MICROWAVE STUDIO
! Date and time: Tue Oct 14 07:24:47 2025
! Project name: Teste_Macro_Metasurface_Nanopilar.cst
! Parameters = {H=600; L_x=70; L_y=75; Lambda=1064; Max_L=200; Min_L=70; PathPara=1; Phi=0; Step_L=10; Theta=0; p=520; phaseX=180; phaseY=0}
! Header version: 2018
! Port assignment regex: !\s*Touchstone port\s*([0-9]+)\s*=\s*(CST MWS port|CST DS port)\s*([0-9]+|Zmin|Zmax)\s*\(\"(.*)\"\)(\s*mode\s*([0-9]+))?.*
! Touchstone port assignment:
! Touchstone port 1 = CST MWS port Zmax ("") mode 1
! Touchstone port 2 = CST MWS port Zmax ("") mode 2
! Touchstone port 3 = CST MWS port Zmin ("") mode 1
! Touchstone port 4 = CST MWS port Zmin ("") mode 2
! S-Parameters are not renormalized. Each port impedance will be approximated by the real part at minimum frequency. The values are described via the [Reference] keyword.
! Default impedance is overridden by [Reference]
[Version] 2.0
# GHz S RI R 376.73
[Number of Ports] 4
[Reference]
376.73 376.73 259.814 259.814 
[Number of Frequencies] 51
[Network Data]
281700                 -0.063763          0.1317      0.000397821     -0.00021098         0.965138        0.215414     -0.000223674     0.000279769
                     0.000485957     -0.00020993       -0.0689303         0.13447     -0.000172049     0.000341036         0.957091        0.245344
                        0.965159        0.215738      1.67676e-05     0.000500719        0.0015922        0.146353     -0.000558062    -0.000508733
                    -0.000106939     0.000369609         0.957508        0.245357     -0.000534655    -0.000428542      -0.00428273        0.151087
281702                -0.0637186        0.131719      0.000397759    -0.000211224         0.965215        0.215069     -0.000223901     0.000279998
                     0.000485901    -0.000210318       -0.0688853        0.134491     -0.000171815     0.000341112         0.957179        0.245003
                        0.965236        0.215392      1.71017e-05      0.00050071       0.00164881         0.14635     -0.000558435    -0.000508659
                    -0.000106785     0.000369601         0.957596        0.245014     -0.000534728    -0.000428412       -0.0042242        0.151087
281704                -0.0636741        0.131738      0.000397698    -0.000211467         0.965293        0.214723     -0.000224129      0.00028023
                     0.000485844    -0.000210707       -0.0688402        0.134512     -0.000171582     0.000341188         0.957266        0.244661
                        0.965314        0.215047      1.74358e-05       0.0005007       0.00170542        0.146347     -0.000558809    -0.000508584
                    -0.000106631     0.000369592         0.957683        0.244672       -0.0005348    -0.000428283      -0.00416567        0.151086
281706                -0.0636297        0.131757      0.000397636     -0.00021171          0.96537        0.214378     -0.000224359     0.000280464
                     0.000485787    -0.000211096       -0.0687952        0.134533     -0.000171349     0.000341263         0.957354        0.244319
                        0.965391        0.214701      1.77699e-05      0.00050069       0.00176202        0.146343     -0.000559185    -0.000508509
                    -0.000106476     0.000369583         0.957771         0.24433     -0.000534872    -0.000428154      -0.00410714        0.151086
281708                -0.0635852        0.131775      0.000397573    -0.000211953         0.965447        0.214032     -0.000224589     0.000280699
                      0.00048573    -0.000211484       -0.0687502        0.134553     -0.000171116     0.000341338         0.957441        0.243978
                        0.965468        0.214355       1.8104e-05     0.000500679       0.00181863         0.14634     -0.000559562    -0.000508432
                    -0.000106322     0.000369574         0.957859        0.243988     -0.000534944    -0.000428025      -0.00404861        0.151085
281710                -0.0635407        0.131794      0.000397511    -0.000212196         0.965524        0.213686     -0.000224821     0.000280937
                     0.000485672    -0.000211873       -0.0687051        0.134574     -0.000170883     0.000341412         0.957528        0.243636
                        0.965545         0.21401      1.84382e-05     0.000500667       0.00187523        0.146337     -0.000559941    -0.000508354
                    -0.000106168     0.000369564         0.957946        0.243645     -0.000535016    -0.000427896      -0.00399009        0.151085
281712                -0.0634963        0.131813      0.000397448    -0.000212438         0.965601        0.213341     -0.000225054     0.000281176
                     0.000485615    -0.000212262       -0.0686601        0.134595      -0.00017065     0.000341486         0.957615        0.243294
                        0.965622        0.213664      1.87723e-05     0.000500656       0.00193183        0.146334      -0.00056032    -0.000508275
                    -0.000106014     0.000369555         0.958033        0.243303     -0.000535088    -0.000427768      -0.00393156        0.151084
281714                -0.0634518        0.131832      0.000397385     -0.00021268         0.965678        0.212995     -0.000225287     0.000281418
                     0.000485557     -0.00021265        -0.068615        0.134616     -0.000170418     0.000341559         0.957702        0.242952
                        0.965699        0.213318      1.91064e-05     0.000500643       0.00198843        0.146331     -0.000560701    -0.000508196
                     -0.00010586     0.000369546         0.958121        0.242961      -0.00053516    -0.000427639      -0.00387304        0.151084
281716                -0.0634073        0.131851      0.000397322    -0.000212921         0.965755        0.212649     -0.000225522     0.000281662
                     0.000485499    -0.000213039       -0.0685699        0.134636     -0.000170185     0.000341631         0.957789        0.242611
                        0.965776        0.212972      1.94405e-05      0.00050063       0.00204503        0.146328     -0.000561084    -0.000508115
                    -0.000105705     0.000369536         0.958208        0.242618     -0.000535232    -0.000427511      -0.00381451        0.151083
281718                -0.0633628        0.131869      0.000397259    -0.000213163         0.965831        0.212304     -0.000225758     0.000281907
                     0.000485441    -0.000213428       -0.0685249        0.134657     -0.000169953     0.000341704         0.957876        0.242269
                        0.965852        0.212626      1.97747e-05     0.000500617       0.00210162        0.146325     -0.000561468    -0.000508033
                    -0.000105552     0.000369526         0.958294        0.242276     -0.000535304    -0.000427383      -0.00375599        0.151082
281720                -0.0633183        0.131888      0.000397196    -0.000213404         0.965908        0.211958     -0.000225994     0.000282155
                     0.000485383    -0.000213817       -0.0684798        0.134678     -0.000169722     0.000341776         0.957962        0.241927
                        0.965929        0.212281      2.01088e-05     0.000500603       0.00215821        0.146321     -0.000561853     -0.00050795
                    -0.000105398     0.000369516         0.958381        0.241933     -0.000535375    -0.000427255      -0.00369747        0.151082
281722                -0.0632738        0.131907      0.000397133    -0.000213646         0.965984        0.211612     -0.000226232     0.000282405
                     0.000485324    -0.000214206       -0.0684347        0.134698      -0.00016949     0.000341847         0.958049        0.241585
                        0.966005        0.211935      2.04428e-05     0.000500589        0.0022148        0.146318     -0.000562239    -0.000507867
                    -0.000105244     0.000369506         0.958468        0.241591     -0.000535447    -0.000427128      -0.00363895        0.151081
281724                -0.0632293        0.131925       0.00039707    -0.000213887          0.96606        0.211266     -0.000226471     0.000282657
                     0.000485265    -0.000214595       -0.0683896        0.134719     -0.000169259     0.000341918         0.958135        0.241243
                        0.966081        0.211589      2.07769e-05     0.000500574       0.00227139        0.146315     -0.000562627    -0.000507782
                     -0.00010509     0.000369496         0.958555        0.241248     -0.000535519    -0.000427001      -0.00358043         0.15108
281726                -0.0631848        0.131944      0.000397007    -0.000214128         0.966136         0.21092     -0.000226711     0.000282911
                     0.000485206    -0.000214983       -0.0683445        0.134739     -0.000169028     0.000341988         0.958222        0.240901
                        0.966157        0.211243      2.11109e-05     0.000500558       0.00232797        0.146312     -0.000563017    -0.000507696
                    -0.000104937     0.000369486         0.958641        0.240906      -0.00053559    -0.000426874      -0.00352191         0.15108
281728                -0.0631403        0.131963      0.000396943     -0.00021437         0.966212        0.210574     -0.000226951     0.000283167
                     0.000485146    -0.000215372       -0.0682994         0.13476     -0.000168797     0.000342058         0.958308        0.240559
                        0.966233        0.210897      2.14448e-05     0.000500542       0.00238456        0.146308     -0.000563407    -0.000507609
                    -0.000104784     0.000369475         0.958727        0.240563     -0.000535661    -0.000426747      -0.00346339        0.151079
281730                -0.0630958        0.131981      0.000396879    -0.000214611         0.966288        0.210229     -0.000227193     0.000283425
                     0.000485087    -0.000215761       -0.0682543        0.134781     -0.000168566     0.000342128         0.958394        0.240217
                        0.966309        0.210551      2.17787e-05     0.000500525       0.00244114        0.146305     -0.000563799    -0.000507521
                    -0.000104631     0.000369464         0.958813        0.240221     -0.000535733     -0.00042662      -0.00340487        0.151078
281732                -0.0630512           0.132      0.000396816    -0.000214853         0.966364        0.209883     -0.000227436     0.000283685
                     0.000485027     -0.00021615       -0.0682092        0.134801     -0.000168336     0.000342197          0.95848        0.239875
                        0.966384        0.210205      2.21125e-05     0.000500508       0.00249772        0.146302     -0.000564193    -0.000507432
                    -0.000104479     0.000369452           0.9589        0.239878     -0.000535804    -0.000426493      -0.00334636        0.151077
281734                -0.0630067        0.132019      0.000396752    -0.000215094         0.966439        0.209537      -0.00022768     0.000283948
                     0.000484967    -0.000216539        -0.068164        0.134822     -0.000168106     0.000342266         0.958565        0.239533
                         0.96646        0.209859      2.24461e-05      0.00050049       0.00255429        0.146298     -0.000564588    -0.000507342
                    -0.000104327     0.000369438         0.958985        0.239535     -0.000535875    -0.000426367      -0.00328784        0.151077
281736                -0.0629622        0.132037      0.000396687    -0.000215336         0.966515        0.209191     -0.000227925     0.000284212
                     0.000484907    -0.000216928       -0.0681189        0.134842     -0.000167876     0.000342334         0.958651        0.239191
                        0.966535        0.209513      2.27796e-05     0.000500472       0.00261087        0.146295     -0.000564984    -0.000507251
                    -0.000104175     0.000369422         0.959071        0.239193     -0.000535947    -0.000426241      -0.00322933        0.151076
281738                -0.0629176        0.132056      0.000396622    -0.000215578          0.96659        0.208845     -0.000228171     0.000284479
                     0.000484846    -0.000217317       -0.0680738        0.134863     -0.000167647     0.000342402         0.958736        0.238848
                        0.966611        0.209167      2.31128e-05     0.000500453       0.00266744        0.146291     -0.000565382    -0.000507159
                    -0.000104019     0.000369403         0.959157         0.23885     -0.000536018    -0.000426115      -0.00317082        0.151075
281740                -0.0628731        0.132074      0.000396556     -0.00021582         0.966665        0.208499     -0.000228418     0.000284748
                     0.000484785    -0.000217706       -0.0680286        0.134883     -0.000167418      0.00034247         0.958822        0.238506
                        0.966686         0.20882      2.34456e-05     0.000500433       0.00272401        0.146288     -0.000565781    -0.000507066
                    -0.000103856     0.000369384         0.959243        0.238507     -0.000536089    -0.000425989      -0.00311231        0.151074
281742                -0.0628285        0.132093       0.00039649    -0.000216063          0.96674        0.208153     -0.000228666     0.000285019
                     0.000484724    -0.000218095       -0.0679835        0.134904     -0.000167189     0.000342537         0.958907        0.238164
                        0.966761        0.208474      2.37778e-05     0.000500413       0.00278058        0.146285     -0.000566181    -0.000506972
                     -0.00010369     0.000369374         0.959328        0.238164      -0.00053616    -0.000425863       -0.0030538        0.151073
281744                -0.0627839        0.132111      0.000396422    -0.000216305         0.966815        0.207806     -0.000228915     0.000285292
                     0.000484663    -0.000218484       -0.0679383        0.134924      -0.00016696     0.000342603         0.958992        0.237822
                        0.966836        0.208128      2.41091e-05     0.000500391       0.00283714        0.146281     -0.000566583    -0.000506877
                     -0.00010353     0.000369369         0.959413        0.237822     -0.000536231    -0.000425737      -0.00299529        0.151072
281746                -0.0627394         0.13213      0.000396352    -0.000216548          0.96689         0.20746     -0.000229165     0.000285567
                     0.000484601    -0.000218873       -0.0678931        0.134945     -0.000166731      0.00034267         0.959077         0.23748
                        0.966911        0.207782      2.44387e-05     0.000500368        0.0028937        0.146278     -0.000566986    -0.000506781
                    -0.000103374     0.000369364         0.959499        0.237479     -0.000536302    -0.000425612      -0.00293678        0.151071
281748                -0.0626948        0.132148      0.000396276    -0.000216793         0.966965        0.207114     -0.000229416     0.000285844
                     0.000484541    -0.000219262        -0.067848        0.134965     -0.000166503     0.000342736         0.959162        0.237137
                        0.966985        0.207436      2.47646e-05     0.000500343       0.00295026        0.146274     -0.000567391    -0.000506683
                    -0.000103219     0.000369356         0.959584        0.237136     -0.000536373    -0.000425487      -0.00287827        0.151071
281750                -0.0626502        0.132167      0.000396186    -0.000217043         0.967039        0.206768     -0.000229667     0.000286124
                     0.000484478    -0.000219653       -0.0678028        0.134985     -0.000166275     0.000342801         0.959247        0.236795
                         0.96706        0.207089      2.50804e-05     0.000500313       0.00300682        0.146271     -0.000567797    -0.000506585
                    -0.000103065     0.000369347         0.959669        0.236793     -0.000536444    -0.000425362      -0.00281976         0.15107
281752                -0.0626056        0.132185      0.000395991    -0.000217388         0.967114        0.206422      -0.00022992     0.000286406
                     0.000484414    -0.000220042       -0.0677576        0.135006     -0.000166048     0.000342866         0.959332        0.236453
                        0.967134        0.206743      2.53407e-05     0.000500243       0.00306338        0.146267     -0.000568204    -0.000506485
                    -0.000102911     0.000369338         0.959754         0.23645     -0.000536515    -0.000425237      -0.00276126        0.151069
281754                 -0.062561        0.132204      0.000396244    -0.000217532         0.967188        0.206076     -0.000230174      0.00028669
                     0.000484351    -0.000220431       -0.0677124        0.135026     -0.000165821     0.000342931         0.959416         0.23611
                        0.967209        0.206397      2.60025e-05     0.000500306       0.00311993        0.146263     -0.000568613    -0.000506384
                    -0.000102757     0.000369328         0.959838        0.236107     -0.000536586    -0.000425112      -0.00270275        0.151068
281756                -0.0625165        0.132222      0.000396103    -0.000217756         0.967262        0.205729     -0.000230429     0.000286976
                     0.000484287     -0.00022082       -0.0676672        0.135047     -0.000165595     0.000342995         0.959501        0.235768
                        0.967283         0.20605      2.61904e-05      0.00050028       0.00317648         0.14626     -0.000569023    -0.000506283
                    -0.000102603     0.000369318         0.959923        0.235764     -0.000536657    -0.000424986      -0.00264425        0.151067
281758                -0.0624719        0.132241      0.000396018    -0.000217997         0.967337        0.205383     -0.000230685     0.000287264
                     0.000484224    -0.000221209        -0.067622        0.135067     -0.000165361     0.000343051         0.959585        0.235425
                        0.967357        0.205704      2.64999e-05      0.00050025       0.00323303        0.146256     -0.000569435     -0.00050618
                    -0.000102448     0.000369307         0.960007        0.235421     -0.000536724    -0.000424868      -0.00258575        0.151065
281760                -0.0624272        0.132259      0.000395942     -0.00021824          0.96741        0.205037     -0.000230942     0.000287555
                      0.00048416    -0.000221597       -0.0675768        0.135087     -0.000165138     0.000343123         0.959669        0.235083
                        0.967431        0.205358      2.68238e-05     0.000500222       0.00328957        0.146252     -0.000569848    -0.000506076
                    -0.000102294     0.000369296         0.960091        0.235078     -0.000536797     -0.00042474      -0.00252725        0.151064
281762                -0.0623826        0.132278      0.000395871    -0.000218482         0.967484         0.20469       -0.0002312     0.000287848
                     0.000484095    -0.000221986       -0.0675316        0.135108     -0.000164913     0.000343187         0.959753         0.23474
                        0.967505        0.205011      2.71522e-05     0.000500195       0.00334612        0.146249     -0.000570263     -0.00050597
