! TOUCHSTONE file generated by CST MICROWAVE STUDIO
! Date and time: Tue Oct 14 07:32:42 2025
! Project name: Teste_Macro_Metasurface_Nanopilar.cst
! Parameters = {H=600; L_x=195; L_y=105; Lambda=1064; Max_L=200; Min_L=70; PathPara=1; Phi=0; Step_L=10; Theta=0; p=520; phaseX=180; phaseY=0}
! Header version: 2018
! Port assignment regex: !\s*Touchstone port\s*([0-9]+)\s*=\s*(CST MWS port|CST DS port)\s*([0-9]+|Zmin|Zmax)\s*\(\"(.*)\"\)(\s*mode\s*([0-9]+))?.*
! Touchstone port assignment:
! Touchstone port 1 = CST MWS port Zmax ("") mode 1
! Touchstone port 2 = CST MWS port Zmax ("") mode 2
! Touchstone port 3 = CST MWS port Zmin ("") mode 1
! Touchstone port 4 = CST MWS port Zmin ("") mode 2
! S-Parameters are not renormalized. Each port impedance will be approximated by the real part at minimum frequency. The values are described via the [Reference] keyword.
! Default impedance is overridden by [Reference]
[Version] 2.0
# GHz S RI R 376.73
[Number of Ports] 4
[Reference]
376.73 376.73 259.814 259.814 
[Number of Frequencies] 51
[Network Data]
281700                 -0.142898       0.0137352     -0.000440781     0.000278291        -0.956987        0.215969     -0.000236407    -0.000518787
                    -0.000164223     0.000533678        -0.224318        0.259317     -0.000225136    -0.000137149         0.415177        0.833369
                       -0.957041        0.216156     -0.000473215     0.000122547         0.133512      -0.0465035       0.00041466    -0.000586767
                    -0.000356256    -0.000488849         0.415434        0.833804      0.000607531    -0.000491919          -0.3363       0.0104944
281702                 -0.142874       0.0137753     -0.000440952     0.000278499        -0.956879        0.216459      -0.00023669    -0.000518304
                    -0.000163755     0.000533876        -0.224179        0.259299     -0.000225335    -0.000136859         0.415621        0.833192
                       -0.956933        0.216648     -0.000473288     0.000122845         0.133459      -0.0465942      0.000414354    -0.000586696
                    -0.000356727    -0.000488272         0.415879        0.833627      0.000607214    -0.000491853        -0.336187       0.0107446
281704                  -0.14285       0.0138155     -0.000441124     0.000278707        -0.956772         0.21695     -0.000236971    -0.000517821
                    -0.000163289     0.000534072        -0.224039        0.259281     -0.000225535    -0.000136565         0.416066        0.833015
                       -0.956825         0.21714     -0.000473361     0.000123144         0.133406      -0.0466849      0.000414049    -0.000586625
                    -0.000357197    -0.000487696         0.416325        0.833451      0.000606897    -0.000491788        -0.336075       0.0109947
281706                 -0.142826       0.0138556     -0.000441296     0.000278916        -0.956664        0.217441     -0.000237251    -0.000517338
                    -0.000162823     0.000534267        -0.223899        0.259263     -0.000225736     -0.00013627         0.416511        0.832838
                       -0.956716        0.217631     -0.000473434     0.000123444         0.133353      -0.0467755      0.000413743    -0.000586554
                    -0.000357664     -0.00048712          0.41677        0.833273      0.000606578    -0.000491723        -0.335962       0.0112446
281708                 -0.142802       0.0138956     -0.000441468     0.000279124        -0.956556        0.217931      -0.00023753    -0.000516855
                    -0.000162359     0.000534461        -0.223759        0.259245     -0.000225939    -0.000135972         0.416955         0.83266
                       -0.956608        0.218122     -0.000473506     0.000123743         0.133299       -0.046866      0.000413438    -0.000586482
                    -0.000358129    -0.000486544         0.417215        0.833096      0.000606258     -0.00049166        -0.335849       0.0114944
281710                 -0.142778       0.0139357     -0.000441641     0.000279334        -0.956447        0.218422     -0.000237807    -0.000516371
                    -0.000161895     0.000534653         -0.22362        0.259228     -0.000226144    -0.000135671         0.417399        0.832483
                       -0.956499        0.218614     -0.000473579     0.000124043         0.133246      -0.0469565      0.000413132    -0.000586409
                    -0.000358592    -0.000485969          0.41766        0.832918      0.000605937    -0.000491597        -0.335736        0.011744
281712                 -0.142754       0.0139758     -0.000441815     0.000279543        -0.956338        0.218912     -0.000238082    -0.000515887
                    -0.000161432     0.000534843         -0.22348         0.25921     -0.000226349    -0.000135368         0.417843        0.832305
                       -0.956389        0.219105     -0.000473651     0.000124343         0.133193       -0.047047      0.000412826    -0.000586335
                    -0.000359053    -0.000485394         0.418105         0.83274      0.000605615    -0.000491536        -0.335623       0.0119934
281714                  -0.14273       0.0140158     -0.000441989     0.000279754         -0.95623        0.219402     -0.000238356    -0.000515403
                    -0.000160969     0.000535032        -0.223341        0.259192     -0.000226557    -0.000135063         0.418288        0.832127
                        -0.95628        0.219596     -0.000473723     0.000124643         0.133139      -0.0471374       0.00041252     -0.00058626
                    -0.000359511    -0.000484819          0.41855        0.832562      0.000605291    -0.000491475        -0.335509       0.0122426
281716                 -0.142706       0.0140558     -0.000442163     0.000279964         -0.95612        0.219893     -0.000238628    -0.000514919
                    -0.000160508     0.000535219        -0.223202        0.259174     -0.000226766    -0.000134755         0.418732        0.831948
                        -0.95617        0.220087     -0.000473795     0.000124944         0.133086      -0.0472277      0.000412213    -0.000586185
                    -0.000359968    -0.000484244         0.418995        0.832384      0.000604966    -0.000491415        -0.335396       0.0124917
281718                 -0.142682       0.0140958     -0.000442338     0.000280175        -0.956011        0.220383     -0.000238898    -0.000514435
                    -0.000160047     0.000535405        -0.223062        0.259156     -0.000226976    -0.000134445         0.419175         0.83177
                        -0.95606        0.220578     -0.000473867     0.000125244         0.133032      -0.0473181      0.000411906    -0.000586109
                    -0.000360422    -0.000483669         0.419439        0.832205      0.000604641    -0.000491356        -0.335282       0.0127407
281720                 -0.142658       0.0141358     -0.000442514     0.000280386        -0.955901        0.220873     -0.000239167     -0.00051395
                    -0.000159586     0.000535589        -0.222923        0.259138     -0.000227188    -0.000134132         0.419619        0.831591
                        -0.95595        0.221069     -0.000473939     0.000125545         0.132978      -0.0474083        0.0004116    -0.000586032
                    -0.000360873    -0.000483094         0.419884        0.832026      0.000604313    -0.000491298        -0.335168       0.0129895
281722                 -0.142634       0.0141757     -0.000442689     0.000280597        -0.955791        0.221363     -0.000239433    -0.000513465
                    -0.000159127     0.000535771        -0.222784        0.259119     -0.000227401    -0.000133817         0.420063        0.831412
                       -0.955839         0.22156     -0.000474011     0.000125847         0.132925      -0.0474985      0.000411292    -0.000585955
                    -0.000361323     -0.00048252         0.420328        0.831847      0.000603985    -0.000491241        -0.335054       0.0132381
281724                  -0.14261       0.0142156     -0.000442866     0.000280809        -0.955681        0.221853     -0.000239698    -0.000512979
                    -0.000158668     0.000535951        -0.222645        0.259101     -0.000227616      -0.0001335         0.420506        0.831232
                       -0.955728        0.222051     -0.000474082     0.000126148         0.132871      -0.0475887      0.000410985    -0.000585876
                     -0.00036177    -0.000481945         0.420772        0.831668      0.000603656    -0.000491185         -0.33494       0.0134865
281726                 -0.142586       0.0142556     -0.000443043     0.000281022        -0.955571        0.222343     -0.000239962    -0.000512493
                    -0.000158209     0.000536129        -0.222506        0.259083     -0.000227832     -0.00013318         0.420949        0.831052
                       -0.955617        0.222542     -0.000474153      0.00012645         0.132817      -0.0476788      0.000410677    -0.000585796
                    -0.000362215     -0.00048137         0.421216        0.831488      0.000603325     -0.00049113        -0.334826       0.0137348
281728                 -0.142562       0.0142954      -0.00044322     0.000281234         -0.95546        0.222833     -0.000240223    -0.000512006
                     -0.00015775     0.000536305        -0.222367        0.259065      -0.00022805    -0.000132857         0.421393        0.830873
                       -0.955506        0.223033     -0.000474224     0.000126752         0.132763      -0.0477689      0.000410369    -0.000585716
                    -0.000362658    -0.000480796          0.42166        0.831309      0.000602993    -0.000491076        -0.334712       0.0139829
281730                 -0.142537       0.0143353     -0.000443398     0.000281447        -0.955349        0.223323     -0.000240482    -0.000511519
                    -0.000157292     0.000536479        -0.222228        0.259046     -0.000228269    -0.000132533         0.421836        0.830692
                       -0.955394        0.223524     -0.000474295     0.000127055         0.132709      -0.0478589      0.000410061    -0.000585634
                    -0.000363099    -0.000480221         0.422104        0.831129       0.00060266    -0.000491022        -0.334597       0.0142309
281732                 -0.142513       0.0143752     -0.000443576      0.00028166        -0.955238        0.223813     -0.000240739     -0.00051103
                    -0.000156834     0.000536651         -0.22209        0.259028     -0.000228489    -0.000132206         0.422279        0.830512
                       -0.955282        0.224014     -0.000474366     0.000127357         0.132655      -0.0479489      0.000409752    -0.000585552
                    -0.000363538    -0.000479645         0.422548        0.830948      0.000602326     -0.00049097        -0.334482       0.0144787
281734                 -0.142489        0.014415     -0.000443755     0.000281874        -0.955127        0.224303     -0.000240994    -0.000510541
                    -0.000156376     0.000536821        -0.221951         0.25901     -0.000228712    -0.000131876         0.422722        0.830331
                        -0.95517        0.224505     -0.000474437      0.00012766         0.132601      -0.0480388      0.000409442    -0.000585468
                    -0.000363975     -0.00047907         0.422992        0.830768       0.00060199    -0.000490919        -0.334368       0.0147263
281736                 -0.142465       0.0144548     -0.000443934     0.000282088        -0.955015        0.224793     -0.000241247    -0.000510051
                    -0.000155917     0.000536989        -0.221812        0.258991     -0.000228935    -0.000131545         0.423164        0.830151
                       -0.955058        0.224996     -0.000474508     0.000127963         0.132547      -0.0481287      0.000409133    -0.000585383
                    -0.000364411    -0.000478494         0.423435        0.830587      0.000601654    -0.000490868        -0.334253       0.0149738
281738                 -0.142441       0.0144946     -0.000444113     0.000282302        -0.954903        0.225282     -0.000241498    -0.000509559
                    -0.000155458     0.000537156        -0.221674        0.258973      -0.00022916     -0.00013121         0.423607        0.829969
                       -0.954945        0.225486     -0.000474578     0.000128267         0.132493      -0.0482185      0.000408822    -0.000585297
                    -0.000364846    -0.000477918         0.423878        0.830406      0.000601316    -0.000490819        -0.334137       0.0152211
281740                 -0.142417       0.0145344     -0.000444293     0.000282517        -0.954791        0.225772     -0.000241746    -0.000509065
                    -0.000154999      0.00053732        -0.221536        0.258954     -0.000229387    -0.000130874         0.424049        0.829788
                       -0.954833        0.225977     -0.000474648      0.00012857         0.132438      -0.0483083      0.000408511     -0.00058521
                    -0.000365279    -0.000477342         0.424322        0.830224      0.000600977     -0.00049077        -0.334022       0.0154683
281742                 -0.142393       0.0145742     -0.000444474     0.000282732        -0.954678        0.226261     -0.000241991     -0.00050857
                    -0.000154539     0.000537483        -0.221397        0.258935     -0.000229615    -0.000130535         0.424492        0.829607
                        -0.95472        0.226467     -0.000474718     0.000128874         0.132384       -0.048398        0.0004082    -0.000585121
                    -0.000365713    -0.000476767         0.424765        0.830043      0.000600637    -0.000490723        -0.333907       0.0157152
281744                 -0.142368       0.0146139     -0.000444655     0.000282947        -0.954566        0.226751     -0.000242234    -0.000508072
                    -0.000154078     0.000537645        -0.221259        0.258917     -0.000229845    -0.000130194         0.424934        0.829425
                       -0.954606        0.226957     -0.000474788     0.000129178          0.13233      -0.0484877      0.000407888    -0.000585031
                    -0.000366145    -0.000476193         0.425208        0.829861      0.000600295    -0.000490676        -0.333791        0.015962
281746                 -0.142344       0.0146537     -0.000444836     0.000283163        -0.954453         0.22724     -0.000242473    -0.000507572
                    -0.000153617     0.000537806        -0.221121        0.258898     -0.000230076     -0.00012985         0.425376        0.829243
                       -0.954493        0.227448     -0.000474858     0.000129483         0.132275      -0.0485773      0.000407575     -0.00058494
                    -0.000366577    -0.000475621         0.425651        0.829679      0.000599953    -0.000490631        -0.333676       0.0162087
281748                  -0.14232       0.0146934     -0.000445018     0.000283379         -0.95434         0.22773     -0.000242709    -0.000507068
                    -0.000153155     0.000537966        -0.220983        0.258879     -0.000230309    -0.000129505         0.425818         0.82906
                       -0.954379        0.227938     -0.000474928     0.000129787         0.132221      -0.0486669      0.000407261    -0.000584847
                    -0.000367008    -0.000475052         0.426093        0.829497      0.000599609    -0.000490586         -0.33356       0.0164552
281750                 -0.142296        0.014733       -0.0004452     0.000283596        -0.954226        0.228219     -0.000242939    -0.000506558
                    -0.000152692     0.000538125        -0.220845        0.258861     -0.000230543    -0.000129156          0.42626        0.828878
                       -0.954265        0.228428     -0.000474997     0.000130092         0.132166      -0.0487565      0.000406946    -0.000584752
                    -0.000367436    -0.000474485         0.426536        0.829314      0.000599265    -0.000490542        -0.333444       0.0167015
281752                 -0.142272       0.0147727     -0.000445383     0.000283812        -0.954113        0.228708     -0.000243161    -0.000506041
                    -0.000152228     0.000538285        -0.220707        0.258842     -0.000230778    -0.000128806         0.426702        0.828695
                        -0.95415        0.228918     -0.000475067     0.000130397         0.132111       -0.048846      0.000406631    -0.000584656
                    -0.000367862    -0.000473921         0.426978        0.829132      0.000598919      -0.0004905        -0.333328       0.0169477
281754                 -0.142247       0.0148124     -0.000445565      0.00028403        -0.953999        0.229197     -0.000243371     -0.00050551
                    -0.000151765     0.000538445        -0.220569        0.258823     -0.000231015    -0.000128453         0.427143        0.828512
                       -0.954036        0.229408     -0.000475136     0.000130703         0.132057      -0.0489354      0.000406314    -0.000584557
                    -0.000368284     -0.00047336         0.427421        0.828949      0.000598572    -0.000490458        -0.333211       0.0171937
281756                 -0.142223        0.014852     -0.000445749     0.000284247        -0.953884        0.229686     -0.000243555    -0.000504946
                    -0.000151302     0.000538605        -0.220431        0.258804     -0.000231254    -0.000128098         0.427585        0.828329
                       -0.953921        0.229898     -0.000475205     0.000131008         0.132002      -0.0490248      0.000405996    -0.000584457
                    -0.000368701      -0.0004728         0.427863        0.828765      0.000598224    -0.000490417        -0.333095       0.0174395
281758                 -0.142199       0.0148916     -0.000445933     0.000284465         -0.95377        0.230175     -0.000243681    -0.000504259
                     -0.00015084     0.000538766        -0.220293        0.258785     -0.000231494    -0.000127741         0.428026        0.828145
                       -0.953806        0.230388     -0.000475274     0.000131314         0.131947      -0.0491141      0.000405677    -0.000584354
                    -0.000369114    -0.000472242         0.428305        0.828582      0.000597874    -0.000490378        -0.332978       0.0176851
281760                 -0.142175       0.0149312     -0.000446117     0.000284683        -0.953655        0.230664     -0.000244371    -0.000502799
                    -0.000150379     0.000538927        -0.220155        0.258766     -0.000231736    -0.000127381         0.428467        0.827961
                       -0.953691        0.230878     -0.000475342      0.00013162         0.131892      -0.0492034      0.000405356    -0.000584249
                    -0.000369523    -0.000471683         0.428747        0.828398      0.000597524     -0.00049034        -0.332862       0.0179306
281762                  -0.14215       0.0149708     -0.000446301     0.000284901         -0.95354        0.231153     -0.000245093    -0.000503565
                    -0.000149921     0.000539088        -0.220018        0.258747      -0.00023198    -0.000127018         0.428908        0.827778
                       -0.953575        0.231367     -0.000475411     0.000131927         0.131837      -0.0492927      0.000405033    -0.000584141
