! TOUCHSTONE file generated by CST MICROWAVE STUDIO
! Date and time: Tue Oct 14 07:31:29 2025
! Project name: Teste_Macro_Metasurface_Nanopilar.cst
! Parameters = {H=600; L_x=175; L_y=120; Lambda=1064; Max_L=200; Min_L=70; PathPara=1; Phi=0; Step_L=10; Theta=0; p=520; phaseX=180; phaseY=0}
! Header version: 2018
! Port assignment regex: !\s*Touchstone port\s*([0-9]+)\s*=\s*(CST MWS port|CST DS port)\s*([0-9]+|Zmin|Zmax)\s*\(\"(.*)\"\)(\s*mode\s*([0-9]+))?.*
! Touchstone port assignment:
! Touchstone port 1 = CST MWS port Zmax ("") mode 1
! Touchstone port 2 = CST MWS port Zmax ("") mode 2
! Touchstone port 3 = CST MWS port Zmin ("") mode 1
! Touchstone port 4 = CST MWS port Zmin ("") mode 2
! S-Parameters are not renormalized. Each port impedance will be approximated by the real part at minimum frequency. The values are described via the [Reference] keyword.
! Default impedance is overridden by [Reference]
[Version] 2.0
# GHz S RI R 376.73
[Number of Ports] 4
[Reference]
376.73 376.73 259.814 259.814 
[Number of Frequencies] 51
[Network Data]
281700                -0.0770896      -0.0915327       3.5752e-05     0.000188285        -0.165199         0.97333     -0.000498913    -0.000280117
                     6.01966e-05     4.15513e-05         -0.24133        0.218823     -0.000415642     0.000390293         0.379265        0.856156
                       -0.165503        0.972968     -0.000402881     0.000297349        -0.101461       0.0616781     -9.37322e-05    -0.000452119
                    -0.000364395    -0.000347968         0.379307         0.85562      -9.4185e-05    -0.000472963        -0.317087       0.0176547
281702                -0.0771225      -0.0915271      3.62486e-05     0.000188202        -0.164756        0.973403     -0.000498923    -0.000279616
                     6.05061e-05      4.1455e-05         -0.24119        0.218799     -0.000415064      0.00039034         0.379741        0.855995
                        -0.16506        0.973042     -0.000402751     0.000297598        -0.101434       0.0617545     -9.37229e-05    -0.000451888
                      -0.0003644    -0.000347464         0.379782        0.855459     -9.41625e-05    -0.000472482        -0.316955       0.0179167
281704                -0.0771553      -0.0915214      3.67459e-05     0.000188119        -0.164313        0.973476     -0.000498932    -0.000279117
                     6.08157e-05     4.13585e-05        -0.241051        0.218776     -0.000414485     0.000390387         0.380216        0.855833
                       -0.164617        0.973116      -0.00040262     0.000297848        -0.101407       0.0618309     -9.37147e-05    -0.000451657
                    -0.000364406     -0.00034696         0.380257        0.855297     -9.41396e-05    -0.000472001        -0.316822       0.0181785
281706                -0.0771882      -0.0915158      3.72438e-05     0.000188035        -0.163871        0.973549     -0.000498937    -0.000278617
                     6.11253e-05     4.12618e-05        -0.240912        0.218752     -0.000413905     0.000390434         0.380691        0.855671
                       -0.164174        0.973189     -0.000402488     0.000298099        -0.101381       0.0619073     -9.37076e-05    -0.000451428
                    -0.000364411    -0.000346456         0.380732        0.855135     -9.41164e-05    -0.000471519        -0.316689         0.01844
281708                -0.0772211      -0.0915101      3.77423e-05      0.00018795        -0.163428        0.973622     -0.000498941    -0.000278119
                      6.1435e-05     4.11649e-05        -0.240773        0.218728     -0.000413326     0.000390481         0.381166        0.855509
                       -0.163732        0.973263     -0.000402355     0.000298352        -0.101354       0.0619837     -9.37015e-05    -0.000451201
                    -0.000364416    -0.000345953         0.381206        0.854973     -9.40929e-05    -0.000471037        -0.316556       0.0187013
281710                -0.0772539      -0.0915044      3.82414e-05     0.000187865        -0.162985        0.973694     -0.000498942     -0.00027762
                     6.17446e-05     4.10677e-05        -0.240634        0.218704     -0.000412745     0.000390527          0.38164        0.855347
                       -0.163289        0.973336     -0.000402221     0.000298606        -0.101327       0.0620601     -9.36967e-05    -0.000450974
                    -0.000364421    -0.000345449         0.381681        0.854811     -9.40689e-05    -0.000470554        -0.316422       0.0189625
281712                -0.0772868      -0.0914987       3.8741e-05      0.00018778        -0.162542        0.973767     -0.000498941    -0.000277121
                     6.20544e-05     4.09703e-05        -0.240495        0.218681     -0.000412164     0.000390574         0.382115        0.855184
                       -0.162846        0.973409     -0.000402086     0.000298862          -0.1013       0.0621365     -9.36929e-05    -0.000450747
                    -0.000364426    -0.000344946         0.382155        0.854648     -9.40445e-05    -0.000470071        -0.316289       0.0192233
281714                -0.0773197       -0.091493      3.92411e-05     0.000187694        -0.162099        0.973839     -0.000498938    -0.000276621
                     6.23642e-05     4.08727e-05        -0.240356        0.218657     -0.000411583      0.00039062         0.382589        0.855022
                       -0.162403        0.973481      -0.00040195     0.000299118        -0.101273       0.0622128     -9.36903e-05    -0.000450522
                    -0.000364431    -0.000344444         0.382629        0.854485     -9.40197e-05    -0.000469588        -0.316155        0.019484
281716                -0.0773526      -0.0914872      3.97417e-05     0.000187607        -0.161655        0.973911     -0.000498933    -0.000276121
                      6.2674e-05     4.07747e-05        -0.240217        0.218633        -0.000411     0.000390666         0.383064        0.854858
                        -0.16196        0.973554     -0.000401813     0.000299376        -0.101246       0.0622892     -9.36888e-05    -0.000450297
                    -0.000364436    -0.000343941         0.383103        0.854322     -9.39945e-05    -0.000469104        -0.316022       0.0197444
281718                -0.0773855      -0.0914815      4.02428e-05      0.00018752        -0.161212        0.973982     -0.000498927     -0.00027562
                      6.2984e-05     4.06764e-05        -0.240078        0.218609     -0.000410418     0.000390711         0.383538        0.854695
                       -0.161517        0.973626     -0.000401676     0.000299635        -0.101219       0.0623655     -9.36884e-05    -0.000450072
                     -0.00036444    -0.000343439         0.383577        0.854158     -9.39689e-05    -0.000468619        -0.315888       0.0200046
281720                -0.0774183      -0.0914757      4.07443e-05     0.000187433        -0.160769        0.974054     -0.000498919    -0.000275119
                      6.3294e-05     4.05777e-05         -0.23994        0.218585     -0.000409835     0.000390756         0.384012        0.854531
                       -0.161074        0.973698     -0.000401537     0.000299895        -0.101192       0.0624418     -9.36891e-05    -0.000449848
                    -0.000364444    -0.000342936         0.384051        0.853995     -9.39428e-05    -0.000468135        -0.315754       0.0202646
281722                -0.0774512        -0.09147      4.12462e-05     0.000187344        -0.160326        0.974125      -0.00049891    -0.000274616
                     6.36043e-05     4.04785e-05        -0.239801        0.218561     -0.000409251     0.000390801         0.384485        0.854367
                       -0.160631         0.97377     -0.000401397     0.000300156        -0.101165       0.0625181     -9.36907e-05    -0.000449624
                    -0.000364448    -0.000342434         0.384524        0.853831     -9.39162e-05    -0.000467649         -0.31562       0.0205244
281724                -0.0774841      -0.0914642      4.17485e-05     0.000187256        -0.159883        0.974196       -0.0004989    -0.000274113
                     6.39149e-05     4.03787e-05        -0.239663        0.218537     -0.000408667     0.000390846         0.384959        0.854203
                       -0.160188        0.973842     -0.000401256     0.000300419        -0.101137       0.0625944     -9.36933e-05    -0.000449401
                    -0.000364452    -0.000341931         0.384998        0.853666     -9.38892e-05    -0.000467164        -0.315485        0.020784
281726                 -0.077517      -0.0914584      4.22511e-05     0.000187167         -0.15944        0.974267      -0.00049889    -0.000273609
                     6.42263e-05     4.02779e-05        -0.239525        0.218513     -0.000408082      0.00039089         0.385433        0.854039
                       -0.159745        0.973913     -0.000401114     0.000300682         -0.10111       0.0626707     -9.36969e-05    -0.000449177
                    -0.000364455    -0.000341428         0.385471        0.853502     -9.38616e-05    -0.000466678        -0.315351       0.0210433
281728                -0.0775499      -0.0914526      4.27541e-05     0.000187077        -0.158996        0.974338     -0.000498878    -0.000273105
                     6.45394e-05     4.01764e-05        -0.239387        0.218489     -0.000407496     0.000390934         0.385906        0.853874
                       -0.159301        0.973984     -0.000400971     0.000300947        -0.101083        0.062747     -9.37012e-05    -0.000448954
                    -0.000364459    -0.000340924         0.385944        0.853337     -9.38336e-05    -0.000466191        -0.315216       0.0213024
281730                -0.0775828      -0.0914468      4.32574e-05     0.000186987        -0.158553        0.974409     -0.000498866      -0.0002726
                     6.48557e-05     4.00752e-05        -0.239249        0.218465      -0.00040691     0.000390977         0.386379        0.853709
                       -0.158858        0.974055     -0.000400827     0.000301213        -0.101055       0.0628233     -9.37064e-05    -0.000448731
                    -0.000364463    -0.000340419         0.386417        0.853172      -9.3805e-05    -0.000465704        -0.315082       0.0215613
281732                -0.0776157      -0.0914409       4.3761e-05     0.000186897         -0.15811        0.974479     -0.000498854    -0.000272095
                     6.51749e-05     3.99782e-05        -0.239111        0.218441     -0.000406323      0.00039102         0.386852        0.853543
                       -0.158415        0.974126     -0.000400682     0.000301479        -0.101028       0.0628995     -9.37123e-05    -0.000448507
                     -0.00036447    -0.000339913          0.38689        0.853007     -9.37759e-05    -0.000465217        -0.314947       0.0218199
281734                -0.0776487      -0.0914352      4.42648e-05     0.000186806        -0.157667        0.974549     -0.000498842     -0.00027159
                      6.5491e-05     3.98871e-05        -0.238973        0.218417     -0.000405736     0.000391063         0.387325        0.853378
                       -0.157971        0.974197     -0.000400536     0.000301747           -0.101       0.0629757      -9.3719e-05    -0.000448284
                    -0.000364479    -0.000339409         0.387363        0.852841     -9.37463e-05    -0.000464729        -0.314812       0.0220784
281736                -0.0776816      -0.0914293      4.47689e-05     0.000186714        -0.157223        0.974619     -0.000498829    -0.000271085
                     6.58012e-05     3.97957e-05        -0.238835        0.218392     -0.000405148     0.000391105         0.387798        0.853212
                       -0.157529        0.974267     -0.000400388     0.000302016        -0.100973        0.063052     -9.37263e-05    -0.000448061
                    -0.000364489    -0.000338907         0.387835        0.852675      -9.3716e-05     -0.00046424        -0.314677       0.0223366
281738                -0.0777145      -0.0914234      4.52732e-05     0.000186622         -0.15678        0.974689     -0.000498815    -0.000270579
                     6.61092e-05     3.97008e-05        -0.238698        0.218368      -0.00040456     0.000391147          0.38827        0.853046
                       -0.157085        0.974338      -0.00040024     0.000302286        -0.100945       0.0631282     -9.37341e-05    -0.000447837
                    -0.000364498    -0.000338407         0.388308        0.852509     -9.36853e-05    -0.000463752        -0.314542       0.0225946
281740                -0.0777474      -0.0914175      4.57777e-05     0.000186529        -0.156337        0.974758     -0.000498802    -0.000270074
                     6.64176e-05     3.96035e-05         -0.23856        0.218344     -0.000403971     0.000391188         0.388743        0.852879
                       -0.156642        0.974408      -0.00040009     0.000302556        -0.100917       0.0632044     -9.37426e-05    -0.000447614
                    -0.000364506    -0.000337909          0.38878        0.852343     -9.36539e-05    -0.000463262        -0.314406       0.0228524
281742                -0.0777803      -0.0914116      4.62824e-05     0.000186436        -0.155893        0.974827     -0.000498788    -0.000269569
                     6.67268e-05      3.9505e-05        -0.238423         0.21832     -0.000403381     0.000391228         0.389215        0.852713
                       -0.156199        0.974478      -0.00039994     0.000302828         -0.10089       0.0632805     -9.37515e-05     -0.00044739
                    -0.000364513     -0.00033741         0.389252        0.852176     -9.36219e-05    -0.000462772        -0.314271       0.0231099
281744                -0.0778133      -0.0914057      4.67871e-05     0.000186343         -0.15545        0.974897     -0.000498774    -0.000269064
                     6.70368e-05     3.94059e-05        -0.238286        0.218295     -0.000402791     0.000391268         0.389687        0.852546
                       -0.155755        0.974547     -0.000399788     0.000303101        -0.100862       0.0633567     -9.37609e-05    -0.000447166
                    -0.000364519    -0.000336911         0.389724        0.852009     -9.35893e-05    -0.000462282        -0.314135       0.0233673
281746                -0.0778462      -0.0913998      4.72921e-05     0.000186248        -0.155006        0.974965     -0.000498759    -0.000268559
                     6.73473e-05     3.93066e-05        -0.238149        0.218271       -0.0004022     0.000391307         0.390159        0.852378
                       -0.155312        0.974617     -0.000399635     0.000303374        -0.100834       0.0634329     -9.37707e-05    -0.000446942
                    -0.000364525    -0.000336413         0.390196        0.851842     -9.35561e-05    -0.000461791        -0.313999       0.0236244
281748                -0.0778791      -0.0913939      4.77971e-05     0.000186154        -0.154563        0.975034     -0.000498744    -0.000268054
                     6.76583e-05      3.9207e-05        -0.238012        0.218247     -0.000401608     0.000391346         0.390631        0.852211
                       -0.154869        0.974686      -0.00039948     0.000303649        -0.100806        0.063509      -9.3781e-05    -0.000446718
                    -0.000364531    -0.000335914         0.390668        0.851675     -9.35222e-05      -0.0004613        -0.313863       0.0238813
281750                -0.0779121      -0.0913879      4.83022e-05     0.000186059        -0.154119        0.975103     -0.000498729     -0.00026755
                     6.79697e-05     3.91073e-05        -0.237875        0.218222     -0.000401016     0.000391384         0.391103        0.852043
                       -0.154425        0.974755     -0.000399325     0.000303924        -0.100778       0.0635851     -9.37915e-05    -0.000446494
                    -0.000364537    -0.000335415         0.391139        0.851507     -9.34877e-05    -0.000460808        -0.313727       0.0241379
281752                 -0.077945       -0.091382      4.88074e-05     0.000185963        -0.153676        0.975171     -0.000498713    -0.000267046
                     6.82814e-05     3.90074e-05        -0.237738        0.218198     -0.000400423     0.000391421         0.391574        0.851875
                       -0.153982        0.974824     -0.000399169     0.000304201         -0.10075       0.0636613     -9.38024e-05    -0.000446269
                    -0.000364542    -0.000334916         0.391611        0.851339     -9.34525e-05    -0.000460316        -0.313591       0.0243944
281754                 -0.077978       -0.091376      4.93126e-05     0.000185867        -0.153232        0.975239     -0.000498697    -0.000266543
                     6.85934e-05     3.89075e-05        -0.237601        0.218173     -0.000399829     0.000391458         0.392046        0.851707
                       -0.153538        0.974892     -0.000399011     0.000304478        -0.100722       0.0637374     -9.38135e-05    -0.000446045
                    -0.000364548    -0.000334417         0.392082        0.851171     -9.34166e-05    -0.000459823        -0.313455       0.0246506
281756                -0.0780109        -0.09137      4.98179e-05      0.00018577        -0.152789        0.975307     -0.000498681     -0.00026604
                     6.89057e-05     3.88075e-05        -0.237464        0.218149     -0.000399235     0.000391494         0.392517        0.851538
                       -0.153095        0.974961     -0.000398852     0.000304756        -0.100694       0.0638135     -9.38249e-05     -0.00044582
                    -0.000364554    -0.000333918         0.392553        0.851002       -9.338e-05     -0.00045933        -0.313318       0.0249066
281758                -0.0780439       -0.091364      5.03232e-05     0.000185673        -0.152345        0.975375     -0.000498664    -0.000265537
                     6.92182e-05     3.87073e-05        -0.237328        0.218124     -0.000398641     0.000391529         0.392988        0.851369
                       -0.152651        0.975029     -0.000398692     0.000305035        -0.100666       0.0638895     -9.38366e-05    -0.000445595
                    -0.000364559    -0.000333419         0.393024        0.850833     -9.33427e-05    -0.000458837        -0.313182       0.0251624
281760                -0.0780768       -0.091358      5.08285e-05     0.000185575        -0.151902        0.975442     -0.000498646    -0.000265035
                     6.95309e-05     3.86071e-05        -0.237191          0.2181     -0.000398045     0.000391563         0.393459          0.8512
                       -0.152208        0.975097      -0.00039853     0.000305314        -0.100637       0.0639656     -9.38484e-05     -0.00044537
                    -0.000364565     -0.00033292         0.393495        0.850664     -9.33047e-05    -0.000458342        -0.313045        0.025418
281762                -0.0781098       -0.091352      5.13338e-05     0.000185476        -0.151458        0.975509     -0.000498628    -0.000264534
                     6.98439e-05     3.85068e-05        -0.237055        0.218075     -0.000397449     0.000391597          0.39393        0.851031
                       -0.151764        0.975165     -0.000398368     0.000305595        -0.100609       0.0640417     -9.38604e-05    -0.000445145
