! TOUCHSTONE file generated by CST MICROWAVE STUDIO
! Date and time: Tue Oct 14 07:28:51 2025
! Project name: Teste_Macro_Metasurface_Nanopilar.cst
! Parameters = {H=600; L_x=135; L_y=75; Lambda=1064; Max_L=200; Min_L=70; PathPara=1; Phi=0; Step_L=10; Theta=0; p=520; phaseX=180; phaseY=0}
! Header version: 2018
! Port assignment regex: !\s*Touchstone port\s*([0-9]+)\s*=\s*(CST MWS port|CST DS port)\s*([0-9]+|Zmin|Zmax)\s*\(\"(.*)\"\)(\s*mode\s*([0-9]+))?.*
! Touchstone port assignment:
! Touchstone port 1 = CST MWS port Zmax ("") mode 1
! Touchstone port 2 = CST MWS port Zmax ("") mode 2
! Touchstone port 3 = CST MWS port Zmin ("") mode 1
! Touchstone port 4 = CST MWS port Zmin ("") mode 2
! S-Parameters are not renormalized. Each port impedance will be approximated by the real part at minimum frequency. The values are described via the [Reference] keyword.
! Default impedance is overridden by [Reference]
[Version] 2.0
# GHz S RI R 376.73
[Number of Ports] 4
[Reference]
376.73 376.73 259.814 259.814 
[Number of Frequencies] 51
[Network Data]
281700                -0.0141311        0.103633     -0.000325628      0.00020737         0.992194      -0.0662684      0.000303108     0.000314664
                    -0.000362066    -0.000114375        -0.187075       0.0500018      0.000565192     0.000135911        -0.329321       -0.916221
                        0.991633      -0.0660353      0.000353392     0.000131464         0.027642        0.100946      9.23172e-05    -0.000380321
                     0.000289266     0.000334586        -0.329685       -0.916527     -1.05623e-05      -0.0003943        -0.175482       0.0807906
281702                -0.0140932        0.103634     -0.000325665      0.00020763          0.99217      -0.0666322      0.000303399     0.000314847
                    -0.000362268    -0.000114277        -0.187058       0.0500749      0.000565196     0.000135946        -0.329768        -0.91606
                        0.991609      -0.0663989      0.000353426     0.000131285        0.0276786        0.100932      9.22135e-05    -0.000380491
                     0.000289422     0.000334491        -0.330132       -0.916365     -1.07814e-05    -0.000394438        -0.175436       0.0808947
281704                -0.0140554        0.103635     -0.000325701      0.00020789         0.992145       -0.066996       0.00030369      0.00031503
                     -0.00036247     -0.00011418        -0.187041       0.0501479      0.000565199      0.00013598        -0.330216       -0.915898
                        0.991585      -0.0667626       0.00035346     0.000131106        0.0277153        0.100918      9.21427e-05    -0.000380686
                     0.000289578     0.000334395         -0.33058       -0.916202     -1.10006e-05    -0.000394576        -0.175391       0.0809988
281706                -0.0140175        0.103636     -0.000325738      0.00020815         0.992121      -0.0673598      0.000303982     0.000315214
                    -0.000362672    -0.000114081        -0.187023        0.050221      0.000565201     0.000136015        -0.330663       -0.915736
                        0.991561      -0.0671262      0.000353494     0.000130927        0.0277519        0.100904      9.21202e-05     -0.00038086
                     0.000289734     0.000334299        -0.331027        -0.91604       -1.122e-05    -0.000394714        -0.175345       0.0811029
281708                -0.0139797        0.103637     -0.000325774      0.00020841         0.992096      -0.0677236      0.000304273     0.000315397
                    -0.000362874    -0.000113982        -0.187006       0.0502941      0.000565203     0.000136049         -0.33111       -0.915574
                        0.991537      -0.0674898      0.000353528     0.000130748        0.0277886        0.100889      9.20975e-05    -0.000380987
                     0.000289891     0.000334203        -0.331474       -0.915877     -1.14395e-05    -0.000394852          -0.1753       0.0812069
281710                -0.0139418        0.103638     -0.000325811     0.000208671         0.992071      -0.0680874      0.000304565     0.000315581
                    -0.000363076    -0.000113883        -0.186989       0.0503671      0.000565204     0.000136082        -0.331557       -0.915411
                        0.991512      -0.0678534      0.000353563     0.000130569        0.0278252        0.100875      9.20517e-05    -0.000381098
                     0.000290047     0.000334108        -0.331921       -0.915714     -1.16592e-05     -0.00039499        -0.175254       0.0813109
281712                 -0.013904        0.103639     -0.000325847     0.000208931         0.992046      -0.0684511      0.000304856     0.000315765
                    -0.000363279    -0.000113784        -0.186971       0.0504402      0.000565204     0.000136116        -0.332005       -0.915249
                        0.991488       -0.068217      0.000353597     0.000130389        0.0278618        0.100861      9.19904e-05     -0.00038121
                     0.000290203     0.000334012        -0.332369        -0.91555      -1.1879e-05    -0.000395127        -0.175208       0.0814149
281714                -0.0138661         0.10364     -0.000325883     0.000209191         0.992021      -0.0688149      0.000305147     0.000315949
                    -0.000363482    -0.000113684        -0.186954       0.0505133      0.000565203     0.000136149        -0.332452       -0.915086
                        0.991463      -0.0685805      0.000353631      0.00013021        0.0278984        0.100847      9.19216e-05    -0.000381326
                      0.00029036     0.000333916        -0.332816       -0.915387     -1.20989e-05    -0.000395265        -0.175162       0.0815189
281716                -0.0138283        0.103641      -0.00032592     0.000209451         0.991995      -0.0691786      0.000305438     0.000316134
                    -0.000363684    -0.000113584        -0.186936       0.0505863      0.000565202     0.000136183        -0.332899       -0.914923
                        0.991438      -0.0689441      0.000353665     0.000130031         0.027935        0.100832      9.18496e-05    -0.000381445
                     0.000290516      0.00033382        -0.333263       -0.915223     -1.23191e-05    -0.000395402        -0.175116       0.0816228
281718                -0.0137904        0.103642     -0.000325956     0.000209711          0.99197      -0.0695424      0.000305728     0.000316319
                    -0.000363887    -0.000113483        -0.186919       0.0506594        0.0005652     0.000136216        -0.333346       -0.914759
                        0.991413      -0.0693077      0.000353699     0.000129851        0.0279716        0.100818      9.17761e-05    -0.000381568
                     0.000290672     0.000333724        -0.333709       -0.915059     -1.25393e-05    -0.000395539         -0.17507       0.0817267
281720                -0.0137526        0.103643     -0.000325992     0.000209971         0.991944      -0.0699061      0.000306018     0.000316505
                    -0.000364091    -0.000113382        -0.186901       0.0507324      0.000565197     0.000136248        -0.333792       -0.914596
                        0.991388      -0.0696712      0.000353733     0.000129672        0.0280082        0.100804      9.17022e-05    -0.000381692
                     0.000290828     0.000333627        -0.334156       -0.914895     -1.27598e-05    -0.000395677        -0.175024       0.0818306
281722                -0.0137147        0.103644     -0.000326028     0.000210232         0.991918      -0.0702698      0.000306307     0.000316691
                    -0.000364294     -0.00011328        -0.186883       0.0508055      0.000565194     0.000136281        -0.334239       -0.914432
                        0.991363      -0.0700347      0.000353767     0.000129492        0.0280448         0.10079      9.16285e-05    -0.000381818
                     0.000290985     0.000333531        -0.334603        -0.91473     -1.29803e-05    -0.000395814        -0.174978       0.0819344
281724                -0.0136769        0.103645     -0.000326064     0.000210492         0.991893      -0.0706335      0.000306595     0.000316879
                    -0.000364498    -0.000113178        -0.186866       0.0508785       0.00056519     0.000136313        -0.334686       -0.914268
                        0.991337      -0.0703983      0.000353801     0.000129312        0.0280814        0.100775      9.15552e-05    -0.000381944
                     0.000291141     0.000333435         -0.33505       -0.914566      -1.3201e-05    -0.000395951        -0.174932       0.0820382
281726                -0.0136391        0.103646       -0.0003261     0.000210752         0.991867      -0.0709972      0.000306882     0.000317067
                    -0.000364701    -0.000113076        -0.186848       0.0509516      0.000565185     0.000136346        -0.335133       -0.914104
                        0.991312      -0.0707618      0.000353835     0.000129133         0.028118        0.100761      9.14829e-05    -0.000382072
                     0.000291297     0.000333339        -0.335496       -0.914401     -1.34219e-05    -0.000396088        -0.174886        0.082142
281728                -0.0136012        0.103647     -0.000326136     0.000211012          0.99184      -0.0713609      0.000307165     0.000317258
                    -0.000364905    -0.000112974         -0.18683       0.0510246      0.000565179     0.000136378        -0.335579       -0.913939
                        0.991286      -0.0711253      0.000353869     0.000128953        0.0281545        0.100747      9.14121e-05    -0.000382201
                     0.000291454     0.000333242        -0.335943       -0.914236     -1.36429e-05    -0.000396225        -0.174839       0.0822458
281730                -0.0135634        0.103648     -0.000326172     0.000211273         0.991814      -0.0717246      0.000307442     0.000317452
                    -0.000365109    -0.000112871        -0.186813       0.0510976      0.000565173     0.000136409        -0.336026       -0.913775
                        0.991261      -0.0714888      0.000353902     0.000128773        0.0281911        0.100732      9.13438e-05     -0.00038233
                      0.00029161     0.000333146        -0.336389        -0.91407      -1.3864e-05    -0.000396361        -0.174793       0.0823495
281732                -0.0135255        0.103649     -0.000326208     0.000211533         0.991788      -0.0720883      0.000307707     0.000317651
                    -0.000365313    -0.000112767        -0.186795       0.0511707      0.000565166     0.000136441        -0.336472        -0.91361
                        0.991235      -0.0718523      0.000353936     0.000128593        0.0282276        0.100718      9.12795e-05    -0.000382459
                     0.000291766     0.000333049        -0.336836       -0.913905     -1.40853e-05    -0.000396498        -0.174746       0.0824532
281734                -0.0134877         0.10365     -0.000326243     0.000211793         0.991761      -0.0724519      0.000307934     0.000317858
                    -0.000365518    -0.000112663        -0.186777       0.0512437      0.000565158     0.000136472        -0.336918       -0.913445
                        0.991209      -0.0722158       0.00035397     0.000128413        0.0282642        0.100704      9.12223e-05    -0.000382589
                     0.000291923     0.000332953        -0.337282       -0.913739     -1.43068e-05    -0.000396635          -0.1747       0.0825568
281736                -0.0134499         0.10365     -0.000326278     0.000212053         0.991734      -0.0728156      0.000307985     0.000318024
                    -0.000365722    -0.000112559        -0.186759       0.0513167       0.00056515     0.000136504        -0.337365        -0.91328
                        0.991183      -0.0725793      0.000354003     0.000128233        0.0283007        0.100689      9.11797e-05    -0.000382718
                     0.000292079     0.000332856        -0.337728       -0.913573     -1.45283e-05    -0.000396771        -0.174653       0.0826603
281738                 -0.013412        0.103651     -0.000326313     0.000212314         0.991708      -0.0731793      0.000308667     0.000317567
                    -0.000365927    -0.000112454        -0.186741       0.0513897      0.000565141     0.000136535        -0.337802       -0.913094
                        0.991156      -0.0729428      0.000354037     0.000128053        0.0283373        0.100675      9.11735e-05    -0.000382838
                     0.000292236      0.00033276        -0.338175       -0.913407     -1.47501e-05    -0.000396908        -0.174608       0.0827657
281740                -0.0133742        0.103652     -0.000326348     0.000212574         0.991681      -0.0735429      0.000309089     0.000318134
                    -0.000366132    -0.000112349        -0.186723       0.0514627      0.000565131     0.000136565        -0.338256       -0.912948
                         0.99113      -0.0733062       0.00035407     0.000127873        0.0283738         0.10066      9.12939e-05    -0.000382877
                     0.000292392     0.000332663        -0.338621       -0.913241     -1.49719e-05    -0.000397044         -0.17456        0.082868
281742                -0.0133363        0.103653     -0.000326383     0.000212834         0.991654      -0.0739065       0.00030935     0.000318405
                    -0.000366337    -0.000112244        -0.186705       0.0515358       0.00056512     0.000136596        -0.338702       -0.912782
                        0.991103      -0.0736697      0.000354104     0.000127693        0.0284103        0.100646      9.07646e-05    -0.000382181
                     0.000292549     0.000332566        -0.339067       -0.913074     -1.51939e-05     -0.00039718        -0.174513       0.0829715
281744                -0.0132985        0.103654     -0.000326416     0.000213095         0.991626      -0.0742701      0.000309623     0.000318624
                    -0.000366542    -0.000112138        -0.186687       0.0516088      0.000565109     0.000136626        -0.339148       -0.912616
                        0.991077      -0.0740331      0.000354137     0.000127513        0.0284468        0.100631      9.04507e-05    -0.000383027
                     0.000292705      0.00033247        -0.339513       -0.912907     -1.54161e-05    -0.000397317        -0.174466        0.083075
281746                -0.0132607        0.103655     -0.000326445     0.000213358         0.991599      -0.0746338      0.000309904     0.000318827
                    -0.000366747    -0.000112031        -0.186669       0.0516818      0.000565097     0.000136657        -0.339594       -0.912449
                         0.99105      -0.0743965      0.000354169     0.000127334        0.0284833        0.100617      9.04781e-05    -0.000383269
                     0.000292862     0.000332373        -0.339959        -0.91274     -1.56384e-05    -0.000397453        -0.174419       0.0831785
281748                -0.0132228        0.103655     -0.000326439      0.00021366         0.991572      -0.0749974      0.000310189     0.000319023
                    -0.000366953    -0.000111924        -0.186651       0.0517548      0.000565085     0.000136687         -0.34004       -0.912283
                        0.991023        -0.07476      0.000354187     0.000127165        0.0285198        0.100603      9.04483e-05    -0.000383431
                     0.000293018     0.000332277        -0.340404       -0.912573     -1.58607e-05    -0.000397589        -0.174372        0.083282
281750                 -0.013185        0.103656     -0.000326547      0.00021387         0.991544      -0.0753609      0.000310476     0.000319216
                    -0.000367158    -0.000111814        -0.186633       0.0518278      0.000565069     0.000136714        -0.340486       -0.912116
                        0.990996      -0.0751234      0.000354243     0.000126967        0.0285563        0.100588      9.03963e-05    -0.000383576
                     0.000293177     0.000332184         -0.34085       -0.912405      -1.6084e-05    -0.000397723        -0.174325       0.0833855
281752                -0.0131472        0.103657     -0.000326571     0.000214131         0.991516      -0.0757245      0.000310764     0.000319407
                     -0.00036736    -0.000111729        -0.186615       0.0519008      0.000565057     0.000136746        -0.340931       -0.911949
                        0.990968      -0.0754868      0.000354274     0.000126789        0.0285928        0.100574      9.03342e-05    -0.000383714
                     0.000293323     0.000332061        -0.341296       -0.912237     -1.63062e-05     -0.00039786        -0.174278       0.0834889
281754                -0.0131093        0.103658     -0.000326603     0.000214392         0.991488      -0.0760881      0.000311053     0.000319597
                     -0.00036757    -0.000111609        -0.186597       0.0519737      0.000565042     0.000136775        -0.341377       -0.911782
                        0.990941      -0.0758502      0.000354307     0.000126609        0.0286292        0.100559      9.02666e-05    -0.000383849
                     0.000293485     0.000331978        -0.341742       -0.912069      -1.6529e-05    -0.000397996        -0.174231       0.0835923
281756                -0.0130715        0.103658     -0.000326636     0.000214653          0.99146      -0.0764517      0.000311343     0.000319786
                    -0.000367777    -0.000111499        -0.186579       0.0520467      0.000565027     0.000136804        -0.341822       -0.911614
                        0.990914      -0.0762136       0.00035434     0.000126428        0.0286657        0.100545      9.01956e-05    -0.000383982
                     0.000293642     0.000331883        -0.342187       -0.911901      -1.6752e-05    -0.000398132        -0.174184       0.0836957
281758                -0.0130337        0.103659     -0.000326669     0.000214913         0.991432      -0.0768152      0.000311633     0.000319975
                    -0.000367983     -0.00011139        -0.186561       0.0521197       0.00056501     0.000136833        -0.342268       -0.911446
                        0.990886      -0.0765769      0.000354373     0.000126248        0.0287022         0.10053      9.01225e-05    -0.000384115
                     0.000293798     0.000331786        -0.342633       -0.911733     -1.69752e-05    -0.000398267        -0.174137        0.083799
281760                -0.0129958         0.10366     -0.000326703     0.000215173         0.991404      -0.0771788      0.000311924     0.000320163
                    -0.000368189    -0.000111281        -0.186542       0.0521927      0.000564994     0.000136862        -0.342713       -0.911278
                        0.990858      -0.0769403      0.000354406     0.000126067        0.0287386        0.100515      9.00479e-05    -0.000384247
                     0.000293955     0.000331689        -0.343078       -0.911564     -1.71984e-05    -0.000398403        -0.174089       0.0839023
281762                 -0.012958        0.103661     -0.000326737     0.000215433         0.991375      -0.0775423      0.000312214     0.000320352
                    -0.000368396    -0.000111172        -0.186524       0.0522656      0.000564976     0.000136891        -0.343158        -0.91111
                         0.99083      -0.0773037      0.000354439     0.000125887        0.0287751        0.100501      8.99722e-05    -0.000384379
