! TOUCHSTONE file generated by CST MICROWAVE STUDIO
! Date and time: Tue Oct 14 07:31:05 2025
! Project name: Teste_Macro_Metasurface_Nanopilar.cst
! Parameters = {H=600; L_x=170; L_y=80; Lambda=1064; Max_L=200; Min_L=70; PathPara=1; Phi=0; Step_L=10; Theta=0; p=520; phaseX=180; phaseY=0}
! Header version: 2018
! Port assignment regex: !\s*Touchstone port\s*([0-9]+)\s*=\s*(CST MWS port|CST DS port)\s*([0-9]+|Zmin|Zmax)\s*\(\"(.*)\"\)(\s*mode\s*([0-9]+))?.*
! Touchstone port assignment:
! Touchstone port 1 = CST MWS port Zmax ("") mode 1
! Touchstone port 2 = CST MWS port Zmax ("") mode 2
! Touchstone port 3 = CST MWS port Zmin ("") mode 1
! Touchstone port 4 = CST MWS port Zmin ("") mode 2
! S-Parameters are not renormalized. Each port impedance will be approximated by the real part at minimum frequency. The values are described via the [Reference] keyword.
! Default impedance is overridden by [Reference]
[Version] 2.0
# GHz S RI R 376.73
[Number of Ports] 4
[Reference]
376.73 376.73 259.814 259.814 
[Number of Frequencies] 51
[Network Data]
281700                 0.0237172        0.045759     -0.000381868    -0.000309602         0.912422       -0.403233     -1.69627e-05    -7.66165e-05
                    -0.000268198    -0.000466193       -0.0159107       -0.160783     -5.78933e-05     4.93704e-06        -0.139807        0.970526
                        0.912393       -0.403298     -2.26905e-05     4.74527e-05        0.0178375       0.0487803      0.000444847     0.000149968
                     2.10844e-05    -4.84962e-05        -0.140354        0.970302      0.000450385     0.000238066       -0.0593341        0.150524
281702                 0.0237388       0.0457438     -0.000381953     -0.00030927         0.912268       -0.403581      -1.7168e-05     -7.6681e-05
                    -0.000268472    -0.000466066       -0.0159728       -0.160804     -5.79596e-05     5.03243e-06        -0.139349        0.970588
                        0.912239       -0.403646     -2.24317e-05     4.75132e-05        0.0178488       0.0487724      0.000444897     0.000149878
                     2.10714e-05    -4.84886e-05        -0.139896        0.970364      0.000450367     0.000237978       -0.0592577        0.150582
281704                 0.0237604       0.0457285     -0.000382037    -0.000308938         0.912114       -0.403929     -1.73733e-05    -7.67452e-05
                    -0.000268746    -0.000465938        -0.016035       -0.160824     -5.80261e-05     5.12779e-06         -0.13889         0.97065
                        0.912085       -0.403994     -2.21732e-05     4.75732e-05        0.0178601       0.0487645      0.000444947     0.000149788
                     2.10583e-05    -4.84812e-05        -0.139438        0.970427      0.000450348      0.00023789       -0.0591812         0.15064
281706                  0.023782       0.0457132      -0.00038212    -0.000308607         0.911959       -0.404278     -1.75786e-05    -7.68091e-05
                     -0.00026902    -0.000465811       -0.0160971       -0.160844     -5.80926e-05     5.22313e-06        -0.138432        0.970711
                        0.911931       -0.404343     -2.19152e-05     4.76329e-05        0.0178713       0.0487566      0.000444998     0.000149698
                     2.10451e-05    -4.84739e-05         -0.13898        0.970489      0.000450329     0.000237802       -0.0591047        0.150698
281708                 0.0238036       0.0456979     -0.000382203    -0.000308276         0.911805       -0.404626      -1.7784e-05    -7.68727e-05
                    -0.000269294    -0.000465683       -0.0161593       -0.160865     -5.81594e-05     5.31844e-06        -0.137974        0.970773
                        0.911777       -0.404691     -2.16575e-05     4.76921e-05        0.0178826       0.0487487      0.000445048     0.000149608
                     2.10316e-05    -4.84668e-05        -0.138522         0.97055       0.00045031     0.000237714       -0.0590281        0.150756
281710                 0.0238252       0.0456826     -0.000382286    -0.000307946         0.911651       -0.404974     -1.79895e-05    -7.69359e-05
                    -0.000269568    -0.000465555       -0.0162215       -0.160885     -5.82263e-05     5.41371e-06        -0.137516        0.970834
                        0.911622       -0.405039     -2.14003e-05     4.77509e-05        0.0178939       0.0487409      0.000445098     0.000149519
                      2.1018e-05    -4.84598e-05        -0.138064        0.970612      0.000450291     0.000237626       -0.0589515        0.150814
281712                 0.0238467       0.0456673     -0.000382369    -0.000307616         0.911496       -0.405322     -1.81949e-05    -7.69987e-05
                    -0.000269842    -0.000465427       -0.0162837       -0.160905     -5.82933e-05     5.50896e-06        -0.137058        0.970894
                        0.911468       -0.405387     -2.11435e-05     4.78092e-05        0.0179052        0.048733      0.000445148     0.000149429
                     2.10042e-05    -4.84529e-05        -0.137606        0.970673      0.000450271     0.000237538       -0.0588748        0.150872
281714                 0.0238683        0.045652      -0.00038245    -0.000307287         0.911341        -0.40567     -1.84004e-05    -7.70613e-05
                    -0.000270117    -0.000465298        -0.016346       -0.160925     -5.83604e-05     5.60417e-06        -0.136599        0.970955
                        0.911313       -0.405735     -2.08872e-05     4.78671e-05        0.0179165       0.0487251      0.000445197      0.00014934
                     2.09903e-05    -4.84461e-05        -0.137148        0.970734      0.000450251     0.000237449       -0.0587981         0.15093
281716                 0.0238898       0.0456367     -0.000382532    -0.000306957         0.911187       -0.406018      -1.8606e-05    -7.71235e-05
                    -0.000270392    -0.000465169       -0.0164082       -0.160946     -5.84278e-05     5.69934e-06        -0.136141        0.971015
                        0.911158       -0.406083     -2.06312e-05     4.79246e-05        0.0179277       0.0487172      0.000445247     0.000149251
                     2.09762e-05    -4.84394e-05         -0.13669        0.970795      0.000450231     0.000237361       -0.0587213        0.150988
281718                 0.0239114       0.0456214     -0.000382613    -0.000306628         0.911032       -0.406366     -1.88115e-05    -7.71853e-05
                    -0.000270666     -0.00046504       -0.0164705       -0.160966     -5.84952e-05     5.79448e-06        -0.135683        0.971075
                        0.911003       -0.406431     -2.03757e-05     4.79817e-05         0.017939       0.0487093      0.000445297     0.000149162
                      2.0962e-05    -4.84329e-05        -0.136232        0.970856      0.000450211     0.000237272       -0.0586445        0.151046
281720                 0.0239329        0.045606     -0.000382694      -0.0003063         0.910876       -0.406713     -1.90171e-05    -7.72468e-05
                    -0.000270941    -0.000464911       -0.0165327       -0.160986     -5.85628e-05     5.88958e-06        -0.135225        0.971135
                        0.910848       -0.406779     -2.01206e-05     4.80383e-05        0.0179503       0.0487015      0.000445346     0.000149072
                     2.09476e-05    -4.84264e-05        -0.135774        0.970916      0.000450191     0.000237183       -0.0585676        0.151103
281722                 0.0239544       0.0455907     -0.000382774    -0.000305972         0.910721       -0.407061     -1.92226e-05     -7.7308e-05
                    -0.000271216    -0.000464782        -0.016595       -0.161006     -5.86306e-05     5.98463e-06        -0.134766        0.971195
                        0.910692       -0.407126     -1.98659e-05     4.80945e-05        0.0179615       0.0486936      0.000445396     0.000148984
                     2.09331e-05    -4.84201e-05        -0.135316        0.970976       0.00045017     0.000237095       -0.0584907        0.151161
281724                  0.023976       0.0455753     -0.000382854    -0.000305644         0.910566       -0.407409     -1.94282e-05    -7.73688e-05
                    -0.000271492    -0.000464652       -0.0166573       -0.161026     -5.86986e-05     6.07965e-06        -0.134308        0.971254
                        0.910537       -0.407474     -1.96117e-05     4.81503e-05        0.0179728       0.0486857      0.000445445     0.000148895
                     2.09184e-05    -4.84139e-05        -0.134858        0.971036      0.000450149     0.000237006       -0.0584137        0.151219
281726                 0.0239975       0.0455599     -0.000382934    -0.000305317          0.91041       -0.407757     -1.96338e-05    -7.74293e-05
                    -0.000271767    -0.000464522       -0.0167196       -0.161047     -5.87666e-05     6.17462e-06        -0.133849        0.971314
                        0.910381       -0.407822     -1.93578e-05     4.82056e-05         0.017984       0.0486778      0.000445494     0.000148806
                     2.09035e-05    -4.84078e-05        -0.134399        0.971096      0.000450128     0.000236917       -0.0583367        0.151276
281728                  0.024019       0.0455446     -0.000383013     -0.00030499         0.910255       -0.408104     -1.98394e-05    -7.74895e-05
                    -0.000272042    -0.000464392       -0.0167819       -0.161067     -5.88349e-05     6.26954e-06        -0.133391        0.971373
                        0.910226       -0.408169     -1.91045e-05     4.82605e-05        0.0179953       0.0486699      0.000445544     0.000148717
                     2.08885e-05    -4.84018e-05        -0.133941        0.971156      0.000450106     0.000236828       -0.0582596        0.151334
281730                 0.0240405       0.0455292     -0.000383092    -0.000304663         0.910099       -0.408452      -2.0045e-05    -7.75493e-05
                    -0.000272318    -0.000464261       -0.0168443       -0.161087     -5.89033e-05     6.36442e-06        -0.132933        0.971432
                         0.91007       -0.408517     -1.88515e-05      4.8315e-05        0.0180065        0.048662      0.000445593     0.000148629
                     2.08734e-05    -4.83959e-05        -0.133483        0.971215      0.000450085     0.000236739       -0.0581825        0.151391
281732                  0.024062       0.0455138      -0.00038317    -0.000304337         0.909943       -0.408799     -2.02506e-05    -7.76088e-05
                    -0.000272594    -0.000464131       -0.0169066       -0.161107     -5.89719e-05     6.45925e-06        -0.132474         0.97149
                        0.909914       -0.408864      -1.8599e-05      4.8369e-05        0.0180177       0.0486542      0.000445642     0.000148541
                     2.08581e-05    -4.83901e-05        -0.133025        0.971274      0.000450063      0.00023665       -0.0581053        0.151449
281734                 0.0240835       0.0454984     -0.000383248    -0.000304011         0.909787       -0.409146     -2.04562e-05    -7.76679e-05
                     -0.00027287       -0.000464        -0.016969       -0.161127     -5.90406e-05     6.55402e-06        -0.132016        0.971549
                        0.909758       -0.409212     -1.83469e-05     4.84227e-05         0.018029       0.0486463       0.00044569     0.000148452
                     2.08426e-05    -4.83845e-05        -0.132567        0.971333      0.000450041      0.00023656       -0.0580281        0.151507
281736                 0.0241049       0.0454829     -0.000383326    -0.000303685         0.909631       -0.409494     -2.06618e-05    -7.77267e-05
                    -0.000273145    -0.000463868       -0.0170313       -0.161147     -5.91095e-05     6.64874e-06        -0.131557        0.971607
                        0.909602       -0.409559     -1.80952e-05     4.84759e-05        0.0180402       0.0486384      0.000445739     0.000148364
                      2.0827e-05    -4.83789e-05        -0.132108        0.971392      0.000450018     0.000236471       -0.0579509        0.151564
281738                 0.0241264       0.0454675     -0.000383403     -0.00030336         0.909474       -0.409841     -2.08674e-05    -7.77852e-05
                    -0.000273422    -0.000463737       -0.0170937       -0.161167     -5.91786e-05     6.74341e-06        -0.131099        0.971665
                        0.909445       -0.409906      -1.7844e-05     4.85286e-05        0.0180514       0.0486305      0.000445788     0.000148276
                     2.08113e-05    -4.83734e-05         -0.13165         0.97145      0.000449996     0.000236381       -0.0578735        0.151621
281740                 0.0241479       0.0454521      -0.00038348    -0.000303035         0.909318       -0.410188      -2.1073e-05    -7.78433e-05
                    -0.000273698    -0.000463605       -0.0171561       -0.161187     -5.92479e-05     6.83802e-06         -0.13064        0.971722
                        0.909289       -0.410254     -1.75932e-05     4.85809e-05        0.0180627       0.0486226      0.000445836     0.000148188
                     2.07954e-05     -4.8368e-05        -0.131192        0.971508      0.000449973     0.000236292       -0.0577962        0.151679
281742                 0.0241693       0.0454366     -0.000383557    -0.000302711         0.909161       -0.410535     -2.12785e-05    -7.79011e-05
                    -0.000273974    -0.000463473       -0.0172185       -0.161207     -5.93173e-05     6.93257e-06        -0.130182         0.97178
                        0.909132       -0.410601     -1.73428e-05     4.86328e-05        0.0180739       0.0486147      0.000445885     0.000148101
                     2.07794e-05    -4.83628e-05        -0.130733        0.971566       0.00044995     0.000236202       -0.0577188        0.151736
281744                 0.0241908       0.0454212     -0.000383633    -0.000302386         0.909005       -0.410883     -2.14841e-05    -7.79586e-05
                     -0.00027425    -0.000463341        -0.017281       -0.161227     -5.93869e-05     7.02706e-06        -0.129723        0.971837
                        0.908975       -0.410948     -1.70929e-05     4.86843e-05        0.0180851       0.0486068      0.000445933     0.000148013
                     2.07633e-05    -4.83576e-05        -0.130275        0.971624      0.000449926     0.000236112       -0.0576413        0.151793
281746                 0.0242122       0.0454057     -0.000383709    -0.000302063         0.908848        -0.41123     -2.16896e-05    -7.80157e-05
                    -0.000274527    -0.000463209       -0.0173434       -0.161246     -5.94567e-05     7.12149e-06        -0.129264        0.971894
                        0.908818       -0.411295     -1.68434e-05     4.87353e-05        0.0180963        0.048599      0.000445981     0.000147925
                      2.0747e-05    -4.83525e-05        -0.129817        0.971682      0.000449903     0.000236022       -0.0575638        0.151851
281748                 0.0242337       0.0453902     -0.000383784    -0.000301739         0.908691       -0.411577     -2.18951e-05    -7.80725e-05
                    -0.000274803    -0.000463076       -0.0174058       -0.161266     -5.95266e-05     7.21585e-06        -0.128806        0.971951
                        0.908661       -0.411642     -1.65944e-05      4.8786e-05        0.0181075       0.0485911       0.00044603     0.000147838
                     2.07305e-05    -4.83475e-05        -0.129358        0.971739      0.000449879     0.000235932       -0.0574862        0.151908
281750                 0.0242551       0.0453748     -0.000383859    -0.000301416         0.908534       -0.411924     -2.21005e-05     -7.8129e-05
                     -0.00027508    -0.000462943       -0.0174683       -0.161286     -5.95968e-05     7.31015e-06        -0.128347        0.972008
                        0.908504       -0.411989     -1.63458e-05     4.88361e-05        0.0181187       0.0485832      0.000446078     0.000147751
                      2.0714e-05    -4.83426e-05          -0.1289        0.971796      0.000449855     0.000235842       -0.0574086        0.151965
281752                 0.0242765       0.0453593     -0.000383934    -0.000301094         0.908376        -0.41227     -2.23059e-05    -7.81851e-05
                    -0.000275357     -0.00046281       -0.0175308       -0.161306     -5.96671e-05     7.40438e-06        -0.127888        0.972064
                        0.908347       -0.412336     -1.60977e-05     4.88859e-05        0.0181299       0.0485753      0.000446126     0.000147663
                     2.06972e-05    -4.83378e-05        -0.128442        0.971853      0.000449831     0.000235751        -0.057331        0.152022
281754                 0.0242979       0.0453438     -0.000384008    -0.000300771         0.908219       -0.412617     -2.25113e-05    -7.82409e-05
                    -0.000275634    -0.000462676       -0.0175933       -0.161326     -5.97376e-05     7.49853e-06         -0.12743         0.97212
                         0.90819       -0.412683       -1.585e-05     4.89352e-05        0.0181411       0.0485674      0.000446173     0.000147576
                     2.06804e-05    -4.83331e-05        -0.127983         0.97191      0.000449806     0.000235661       -0.0572532        0.152079
281756                 0.0243194       0.0453283     -0.000384082    -0.000300449         0.908061       -0.412964     -2.27166e-05    -7.82964e-05
                    -0.000275911    -0.000462542       -0.0176558       -0.161346     -5.98083e-05     7.59262e-06        -0.126971        0.972176
                        0.908032       -0.413029     -1.56027e-05     4.89841e-05        0.0181523       0.0485595      0.000446221     0.000147489
                     2.06634e-05    -4.83285e-05        -0.127525        0.971966      0.000449782      0.00023557       -0.0571755        0.152137
281758                 0.0243408       0.0453127     -0.000384155    -0.000300128         0.907904       -0.413311     -2.29219e-05    -7.83515e-05
                    -0.000276188    -0.000462408       -0.0177183       -0.161365     -5.98791e-05     7.68663e-06        -0.126512        0.972232
                        0.907874       -0.413376     -1.53559e-05     4.90325e-05        0.0181635       0.0485516      0.000446269     0.000147403
                     2.06463e-05    -4.83239e-05        -0.127066        0.972023      0.000449757     0.000235479       -0.0570977        0.152194
281760                 0.0243622       0.0452972     -0.000384229    -0.000299807         0.907746       -0.413657     -2.31272e-05    -7.84064e-05
                    -0.000276465    -0.000462274       -0.0177808       -0.161385     -5.99502e-05     7.78056e-06        -0.126053        0.972288
                        0.907716       -0.413723     -1.51095e-05     4.90806e-05        0.0181747       0.0485437      0.000446316     0.000147316
                     2.06291e-05    -4.83195e-05        -0.126608        0.972079      0.000449731     0.000235388       -0.0570198        0.152251
281762                 0.0243835       0.0452817     -0.000384301    -0.000299486         0.907588       -0.414004     -2.33324e-05    -7.84608e-05
                    -0.000276742     -0.00046214       -0.0178434       -0.161405     -6.00215e-05     7.87442e-06        -0.125595        0.972343
                        0.907558       -0.414069     -1.48636e-05     4.91282e-05        0.0181859       0.0485359      0.000446364     0.000147229
