! TOUCHSTONE file generated by CST MICROWAVE STUDIO
! Date and time: Tue Oct 14 07:31:48 2025
! Project name: Teste_Macro_Metasurface_Nanopilar.cst
! Parameters = {H=600; L_x=180; L_y=120; Lambda=1064; Max_L=200; Min_L=70; PathPara=1; Phi=0; Step_L=10; Theta=0; p=520; phaseX=180; phaseY=0}
! Header version: 2018
! Port assignment regex: !\s*Touchstone port\s*([0-9]+)\s*=\s*(CST MWS port|CST DS port)\s*([0-9]+|Zmin|Zmax)\s*\(\"(.*)\"\)(\s*mode\s*([0-9]+))?.*
! Touchstone port assignment:
! Touchstone port 1 = CST MWS port Zmax ("") mode 1
! Touchstone port 2 = CST MWS port Zmax ("") mode 2
! Touchstone port 3 = CST MWS port Zmin ("") mode 1
! Touchstone port 4 = CST MWS port Zmin ("") mode 2
! S-Parameters are not renormalized. Each port impedance will be approximated by the real part at minimum frequency. The values are described via the [Reference] keyword.
! Default impedance is overridden by [Reference]
[Version] 2.0
# GHz S RI R 376.73
[Number of Ports] 4
[Reference]
376.73 376.73 259.814 259.814 
[Number of Frequencies] 51
[Network Data]
281700                -0.0841558      -0.0969749      9.49503e-05    -2.36377e-05        -0.102356        0.981068      0.000204456    -0.000110608
                    -0.000129796     -0.00013368        -0.188106        0.153591      0.000202104    -1.27592e-05         0.536243        0.800368
                       -0.102225        0.980985      0.000236505     9.23909e-05        -0.100922       0.0779228      7.20873e-05     8.52442e-05
                      0.00021066    -0.000345564         0.536676         0.80032      4.94328e-05    -4.92215e-06        -0.210805        0.105942
281702                -0.0841903      -0.0969654      9.48449e-05     -2.3557e-05        -0.101913        0.981113      0.000204276     -0.00011069
                    -0.000129658    -0.000133406         -0.18803        0.153577      0.000202289    -1.26764e-05         0.536636        0.800127
                       -0.101782         0.98103      0.000236466     9.21077e-05        -0.100883       0.0779978      7.20779e-05     8.52959e-05
                     0.000210581    -0.000345316         0.537069        0.800078      4.93666e-05    -4.74883e-06        -0.210659        0.106083
281704                -0.0842247       -0.096956      9.47398e-05    -2.34764e-05        -0.101471        0.981157      0.000204095    -0.000110773
                    -0.000129518    -0.000133133        -0.187954        0.153564      0.000202473    -1.25926e-05         0.537029        0.799885
                        -0.10134        0.981075      0.000236427     9.18252e-05        -0.100845       0.0780728      7.20686e-05      8.5347e-05
                     0.000210503    -0.000345069         0.537461        0.799837      4.92998e-05     -4.5738e-06        -0.210514        0.106225
281706                -0.0842592      -0.0969465      9.46351e-05    -2.33959e-05        -0.101028        0.981201      0.000203914    -0.000110855
                    -0.000129375    -0.000132861        -0.187879         0.15355      0.000202656    -1.25079e-05         0.537422        0.799644
                       -0.100897         0.98112      0.000236388     9.15433e-05        -0.100806       0.0781478      7.20595e-05     8.53974e-05
                     0.000210427     -0.00034482         0.537853        0.799595      4.92323e-05    -4.39709e-06        -0.210368        0.106366
281708                -0.0842936      -0.0969369      9.45308e-05    -2.33155e-05        -0.100585        0.981244      0.000203733    -0.000110937
                    -0.000129231     -0.00013259        -0.187804        0.153537      0.000202838    -1.24222e-05         0.537815        0.799402
                       -0.100454        0.981164      0.000236349     9.12621e-05        -0.100768       0.0782228      7.20506e-05     8.54472e-05
                     0.000210352    -0.000344572         0.538245        0.799353      4.91643e-05    -4.21875e-06        -0.210223        0.106507
281710                -0.0843281      -0.0969274      9.44269e-05    -2.32352e-05        -0.100143        0.981288      0.000203552     -0.00011102
                    -0.000129084     -0.00013232        -0.187728        0.153523      0.000203019    -1.23356e-05         0.538207         0.79916
                       -0.100012        0.981208      0.000236309     9.09814e-05        -0.100729       0.0782978      7.20419e-05     8.54964e-05
                     0.000210279    -0.000344323         0.538637         0.79911      4.90958e-05    -4.03882e-06        -0.210077        0.106647
281712                -0.0843625      -0.0969179      9.43233e-05    -2.31549e-05       -0.0997002        0.981331       0.00020337    -0.000111102
                    -0.000128935    -0.000132051        -0.187653        0.153509      0.000203198    -1.22482e-05         0.538599        0.798918
                      -0.0995691        0.981252       0.00023627     9.07014e-05         -0.10069       0.0783727      7.20334e-05      8.5545e-05
                     0.000210208    -0.000344074         0.539028        0.798868      4.90267e-05    -3.85736e-06        -0.209931        0.106788
281714                 -0.084397      -0.0969083      9.42201e-05    -2.30747e-05       -0.0992575        0.981374      0.000203189    -0.000111185
                    -0.000128784    -0.000131783        -0.187577        0.153496      0.000203377    -1.21598e-05         0.538991        0.798675
                      -0.0991265        0.981296       0.00023623      9.0422e-05        -0.100651       0.0784476       7.2025e-05     8.55929e-05
                     0.000210138    -0.000343824          0.53942        0.798625      4.89571e-05    -3.67441e-06        -0.209786        0.106928
281716                -0.0844314      -0.0968988      9.41173e-05    -2.29946e-05       -0.0988149        0.981417      0.000203008    -0.000111267
                    -0.000128631    -0.000131517        -0.187502        0.153482      0.000203555    -1.20707e-05         0.539383        0.798433
                      -0.0986838        0.981339       0.00023619     9.01432e-05        -0.100613       0.0785225      7.20168e-05     8.56402e-05
                      0.00021007    -0.000343574         0.539811        0.798383       4.8887e-05    -3.49001e-06         -0.20964        0.107069
281718                -0.0844659      -0.0968892      9.40148e-05    -2.29146e-05       -0.0983722        0.981459      0.000202826     -0.00011135
                    -0.000128475    -0.000131251        -0.187427        0.153468      0.000203731    -1.19807e-05         0.539775         0.79819
                      -0.0982411        0.981383       0.00023615      8.9865e-05        -0.100574       0.0785974      7.20088e-05     8.56869e-05
                     0.000210004    -0.000343325         0.540202         0.79814      4.88165e-05    -3.30421e-06        -0.209494        0.107209
281720                -0.0845003      -0.0968796      9.39127e-05    -2.28347e-05       -0.0979295        0.981502      0.000202644    -0.000111432
                    -0.000128318    -0.000130987        -0.187352        0.153455      0.000203907    -1.18898e-05         0.540167        0.797947
                      -0.0977984        0.981426       0.00023611     8.95874e-05        -0.100535       0.0786723      7.20009e-05     8.57329e-05
                     0.000209939    -0.000343075         0.540593        0.797896      4.87455e-05    -3.11707e-06        -0.209348        0.107349
281722                -0.0845348        -0.09687      9.38108e-05    -2.27548e-05       -0.0974868        0.981544      0.000202463    -0.000111515
                    -0.000128159    -0.000130724        -0.187277        0.153441      0.000204081    -1.17982e-05         0.540559        0.797704
                      -0.0973557        0.981469      0.000236069     8.93104e-05        -0.100496       0.0787471      7.19932e-05     8.57784e-05
                     0.000209875    -0.000342824         0.540984        0.797653      4.86741e-05    -2.92863e-06        -0.209202        0.107489
281724                -0.0845692      -0.0968604      9.37094e-05     -2.2675e-05       -0.0970442        0.981586      0.000202281    -0.000111598
                    -0.000127998    -0.000130462        -0.187202        0.153427      0.000204254    -1.17059e-05          0.54095         0.79746
                       -0.096913        0.981511      0.000236028     8.90339e-05        -0.100457        0.078822      7.19856e-05     8.58233e-05
                     0.000209813    -0.000342574         0.541375        0.797409      4.86024e-05    -2.73895e-06        -0.209056        0.107629
281726                -0.0846037      -0.0968508      9.36082e-05    -2.25952e-05       -0.0966015        0.981628      0.000202099     -0.00011168
                    -0.000127835    -0.000130201        -0.187127        0.153414      0.000204425    -1.16128e-05         0.541341        0.797217
                      -0.0964703        0.981554      0.000235988      8.8758e-05        -0.100418       0.0788968      7.19782e-05     8.58675e-05
                     0.000209753    -0.000342324         0.541766        0.797166      4.85302e-05    -2.54806e-06         -0.20891        0.107768
281728                -0.0846382      -0.0968411      9.35074e-05    -2.25155e-05       -0.0961587         0.98167      0.000201917    -0.000111763
                     -0.00012767    -0.000129942        -0.187052          0.1534      0.000204595     -1.1519e-05         0.541732        0.796973
                      -0.0960275        0.981596      0.000235947     8.84827e-05        -0.100379       0.0789715       7.1971e-05     8.59111e-05
                     0.000209694    -0.000342073         0.542156        0.796922      4.84577e-05    -2.35603e-06        -0.208764        0.107908
281730                -0.0846726      -0.0968315      9.34069e-05    -2.24359e-05        -0.095716        0.981711      0.000201735    -0.000111846
                    -0.000127503    -0.000129683        -0.186977        0.153386      0.000204764    -1.14245e-05         0.542123        0.796729
                      -0.0955847        0.981638      0.000235905     8.82079e-05        -0.100339       0.0790463      7.19639e-05     8.59542e-05
                     0.000209637    -0.000341823         0.542546        0.796678      4.83848e-05     -2.1629e-06        -0.208617        0.108047
281732                -0.0847071      -0.0968218      9.33067e-05    -2.23563e-05       -0.0952733        0.981752      0.000201553    -0.000111928
                    -0.000127335    -0.000129426        -0.186902        0.153373      0.000204932    -1.13294e-05         0.542514        0.796485
                       -0.095142         0.98168      0.000235864     8.79337e-05          -0.1003        0.079121      7.19569e-05     8.59967e-05
                     0.000209581    -0.000341573         0.542937        0.796433      4.83116e-05    -1.96873e-06        -0.208471        0.108186
281734                -0.0847415      -0.0968121      9.32068e-05    -2.22768e-05       -0.0948306        0.981793       0.00020137    -0.000112011
                    -0.000127164     -0.00012917        -0.186827        0.153359      0.000205098    -1.12337e-05         0.542905        0.796241
                      -0.0946992        0.981722      0.000235822       8.766e-05        -0.100261       0.0791958        7.195e-05     8.60385e-05
                     0.000209527    -0.000341322         0.543327        0.796189      4.82381e-05    -1.77356e-06        -0.208325        0.108325
281736                 -0.084776      -0.0968024      9.31072e-05    -2.21973e-05       -0.0943878        0.981834      0.000201188    -0.000112094
                    -0.000126992    -0.000128916        -0.186752        0.153345      0.000205263    -1.11374e-05         0.543295        0.795997
                      -0.0942564        0.981763      0.000235781     8.73869e-05        -0.100222       0.0792705      7.19433e-05     8.60798e-05
                     0.000209474    -0.000341072         0.543717        0.795944      4.81643e-05    -1.57746e-06        -0.208178        0.108464
281738                -0.0848105      -0.0967927      9.30079e-05    -2.21178e-05       -0.0939451        0.981875      0.000201005    -0.000112176
                    -0.000126819    -0.000128662        -0.186678        0.153331      0.000205426    -1.10405e-05         0.543686        0.795752
                      -0.0938136        0.981805      0.000235739     8.71144e-05        -0.100182       0.0793452      7.19367e-05     8.61205e-05
                     0.000209422    -0.000340821         0.544106        0.795699      4.80901e-05    -1.38047e-06        -0.208032        0.108603
281740                -0.0848449       -0.096783      9.29089e-05    -2.20384e-05       -0.0935023        0.981915      0.000200823    -0.000112259
                    -0.000126643     -0.00012841        -0.186603        0.153318      0.000205588    -1.09431e-05         0.544076        0.795507
                      -0.0933707        0.981846      0.000235696     8.68423e-05        -0.100143       0.0794198      7.19303e-05     8.61606e-05
                     0.000209372    -0.000340571         0.544496        0.795454      4.80157e-05    -1.18265e-06        -0.207885        0.108741
281742                -0.0848794      -0.0967733      9.28102e-05    -2.19591e-05       -0.0930596        0.981956       0.00020064    -0.000112342
                    -0.000126467    -0.000128159        -0.186528        0.153304      0.000205748    -1.08453e-05         0.544466        0.795262
                      -0.0929279        0.981887      0.000235654     8.65708e-05        -0.100103       0.0794945       7.1924e-05     8.62001e-05
                     0.000209324    -0.000340321         0.544885        0.795209      4.79411e-05    -9.84061e-07        -0.207739         0.10888
281744                -0.0849138      -0.0967636      9.27118e-05    -2.18798e-05       -0.0926168        0.981996      0.000200457    -0.000112424
                    -0.000126288    -0.000127909        -0.186454         0.15329      0.000205906     -1.0747e-05         0.544856        0.795017
                       -0.092485        0.981927      0.000235611     8.62998e-05        -0.100064       0.0795691      7.19178e-05     8.62391e-05
                     0.000209276    -0.000340071         0.545275        0.794963      4.78662e-05    -7.84761e-07        -0.207592        0.109018
281746                -0.0849483      -0.0967538      9.26137e-05    -2.18005e-05        -0.092174        0.982035      0.000200274    -0.000112507
                    -0.000126108    -0.000127661        -0.186379        0.153276      0.000206064    -1.06484e-05         0.545246        0.794772
                      -0.0920422        0.981968      0.000235568     8.60293e-05        -0.100024       0.0796437      7.19117e-05     8.62775e-05
                      0.00020923    -0.000339821         0.545664        0.794718      4.77911e-05    -5.84818e-07        -0.207446        0.109156
281748                -0.0849828       -0.096744      9.25158e-05    -2.17212e-05       -0.0917312        0.982075      0.000200091     -0.00011259
                    -0.000125926    -0.000127414        -0.186305        0.153262      0.000206219    -1.05493e-05         0.545636        0.794526
                      -0.0915993        0.982008      0.000235525     8.57593e-05       -0.0999842       0.0797183      7.19057e-05     8.63153e-05
                     0.000209186    -0.000339572         0.546053        0.794472      4.77158e-05    -3.84304e-07        -0.207299        0.109294
281750                -0.0850172      -0.0967343      9.24183e-05     -2.1642e-05       -0.0912884        0.982115      0.000199908    -0.000112673
                    -0.000125743    -0.000127168         -0.18623        0.153249      0.000206373    -1.04499e-05         0.546025        0.794281
                      -0.0911564        0.982048      0.000235482     8.54899e-05       -0.0999445       0.0797928      7.18998e-05     8.63526e-05
                     0.000209142    -0.000339322         0.546442        0.794226      4.76404e-05    -1.83304e-07        -0.207152        0.109432
281752                -0.0850517      -0.0967245       9.2321e-05    -2.15628e-05       -0.0908456        0.982154      0.000199725    -0.000112755
                    -0.000125559    -0.000126924        -0.186156        0.153235      0.000206525    -1.03503e-05         0.546414        0.794035
                      -0.0907135        0.982088      0.000235438     8.52209e-05       -0.0999047       0.0798674       7.1894e-05     8.63893e-05
                     0.000209101    -0.000339073          0.54683         0.79398       4.7565e-05     1.80834e-08        -0.207005         0.10957
281754                -0.0850861      -0.0967147      9.22239e-05    -2.14836e-05       -0.0904028        0.982193      0.000199541    -0.000112838
                    -0.000125373     -0.00012668        -0.186082        0.153221      0.000206676    -1.02504e-05         0.546804        0.793789
                      -0.0902705        0.982128      0.000235395     8.49525e-05       -0.0998649       0.0799419      7.18884e-05     8.64254e-05
                      0.00020906    -0.000338824         0.547219        0.793733      4.74899e-05     2.19736e-07        -0.206858        0.109707
281756                -0.0851206      -0.0967049      9.21272e-05    -2.14045e-05         -0.08996        0.982232      0.000199358    -0.000112921
                    -0.000125185    -0.000126439        -0.186008        0.153207      0.000206825    -1.01502e-05         0.547193        0.793542
                      -0.0898276        0.982167       0.00023535     8.46845e-05        -0.099825       0.0800164      7.18828e-05      8.6461e-05
                     0.000209021    -0.000338575         0.547607        0.793487      4.74153e-05      4.2152e-07        -0.206711        0.109845
281758                -0.0851551       -0.096695      9.20307e-05    -2.13253e-05       -0.0895171         0.98227      0.000199174    -0.000113004
                    -0.000124996    -0.000126198        -0.185933        0.153193      0.000206972    -1.00499e-05         0.547582        0.793296
                      -0.0893847        0.982206      0.000235306      8.4417e-05        -0.099785       0.0800909      7.18774e-05      8.6496e-05
                     0.000208983    -0.000338327         0.547996         0.79324      4.73424e-05     6.23394e-07        -0.206564        0.109982
281760                -0.0851895      -0.0966852      9.19344e-05    -2.12462e-05       -0.0890743        0.982309      0.000198991    -0.000113086
                    -0.000124806    -0.000125959        -0.185859        0.153179      0.000207119     -9.9495e-06          0.54797        0.793049
                      -0.0889417        0.982245      0.000235262       8.415e-05        -0.099745       0.0801653       7.1872e-05     8.65305e-05
                     0.000208946    -0.000338078         0.548384        0.792993      4.72734e-05     8.26212e-07        -0.206417        0.110119
281762                 -0.085224      -0.0966753      9.18384e-05    -2.11671e-05       -0.0886314        0.982347      0.000198807    -0.000113169
                    -0.000124615    -0.000125721        -0.185785        0.153166      0.000207263    -9.84913e-06         0.548359        0.792803
                      -0.0884987        0.982284      0.000235217     8.38835e-05        -0.099705       0.0802398      7.18667e-05     8.65644e-05
