! TOUCHSTONE file generated by CST MICROWAVE STUDIO
! Date and time: Tue Oct 14 07:26:44 2025
! Project name: Teste_Macro_Metasurface_Nanopilar.cst
! Parameters = {H=600; L_x=100; L_y=110; Lambda=1064; Max_L=200; Min_L=70; PathPara=1; Phi=0; Step_L=10; Theta=0; p=520; phaseX=180; phaseY=0}
! Header version: 2018
! Port assignment regex: !\s*Touchstone port\s*([0-9]+)\s*=\s*(CST MWS port|CST DS port)\s*([0-9]+|Zmin|Zmax)\s*\(\"(.*)\"\)(\s*mode\s*([0-9]+))?.*
! Touchstone port assignment:
! Touchstone port 1 = CST MWS port Zmax ("") mode 1
! Touchstone port 2 = CST MWS port Zmax ("") mode 2
! Touchstone port 3 = CST MWS port Zmin ("") mode 1
! Touchstone port 4 = CST MWS port Zmin ("") mode 2
! S-Parameters are not renormalized. Each port impedance will be approximated by the real part at minimum frequency. The values are described via the [Reference] keyword.
! Default impedance is overridden by [Reference]
[Version] 2.0
# GHz S RI R 376.73
[Number of Ports] 4
[Reference]
376.73 376.73 259.814 259.814 
[Number of Frequencies] 51
[Network Data]
281700                -0.0628508       -0.070174      0.000894834      -0.0002153         0.383965       -0.914178      0.000275468      0.00019497
                     0.000879434    -0.000228923       0.00339413      -0.0246996      0.000323886     0.000118187         0.724093       -0.685286
                        0.383553       -0.913877      0.000265442     0.000100574       -0.0936423      0.00544959      0.000152476     0.000817279
                     0.000315897      0.00020387         0.724164       -0.685376      6.67211e-05     0.000903979       -0.0249081      0.00295728
281702                -0.0628812      -0.0701666      0.000894728    -0.000215848         0.383561       -0.914346       0.00027559     0.000194913
                     0.000879299     -0.00022953       0.00338834      -0.0247149      0.000324242     0.000118214         0.723812       -0.685582
                        0.383149       -0.914045      0.000265503     0.000100548       -0.0936539      0.00550543      0.000152651     0.000817319
                     0.000316021     0.000203814         0.723883       -0.685672      6.63484e-05     0.000904154       -0.0249209      0.00297103
281704                -0.0629116      -0.0701592      0.000894622    -0.000216396         0.383157       -0.914514      0.000275712     0.000194857
                     0.000879164    -0.000230138       0.00338254      -0.0247302        0.0003246     0.000118242         0.723531       -0.685877
                        0.382744       -0.914212      0.000265563     0.000100522       -0.0936654      0.00556129      0.000152827     0.000817359
                     0.000316144     0.000203758         0.723603       -0.685967      6.59716e-05     0.000904329       -0.0249337       0.0029848
281706                -0.0629421      -0.0701518      0.000894516    -0.000216945         0.382753       -0.914682      0.000275834       0.0001948
                     0.000879029    -0.000230745       0.00337672      -0.0247456       0.00032496      0.00011827          0.72325       -0.686172
                         0.38234       -0.914379      0.000265624     0.000100495       -0.0936769      0.00561716      0.000153002     0.000817398
                     0.000316267     0.000203701         0.723322       -0.686262      6.55906e-05     0.000904504       -0.0249465      0.00299858
281708                -0.0629725      -0.0701443       0.00089441    -0.000217493         0.382349       -0.914849      0.000275956     0.000194743
                     0.000878893    -0.000231352        0.0033709      -0.0247609      0.000325321       0.0001183         0.722969       -0.686467
                        0.381935       -0.914546      0.000265684     0.000100468       -0.0936883      0.00567304      0.000153177     0.000817438
                     0.000316391     0.000203645         0.723041       -0.686557      6.52055e-05      0.00090468       -0.0249593      0.00301238
281710                 -0.063003      -0.0701369      0.000894304    -0.000218041         0.381944       -0.915017      0.000276078     0.000194686
                     0.000878757    -0.000231959       0.00336506      -0.0247762      0.000325684     0.000118329         0.722687       -0.686762
                        0.381531       -0.914712      0.000265744     0.000100441       -0.0936997      0.00572894      0.000153353     0.000817477
                     0.000316514     0.000203588         0.722759       -0.686852      6.48162e-05     0.000904856       -0.0249721      0.00302619
281712                -0.0630334      -0.0701295      0.000894198     -0.00021859          0.38154       -0.915184        0.0002762     0.000194629
                     0.000878621    -0.000232566       0.00335922      -0.0247916      0.000326048     0.000118359         0.722406       -0.687057
                        0.381126       -0.914879      0.000265805     0.000100414       -0.0937111      0.00578485      0.000153528     0.000817517
                     0.000316637     0.000203531         0.722478       -0.687147      6.44229e-05     0.000905033       -0.0249849      0.00304001
281714                -0.0630639       -0.070122      0.000894091    -0.000219139         0.381136       -0.915351      0.000276322     0.000194571
                     0.000878484    -0.000233172       0.00335337      -0.0248069      0.000326413      0.00011839         0.722125       -0.687352
                        0.380721       -0.915045      0.000265865     0.000100387       -0.0937224      0.00584078      0.000153704     0.000817557
                      0.00031676     0.000203474         0.722196       -0.687442      6.40255e-05      0.00090521       -0.0249977      0.00305384
281716                -0.0630943      -0.0701145      0.000893985    -0.000219687         0.380731       -0.915518      0.000276444     0.000194514
                     0.000878347    -0.000233779        0.0033475      -0.0248222       0.00032678     0.000118422         0.721843       -0.687647
                        0.380316       -0.915211      0.000265925      0.00010036       -0.0937337      0.00589672      0.000153879     0.000817596
                     0.000316883     0.000203416         0.721915       -0.687737      6.36241e-05     0.000905388       -0.0250105      0.00306769
281718                -0.0631248       -0.070107      0.000893878    -0.000220236         0.380327       -0.915684      0.000276566     0.000194456
                      0.00087821    -0.000234385       0.00334163      -0.0248376      0.000327149     0.000118454         0.721561       -0.687941
                        0.379911       -0.915377      0.000265984     0.000100332        -0.093745      0.00595267      0.000154055     0.000817636
                     0.000317006     0.000203359         0.721633       -0.688031      6.32187e-05     0.000905566       -0.0250232      0.00308155
281720                -0.0631552      -0.0700995      0.000893771    -0.000220785         0.379922       -0.915851      0.000276688     0.000194398
                     0.000878073    -0.000234992       0.00333574      -0.0248529      0.000327519     0.000118486         0.721279       -0.688236
                        0.379506       -0.915543      0.000266044     0.000100304       -0.0937562      0.00600864       0.00015423     0.000817675
                     0.000317129     0.000203301         0.721351       -0.688325      6.28093e-05     0.000905745        -0.025036      0.00309542
281722                -0.0631857       -0.070092      0.000893664    -0.000221334         0.379518       -0.916017       0.00027681      0.00019434
                     0.000877936    -0.000235598       0.00332985      -0.0248682      0.000327891     0.000118519         0.720997        -0.68853
                        0.379101       -0.915708      0.000266104     0.000100276       -0.0937674      0.00606462      0.000154406     0.000817714
                     0.000317252     0.000203243         0.721069        -0.68862      6.23959e-05     0.000905925       -0.0250487      0.00310931
281724                -0.0632161      -0.0700844      0.000893557    -0.000221883         0.379113       -0.916183      0.000276932     0.000194282
                     0.000877798    -0.000236204       0.00332395      -0.0248835      0.000328265     0.000118553         0.720715       -0.688824
                        0.378695       -0.915874      0.000266163     0.000100248       -0.0937786      0.00612062      0.000154582     0.000817754
                     0.000317375     0.000203185         0.720787       -0.688914      6.19785e-05     0.000906105       -0.0250615      0.00312321
281726                -0.0632466      -0.0700769       0.00089345    -0.000222432         0.378708       -0.916349      0.000277055     0.000194223
                      0.00087766    -0.000236811       0.00331804      -0.0248989      0.000328639     0.000118587         0.720433       -0.689118
                         0.37829       -0.916039      0.000266223      0.00010022       -0.0937897      0.00617663      0.000154758     0.000817793
                     0.000317497     0.000203126         0.720505       -0.689208      6.15573e-05     0.000906287       -0.0250742      0.00313713
281728                -0.0632771      -0.0700693      0.000893342    -0.000222981         0.378303       -0.916515      0.000277177     0.000194164
                     0.000877521    -0.000237417       0.00331211      -0.0249142      0.000329016     0.000118622          0.72015       -0.689412
                        0.377885       -0.916204      0.000266282     0.000100192       -0.0938008      0.00623265      0.000154934     0.000817833
                      0.00031762     0.000203068         0.720223       -0.689502      6.11321e-05     0.000906468       -0.0250869      0.00315105
281730                -0.0633076      -0.0700618      0.000893235     -0.00022353         0.377898        -0.91668      0.000277299     0.000194105
                     0.000877383    -0.000238022       0.00330618      -0.0249295      0.000329394     0.000118657         0.719868       -0.689706
                        0.377479       -0.916369      0.000266341     0.000100163       -0.0938119      0.00628869       0.00015511     0.000817872
                     0.000317742     0.000203009          0.71994       -0.689796      6.07031e-05     0.000906651       -0.0250996      0.00316499
281732                 -0.063338      -0.0700542      0.000893127    -0.000224079         0.377493       -0.916846      0.000277422     0.000194046
                     0.000877244    -0.000238628       0.00330024      -0.0249449      0.000329774     0.000118693         0.719585           -0.69
                        0.377074       -0.916534        0.0002664     0.000100134       -0.0938229      0.00634474      0.000155286     0.000817911
                     0.000317865      0.00020295         0.719658       -0.690089      6.02702e-05     0.000906835       -0.0251123      0.00317895
281734                -0.0633685      -0.0700466      0.000893019    -0.000224629         0.377088       -0.917011      0.000277544     0.000193987
                     0.000877105    -0.000239234       0.00329429      -0.0249602      0.000330155      0.00011873         0.719302       -0.690293
                        0.376668       -0.916698      0.000266459     0.000100106       -0.0938339      0.00640081      0.000155462      0.00081795
                     0.000317987     0.000202891         0.719375       -0.690383      5.98336e-05     0.000907019       -0.0251251      0.00319291
281736                 -0.063399       -0.070039      0.000892911    -0.000225178         0.376682       -0.917176      0.000277666     0.000193927
                     0.000876965    -0.000239839       0.00328832      -0.0249755      0.000330537     0.000118767         0.719019       -0.690587
                        0.376262       -0.916863      0.000266518     0.000100077       -0.0938449      0.00645689      0.000155638      0.00081799
                      0.00031811     0.000202832         0.719092       -0.690676      5.93931e-05     0.000907205       -0.0251377      0.00320689
281738                -0.0634295      -0.0700313      0.000892803    -0.000225727         0.376277       -0.917341      0.000277789     0.000193868
                     0.000876826    -0.000240445       0.00328235      -0.0249908      0.000330922     0.000118805         0.718736        -0.69088
                        0.375857       -0.917027      0.000266576     0.000100047       -0.0938558      0.00651298      0.000155814     0.000818029
                     0.000318232     0.000202772         0.718809        -0.69097       5.8949e-05     0.000907391       -0.0251504      0.00322089
281740                  -0.06346      -0.0700237      0.000892695    -0.000226277         0.375872       -0.917505      0.000277911     0.000193808
                     0.000876686     -0.00024105       0.00327637      -0.0250061      0.000331307     0.000118843         0.718453       -0.691174
                        0.375451       -0.917191      0.000266635     0.000100018       -0.0938667      0.00656909      0.000155991     0.000818068
                     0.000318354     0.000202712         0.718526       -0.691263      5.85011e-05     0.000907579       -0.0251631      0.00323489
281742                -0.0634904       -0.070016      0.000892586    -0.000226827         0.375466        -0.91767      0.000278034     0.000193748
                     0.000876546    -0.000241655       0.00327038      -0.0250215      0.000331695     0.000118882          0.71817       -0.691467
                        0.375045       -0.917355      0.000266693     9.99887e-05       -0.0938775      0.00662521      0.000156167     0.000818108
                     0.000318476     0.000202653         0.718243       -0.691556      5.80495e-05     0.000907767       -0.0251758      0.00324891
281744                -0.0635209      -0.0700084      0.000892478    -0.000227376         0.375061       -0.917834      0.000278156     0.000193687
                     0.000876406    -0.000242261       0.00326438      -0.0250368      0.000332084     0.000118922         0.717886        -0.69176
                        0.374639       -0.917518      0.000266752     9.99591e-05       -0.0938884      0.00668135      0.000156343     0.000818147
                     0.000318598     0.000202593          0.71796       -0.691849      5.75943e-05     0.000907956       -0.0251885      0.00326295
281746                -0.0635514      -0.0700007      0.000892369    -0.000227926         0.374655       -0.917998      0.000278279     0.000193626
                     0.000876265    -0.000242866       0.00325837      -0.0250521      0.000332475     0.000118962         0.717603       -0.692053
                        0.374233       -0.917682       0.00026681     9.99293e-05       -0.0938992       0.0067375       0.00015652     0.000818186
                      0.00031872     0.000202532         0.717676       -0.692142      5.71356e-05     0.000908147       -0.0252011      0.00327699
281748                -0.0635819       -0.069993       0.00089226    -0.000228476         0.374249       -0.918162      0.000278401     0.000193566
                     0.000876124    -0.000243471       0.00325234      -0.0250674      0.000332867     0.000119003         0.717319       -0.692346
                        0.373826       -0.917845      0.000266868     9.98994e-05       -0.0939099      0.00679366      0.000156697     0.000818226
                     0.000318842     0.000202472         0.717393       -0.692435      5.66732e-05     0.000908339       -0.0252138      0.00329105
281750                -0.0636124      -0.0699853      0.000892151    -0.000229026         0.373843       -0.918326      0.000278524     0.000193504
                     0.000875983    -0.000244075       0.00324631      -0.0250827      0.000333261     0.000119044         0.717036       -0.692638
                         0.37342       -0.918008      0.000266926     9.98693e-05       -0.0939206      0.00684984      0.000156873     0.000818265
                     0.000318963     0.000202411         0.717109       -0.692728      5.62074e-05     0.000908531       -0.0252264      0.00330512
281752                -0.0636429      -0.0699775      0.000892042    -0.000229576         0.373437        -0.91849      0.000278646     0.000193443
                     0.000875842     -0.00024468       0.00324027      -0.0250981      0.000333656     0.000119086         0.716752       -0.692931
                        0.373014       -0.918171      0.000266984     9.98391e-05       -0.0939313      0.00690603       0.00015705     0.000818304
                     0.000319085      0.00020235         0.716825        -0.69302       5.5738e-05     0.000908725       -0.0252391      0.00331921
281754                -0.0636734      -0.0699698      0.000891933    -0.000230126         0.373032       -0.918653      0.000278769     0.000193382
                       0.0008757    -0.000245284       0.00323422      -0.0251134      0.000334053     0.000119129         0.716468       -0.693224
                        0.372607       -0.918334      0.000267042     9.98087e-05        -0.093942      0.00696224      0.000157227     0.000818344
                     0.000319206     0.000202289         0.716541       -0.693313      5.52653e-05      0.00090892       -0.0252517      0.00333331
281756                -0.0637039       -0.069962      0.000891823    -0.000230676         0.372625       -0.918816      0.000278891      0.00019332
                     0.000875559    -0.000245889       0.00322816      -0.0251287      0.000334452     0.000119172         0.716184       -0.693516
                        0.372201       -0.918497      0.000267099     9.97781e-05       -0.0939526      0.00701846      0.000157404     0.000818383
                     0.000319327     0.000202228         0.716257       -0.693605      5.47892e-05     0.000909117       -0.0252643      0.00334742
281758                -0.0637345      -0.0699543      0.000891714    -0.000231226         0.372219       -0.918979      0.000279014     0.000193258
                     0.000875417    -0.000246492       0.00322209       -0.025144      0.000334852     0.000119216         0.715899       -0.693808
                        0.371794       -0.918659      0.000267157     9.97475e-05       -0.0939632      0.00707469      0.000157581     0.000818423
                     0.000319448     0.000202166         0.715973       -0.693897      5.43099e-05     0.000909314       -0.0252769      0.00336154
281760                 -0.063765      -0.0699465      0.000891604    -0.000231776         0.371813       -0.919142      0.000279136     0.000193195
                     0.000875275    -0.000247096       0.00321601      -0.0251593      0.000335254     0.000119261         0.715615         -0.6941
                        0.371388       -0.918821      0.000267214     9.97166e-05       -0.0939737      0.00713094      0.000157758     0.000818462
                     0.000319567     0.000202104         0.715689       -0.694189      5.38273e-05     0.000909513       -0.0252895      0.00337568
281762                -0.0637954      -0.0699387      0.000891494    -0.000232326         0.371407       -0.919305      0.000279259     0.000193133
                     0.000875134    -0.000247696       0.00320992      -0.0251746      0.000335657     0.000119307          0.71533       -0.694392
                        0.370981       -0.918983      0.000267272     9.96857e-05       -0.0939842       0.0071872      0.000157935     0.000818502
