! TOUCHSTONE file generated by CST MICROWAVE STUDIO
! Date and time: Tue Oct 14 07:26:01 2025
! Project name: Teste_Macro_Metasurface_Nanopilar.cst
! Parameters = {H=600; L_x=90; L_y=70; Lambda=1064; Max_L=200; Min_L=70; PathPara=1; Phi=0; Step_L=10; Theta=0; p=520; phaseX=180; phaseY=0}
! Header version: 2018
! Port assignment regex: !\s*Touchstone port\s*([0-9]+)\s*=\s*(CST MWS port|CST DS port)\s*([0-9]+|Zmin|Zmax)\s*\(\"(.*)\"\)(\s*mode\s*([0-9]+))?.*
! Touchstone port assignment:
! Touchstone port 1 = CST MWS port Zmax ("") mode 1
! Touchstone port 2 = CST MWS port Zmax ("") mode 2
! Touchstone port 3 = CST MWS port Zmin ("") mode 1
! Touchstone port 4 = CST MWS port Zmin ("") mode 2
! S-Parameters are not renormalized. Each port impedance will be approximated by the real part at minimum frequency. The values are described via the [Reference] keyword.
! Default impedance is overridden by [Reference]
[Version] 2.0
# GHz S RI R 376.73
[Number of Ports] 4
[Reference]
376.73 376.73 259.814 259.814 
[Number of Frequencies] 51
[Network Data]
281700                -0.0587811        0.130421      8.83257e-05     0.000274483         0.970065        0.195005     -0.000174385    -0.000272707
                     8.87537e-05     0.000301663       -0.0333222        0.109993     -0.000110829    -0.000236433         0.992525       0.0297863
                        0.970011        0.194749     -1.62566e-05    -0.000225705       0.00376903        0.142983      3.70239e-05     7.15519e-05
                     2.48366e-05    -0.000227668         0.992429       0.0298061       3.8921e-05     0.000244028         0.026508        0.111872
281702                -0.0587369        0.130438      8.83832e-05     0.000274613         0.970135        0.194657     -0.000174455    -0.000273129
                     8.88411e-05     0.000301649       -0.0332832        0.110001     -0.000110984    -0.000236488         0.992537        0.029425
                        0.970081        0.194401      -1.6385e-05    -0.000225687       0.00382431        0.142978       3.7158e-05     7.14923e-05
                     2.47674e-05    -0.000227713          0.99244       0.0294449      3.90475e-05     0.000243947        0.0265501        0.111858
281704                -0.0586927        0.130455      8.84403e-05     0.000274743         0.970205        0.194309     -0.000174524    -0.000273551
                     8.89284e-05     0.000301635       -0.0332443        0.110008     -0.000111139    -0.000236543         0.992548       0.0290636
                        0.970151        0.194053     -1.65135e-05    -0.000225669       0.00387959        0.142974      3.72924e-05     7.14333e-05
                     2.46983e-05    -0.000227759         0.992451       0.0290838      3.91736e-05     0.000243865        0.0265922        0.111844
281706                -0.0586486        0.130472      8.84973e-05     0.000274874         0.970275        0.193961     -0.000174593    -0.000273974
                     8.90156e-05      0.00030162       -0.0332053        0.110015     -0.000111293    -0.000236598          0.99256       0.0287022
                        0.970221        0.193705      -1.6642e-05    -0.000225651       0.00393487         0.14297       3.7427e-05      7.1375e-05
                     2.46293e-05    -0.000227805         0.992463       0.0287227      3.92992e-05     0.000243783        0.0266343        0.111829
281708                -0.0586044        0.130489       8.8554e-05     0.000275005         0.970345        0.193613     -0.000174662    -0.000274396
                     8.91027e-05     0.000301606       -0.0331663        0.110023     -0.000111447    -0.000236654         0.992571       0.0283408
                         0.97029        0.193357     -1.67705e-05    -0.000225632       0.00399015        0.142966      3.75618e-05     7.13173e-05
                     2.45603e-05     -0.00022785         0.992474       0.0283616      3.94244e-05     0.000243701        0.0266763        0.111815
281710                -0.0585602        0.130506      8.86104e-05     0.000275135         0.970414        0.193265      -0.00017473    -0.000274819
                     8.91897e-05     0.000301591       -0.0331273         0.11003       -0.0001116     -0.00023671         0.992582       0.0279795
                         0.97036        0.193009      -1.6899e-05    -0.000225614       0.00404542        0.142962      3.76969e-05     7.12603e-05
                     2.44915e-05    -0.000227896         0.992484       0.0280004      3.95491e-05     0.000243619        0.0267184        0.111801
281712                 -0.058516        0.130522      8.86665e-05     0.000275266         0.970484        0.192917     -0.000174798    -0.000275241
                     8.92765e-05     0.000301577       -0.0330884        0.110037     -0.000111753    -0.000236765         0.992593       0.0276181
                        0.970429        0.192661     -1.70276e-05    -0.000225596       0.00410069        0.142958      3.78321e-05     7.12039e-05
                     2.44227e-05    -0.000227941         0.992495       0.0276393      3.96734e-05     0.000243536        0.0267604        0.111786
281714                -0.0584718        0.130539      8.87224e-05     0.000275397         0.970553        0.192569     -0.000174866    -0.000275664
                     8.93633e-05     0.000301563       -0.0330494        0.110045     -0.000111905    -0.000236821         0.992603       0.0272567
                        0.970499        0.192313     -1.71561e-05    -0.000225579       0.00415595        0.142953      3.79676e-05     7.11481e-05
                     2.43541e-05    -0.000227987         0.992506       0.0272782      3.97974e-05     0.000243454        0.0268025        0.111772
281716                -0.0584275        0.130556      8.87781e-05     0.000275528         0.970622        0.192221     -0.000174934    -0.000276087
                     8.94499e-05     0.000301549       -0.0330104        0.110052     -0.000112057    -0.000236878         0.992614       0.0268953
                        0.970568        0.191965     -1.72846e-05    -0.000225561       0.00421122        0.142949      3.81033e-05      7.1093e-05
                     2.42855e-05    -0.000228032         0.992516        0.026917      3.99209e-05     0.000243371        0.0268445        0.111758
281718                -0.0583833        0.130573      8.88335e-05     0.000275659         0.970692        0.191873     -0.000175001     -0.00027651
                     8.95364e-05     0.000301534       -0.0329714        0.110059     -0.000112208    -0.000236934         0.992624       0.0265339
                        0.970637        0.191617     -1.74132e-05    -0.000225543       0.00426648        0.142945      3.82392e-05     7.10385e-05
                      2.4217e-05    -0.000228077         0.992526       0.0265559      4.00441e-05     0.000243288        0.0268865        0.111743
281720                -0.0583391         0.13059      8.88886e-05      0.00027579         0.970761        0.191524     -0.000175068    -0.000276933
                     8.96227e-05      0.00030152       -0.0329324        0.110067     -0.000112359     -0.00023699         0.992635       0.0261725
                        0.970706        0.191269     -1.75418e-05    -0.000225525       0.00432174        0.142941      3.83753e-05     7.09847e-05
                     2.41486e-05    -0.000228122         0.992536       0.0261947      4.01669e-05     0.000243205        0.0269285        0.111729
281722                -0.0582949        0.130607      8.89435e-05     0.000275921         0.970829        0.191176     -0.000175135    -0.000277356
                      8.9709e-05     0.000301506       -0.0328934        0.110074      -0.00011251    -0.000237047         0.992645       0.0258111
                        0.970775         0.19092     -1.76704e-05    -0.000225507       0.00437699        0.142936      3.85116e-05     7.09315e-05
                     2.40803e-05    -0.000228167         0.992547       0.0258335      4.02893e-05     0.000243122        0.0269705        0.111714
281724                -0.0582506        0.130624      8.89981e-05     0.000276052         0.970898        0.190828     -0.000175201    -0.000277779
                     8.97951e-05     0.000301492       -0.0328544        0.110081      -0.00011266    -0.000237104         0.992655       0.0254497
                        0.970844        0.190572      -1.7799e-05    -0.000225489       0.00443224        0.142932      3.86482e-05     7.08789e-05
                      2.4012e-05    -0.000228212         0.992556       0.0254724      4.04114e-05     0.000243038        0.0270125          0.1117
281726                -0.0582064        0.130641      8.90525e-05     0.000276183         0.970967         0.19048     -0.000175267    -0.000278202
                     8.98811e-05     0.000301477       -0.0328155        0.110088      -0.00011281    -0.000237161         0.992665       0.0250883
                        0.970912        0.190224     -1.79276e-05    -0.000225471        0.0044875        0.142927       3.8785e-05      7.0827e-05
                     2.39438e-05    -0.000228257         0.992566       0.0251112      4.05332e-05     0.000242955        0.0270545        0.111686
281728                -0.0581622        0.130657      8.91066e-05     0.000276315         0.971035        0.190131     -0.000175333    -0.000278625
                      8.9967e-05     0.000301463       -0.0327765        0.110096     -0.000112959    -0.000237218         0.992675       0.0247268
                        0.970981        0.189876     -1.80562e-05    -0.000225453       0.00454274        0.142923       3.8922e-05     7.07758e-05
                     2.38757e-05    -0.000228302         0.992576         0.02475      4.06547e-05     0.000242871        0.0270965        0.111671
281730                -0.0581179        0.130674      8.91605e-05     0.000276446         0.971104        0.189783     -0.000175399    -0.000279048
                     9.00528e-05     0.000301449       -0.0327375        0.110103     -0.000113108    -0.000237275         0.992684       0.0243654
                        0.971049        0.189527     -1.81848e-05    -0.000225436       0.00459799        0.142919      3.90592e-05     7.07252e-05
                     2.38076e-05    -0.000228346         0.992585       0.0243889      4.07758e-05     0.000242787        0.0271385        0.111657
281732                -0.0580737        0.130691      8.92142e-05     0.000276577         0.971172        0.189435     -0.000175464    -0.000279471
                     9.01385e-05     0.000301435       -0.0326985         0.11011     -0.000113257    -0.000237333         0.992694        0.024004
                        0.971117        0.189179     -1.83135e-05    -0.000225418       0.00465323        0.142914      3.91967e-05     7.06753e-05
                     2.37396e-05    -0.000228391         0.992595       0.0240277      4.08967e-05     0.000242702        0.0271804        0.111642
281734                -0.0580294        0.130708      8.92676e-05     0.000276709          0.97124        0.189086     -0.000175529    -0.000279894
                      9.0224e-05     0.000301421       -0.0326595        0.110117     -0.000113405     -0.00023739         0.992703       0.0236426
                        0.971186        0.188831     -1.84422e-05      -0.0002254       0.00470847         0.14291      3.93343e-05      7.0626e-05
                     2.36717e-05    -0.000228435         0.992604       0.0236665      4.10173e-05     0.000242618        0.0272224        0.111628
281736                -0.0579852        0.130724      8.93207e-05     0.000276841         0.971308        0.188738     -0.000175594    -0.000280317
                     9.03094e-05     0.000301407       -0.0326205        0.110124     -0.000113553    -0.000237448         0.992712       0.0232811
                        0.971254        0.188482     -1.85708e-05    -0.000225382       0.00476371        0.142905      3.94722e-05     7.05773e-05
                     2.36038e-05     -0.00022848         0.992613       0.0233053      4.11376e-05     0.000242533        0.0272644        0.111613
281738                -0.0579409        0.130741      8.93736e-05     0.000276972         0.971376        0.188389     -0.000175658     -0.00028074
                     9.03947e-05     0.000301393       -0.0325815        0.110131     -0.000113701    -0.000237506         0.992722       0.0229197
                        0.971321        0.188134     -1.86995e-05    -0.000225365       0.00481894        0.142901      3.96103e-05     7.05294e-05
                      2.3536e-05    -0.000228524         0.992622       0.0229441      4.12576e-05     0.000242448        0.0273063        0.111598
281740                -0.0578966        0.130758      8.94263e-05     0.000277104         0.971444        0.188041     -0.000175722    -0.000281163
                     9.04799e-05     0.000301378       -0.0325425        0.110139     -0.000113849    -0.000237564         0.992731       0.0225583
                        0.971389        0.187786     -1.88282e-05    -0.000225347       0.00487417        0.142896      3.97486e-05     7.04821e-05
                     2.34683e-05    -0.000228568         0.992631       0.0225829      4.13774e-05     0.000242363        0.0273483        0.111584
281742                -0.0578523        0.130775      8.94787e-05     0.000277236         0.971512        0.187692     -0.000175786    -0.000281586
                      9.0565e-05     0.000301364       -0.0325035        0.110146     -0.000113996    -0.000237623         0.992739       0.0221968
                        0.971457        0.187437      -1.8957e-05    -0.000225329        0.0049294        0.142892      3.98872e-05     7.04354e-05
                     2.34006e-05    -0.000228612          0.99264       0.0222217      4.14969e-05     0.000242277        0.0273902        0.111569
281744                -0.0578081        0.130791      8.95309e-05     0.000277368         0.971579        0.187344      -0.00017585    -0.000282009
                       9.065e-05      0.00030135       -0.0324645        0.110153     -0.000114143    -0.000237681         0.992748       0.0218354
                        0.971524        0.187089     -1.90857e-05    -0.000225312       0.00498462        0.142887       4.0026e-05     7.03895e-05
                     2.33329e-05    -0.000228656         0.992648       0.0218605      4.16162e-05     0.000242191        0.0274321        0.111555
281746                -0.0577638        0.130808      8.95828e-05       0.0002775         0.971646        0.186995     -0.000175913    -0.000282432
                     9.07348e-05     0.000301336       -0.0324255         0.11016      -0.00011429     -0.00023774         0.992757       0.0214739
                        0.971592         0.18674     -1.92145e-05    -0.000225294       0.00503985        0.142883      4.01649e-05     7.03441e-05
                     2.32653e-05      -0.0002287         0.992657       0.0214993      4.17353e-05     0.000242105         0.027474         0.11154
281748                -0.0577195        0.130825      8.96345e-05     0.000277632         0.971714        0.186647     -0.000175976    -0.000282855
                     9.08196e-05     0.000301322       -0.0323865        0.110167     -0.000114436    -0.000237798         0.992765       0.0211125
                        0.971659        0.186392     -1.93432e-05    -0.000225276       0.00509507        0.142878      4.03042e-05     7.02995e-05
                     2.31977e-05    -0.000228744         0.992665       0.0211381      4.18541e-05     0.000242019        0.0275159        0.111525
281750                -0.0576752        0.130841      8.96859e-05     0.000277765         0.971781        0.186298     -0.000176038    -0.000283279
                     9.09042e-05     0.000301308       -0.0323475        0.110174     -0.000114583    -0.000237857         0.992774        0.020751
                        0.971726        0.186043      -1.9472e-05    -0.000225259       0.00515028        0.142873      4.04436e-05     7.02555e-05
                     2.31302e-05    -0.000228788         0.992673       0.0207769      4.19727e-05     0.000241933        0.0275578        0.111511
281752                -0.0576309        0.130858      8.97372e-05     0.000277897         0.971848        0.185949       -0.0001761    -0.000283702
                     9.09887e-05     0.000301293       -0.0323084        0.110181     -0.000114729    -0.000237916         0.992782       0.0203896
                        0.971793        0.185695     -1.96008e-05    -0.000225241        0.0052055        0.142869      4.05832e-05     7.02122e-05
                     2.30626e-05    -0.000228832         0.992681       0.0204157      4.20912e-05     0.000241846        0.0275997        0.111496
281754                -0.0575866        0.130875      8.97881e-05     0.000278029         0.971915        0.185601     -0.000176162    -0.000284125
                     9.10731e-05     0.000301279       -0.0322694        0.110188     -0.000114874    -0.000237976          0.99279       0.0200281
                         0.97186        0.185346     -1.97296e-05    -0.000225224       0.00526071        0.142864      4.07231e-05     7.01696e-05
                     2.29951e-05    -0.000228875         0.992689       0.0200545      4.22094e-05      0.00024176        0.0276416        0.111481
281756                -0.0575423        0.130891      8.98389e-05     0.000278162         0.971982        0.185252     -0.000176224    -0.000284548
                     9.11574e-05     0.000301265       -0.0322304        0.110195      -0.00011502    -0.000238035         0.992798       0.0196667
                        0.971927        0.184997     -1.98585e-05    -0.000225206       0.00531592        0.142859      4.08632e-05     7.01276e-05
                     2.29276e-05    -0.000228919         0.992697       0.0196933      4.23274e-05     0.000241673        0.0276835        0.111467
281758                 -0.057498        0.130908      8.98894e-05     0.000278294         0.972048        0.184903     -0.000176285    -0.000284971
                     9.12416e-05      0.00030125       -0.0321914        0.110202     -0.000115165    -0.000238095         0.992806       0.0193052
                        0.971993        0.184649     -1.99873e-05    -0.000225189       0.00537113        0.142855      4.10036e-05     7.00863e-05
                     2.28601e-05    -0.000228962         0.992705        0.019332      4.24451e-05     0.000241586        0.0277254        0.111452
281760                -0.0574536        0.130924      8.99396e-05     0.000278427         0.972115        0.184555     -0.000176346    -0.000285394
                     9.13256e-05     0.000301236       -0.0321524        0.110209     -0.000115311    -0.000238154         0.992813       0.0189437
                         0.97206          0.1843     -2.01162e-05    -0.000225171       0.00542633         0.14285      4.11441e-05     7.00457e-05
                     2.27924e-05    -0.000229006         0.992712       0.0189708      4.25627e-05     0.000241498        0.0277672        0.111437
281762                -0.0574093        0.130941      8.99897e-05      0.00027856         0.972181        0.184206     -0.000176407    -0.000285817
                     9.14095e-05     0.000301221       -0.0321134        0.110216     -0.000115456    -0.000238214         0.992821       0.0185823
                        0.972126        0.183951      -2.0245e-05    -0.000225154       0.00548153        0.142845      4.12849e-05     7.00057e-05
