! TOUCHSTONE file generated by CST MICROWAVE STUDIO
! Date and time: Tue Oct 14 07:25:04 2025
! Project name: Teste_Macro_Metasurface_Nanopilar.cst
! Parameters = {H=600; L_x=70; L_y=200; Lambda=1064; Max_L=200; Min_L=70; PathPara=1; Phi=0; Step_L=10; Theta=0; p=520; phaseX=180; phaseY=0}
! Header version: 2018
! Port assignment regex: !\s*Touchstone port\s*([0-9]+)\s*=\s*(CST MWS port|CST DS port)\s*([0-9]+|Zmin|Zmax)\s*\(\"(.*)\"\)(\s*mode\s*([0-9]+))?.*
! Touchstone port assignment:
! Touchstone port 1 = CST MWS port Zmax ("") mode 1
! Touchstone port 2 = CST MWS port Zmax ("") mode 2
! Touchstone port 3 = CST MWS port Zmin ("") mode 1
! Touchstone port 4 = CST MWS port Zmin ("") mode 2
! S-Parameters are not renormalized. Each port impedance will be approximated by the real part at minimum frequency. The values are described via the [Reference] keyword.
! Default impedance is overridden by [Reference]
[Version] 2.0
# GHz S RI R 376.73
[Number of Ports] 4
[Reference]
376.73 376.73 259.814 259.814 
[Number of Frequencies] 51
[Network Data]
281700                -0.0481459       -0.301305      0.000558202    -0.000363986         0.224766        0.918186     -0.000297634    -5.77639e-05
                      0.00055269    -0.000347696       0.00199848       0.0873057      0.000470615     9.84555e-05         0.975546       -0.198411
                        0.224307        0.918165      0.000419178     0.000169035        0.0993582        0.287156     -7.15175e-05    -0.000637686
                    -0.000278639    -7.69305e-05         0.975265       -0.198684     -1.10906e-05    -0.000616798        0.0322205       0.0813703
281702                -0.0482632       -0.301345      0.000558197    -0.000364221         0.225219        0.918055     -0.000297693    -5.76473e-05
                     0.000553137    -0.000346932       0.00203198       0.0873006      0.000470724     9.81925e-05         0.975473       -0.198772
                        0.224766        0.918038      0.000419345      0.00016881        0.0995596        0.287147     -7.18764e-05     -0.00063774
                    -0.000279988    -7.54773e-05         0.975192       -0.199045     -1.14364e-05    -0.000616938        0.0322478       0.0813549
281704                -0.0483806       -0.301385      0.000558192    -0.000364456         0.225671        0.917925     -0.000297752    -5.75307e-05
                      0.00055349      -0.0003462       0.00206548       0.0872955      0.000470833     9.79293e-05           0.9754       -0.199133
                        0.225224        0.917911      0.000419513     0.000168584         0.099761        0.287138     -7.22354e-05    -0.000637794
                    -0.000281251     -7.4123e-05         0.975119       -0.199406     -1.17824e-05    -0.000617077         0.032275       0.0813395
281706                 -0.048498       -0.301424      0.000558186     -0.00036469         0.226124        0.917794      -0.00029781    -5.74142e-05
                     0.000553734    -0.000345518       0.00209898       0.0872903      0.000470942     9.76661e-05         0.975327       -0.199493
                        0.225682        0.917784      0.000419681     0.000168358        0.0999624        0.287129     -7.25945e-05    -0.000637847
                    -0.000282406    -7.29085e-05         0.975045       -0.199766     -1.21285e-05    -0.000617216        0.0323022       0.0813241
281708                -0.0486156       -0.301464      0.000558181    -0.000364925         0.226577        0.917663     -0.000297868    -5.72977e-05
                     0.000553854    -0.000344918       0.00213247       0.0872852      0.000471051     9.74029e-05         0.975253       -0.199854
                        0.226138        0.917655      0.000419849     0.000168132         0.100164         0.28712     -7.29537e-05      -0.0006379
                    -0.000283422    -7.18874e-05         0.974972       -0.200127     -1.24748e-05    -0.000617355        0.0323295       0.0813086
281710                -0.0487332       -0.301504      0.000558176     -0.00036516         0.227029        0.917532     -0.000297927    -5.71813e-05
                     0.000553833    -0.000344441       0.00216596         0.08728      0.000471159     9.71395e-05          0.97518       -0.200215
                        0.226593        0.917526      0.000420016     0.000167906         0.100365         0.28711     -7.33131e-05    -0.000637953
                    -0.000284254    -7.11301e-05         0.974898       -0.200488     -1.28211e-05    -0.000617494        0.0323567       0.0812932
281712                -0.0488511       -0.301543       0.00055817    -0.000365395         0.227481        0.917401     -0.000297985    -5.70648e-05
                     0.000553651    -0.000344149       0.00219945       0.0872749      0.000471267     9.68761e-05         0.975106       -0.200575
                        0.227047        0.917396      0.000420184     0.000167679         0.100567          0.2871     -7.36725e-05    -0.000638006
                    -0.000284834    -7.07292e-05         0.974825       -0.200849     -1.31676e-05    -0.000617633        0.0323839       0.0812777
281714                 -0.048969       -0.301583      0.000558164    -0.000365629         0.227934        0.917269     -0.000298043    -5.69485e-05
                     0.000553289    -0.000344132       0.00223293       0.0872697      0.000471375     9.66125e-05         0.975032       -0.200936
                        0.227499        0.917264      0.000420351     0.000167453         0.100769        0.287091     -7.40321e-05    -0.000638058
                    -0.000285051    -7.08049e-05         0.974751       -0.201209     -1.35143e-05    -0.000617772        0.0324111       0.0812622
281716                -0.0490872       -0.301622      0.000558158    -0.000365864         0.228386        0.917137     -0.000298102    -5.68321e-05
                     0.000552736     -0.00034452       0.00226642       0.0872645      0.000471483      9.6349e-05         0.974958       -0.201296
                        0.227948         0.91713      0.000420519     0.000167226          0.10097        0.287081     -7.43917e-05     -0.00063811
                    -0.000284725    -7.15089e-05         0.974677        -0.20157      -1.3861e-05     -0.00061791        0.0324383       0.0812468
281718                -0.0492058       -0.301662      0.000558153    -0.000366099         0.228838        0.917005      -0.00029816    -5.67158e-05
                     0.000551992    -0.000345507       0.00229989       0.0872593      0.000471591     9.60853e-05         0.974884       -0.201657
                        0.228394        0.916993      0.000420686     0.000166999         0.101172        0.287071     -7.47515e-05    -0.000638162
                     -0.00028355    -7.30177e-05         0.974603       -0.201931     -1.42079e-05    -0.000618049        0.0324655       0.0812313
281720                 -0.049325       -0.301702      0.000558147    -0.000366334          0.22929        0.916873     -0.000298218    -5.65995e-05
                     0.000551104    -0.000347375       0.00233337       0.0872541      0.000471698     9.58215e-05          0.97481       -0.202018
                        0.228833        0.916852      0.000420854     0.000166772         0.101374         0.28706     -7.51113e-05    -0.000638214
                    -0.000280999    -7.54882e-05         0.974528       -0.202291      -1.4555e-05    -0.000618187        0.0324926       0.0812158
281722                -0.0494457       -0.301742       0.00055814    -0.000366569         0.229742         0.91674     -0.000298276    -5.64832e-05
                      0.00055021    -0.000350538       0.00236684       0.0872488      0.000471806     9.55577e-05         0.974735       -0.202378
                        0.229261        0.916699      0.000421021     0.000166544         0.101575         0.28705     -7.54713e-05    -0.000638265
                    -0.000276176    -7.89043e-05         0.974454       -0.202652     -1.49021e-05    -0.000618325        0.0325198       0.0812003
281724                -0.0495714       -0.301781      0.000558134    -0.000366804         0.230194        0.916608     -0.000298334     -5.6367e-05
                     0.000549663    -0.000355571       0.00240031       0.0872436      0.000471913     9.52938e-05         0.974661       -0.202739
                        0.229669         0.91652      0.000421189     0.000166317         0.101777         0.28704     -7.58314e-05    -0.000638316
                    -0.000267698    -8.26439e-05         0.974379       -0.203012     -1.52494e-05    -0.000618464         0.032547       0.0811848
281726                -0.0497035       -0.301782      0.000558128    -0.000367039         0.230646        0.916475     -0.000298393    -5.62507e-05
                     0.000550245    -0.000363178       0.00243378       0.0872383       0.00047202     9.50298e-05         0.974586       -0.203099
                        0.230048        0.916245      0.000421356     0.000166089         0.101979        0.287029     -7.61916e-05    -0.000638367
                    -0.000254051    -8.45597e-05         0.974305       -0.203373     -1.55969e-05    -0.000618602        0.0325741       0.0811693
281728                 -0.049779       -0.301841      0.000558121    -0.000367274         0.231098        0.916341     -0.000298451    -5.61345e-05
                     0.000553524     -0.00037393       0.00246725       0.0872331      0.000472126     9.47657e-05         0.974511       -0.203459
                        0.230746         0.91564      0.000421523     0.000165861         0.102181        0.287018     -7.65519e-05    -0.000638418
                    -0.000235593    -8.02097e-05          0.97423       -0.203733     -1.59445e-05     -0.00061874        0.0326013       0.0811537
281730                -0.0499012       -0.301889      0.000558115    -0.000367509         0.231549        0.916208     -0.000298509    -5.60182e-05
                     0.000562093    -0.000387399       0.00250071       0.0872278      0.000472233     9.45015e-05         0.974436        -0.20382
                        0.231694        0.916016       0.00042169     0.000165633         0.102382        0.287008     -7.69123e-05    -0.000638468
                    -0.000217886    -6.55939e-05         0.974155       -0.204094     -1.62923e-05    -0.000618878        0.0326284       0.0811382
281732                -0.0500216       -0.301931      0.000558108    -0.000367744         0.232001        0.916074     -0.000298567     -5.5902e-05
                     0.000578687    -0.000400645       0.00253417       0.0872225      0.000472339     9.42372e-05         0.974361        -0.20418
                        0.231975        0.916081      0.000421858     0.000165405         0.102584        0.286997     -7.72728e-05    -0.000638518
                    -0.000209046    -4.39413e-05          0.97408       -0.204454     -1.66402e-05    -0.000619015        0.0326555       0.0811226
281734                -0.0501409       -0.301971      0.000558102    -0.000367979         0.232453         0.91594     -0.000298625    -5.57858e-05
                     0.000602995    -0.000407987       0.00256762       0.0872172      0.000472445     9.39729e-05         0.974286       -0.204541
                        0.232342        0.915983      0.000422025     0.000165176         0.102786        0.286986     -7.76334e-05    -0.000638569
                    -0.000210295    -2.38708e-05         0.974005       -0.204815     -1.69882e-05    -0.000619153        0.0326827       0.0811071
281736                -0.0502599       -0.302011      0.000558095    -0.000368214         0.232904        0.915806     -0.000298683    -5.56695e-05
                     0.000629258    -0.000405359       0.00260107       0.0872118      0.000472551     9.37084e-05         0.974211       -0.204901
                        0.232751        0.915858      0.000422192     0.000164948         0.102988        0.286974     -7.79942e-05    -0.000638618
                    -0.000216513     -9.8288e-06         0.973929       -0.205175     -1.73365e-05    -0.000619291        0.0327098       0.0810915
281738                -0.0503787        -0.30205      0.000558088    -0.000368449         0.233356        0.915672     -0.000298742    -5.55533e-05
                     0.000650574    -0.000394939       0.00263452       0.0872065      0.000472657     9.34439e-05         0.974135       -0.205261
                         0.23318        0.915726      0.000422359     0.000164719          0.10319        0.286963     -7.83551e-05    -0.000638668
                    -0.000223364    -1.18378e-06         0.973854       -0.205536     -1.76848e-05    -0.000619428        0.0327369        0.081076
281740                -0.0504974        -0.30209      0.000558081    -0.000368684         0.233807        0.915537       -0.0002988     -5.5437e-05
                     0.000664601    -0.000382265       0.00266797       0.0872012      0.000472763     9.31792e-05          0.97406       -0.205621
                        0.233618        0.915592      0.000422526      0.00016449         0.103392        0.286952     -7.87162e-05    -0.000638718
                    -0.000229128     3.96725e-06         0.973778       -0.205896     -1.80334e-05    -0.000619566         0.032764       0.0810604
281742                 -0.050616       -0.302129      0.000558073    -0.000368919         0.234258        0.915402     -0.000298858    -5.53209e-05
                     0.000672823    -0.000371181       0.00270141       0.0871958      0.000472868     9.29145e-05         0.973984       -0.205982
                        0.234061        0.915458      0.000422693      0.00016426         0.103594         0.28694     -7.90777e-05    -0.000638768
                    -0.000233511     7.07244e-06         0.973703       -0.206256      -1.8382e-05    -0.000619703        0.0327911       0.0810448
281744                -0.0507347       -0.302168      0.000558066    -0.000369154         0.234709        0.915267     -0.000298915     -5.5205e-05
                     0.000677413    -0.000362937       0.00273485       0.0871904      0.000472973     9.26497e-05         0.973908       -0.206342
                        0.234507        0.915322       0.00042286     0.000164031         0.103796        0.286928     -7.94399e-05    -0.000638818
                    -0.000236699     8.98914e-06         0.973627       -0.206617     -1.87309e-05     -0.00061984        0.0328182       0.0810292
281746                -0.0508533       -0.302207      0.000558059    -0.000369389         0.235161        0.915132     -0.000298973    -5.50899e-05
                     0.000679886     -0.00035738       0.00276829       0.0871851      0.000473078     9.23848e-05         0.973832       -0.206702
                        0.234955        0.915186      0.000423027     0.000163802         0.103999        0.286916     -7.98059e-05    -0.000638871
                    -0.000238971     1.01912e-05         0.973551       -0.206977     -1.90799e-05    -0.000619977        0.0328453       0.0810136
281748                 -0.050972       -0.302246      0.000558051    -0.000369624         0.235612        0.914996     -0.000299032    -5.49774e-05
                     0.000681088    -0.000353915       0.00280173       0.0871797      0.000473183     9.21198e-05         0.973756       -0.207062
                        0.235404         0.91505      0.000423194     0.000163572         0.104201        0.286904     -8.01792e-05    -0.000638878
                    -0.000240575     1.09409e-05         0.973475       -0.207337     -1.94291e-05    -0.000620114        0.0328723        0.080998
281750                -0.0510907       -0.302285      0.000558044    -0.000369859         0.236063        0.914861     -0.000299098    -5.48609e-05
                     0.000681472    -0.000351914       0.00283516       0.0871743      0.000473287     9.18547e-05          0.97368       -0.207422
                        0.235854        0.914913      0.000423361     0.000163342         0.104403        0.286892      -8.0519e-05    -0.000638949
                    -0.000241712     1.13896e-05         0.973398       -0.207697     -1.97784e-05    -0.000620251        0.0328994       0.0809824
281752                -0.0512094       -0.302324      0.000558036    -0.000370095         0.236514        0.914725     -0.000299157    -5.47395e-05
                     0.000681301    -0.000350854       0.00286859       0.0871688      0.000473392     9.15896e-05         0.973603       -0.207782
                        0.236305        0.914776      0.000423528     0.000163112         0.104605         0.28688     -8.08808e-05    -0.000639001
                    -0.000242534     1.16313e-05         0.973322       -0.208057     -2.01278e-05    -0.000620388        0.0329265       0.0809667
281754                -0.0513281       -0.302363      0.000558028     -0.00037033         0.236964        0.914588     -0.000299214    -5.46211e-05
                     0.000680756    -0.000350341       0.00290201       0.0871634      0.000473496     9.13243e-05         0.973527       -0.208142
                        0.236755        0.914639      0.000423695     0.000162881         0.104807        0.286867     -8.12427e-05     -0.00063905
                    -0.000243157     1.17295e-05         0.973245       -0.208418     -2.04772e-05    -0.000620525        0.0329535       0.0809511
281756                -0.0514469       -0.302402       0.00055802    -0.000370565         0.237415        0.914452     -0.000299272    -5.45037e-05
                     0.000679979    -0.000350102       0.00293544        0.087158        0.0004736     9.10592e-05          0.97345       -0.208503
                        0.237206        0.914501      0.000423861     0.000162651          0.10501        0.286855     -8.16046e-05    -0.000639098
                    -0.000243664     1.17319e-05         0.973169       -0.208778     -2.08256e-05    -0.000620662        0.0329805       0.0809354
281758                -0.0515658       -0.302441      0.000558012      -0.0003708         0.237866        0.914315      -0.00029933    -5.43864e-05
                     0.000679081     -0.00034996       0.00296886       0.0871525      0.000473703     9.07915e-05         0.973373       -0.208863
                        0.237657        0.914364      0.000424028      0.00016242         0.105212        0.286842     -8.19665e-05    -0.000639146
                    -0.000244117     1.16762e-05         0.973092       -0.209138     -2.11804e-05      -0.0006208        0.0330076       0.0809198
281760                -0.0516846       -0.302479      0.000558004    -0.000371036         0.238317        0.914178     -0.000299388    -5.42692e-05
                     0.000678151     -0.00034981       0.00300227        0.087147      0.000473807     9.05272e-05         0.973296       -0.209223
                        0.238109        0.914226      0.000424195     0.000162189         0.105414        0.286829     -8.23285e-05    -0.000639194
                     -0.00024456     1.15945e-05         0.973015       -0.209498     -2.15293e-05    -0.000620935        0.0330346       0.0809041
281762                -0.0518035       -0.302518      0.000557996    -0.000371271         0.238767        0.914041     -0.000299447    -5.41518e-05
                     0.000677254    -0.000349593       0.00303569       0.0871415       0.00047391     9.02617e-05         0.973219       -0.209582
                        0.238559        0.914087      0.000424362     0.000161958         0.105617        0.286816     -8.26906e-05    -0.000639241
