! TOUCHSTONE file generated by CST MICROWAVE STUDIO
! Date and time: Tue Oct 14 07:26:12 2025
! Project name: Teste_Macro_Metasurface_Nanopilar.cst
! Parameters = {H=600; L_x=90; L_y=150; Lambda=1064; Max_L=200; Min_L=70; PathPara=1; Phi=0; Step_L=10; Theta=0; p=520; phaseX=180; phaseY=0}
! Header version: 2018
! Port assignment regex: !\s*Touchstone port\s*([0-9]+)\s*=\s*(CST MWS port|CST DS port)\s*([0-9]+|Zmin|Zmax)\s*\(\"(.*)\"\)(\s*mode\s*([0-9]+))?.*
! Touchstone port assignment:
! Touchstone port 1 = CST MWS port Zmax ("") mode 1
! Touchstone port 2 = CST MWS port Zmax ("") mode 2
! Touchstone port 3 = CST MWS port Zmin ("") mode 1
! Touchstone port 4 = CST MWS port Zmin ("") mode 2
! S-Parameters are not renormalized. Each port impedance will be approximated by the real part at minimum frequency. The values are described via the [Reference] keyword.
! Default impedance is overridden by [Reference]
[Version] 2.0
# GHz S RI R 376.73
[Number of Ports] 4
[Reference]
376.73 376.73 259.814 259.814 
[Number of Frequencies] 51
[Network Data]
281700                 0.0154261      -0.0938541     -0.000499236    -0.000187817        -0.490468        0.857908     -0.000104133     0.000241759
                    -0.000521769    -9.49188e-05        0.0292967      -0.0231258      -0.00032147    -6.86621e-06         0.731101       -0.677762
                        -0.49036        0.857801     -0.000321379     9.49958e-05       -0.0727604        0.063098      0.000284357      0.00053232
                     -4.6879e-05     0.000368594          0.73119       -0.677834      0.000354948     0.000326782       -0.0251003       0.0283215
281702                 0.0153836      -0.0938879     -0.000499161    -0.000187701         -0.49005        0.858144     -0.000104068     0.000241889
                    -0.000521551     -9.4714e-05         0.029294      -0.0231515     -0.000321444     -6.6268e-06         0.730827       -0.678058
                       -0.489942        0.858037     -0.000321287     9.51258e-05       -0.0727505        0.063149       0.00028457     0.000531882
                     -4.6638e-05     0.000368617         0.730915        -0.67813      0.000354986     0.000326556        -0.025103       0.0283374
281704                 0.0153411      -0.0939217     -0.000499086    -0.000187587        -0.489632         0.85838     -0.000104003      0.00024202
                    -0.000521334    -9.45098e-05        0.0292913      -0.0231771     -0.000321419    -6.38788e-06         0.730552       -0.678353
                       -0.489524        0.858273     -0.000321195     9.52557e-05       -0.0727405       0.0632001      0.000284784     0.000531443
                    -4.63969e-05     0.000368638          0.73064       -0.678425      0.000355025      0.00032633       -0.0251057       0.0283532
281706                 0.0152986      -0.0939554     -0.000499011    -0.000187472        -0.489214        0.858616     -0.000103938     0.000242151
                    -0.000521116    -9.43064e-05        0.0292886      -0.0232027     -0.000321393     -6.1494e-06         0.730277       -0.678648
                       -0.489106        0.858508     -0.000321102     9.53856e-05       -0.0727305       0.0632512      0.000284997     0.000531003
                    -4.61556e-05      0.00036866         0.730364        -0.67872      0.000355065     0.000326103       -0.0251083       0.0283691
281708                 0.0152561      -0.0939892     -0.000498937    -0.000187358        -0.488796        0.858852     -0.000103872     0.000242281
                    -0.000520898    -9.41037e-05        0.0292859      -0.0232283     -0.000321367    -5.91135e-06         0.730001       -0.678943
                       -0.488687        0.858744      -0.00032101     9.55153e-05       -0.0727205       0.0633023       0.00028521     0.000530563
                    -4.59141e-05      0.00036868         0.730089       -0.679015      0.000355105     0.000325875        -0.025111        0.028385
281710                 0.0152135      -0.0940229     -0.000498863    -0.000187243        -0.488378        0.859088     -0.000103807     0.000242412
                    -0.000520679    -9.39018e-05        0.0292832      -0.0232539     -0.000321342    -5.67369e-06         0.729726       -0.679238
                       -0.488269        0.858979     -0.000320917     9.56449e-05       -0.0727104       0.0633534      0.000285422     0.000530122
                    -4.56724e-05     0.000368701         0.729814        -0.67931      0.000355145     0.000325647       -0.0251136       0.0284009
281712                 0.0151709      -0.0940566      -0.00049879    -0.000187129        -0.487959        0.859323     -0.000103741     0.000242543
                     -0.00052046    -9.37005e-05        0.0292804      -0.0232796     -0.000321316     -5.4364e-06         0.729451       -0.679532
                        -0.48785        0.859214     -0.000320825     9.57745e-05       -0.0727003       0.0634045      0.000285635     0.000529681
                    -4.54305e-05      0.00036872         0.729538       -0.679605      0.000355186     0.000325419       -0.0251163       0.0284167
281714                 0.0151284      -0.0940902     -0.000498717    -0.000187016        -0.487541        0.859558     -0.000103675     0.000242673
                    -0.000520241       -9.35e-05        0.0292777      -0.0233052     -0.000321291    -5.19945e-06         0.729175       -0.679827
                       -0.487431        0.859448     -0.000320732     9.59039e-05       -0.0726901       0.0634556      0.000285847     0.000529239
                    -4.51884e-05      0.00036874         0.729262         -0.6799      0.000355226      0.00032519       -0.0251189       0.0284326
281716                 0.0150857      -0.0941239     -0.000498644    -0.000186902        -0.487122        0.859793     -0.000103609     0.000242804
                    -0.000520021    -9.33002e-05        0.0292749      -0.0233308     -0.000321266     -4.9628e-06         0.728899       -0.680122
                       -0.487012        0.859683     -0.000320639     9.60332e-05       -0.0726799       0.0635067      0.000286059     0.000528797
                    -4.49462e-05     0.000368758         0.728986       -0.680194      0.000355267      0.00032496       -0.0251215       0.0284486
281718                 0.0150431      -0.0941575     -0.000498571    -0.000186789        -0.486704        0.860028     -0.000103543     0.000242935
                    -0.000519801    -9.31011e-05        0.0292721      -0.0233564     -0.000321241    -4.72644e-06         0.728623       -0.680416
                       -0.486593        0.859917     -0.000320546     9.61623e-05       -0.0726696       0.0635578      0.000286271     0.000528354
                    -4.47038e-05     0.000368777          0.72871       -0.680489      0.000355308      0.00032473       -0.0251241       0.0284645
281720                 0.0150005      -0.0941911     -0.000498499    -0.000186675        -0.486285        0.860262     -0.000103477     0.000243066
                    -0.000519581    -9.29028e-05        0.0292693      -0.0233821     -0.000321216    -4.49034e-06         0.728347        -0.68071
                       -0.486174        0.860151     -0.000320452     9.62913e-05       -0.0726594        0.063609      0.000286483     0.000527911
                    -4.44612e-05     0.000368794         0.728434       -0.680783      0.000355349     0.000324499       -0.0251267       0.0284804
281722                 0.0149578      -0.0942247     -0.000498427    -0.000186562        -0.485866        0.860496      -0.00010341     0.000243197
                     -0.00051936    -9.27051e-05        0.0292665      -0.0234077     -0.000321191    -4.25448e-06         0.728071       -0.681005
                       -0.485755        0.860385     -0.000320359     9.64201e-05       -0.0726491       0.0636601      0.000286694     0.000527467
                    -4.42185e-05     0.000368812         0.728158       -0.681078       0.00035539     0.000324268       -0.0251293       0.0284963
281724                 0.0149151      -0.0942583     -0.000498356    -0.000186449        -0.485447         0.86073     -0.000103343     0.000243328
                    -0.000519139    -9.25082e-05        0.0292637      -0.0234333     -0.000321166    -4.01883e-06         0.727795       -0.681299
                       -0.485336        0.860619     -0.000320265     9.65488e-05       -0.0726387       0.0637113      0.000286905     0.000527023
                    -4.39756e-05     0.000368828         0.727882       -0.681372      0.000355431     0.000324037       -0.0251319       0.0285123
281726                 0.0148724      -0.0942918     -0.000498284    -0.000186336        -0.485028        0.860964     -0.000103277     0.000243459
                    -0.000518918    -9.23121e-05        0.0292609       -0.023459     -0.000321141    -3.78337e-06         0.727519       -0.681593
                       -0.484916        0.860852     -0.000320172     9.66772e-05       -0.0726283       0.0637625      0.000287116     0.000526578
                    -4.37325e-05     0.000368844         0.727605       -0.681666      0.000355472     0.000323805       -0.0251345       0.0285282
281728                 0.0148296      -0.0943253     -0.000498213    -0.000186223        -0.484609        0.861198      -0.00010321      0.00024359
                    -0.000518696    -9.21167e-05         0.029258      -0.0234846     -0.000321117    -3.54809e-06         0.727242       -0.681886
                       -0.484497        0.861086     -0.000320078     9.68055e-05       -0.0726179       0.0638137      0.000287327     0.000526133
                    -4.34893e-05      0.00036886         0.727329        -0.68196      0.000355512     0.000323573       -0.0251371       0.0285442
281730                 0.0147869      -0.0943588     -0.000498142     -0.00018611        -0.484189        0.861431     -0.000103142     0.000243721
                    -0.000518474     -9.1922e-05        0.0292551      -0.0235103     -0.000321093    -3.31297e-06         0.726966        -0.68218
                       -0.484077        0.861319     -0.000319984     9.69336e-05       -0.0726074       0.0638649      0.000287537     0.000525688
                    -4.32459e-05     0.000368875         0.727052       -0.682254      0.000355553      0.00032334       -0.0251396       0.0285602
281732                 0.0147441      -0.0943923     -0.000498071    -0.000185998         -0.48377        0.861665     -0.000103075     0.000243853
                    -0.000518252    -9.17281e-05        0.0292523      -0.0235359     -0.000321068    -3.07799e-06         0.726689       -0.682474
                       -0.483658        0.861552      -0.00031989     9.70614e-05       -0.0725969       0.0639161      0.000287747     0.000525242
                    -4.30023e-05      0.00036889         0.726775       -0.682547      0.000355594     0.000323108       -0.0251422       0.0285762
281734                 0.0147013      -0.0944258     -0.000498001    -0.000185885         -0.48335        0.861898     -0.000103007     0.000243984
                    -0.000518029    -9.15349e-05        0.0292494      -0.0235615     -0.000321044    -2.84313e-06         0.726412       -0.682767
                       -0.483238        0.861784     -0.000319796     9.71891e-05       -0.0725864       0.0639673      0.000287957     0.000524796
                    -4.27586e-05     0.000368904         0.726498       -0.682841      0.000355634     0.000322874       -0.0251447       0.0285921
281736                 0.0146585      -0.0944592      -0.00049793    -0.000185773        -0.482931         0.86213      -0.00010294     0.000244115
                    -0.000517806    -9.13425e-05        0.0292465      -0.0235872     -0.000321021    -2.60839e-06         0.726136       -0.683061
                       -0.482818        0.862017     -0.000319702     9.73165e-05       -0.0725758       0.0640185      0.000288166     0.000524349
                    -4.25148e-05     0.000368917         0.726221       -0.683135      0.000355674     0.000322641       -0.0251472       0.0286081
281738                 0.0146157      -0.0944926      -0.00049786     -0.00018566        -0.482511        0.862363     -0.000102872     0.000244246
                    -0.000517583    -9.11508e-05        0.0292435      -0.0236128     -0.000320997    -2.37375e-06         0.725859       -0.683354
                       -0.482398        0.862249     -0.000319608     9.74438e-05       -0.0725652       0.0640697      0.000288375     0.000523902
                    -4.22708e-05      0.00036893         0.725944       -0.683428      0.000355714     0.000322407       -0.0251498       0.0286242
281740                 0.0145728       -0.094526      -0.00049779    -0.000185548        -0.482091        0.862595     -0.000102804     0.000244378
                    -0.000517359    -9.09598e-05        0.0292406      -0.0236385     -0.000320973     -2.1392e-06         0.725581       -0.683647
                       -0.481978        0.862481     -0.000319513     9.75708e-05       -0.0725545        0.064121      0.000288584     0.000523455
                    -4.20266e-05     0.000368942         0.725667       -0.683721      0.000355754     0.000322173       -0.0251523       0.0286402
281742                 0.0145299      -0.0945594     -0.000497721    -0.000185436        -0.481671        0.862827     -0.000102736     0.000244509
                    -0.000517135    -9.07696e-05        0.0292376      -0.0236641      -0.00032095    -1.90473e-06         0.725304        -0.68394
                       -0.481557        0.862713     -0.000319419     9.76976e-05       -0.0725438       0.0641722      0.000288792     0.000523007
                    -4.17823e-05     0.000368954         0.725389       -0.684015      0.000355794     0.000321938       -0.0251548       0.0286562
281744                  0.014487      -0.0945927     -0.000497651    -0.000185324        -0.481251        0.863059     -0.000102667     0.000244641
                    -0.000516911    -9.05802e-05        0.0292347      -0.0236898     -0.000320927    -1.67034e-06         0.725027       -0.684233
                       -0.481137        0.862944     -0.000319325     9.78242e-05       -0.0725331       0.0642235         0.000289     0.000522559
                    -4.15379e-05     0.000368966         0.725112       -0.684308      0.000355834     0.000321703       -0.0251573       0.0286722
281746                 0.0144441       -0.094626     -0.000497582    -0.000185212        -0.480831        0.863291     -0.000102599     0.000244772
                    -0.000516686    -9.03915e-05        0.0292317      -0.0237154     -0.000320904    -1.43602e-06         0.724749       -0.684526
                       -0.480717        0.863176      -0.00031923     9.79506e-05       -0.0725223       0.0642748      0.000289207     0.000522111
                    -4.12933e-05     0.000368977         0.724834       -0.684601      0.000355873     0.000321468       -0.0251597       0.0286883
281748                 0.0144012      -0.0946593     -0.000497513      -0.0001851        -0.480411        0.863523      -0.00010253     0.000244904
                    -0.000516461    -9.02036e-05        0.0292287      -0.0237411     -0.000320881    -1.20177e-06         0.724472       -0.684819
                       -0.480296        0.863407     -0.000319136     9.80768e-05       -0.0725115       0.0643261      0.000289415     0.000521662
                    -4.10486e-05     0.000368987         0.724556       -0.684893      0.000355913     0.000321233       -0.0251622       0.0287043
281750                 0.0143582      -0.0946926     -0.000497444    -0.000184988         -0.47999        0.863754     -0.000102461     0.000245036
                    -0.000516236    -9.00165e-05        0.0292257      -0.0237667     -0.000320858    -9.67581e-07         0.724194       -0.685112
                       -0.479875        0.863638     -0.000319041     9.82028e-05       -0.0725007       0.0643774      0.000289621     0.000521213
                    -4.08037e-05     0.000368997         0.724278       -0.685186      0.000355952     0.000320997       -0.0251647       0.0287204
281752                 0.0143152      -0.0947259     -0.000497375    -0.000184876         -0.47957        0.863985     -0.000102391     0.000245168
                     -0.00051601    -8.98301e-05        0.0292227      -0.0237924     -0.000320835    -7.33451e-07         0.723916       -0.685404
                       -0.479454        0.863869     -0.000318947     9.83286e-05       -0.0724898       0.0644287      0.000289828     0.000520764
                    -4.05587e-05     0.000369006            0.724       -0.685479      0.000355991     0.000320761       -0.0251671       0.0287365
281754                 0.0142722      -0.0947591     -0.000497306    -0.000184764        -0.479149        0.864216     -0.000102322       0.0002453
                    -0.000515785    -8.96444e-05        0.0292196       -0.023818     -0.000320813    -4.99382e-07         0.723638       -0.685697
                       -0.479034        0.864099     -0.000318852     9.84542e-05       -0.0724789         0.06448      0.000290034     0.000520314
                    -4.03136e-05     0.000369014         0.723722       -0.685771       0.00035603     0.000320525       -0.0251696       0.0287525
281756                 0.0142292      -0.0947923     -0.000497238    -0.000184653        -0.478728        0.864447     -0.000102251     0.000245433
                    -0.000515558    -8.94596e-05        0.0292166      -0.0238437     -0.000320791    -2.65374e-07          0.72336       -0.685989
                       -0.478613         0.86433     -0.000318758     9.85796e-05       -0.0724679       0.0645313      0.000290239     0.000519865
                    -4.00684e-05     0.000369023         0.723444       -0.686064      0.000356068     0.000320288        -0.025172       0.0287686
281758                 0.0141862      -0.0948255      -0.00049717    -0.000184541        -0.478308        0.864677      -0.00010218     0.000245565
                    -0.000515332    -8.92755e-05        0.0292135      -0.0238693     -0.000320769    -3.14284e-08         0.723081       -0.686281
                       -0.478192         0.86456     -0.000318663     9.87048e-05       -0.0724569       0.0645826      0.000290444     0.000519415
                     -3.9823e-05      0.00036903         0.723165       -0.686356      0.000356107     0.000320051       -0.0251744       0.0287847
281760                 0.0141431      -0.0948587     -0.000497102     -0.00018443        -0.477887        0.864908     -0.000102107     0.000245698
                    -0.000515105    -8.90922e-05        0.0292104       -0.023895     -0.000320746     2.02451e-07         0.722803       -0.686573
                        -0.47777         0.86479     -0.000318568     9.88298e-05       -0.0724459        0.064634      0.000290649     0.000518965
                    -3.95775e-05     0.000369037         0.722887       -0.686648      0.000356145     0.000319814       -0.0251769       0.0288008
281762                    0.0141      -0.0948919     -0.000497034    -0.000184318        -0.477466        0.865138     -0.000102033     0.000245828
                    -0.000514878    -8.89096e-05        0.0292073      -0.0239206     -0.000320725     4.36261e-07         0.722525       -0.686865
                       -0.477349        0.865019     -0.000318474     9.89546e-05       -0.0724348       0.0646853      0.000290853     0.000518514
