! TOUCHSTONE file generated by CST MICROWAVE STUDIO
! Date and time: Tue Oct 14 07:29:43 2025
! Project name: Teste_Macro_Metasurface_Nanopilar.cst
! Parameters = {H=600; L_x=145; L_y=175; Lambda=1064; Max_L=200; Min_L=70; PathPara=1; Phi=0; Step_L=10; Theta=0; p=520; phaseX=180; phaseY=0}
! Header version: 2018
! Port assignment regex: !\s*Touchstone port\s*([0-9]+)\s*=\s*(CST MWS port|CST DS port)\s*([0-9]+|Zmin|Zmax)\s*\(\"(.*)\"\)(\s*mode\s*([0-9]+))?.*
! Touchstone port assignment:
! Touchstone port 1 = CST MWS port Zmax ("") mode 1
! Touchstone port 2 = CST MWS port Zmax ("") mode 2
! Touchstone port 3 = CST MWS port Zmin ("") mode 1
! Touchstone port 4 = CST MWS port Zmin ("") mode 2
! S-Parameters are not renormalized. Each port impedance will be approximated by the real part at minimum frequency. The values are described via the [Reference] keyword.
! Default impedance is overridden by [Reference]
[Version] 2.0
# GHz S RI R 376.73
[Number of Ports] 4
[Reference]
376.73 376.73 259.814 259.814 
[Number of Frequencies] 51
[Network Data]
281700                 -0.170558      -0.0135621     -0.000297735     0.000556361         0.788484        0.584258     -0.000829715     0.000446094
                    -0.000241722     0.000739949        -0.198864       0.0784352     -0.000675382     0.000716925         0.463909        0.851766
                        0.788956        0.584259      -0.00068628     0.000756236        0.0619251        0.155322     -0.000938929     0.000158312
                    -0.000863696     0.000450584          0.46373        0.852214      -0.00102295     5.70567e-05        -0.170109        0.114402
281702                 -0.170566      -0.0135387     -0.000296849      0.00055609         0.788728        0.583927     -0.000829448     0.000446398
                    -0.000241077      0.00073989        -0.198808       0.0784231      -0.00067456     0.000717168         0.464333        0.851552
                          0.7892        0.583928     -0.000685837     0.000756182        0.0620368        0.155285     -0.000938604     0.000158538
                    -0.000863327     0.000450996         0.464153        0.852001      -0.00102264     5.74086e-05        -0.169954        0.114536
281704                 -0.170574      -0.0135154      -0.00029596     0.000555816         0.788972        0.583596      -0.00082918     0.000446701
                    -0.000240432     0.000739832        -0.198751        0.078411     -0.000673739     0.000717411         0.464757        0.851338
                        0.789443        0.583598     -0.000685395     0.000756125        0.0621484        0.155248      -0.00093828     0.000158763
                    -0.000862959     0.000451408         0.464577        0.851788      -0.00102234     5.77602e-05          -0.1698         0.11467
281706                 -0.170583      -0.0134921     -0.000295069      0.00055554         0.789216        0.583264     -0.000828913     0.000447004
                    -0.000239788     0.000739774        -0.198695       0.0783989     -0.000672917     0.000717653         0.465181        0.851124
                        0.789687        0.583267     -0.000684954     0.000756066          0.06226        0.155211     -0.000937956     0.000158987
                    -0.000862591      0.00045182            0.465        0.851574      -0.00102203     5.81115e-05        -0.169645        0.114803
281708                 -0.170591      -0.0134687     -0.000294176     0.000555263          0.78946        0.582933     -0.000828646     0.000447307
                    -0.000239145     0.000739715        -0.198638       0.0783869     -0.000672096     0.000717895         0.465604        0.850909
                        0.789931        0.582936     -0.000684514     0.000756005        0.0623716        0.155174     -0.000937632      0.00015921
                    -0.000862224     0.000452232         0.465423        0.851361      -0.00102173     5.84625e-05        -0.169491        0.114937
281710                   -0.1706      -0.0134453      -0.00029328     0.000554984         0.789703        0.582601     -0.000828379     0.000447609
                    -0.000238502     0.000739656        -0.198582       0.0783748     -0.000671274     0.000718136         0.466028        0.850695
                        0.790174        0.582605     -0.000684075     0.000755941        0.0624831        0.155137     -0.000937309     0.000159432
                    -0.000861857     0.000452643         0.465845        0.851147      -0.00102142     5.88131e-05        -0.169336         0.11507
281712                 -0.170608       -0.013422     -0.000292383     0.000554703         0.789946         0.58227     -0.000828112      0.00044791
                     -0.00023786     0.000739597        -0.198526       0.0783628     -0.000670453     0.000718376         0.466451         0.85048
                        0.790417        0.582274     -0.000683636     0.000755875        0.0625947          0.1551     -0.000936986     0.000159654
                     -0.00086149     0.000453055         0.466268        0.850933      -0.00102112     5.91634e-05        -0.169182        0.115203
281714                 -0.170616      -0.0133986     -0.000291483      0.00055442          0.79019        0.581938     -0.000827845     0.000448211
                    -0.000237219     0.000739538         -0.19847       0.0783508     -0.000669632     0.000718616         0.466874        0.850265
                         0.79066        0.581942     -0.000683199     0.000755807        0.0627062        0.155063     -0.000936663     0.000159874
                    -0.000861123     0.000453466          0.46669        0.850718      -0.00102082     5.95134e-05        -0.169027        0.115336
281716                 -0.170625      -0.0133752     -0.000290581     0.000554136         0.790433        0.581606     -0.000827578     0.000448512
                    -0.000236578     0.000739479        -0.198413       0.0783388     -0.000668811     0.000718856         0.467297        0.850049
                        0.790903        0.581611     -0.000682762     0.000755737        0.0628176        0.155026     -0.000936341     0.000160094
                    -0.000860757     0.000453877         0.467113        0.850504      -0.00102051      5.9863e-05        -0.168873        0.115468
281718                 -0.170633      -0.0133518     -0.000289677      0.00055385         0.790675        0.581274     -0.000827311     0.000448812
                    -0.000235937     0.000739419        -0.198357       0.0783268      -0.00066799     0.000719095         0.467719        0.849834
                        0.791146         0.58128     -0.000682326     0.000755664        0.0629291        0.154988     -0.000936019     0.000160313
                     -0.00086039     0.000454288         0.467535        0.850289      -0.00102021     6.02123e-05        -0.168718        0.115601
281720                 -0.170642      -0.0133284     -0.000288771     0.000553563         0.790918        0.580942     -0.000827044     0.000449112
                    -0.000235298      0.00073936        -0.198301       0.0783149     -0.000667169     0.000719333         0.468142        0.849618
                        0.791389        0.580948     -0.000681891      0.00075559        0.0630405        0.154951     -0.000935698     0.000160531
                    -0.000860025     0.000454699         0.467957        0.850074      -0.00101991     6.05612e-05        -0.168564        0.115733
281722                  -0.17065      -0.0133049     -0.000287863     0.000553275         0.791161         0.58061     -0.000826777     0.000449411
                    -0.000234659       0.0007393        -0.198246        0.078303     -0.000666348     0.000719571         0.468564        0.849402
                        0.791631        0.580617     -0.000681457     0.000755513        0.0631519        0.154913     -0.000935377     0.000160748
                    -0.000859659      0.00045511         0.468378        0.849859       -0.0010196     6.09099e-05        -0.168409        0.115865
281724                 -0.170659      -0.0132815     -0.000286953     0.000552985         0.791403        0.580278     -0.000826511     0.000449709
                     -0.00023402      0.00073924         -0.19819       0.0782911     -0.000665528     0.000719808         0.468986        0.849186
                        0.791873        0.580285     -0.000681024     0.000755435        0.0632632        0.154876     -0.000935056     0.000160964
                    -0.000859294     0.000455521           0.4688        0.849644       -0.0010193     6.12582e-05        -0.168254        0.115997
281726                 -0.170667      -0.0132581     -0.000286041     0.000552693         0.791645        0.579946     -0.000826244     0.000450007
                    -0.000233382      0.00073918        -0.198134       0.0782792     -0.000664708     0.000720045         0.469408         0.84897
                        0.792116        0.579953     -0.000680592     0.000755354        0.0633745        0.154838     -0.000934736     0.000161179
                    -0.000858929     0.000455931         0.469221        0.849428        -0.001019     6.16061e-05          -0.1681        0.116128
281728                 -0.170676      -0.0132346     -0.000285127     0.000552401         0.791888        0.579613     -0.000825977     0.000450305
                    -0.000232745      0.00073912        -0.198078       0.0782673     -0.000663887     0.000720281          0.46983        0.848754
                        0.792358        0.579621      -0.00068016     0.000755272        0.0634858        0.154801     -0.000934416     0.000161393
                    -0.000858564     0.000456342         0.469642        0.849213       -0.0010187     6.19538e-05        -0.167945         0.11626
281730                 -0.170684      -0.0132111     -0.000284211     0.000552107          0.79213        0.579281      -0.00082571     0.000450602
                    -0.000232108      0.00073906        -0.198023       0.0782554     -0.000663067     0.000720517         0.470252        0.848537
                          0.7926        0.579289      -0.00067973     0.000755188        0.0635971        0.154763     -0.000934096     0.000161607
                    -0.000858199     0.000456752         0.470063        0.848997       -0.0010184     6.23011e-05         -0.16779        0.116391
281732                 -0.170692      -0.0131877     -0.000283294     0.000551812         0.792371        0.578948     -0.000825444     0.000450899
                    -0.000231472     0.000738999        -0.197967       0.0782436     -0.000662247     0.000720752         0.470674         0.84832
                        0.792841        0.578957     -0.000679301     0.000755102        0.0637083        0.154725     -0.000933777      0.00016182
                    -0.000857835     0.000457162         0.470484        0.848781      -0.00101809      6.2648e-05        -0.167635        0.116522
281734                 -0.170701      -0.0131642     -0.000282374     0.000551516         0.792613        0.578616     -0.000825177     0.000451195
                    -0.000230836     0.000738939        -0.197911       0.0782318     -0.000661428     0.000720987         0.471095        0.848103
                        0.793083        0.578625     -0.000678872     0.000755014        0.0638196        0.154687     -0.000933458     0.000162031
                    -0.000857471     0.000457572         0.470905        0.848565      -0.00101779     6.29947e-05         -0.16748        0.116653
281736                 -0.170709      -0.0131407     -0.000281453     0.000551219         0.792855        0.578283     -0.000824911     0.000451491
                    -0.000230201     0.000738878        -0.197856         0.07822     -0.000660608     0.000721221         0.471516        0.847886
                        0.793325        0.578293     -0.000678444     0.000754924        0.0639307        0.154649      -0.00093314     0.000162242
                    -0.000857107     0.000457981         0.471325        0.848348      -0.00101749      6.3341e-05        -0.167326        0.116784
281738                 -0.170718      -0.0131172     -0.000280529     0.000550922         0.793096         0.57795     -0.000824644     0.000451786
                    -0.000229567     0.000738817        -0.197801       0.0782082     -0.000659789     0.000721454         0.471937        0.847669
                        0.793566         0.57796     -0.000678018     0.000754833        0.0640419        0.154611     -0.000932822     0.000162452
                    -0.000856743     0.000458391         0.471746        0.848132      -0.00101719      6.3687e-05        -0.167171        0.116915
281740                 -0.170726      -0.0130937     -0.000279604     0.000550623         0.793337        0.577617     -0.000824378     0.000452081
                    -0.000228933     0.000738756        -0.197745       0.0781965     -0.000658969     0.000721687         0.472358        0.847451
                        0.793807        0.577628     -0.000677592      0.00075474         0.064153        0.154573     -0.000932504     0.000162661
                     -0.00085638       0.0004588         0.472166        0.847915      -0.00101689     6.40327e-05        -0.167016        0.117045
281742                 -0.170735      -0.0130702     -0.000278678     0.000550323         0.793579        0.577284     -0.000824112     0.000452375
                      -0.0002283     0.000738695         -0.19769       0.0781847      -0.00065815     0.000721919         0.472778        0.847233
                        0.794048        0.577295     -0.000677167     0.000754646        0.0642641        0.154535     -0.000932187      0.00016287
                    -0.000856017     0.000459209         0.472586        0.847698      -0.00101659      6.4378e-05        -0.166861        0.117176
281744                 -0.170743      -0.0130467      -0.00027775     0.000550023          0.79382        0.576951     -0.000823845     0.000452669
                    -0.000227668     0.000738634        -0.197635        0.078173     -0.000657332     0.000722151         0.473199        0.847015
                        0.794289        0.576962     -0.000676743      0.00075455        0.0643752        0.154497      -0.00093187     0.000163077
                    -0.000855654     0.000459618         0.473006        0.847481      -0.00101629      6.4723e-05        -0.166706        0.117306
281746                 -0.170752      -0.0130231      -0.00027682     0.000549721          0.79406        0.576618     -0.000823579     0.000452962
                    -0.000227035     0.000738572         -0.19758       0.0781613     -0.000656513     0.000722382         0.473619        0.846797
                         0.79453         0.57663      -0.00067632     0.000754452        0.0644862        0.154458     -0.000931553     0.000163284
                    -0.000855291     0.000460027         0.473425        0.847263      -0.00101599     6.50677e-05        -0.166551        0.117436
281748                  -0.17076      -0.0129996     -0.000275888      0.00054942         0.794301        0.576284     -0.000823313     0.000453255
                    -0.000226404     0.000738511        -0.197524       0.0781496     -0.000655695     0.000722613         0.474039        0.846579
                        0.794771        0.576297     -0.000675898     0.000754353        0.0645972         0.15442     -0.000931237      0.00016349
                    -0.000854928     0.000460436         0.473845        0.847046      -0.00101569      6.5412e-05        -0.166396        0.117565
281750                 -0.170769       -0.012976     -0.000274955     0.000549117         0.794542        0.575951     -0.000823047     0.000453548
                    -0.000225773     0.000738449        -0.197469        0.078138     -0.000654876     0.000722842         0.474459         0.84636
                        0.795011        0.575964     -0.000675477     0.000754252        0.0647082        0.154381     -0.000930921     0.000163694
                    -0.000854566     0.000460844         0.474264        0.846828      -0.00101539      6.5756e-05        -0.166241        0.117695
281752                 -0.170777      -0.0129525     -0.000274021     0.000548814         0.794782        0.575617      -0.00082278     0.000453839
                    -0.000225143     0.000738387        -0.197415       0.0781263     -0.000654058     0.000723072         0.474879        0.846141
                        0.795251        0.575631     -0.000675057      0.00075415        0.0648191        0.154343     -0.000930606     0.000163898
                    -0.000854204     0.000461252         0.474683         0.84661      -0.00101509     6.60997e-05        -0.166086        0.117824
281754                 -0.170785      -0.0129289     -0.000273085      0.00054851         0.795022        0.575284     -0.000822514     0.000454131
                    -0.000224513     0.000738325         -0.19736       0.0781147     -0.000653241     0.000723301         0.475299        0.845922
                        0.795492        0.575297     -0.000674638     0.000754047        0.0649301        0.154304     -0.000930291     0.000164102
                    -0.000853842      0.00046166         0.475102        0.846392      -0.00101479     6.64431e-05        -0.165931        0.117953
281756                 -0.170794      -0.0129053     -0.000272147     0.000548206         0.795263         0.57495     -0.000822249     0.000454422
                    -0.000223884     0.000738263        -0.197305       0.0781031     -0.000652423     0.000723529         0.475718        0.845703
                        0.795732        0.574964     -0.000674219     0.000753942         0.065041        0.154266     -0.000929976     0.000164304
                     -0.00085348     0.000462068         0.475521        0.846173      -0.00101449     6.67862e-05        -0.165776        0.118082
281758                 -0.170802      -0.0128817     -0.000271209     0.000547901         0.795502        0.574616     -0.000821983     0.000454713
                    -0.000223256     0.000738201         -0.19725       0.0780915     -0.000651606     0.000723756         0.476137        0.845484
                        0.795972        0.574631     -0.000673802     0.000753835        0.0651518        0.154227     -0.000929661     0.000164505
                    -0.000853119     0.000462476         0.475939        0.845955      -0.00101419     6.71289e-05        -0.165621        0.118211
281760                 -0.170811      -0.0128581     -0.000270269     0.000547596         0.795742        0.574282     -0.000821717     0.000455003
                    -0.000222628     0.000738139        -0.197195       0.0780799     -0.000650788     0.000723983         0.476557        0.845264
                        0.796211        0.574297     -0.000673386     0.000753728        0.0652626        0.154188     -0.000929346     0.000164705
                    -0.000852757     0.000462883         0.476358        0.845736      -0.00101389     6.74713e-05        -0.165466         0.11834
281762                 -0.170819      -0.0128345     -0.000269327      0.00054729         0.795982        0.573948     -0.000821452     0.000455293
                       -0.000222     0.000738076        -0.197141       0.0780684     -0.000649971     0.000724209         0.476976        0.845045
                        0.796451        0.573964      -0.00067297     0.000753618        0.0653734        0.154149     -0.000929031     0.000164904
