! TOUCHSTONE file generated by CST MICROWAVE STUDIO
! Date and time: Tue Oct 14 07:26:57 2025
! Project name: Teste_Macro_Metasurface_Nanopilar.cst
! Parameters = {H=600; L_x=105; L_y=70; Lambda=1064; Max_L=200; Min_L=70; PathPara=1; Phi=0; Step_L=10; Theta=0; p=520; phaseX=180; phaseY=0}
! Header version: 2018
! Port assignment regex: !\s*Touchstone port\s*([0-9]+)\s*=\s*(CST MWS port|CST DS port)\s*([0-9]+|Zmin|Zmax)\s*\(\"(.*)\"\)(\s*mode\s*([0-9]+))?.*
! Touchstone port assignment:
! Touchstone port 1 = CST MWS port Zmax ("") mode 1
! Touchstone port 2 = CST MWS port Zmax ("") mode 2
! Touchstone port 3 = CST MWS port Zmin ("") mode 1
! Touchstone port 4 = CST MWS port Zmin ("") mode 2
! S-Parameters are not renormalized. Each port impedance will be approximated by the real part at minimum frequency. The values are described via the [Reference] keyword.
! Default impedance is overridden by [Reference]
[Version] 2.0
# GHz S RI R 376.73
[Number of Ports] 4
[Reference]
376.73 376.73 259.814 259.814 
[Number of Frequencies] 51
[Network Data]
281700                -0.0506991        0.127475      2.63643e-05     0.000216775         0.979923        0.141435      6.04007e-05     1.97358e-05
                    -3.80872e-05     0.000213725      -0.00937392        0.061482      1.15524e-05     2.99183e-05         0.961728       -0.262533
                        0.979729        0.141359     -3.44656e-05    -2.75514e-05        0.0125063        0.136639      4.90322e-05    -6.55725e-07
                    -1.75777e-05     0.000180273         0.961621       -0.263415     -1.84623e-05     0.000320989        0.0391023       0.0483795
281702                -0.0506555        0.127489      2.64657e-05     0.000216794         0.979974        0.141082      6.02658e-05     1.97147e-05
                    -3.82708e-05     0.000213977      -0.00934928       0.0614779      1.15006e-05     2.98665e-05          0.96163       -0.262896
                         0.97978        0.141005     -3.45092e-05     -2.7526e-05        0.0125587        0.136631      4.89045e-05    -4.65418e-07
                    -1.74011e-05     0.000180285         0.961522       -0.263778     -1.83872e-05     0.000321139        0.0391153        0.048359
281704                -0.0506118        0.127503      2.65672e-05     0.000216813         0.980025        0.140729      6.01311e-05     1.96939e-05
                    -3.84543e-05      0.00021423      -0.00932465       0.0614738      1.14486e-05     2.98146e-05         0.961531       -0.263259
                        0.979832        0.140652     -3.45528e-05    -2.75006e-05        0.0126112        0.136624       4.8777e-05    -2.75401e-07
                    -1.72242e-05     0.000180295         0.961423        -0.26414     -1.83119e-05     0.000321289        0.0391284       0.0483384
281706                -0.0505682        0.127518      2.66686e-05     0.000216833         0.980076        0.140376      5.99968e-05     1.96732e-05
                    -3.86375e-05     0.000214484      -0.00930002       0.0614697      1.13965e-05     2.97625e-05         0.961432       -0.263622
                        0.979883        0.140298     -3.45964e-05    -2.74752e-05        0.0126637        0.136616      4.86498e-05    -8.56716e-08
                     -1.7047e-05     0.000180305         0.961324       -0.264503     -1.82363e-05     0.000321439        0.0391414       0.0483179
281708                -0.0505245        0.127532      2.67702e-05     0.000216852         0.980127        0.140024      5.98629e-05     1.96527e-05
                    -3.88207e-05     0.000214738      -0.00927539       0.0614655      1.13442e-05     2.97103e-05         0.961332       -0.263985
                        0.979934        0.139945       -3.464e-05    -2.74498e-05        0.0127161        0.136609      4.85228e-05      1.0377e-07
                    -1.68696e-05     0.000180313         0.961224       -0.264865     -1.81603e-05     0.000321588        0.0391544       0.0482974
281710                -0.0504808        0.127546      2.68717e-05     0.000216872         0.980178        0.139671      5.97292e-05     1.96325e-05
                    -3.90036e-05     0.000214992      -0.00925076       0.0614614      1.12918e-05      2.9658e-05         0.961233       -0.264348
                        0.979985        0.139591     -3.46836e-05    -2.74244e-05        0.0127686        0.136601      4.83961e-05     2.92925e-07
                    -1.66918e-05      0.00018032         0.961125       -0.265228     -1.80841e-05     0.000321737        0.0391674       0.0482769
281712                -0.0504371         0.12756      2.69734e-05     0.000216892         0.980228        0.139318      5.95959e-05     1.96124e-05
                    -3.91863e-05     0.000215248      -0.00922614       0.0614572      1.12393e-05     2.96055e-05         0.961133        -0.26471
                        0.980036        0.139238     -3.47272e-05     -2.7399e-05         0.012821        0.136593      4.82695e-05     4.81795e-07
                    -1.65139e-05     0.000180326         0.961025        -0.26559     -1.80075e-05     0.000321886        0.0391804       0.0482563
281714                -0.0503934        0.127575      2.70751e-05     0.000216912         0.980279        0.138965      5.94629e-05     1.95926e-05
                    -3.93689e-05     0.000215503      -0.00920152        0.061453      1.11866e-05     2.95529e-05         0.961034       -0.265073
                        0.980087        0.138884     -3.47708e-05    -2.73736e-05        0.0128735        0.136585      4.81433e-05     6.70378e-07
                    -1.63357e-05     0.000180331         0.960926       -0.265953     -1.79307e-05     0.000322035        0.0391934       0.0482358
281716                -0.0503497        0.127589      2.71769e-05     0.000216932         0.980329        0.138612      5.93303e-05      1.9573e-05
                    -3.95512e-05      0.00021576      -0.00917691       0.0614489      1.11339e-05     2.95001e-05         0.960934       -0.265436
                        0.980138        0.138531     -3.48143e-05    -2.73482e-05        0.0129259        0.136578      4.80172e-05     8.58678e-07
                    -1.61574e-05     0.000180335         0.960826       -0.266315     -1.78535e-05     0.000322184        0.0392063       0.0482153
281718                 -0.050306        0.127603      2.72787e-05     0.000216952         0.980379        0.138259      5.91979e-05     1.95536e-05
                    -3.97333e-05     0.000216017       -0.0091523       0.0614447      1.10811e-05     2.94472e-05         0.960834       -0.265799
                        0.980189        0.138177     -3.48578e-05    -2.73228e-05        0.0129783         0.13657      4.78914e-05     1.04669e-06
                    -1.59788e-05     0.000180338         0.960726       -0.266678     -1.77761e-05     0.000322333        0.0392193       0.0481947
281720                -0.0502623        0.127617      2.73807e-05     0.000216972         0.980429        0.137906      5.90659e-05     1.95344e-05
                    -3.99151e-05     0.000216275      -0.00912769       0.0614405      1.10281e-05     2.93941e-05         0.960734       -0.266161
                        0.980239        0.137824     -3.49013e-05    -2.72975e-05        0.0130308        0.136562      4.77659e-05     1.23442e-06
                    -1.58001e-05      0.00018034         0.960626        -0.26704     -1.76983e-05     0.000322481        0.0392323       0.0481742
281722                -0.0502186        0.127631      2.74827e-05     0.000216993         0.980479        0.137553      5.89342e-05     1.95154e-05
                    -4.00967e-05     0.000216533      -0.00910308       0.0614363      1.09751e-05     2.93409e-05         0.960634       -0.266524
                         0.98029         0.13747     -3.49447e-05    -2.72721e-05        0.0130832        0.136554      4.76405e-05     1.42187e-06
                    -1.56213e-05     0.000180341         0.960526       -0.267402     -1.76202e-05     0.000322629        0.0392452       0.0481537
281724                -0.0501749        0.127645      2.75847e-05     0.000217013         0.980529          0.1372      5.88029e-05     1.94966e-05
                    -4.02781e-05     0.000216792      -0.00907848        0.061432       1.0922e-05     2.92875e-05         0.960533       -0.266886
                         0.98034        0.137117     -3.49881e-05    -2.72467e-05        0.0131356        0.136546      4.75154e-05     1.60904e-06
                    -1.54423e-05     0.000180341         0.960425       -0.267764     -1.75418e-05     0.000322777        0.0392581       0.0481331
281726                -0.0501312         0.12766      2.76869e-05     0.000217033         0.980579        0.136846      5.86719e-05      1.9478e-05
                    -4.04591e-05     0.000217051      -0.00905388       0.0614278      1.08688e-05     2.92341e-05         0.960433       -0.267249
                         0.98039        0.136763     -3.50314e-05    -2.72213e-05         0.013188        0.136539      4.73906e-05     1.79593e-06
                    -1.52632e-05      0.00018034         0.960325       -0.268127     -1.74632e-05     0.000322925         0.039271       0.0481126
281728                -0.0500875        0.127674      2.77892e-05     0.000217054         0.980628        0.136493      5.85412e-05     1.94596e-05
                    -4.06399e-05     0.000217311      -0.00902929       0.0614236      1.08156e-05     2.91804e-05         0.960332       -0.267611
                         0.98044        0.136409     -3.50747e-05     -2.7196e-05        0.0132404        0.136531      4.72659e-05     1.98253e-06
                     -1.5084e-05     0.000180338         0.960224       -0.268489     -1.73842e-05     0.000323073         0.039284        0.048092
281730                -0.0500438        0.127688      2.78915e-05     0.000217075         0.980678         0.13614      5.84108e-05     1.94414e-05
                    -4.08205e-05     0.000217571       -0.0090047       0.0614193      1.07623e-05     2.91267e-05         0.960232       -0.267974
                         0.98049        0.136056     -3.51178e-05    -2.71706e-05        0.0132928        0.136523      4.71415e-05     2.16886e-06
                    -1.49047e-05     0.000180335         0.960123       -0.268851     -1.73049e-05      0.00032322        0.0392969       0.0480715
281732                -0.0500001        0.127702       2.7994e-05     0.000217095         0.980727        0.135787      5.82808e-05     1.94234e-05
                    -4.10007e-05     0.000217833      -0.00898011       0.0614151      1.07089e-05     2.90728e-05         0.960131       -0.268336
                         0.98054        0.135702      -3.5161e-05    -2.71453e-05        0.0133452        0.136515      4.70174e-05     2.35491e-06
                    -1.47253e-05     0.000180331         0.960022       -0.269213     -1.72253e-05     0.000323368        0.0393097       0.0480509
281734                -0.0499563        0.127716      2.80965e-05     0.000217116         0.980776        0.135434       5.8151e-05     1.94057e-05
                    -4.11806e-05     0.000218094      -0.00895553       0.0614108      1.06555e-05     2.90187e-05          0.96003       -0.268698
                        0.980589        0.135348      -3.5204e-05    -2.71199e-05        0.0133976        0.136507      4.68934e-05     2.54068e-06
                    -1.45458e-05     0.000180326         0.959921       -0.269575     -1.71454e-05     0.000323515        0.0393226       0.0480304
281736                -0.0499126         0.12773      2.81991e-05     0.000217137         0.980825        0.135081      5.80216e-05     1.93881e-05
                    -4.13603e-05     0.000218357      -0.00893095       0.0614065      1.06021e-05     2.89645e-05         0.959928       -0.269061
                        0.980639        0.134995     -3.52469e-05    -2.70945e-05          0.01345        0.136499      4.67697e-05     2.72617e-06
                    -1.43663e-05      0.00018032          0.95982       -0.269937     -1.70651e-05     0.000323662        0.0393355       0.0480098
281738                -0.0498689        0.127744      2.83018e-05     0.000217157         0.980874        0.134728      5.78926e-05     1.93707e-05
                    -4.15396e-05      0.00021862      -0.00890637       0.0614022      1.05486e-05     2.89102e-05         0.959827       -0.269423
                        0.980688        0.134641     -3.52897e-05    -2.70692e-05        0.0135024        0.136491      4.66463e-05     2.91138e-06
                    -1.41867e-05     0.000180313         0.959719       -0.270299     -1.69846e-05     0.000323809        0.0393483       0.0479892
281740                -0.0498251        0.127758      2.84046e-05     0.000217178         0.980923        0.134374      5.77638e-05     1.93536e-05
                    -4.17186e-05     0.000218883       -0.0088818       0.0613979      1.04951e-05     2.88558e-05         0.959726       -0.269785
                        0.980737        0.134287     -3.53325e-05    -2.70439e-05        0.0135548        0.136483      4.65231e-05     3.09632e-06
                    -1.40071e-05     0.000180305         0.959617       -0.270661     -1.69038e-05     0.000323955        0.0393612       0.0479687
281742                -0.0497814        0.127772      2.85075e-05     0.000217199         0.980971        0.134021      5.76354e-05     1.93366e-05
                    -4.18973e-05     0.000219147      -0.00885723       0.0613936      1.04416e-05     2.88012e-05         0.959624       -0.270147
                        0.980786        0.133933     -3.53751e-05    -2.70185e-05        0.0136072        0.136475      4.64001e-05     3.28098e-06
                    -1.38275e-05     0.000180296         0.959516       -0.271023     -1.68226e-05     0.000324102         0.039374       0.0479481
281744                -0.0497376        0.127786      2.86104e-05      0.00021722          0.98102        0.133668      5.75073e-05     1.93198e-05
                    -4.20757e-05     0.000219412      -0.00883266       0.0613893      1.03881e-05     2.87465e-05         0.959522        -0.27051
                        0.980835         0.13358     -3.54176e-05    -2.69932e-05        0.0136596        0.136467      4.62773e-05     3.46537e-06
                    -1.36478e-05     0.000180286         0.959414       -0.271385     -1.67412e-05     0.000324248        0.0393868       0.0479276
281746                -0.0496939          0.1278      2.87135e-05      0.00021724         0.981068        0.133315      5.73795e-05     1.93032e-05
                    -4.22539e-05     0.000219677       -0.0088081        0.061385      1.03345e-05     2.86916e-05         0.959421       -0.270872
                        0.980884        0.133226       -3.546e-05    -2.69678e-05        0.0137119        0.136459      4.61547e-05     3.64949e-06
                     -1.3468e-05     0.000180275         0.959312       -0.271747     -1.66594e-05     0.000324394        0.0393997        0.047907
281748                -0.0496501        0.127814      2.88167e-05     0.000217261         0.981117        0.132961      5.72521e-05     1.92869e-05
                    -4.24318e-05     0.000219943      -0.00878354       0.0613806       1.0281e-05     2.86366e-05         0.959319       -0.271234
                        0.980933        0.132872     -3.55023e-05    -2.69425e-05        0.0137643        0.136451      4.60324e-05     3.83333e-06
                    -1.32882e-05     0.000180263          0.95921       -0.272109     -1.65774e-05      0.00032454        0.0394125       0.0478864
281750                -0.0496063        0.127828      2.89199e-05     0.000217282         0.981165        0.132608       5.7125e-05     1.92707e-05
                    -4.26096e-05     0.000220209      -0.00875898       0.0613763      1.02275e-05     2.85815e-05         0.959216       -0.271596
                        0.980981        0.132518     -3.55444e-05    -2.69171e-05        0.0138167        0.136443      4.59104e-05      4.0169e-06
                    -1.31083e-05      0.00018025         0.959108       -0.272471      -1.6495e-05     0.000324686        0.0394252       0.0478658
281752                -0.0495626        0.127842      2.90233e-05     0.000217303         0.981213        0.132255      5.69982e-05     1.92547e-05
                    -4.27874e-05     0.000220477      -0.00873443       0.0613719       1.0174e-05     2.85263e-05         0.959114       -0.271958
                         0.98103        0.132164     -3.55864e-05    -2.68918e-05         0.013869        0.136435      4.57885e-05      4.2002e-06
                    -1.29282e-05     0.000180236         0.959006       -0.272832     -1.64123e-05     0.000324832         0.039438       0.0478453
281754                -0.0495188        0.127856      2.91267e-05     0.000217324         0.981261        0.131901      5.68717e-05      1.9239e-05
                    -4.29655e-05     0.000220745      -0.00870988       0.0613676      1.01206e-05     2.84709e-05         0.959012        -0.27232
                        0.981078        0.131811     -3.56283e-05    -2.68664e-05        0.0139214        0.136427      4.56669e-05     4.38324e-06
                    -1.27479e-05     0.000180221         0.958903       -0.273194     -1.63293e-05     0.000324977        0.0394508       0.0478247
281756                 -0.049475         0.12787      2.92302e-05     0.000217344         0.981308        0.131548      5.67455e-05     1.92234e-05
                    -4.31447e-05     0.000221014      -0.00868533       0.0613632      1.00672e-05     2.84154e-05         0.958909       -0.272682
                        0.981126        0.131457       -3.567e-05     -2.6841e-05        0.0139737        0.136418      4.55455e-05       4.566e-06
                     -1.2567e-05     0.000180203         0.958801       -0.273556      -1.6246e-05     0.000325122        0.0394636       0.0478041
281758                -0.0494312        0.127884      2.93339e-05     0.000217365         0.981356        0.131195      5.66197e-05      1.9208e-05
                    -4.33271e-05     0.000221284      -0.00866079       0.0613588      1.00138e-05     2.83598e-05         0.958807       -0.273044
                        0.981175        0.131103     -3.57115e-05    -2.68157e-05        0.0140261         0.13641      4.54244e-05      4.7485e-06
                    -1.23851e-05     0.000180183         0.958698       -0.273917     -1.61624e-05     0.000325268        0.0394763       0.0477835
281760                -0.0493875        0.127898      2.94376e-05     0.000217386         0.981404        0.130841      5.64942e-05     1.91928e-05
                    -4.35228e-05     0.000221562      -0.00863625       0.0613544      9.96054e-06      2.8304e-05         0.958704       -0.273406
                        0.981223        0.130749      -3.5753e-05    -2.67903e-05        0.0140784        0.136402      4.53035e-05     4.93073e-06
                    -1.21999e-05     0.000180156         0.958595       -0.274279     -1.60784e-05     0.000325413         0.039489       0.0477629
281762                -0.0493436        0.127912      2.95414e-05     0.000217406         0.981451        0.130488       5.6369e-05     1.91779e-05
                    -4.37677e-05     0.000222181      -0.00861172         0.06135      9.90737e-06     2.82482e-05         0.958601       -0.273767
                        0.981271        0.130395     -3.57942e-05    -2.67649e-05        0.0141307        0.136394      4.51828e-05     5.11271e-06
