! TOUCHSTONE file generated by CST MICROWAVE STUDIO
! Date and time: Tue Oct 14 07:32:03 2025
! Project name: Teste_Macro_Metasurface_Nanopilar.cst
! Parameters = {H=600; L_x=185; L_y=95; Lambda=1064; Max_L=200; Min_L=70; PathPara=1; Phi=0; Step_L=10; Theta=0; p=520; phaseX=180; phaseY=0}
! Header version: 2018
! Port assignment regex: !\s*Touchstone port\s*([0-9]+)\s*=\s*(CST MWS port|CST DS port)\s*([0-9]+|Zmin|Zmax)\s*\(\"(.*)\"\)(\s*mode\s*([0-9]+))?.*
! Touchstone port assignment:
! Touchstone port 1 = CST MWS port Zmax ("") mode 1
! Touchstone port 2 = CST MWS port Zmax ("") mode 2
! Touchstone port 3 = CST MWS port Zmin ("") mode 1
! Touchstone port 4 = CST MWS port Zmin ("") mode 2
! S-Parameters are not renormalized. Each port impedance will be approximated by the real part at minimum frequency. The values are described via the [Reference] keyword.
! Default impedance is overridden by [Reference]
[Version] 2.0
# GHz S RI R 376.73
[Number of Ports] 4
[Reference]
376.73 376.73 259.814 259.814 
[Number of Frequencies] 51
[Network Data]
281700                -0.0954079       -0.155774      0.000244899     0.000561101        -0.150008       -0.965741      1.98313e-05     0.000454243
                     0.000271227     0.000594953        -0.658547       -0.475006      7.75586e-05    -0.000445599         0.551421       0.0755764
                       -0.149397       -0.965645     -6.41501e-05    -0.000651819        -0.042425        0.177258      0.000788749    -0.000160277
                      3.8557e-05     0.000515905         0.551127        0.076113      0.000840134    -0.000218448         0.734471       -0.327653
281702                -0.0954759       -0.155752      0.000245292     0.000560706        -0.150462       -0.965667      2.04799e-05     0.000454182
                      0.00027168     0.000594627        -0.659036       -0.474713      7.72732e-05    -0.000445596         0.551139       0.0750937
                        -0.14985       -0.965571      -6.4455e-05    -0.000651466       -0.0423298        0.177298      0.000788515    -0.000160665
                     3.92495e-05     0.000515876         0.550846       0.0756309      0.000839976    -0.000218855         0.734345       -0.328482
281704                -0.0955439        -0.15573      0.000245685     0.000560312        -0.150917       -0.965593      2.11286e-05     0.000454121
                     0.000272133       0.0005943        -0.659526       -0.474419      7.69874e-05    -0.000445594         0.550857       0.0746114
                       -0.150304       -0.965497       -6.476e-05    -0.000651112       -0.0422346        0.177338      0.000788281    -0.000161051
                     3.99424e-05     0.000515845         0.550565       0.0751491      0.000839818    -0.000219261         0.734217       -0.329313
281706                -0.0956119       -0.155707      0.000246078     0.000559916        -0.151371       -0.965519      2.17777e-05     0.000454058
                     0.000272585     0.000593972        -0.660016       -0.474124      7.67009e-05    -0.000445593         0.550574       0.0741294
                       -0.150758       -0.965422      -6.5065e-05    -0.000650757       -0.0421393        0.177377      0.000788045    -0.000161437
                     4.06355e-05     0.000515814         0.550283       0.0746677       0.00083966    -0.000219667         0.734088       -0.330143
281708                -0.0956799       -0.155685       0.00024647     0.000559521        -0.151825       -0.965444       2.2427e-05     0.000453994
                     0.000273037     0.000593644        -0.660506       -0.473829       7.6414e-05    -0.000445592          0.55029       0.0736477
                       -0.151212       -0.965348     -6.53702e-05    -0.000650402        -0.042044        0.177417       0.00078781    -0.000161823
                      4.1329e-05     0.000515782             0.55       0.0741866      0.000839502    -0.000220073         0.733958       -0.330974
281710                -0.0957479       -0.155663      0.000246863     0.000559124         -0.15228       -0.965369      2.30765e-05     0.000453928
                     0.000273488     0.000593315        -0.660995       -0.473533      7.61265e-05    -0.000445591         0.550006       0.0731664
                       -0.151665       -0.965273     -6.56756e-05    -0.000650045       -0.0419486        0.177456      0.000787573    -0.000162208
                     4.20228e-05     0.000515749         0.549716       0.0737059      0.000839344     -0.00022048         0.733827       -0.331805
281712                -0.0958159       -0.155641      0.000247255     0.000558728        -0.152734       -0.965294      2.37263e-05     0.000453862
                     0.000273939     0.000592985        -0.661485       -0.473237      7.58385e-05    -0.000445591         0.549721       0.0726855
                       -0.152119       -0.965198     -6.59811e-05    -0.000649688       -0.0418533        0.177496      0.000787336    -0.000162592
                     4.27169e-05     0.000515715         0.549432       0.0732255      0.000839187    -0.000220886         0.733695       -0.332636
281714                -0.0958839       -0.155618      0.000247648      0.00055833        -0.153188       -0.965219      2.43764e-05     0.000453794
                      0.00027439     0.000592654        -0.661975        -0.47294      7.55499e-05    -0.000445591         0.549435       0.0722049
                       -0.152573       -0.965123     -6.62869e-05    -0.000649329       -0.0417579        0.177535      0.000787098    -0.000162976
                     4.34114e-05      0.00051568         0.549147       0.0727455      0.000839029    -0.000221293         0.733562       -0.333468
281716                -0.0959518       -0.155596       0.00024804     0.000557933        -0.153642       -0.965143      2.50267e-05     0.000453725
                      0.00027484     0.000592323        -0.662465       -0.472643      7.52608e-05    -0.000445592         0.549148       0.0717247
                       -0.153026       -0.965047     -6.65929e-05     -0.00064897       -0.0416624        0.177575       0.00078686    -0.000163359
                     4.41062e-05     0.000515645         0.548862       0.0722658      0.000838871      -0.0002217         0.733428       -0.334299
281718                -0.0960198       -0.155573      0.000248433     0.000557535        -0.154097       -0.965067      2.56772e-05     0.000453655
                      0.00027529     0.000591991        -0.662954       -0.472345      7.49711e-05    -0.000445594         0.548861       0.0712449
                        -0.15348       -0.964971     -6.68991e-05     -0.00064861        -0.041567        0.177614      0.000786621    -0.000163742
                     4.48014e-05     0.000515608         0.548576       0.0717865      0.000838713    -0.000222107         0.733293       -0.335131
281720                -0.0960878       -0.155551      0.000248825     0.000557136        -0.154551       -0.964991       2.6328e-05     0.000453584
                     0.000275739     0.000591658        -0.663444       -0.472046      7.46809e-05    -0.000445595         0.548573       0.0707654
                       -0.153933       -0.964895     -6.72056e-05    -0.000648248       -0.0414715        0.177654      0.000786382    -0.000164124
                     4.54968e-05     0.000515571         0.548289       0.0713076      0.000838555    -0.000222513         0.733157       -0.335964
281722                -0.0961557       -0.155528      0.000249217     0.000556737        -0.155005       -0.964915       2.6979e-05     0.000453511
                     0.000276188     0.000591325        -0.663934       -0.471747      7.43901e-05    -0.000445598         0.548284       0.0702863
                       -0.154387       -0.964819     -6.75123e-05    -0.000647886       -0.0413759        0.177693      0.000786142    -0.000164505
                     4.61926e-05     0.000515533         0.548001        0.070829      0.000838398     -0.00022292          0.73302       -0.336796
281724                -0.0962237       -0.155506      0.000249609     0.000556338        -0.155459       -0.964839      2.76303e-05     0.000453438
                     0.000276637      0.00059099        -0.664424       -0.471447      7.40988e-05    -0.000445601         0.547995       0.0698075
                        -0.15484       -0.964743     -6.78193e-05    -0.000647523       -0.0412803        0.177732      0.000785902    -0.000164886
                     4.68888e-05     0.000515494         0.547712       0.0703508       0.00083824    -0.000223327         0.732882       -0.337629
281726                -0.0962917       -0.155483      0.000250001     0.000555938        -0.155913       -0.964762      2.82818e-05     0.000453363
                     0.000277085     0.000590655        -0.664913       -0.471146      7.38069e-05    -0.000445604         0.547705       0.0693291
                       -0.155294       -0.964666     -6.81265e-05    -0.000647158       -0.0411847        0.177771      0.000785661    -0.000165266
                     4.75852e-05     0.000515454         0.547423        0.069873      0.000838083    -0.000223735         0.732743       -0.338462
281728                -0.0963596       -0.155461      0.000250393     0.000555537        -0.156367       -0.964685      2.89335e-05     0.000453286
                     0.000277533      0.00059032        -0.665403       -0.470845      7.35144e-05    -0.000445608         0.547414       0.0688511
                       -0.155747        -0.96459      -6.8434e-05    -0.000646793       -0.0410891         0.17781      0.000785419    -0.000165646
                      4.8282e-05     0.000515413         0.547134       0.0693955      0.000837925    -0.000224142         0.732603       -0.339295
281730                -0.0964276       -0.155438      0.000250785     0.000555137        -0.156821       -0.964608      2.95854e-05     0.000453209
                      0.00027798     0.000589983        -0.665893       -0.470543      7.32213e-05    -0.000445612         0.547122       0.0683734
                       -0.156201       -0.964513     -6.87418e-05    -0.000646427       -0.0409934        0.177849      0.000785177    -0.000166025
                     4.89791e-05     0.000515371         0.546843       0.0689184      0.000837767    -0.000224549         0.732462       -0.340129
281732                -0.0964955       -0.155415      0.000251177     0.000554735        -0.157275       -0.964531      3.02376e-05      0.00045313
                     0.000278427     0.000589646        -0.666383       -0.470241      7.29277e-05    -0.000445617          0.54683       0.0678961
                       -0.156654       -0.964435     -6.90498e-05    -0.000646059       -0.0408977        0.177888      0.000784934    -0.000166403
                     4.96766e-05     0.000515328         0.546552       0.0684416       0.00083761    -0.000224957          0.73232       -0.340962
281734                -0.0965634       -0.155393      0.000251568     0.000554333        -0.157729       -0.964453        3.089e-05     0.000453051
                     0.000278874     0.000589308        -0.666872       -0.469938      7.26334e-05    -0.000445622         0.546537       0.0674192
                       -0.157107       -0.964358     -6.93581e-05    -0.000645691        -0.040802        0.177927      0.000784691    -0.000166781
                     5.03744e-05     0.000515285          0.54626       0.0679653      0.000837452    -0.000225364         0.732176       -0.341796
281736                -0.0966314        -0.15537       0.00025196     0.000553931        -0.158183       -0.964376      3.15426e-05      0.00045297
                      0.00027932     0.000588969        -0.667362       -0.469634      7.23386e-05    -0.000445628         0.546244       0.0669427
                       -0.157561        -0.96428     -6.96667e-05    -0.000645322       -0.0407062        0.177966      0.000784447    -0.000167158
                     5.10725e-05     0.000515241         0.545967       0.0674893      0.000837295    -0.000225772         0.732032        -0.34263
281738                -0.0966993       -0.155347      0.000252351     0.000553528        -0.158637       -0.964298      3.21955e-05     0.000452887
                     0.000279765      0.00058863        -0.667852        -0.46933      7.20432e-05    -0.000445634         0.545949       0.0664665
                       -0.158014       -0.964202     -6.99755e-05    -0.000644951       -0.0406104        0.178005      0.000784202    -0.000167535
                      5.1771e-05     0.000515195         0.545674       0.0670136      0.000837138     -0.00022618         0.731887       -0.343465
281740                -0.0967672       -0.155324      0.000252743     0.000553125        -0.159091        -0.96422      3.28485e-05     0.000452804
                     0.000280211      0.00058829        -0.668342       -0.469026      7.17472e-05    -0.000445641         0.545654       0.0659907
                       -0.158467       -0.964124     -7.02846e-05     -0.00064458       -0.0405146        0.178044      0.000783958    -0.000167911
                     5.24698e-05     0.000515149          0.54538       0.0665384       0.00083698    -0.000226588          0.73174         -0.3443
281742                -0.0968352       -0.155301      0.000253134     0.000552721        -0.159545       -0.964141      3.35018e-05     0.000452719
                     0.000280656     0.000587949        -0.668831        -0.46872      7.14506e-05    -0.000445648         0.545358       0.0655153
                        -0.15892       -0.964046     -7.05939e-05    -0.000644208       -0.0404187        0.178082      0.000783712    -0.000168286
                     5.31689e-05     0.000515102         0.545085       0.0660635      0.000836823    -0.000226996         0.731593       -0.345134
281744                -0.0969031       -0.155278      0.000253525     0.000552317        -0.159998       -0.964063      3.41553e-05     0.000452633
                       0.0002811     0.000587607        -0.669321       -0.468414      7.11534e-05    -0.000445655         0.545062       0.0650402
                       -0.159374       -0.963968     -7.09035e-05    -0.000643835       -0.0403228        0.178121      0.000783466    -0.000168661
                     5.38684e-05     0.000515055          0.54479        0.065589      0.000836665    -0.000227404         0.731445        -0.34597
281746                 -0.096971       -0.155256      0.000253916     0.000551912        -0.160452       -0.963984       3.4809e-05     0.000452546
                     0.000281544     0.000587265        -0.669811       -0.468108      7.08555e-05    -0.000445663         0.544765       0.0645656
                       -0.159827       -0.963889     -7.12134e-05    -0.000643461       -0.0402268         0.17816      0.000783219    -0.000169035
                     5.45682e-05     0.000515006         0.544494       0.0651149      0.000836508    -0.000227813         0.731295       -0.346805
281748                -0.0970389       -0.155233      0.000254307     0.000551507        -0.160906       -0.963905      3.54629e-05     0.000452457
                     0.000281988     0.000586922          -0.6703         -0.4678      7.05571e-05    -0.000445672         0.544467       0.0640913
                        -0.16028        -0.96381     -7.15235e-05    -0.000643086       -0.0401309        0.178198      0.000782972    -0.000169408
                     5.52684e-05     0.000514956         0.544197       0.0646412      0.000836351    -0.000228221         0.731145       -0.347641
281750                -0.0971068        -0.15521      0.000254698     0.000551102         -0.16136       -0.963826       3.6117e-05     0.000452367
                     0.000282431     0.000586578         -0.67079       -0.467492      7.02581e-05    -0.000445681         0.544168       0.0636174
                       -0.160733       -0.963731      -7.1834e-05     -0.00064271       -0.0400349        0.178237      0.000782725    -0.000169781
                     5.59688e-05     0.000514906         0.543899       0.0641678      0.000836194     -0.00022863         0.730993       -0.348477
281752                -0.0971747       -0.155187      0.000255089     0.000550696        -0.161813       -0.963746      3.67713e-05     0.000452276
                     0.000282874     0.000586233         -0.67128       -0.467184      6.99584e-05     -0.00044569         0.543869       0.0631438
                       -0.161186       -0.963651     -7.21447e-05    -0.000642333       -0.0399388        0.178275      0.000782477    -0.000170153
                     5.66696e-05     0.000514855         0.543601       0.0636948      0.000836036    -0.000229038         0.730841       -0.349313
281754                -0.0972426       -0.155164       0.00025548     0.000550289        -0.162267       -0.963667      3.74258e-05     0.000452184
                     0.000283316     0.000585888        -0.671769       -0.466875      6.96581e-05      -0.0004457         0.543569       0.0626707
                       -0.161639       -0.963572     -7.24557e-05    -0.000641956       -0.0398428        0.178314      0.000782228    -0.000170525
                     5.73708e-05     0.000514802         0.543302       0.0632222      0.000835879    -0.000229447         0.730687       -0.350149
281756                -0.0973105       -0.155141       0.00025587     0.000549882        -0.162721       -0.963587      3.80805e-05     0.000452091
                     0.000283758     0.000585542        -0.672259       -0.466565      6.93571e-05     -0.00044571         0.543268       0.0621979
                       -0.162092       -0.963492     -7.27669e-05    -0.000641577       -0.0397467        0.178352      0.000781979    -0.000170895
                     5.80723e-05     0.000514749         0.543002         0.06275      0.000835722    -0.000229856         0.730532       -0.350986
281758                -0.0973784       -0.155118      0.000256261     0.000549475        -0.163174       -0.963507      3.87353e-05     0.000451996
                       0.0002842     0.000585195        -0.672749       -0.466255      6.90556e-05    -0.000445721         0.542967       0.0617256
                       -0.162545       -0.963412     -7.30785e-05    -0.000641198       -0.0396505         0.17839      0.000781729    -0.000171266
                     5.87741e-05     0.000514695         0.542702       0.0622782      0.000835565    -0.000230265         0.730377       -0.351822
281760                -0.0974463       -0.155094      0.000256651     0.000549067        -0.163628       -0.963427      3.93904e-05       0.0004519
                     0.000284641     0.000584847        -0.673238       -0.465944      6.87534e-05    -0.000445732         0.542665       0.0612536
                       -0.162998       -0.963332     -7.33904e-05    -0.000640818       -0.0395543        0.178428      0.000781479    -0.000171635
                     5.94763e-05     0.000514641         0.542401       0.0618067      0.000835407    -0.000230675          0.73022       -0.352659
281762                -0.0975142       -0.155071      0.000257041     0.000548659        -0.164081       -0.963346      4.00457e-05     0.000451803
                     0.000285082     0.000584499        -0.673728       -0.465633      6.84505e-05    -0.000445744         0.542362        0.060782
                       -0.163451       -0.963251     -7.37025e-05    -0.000640437       -0.0394581        0.178467      0.000781228    -0.000172004
