! TOUCHSTONE file generated by CST MICROWAVE STUDIO
! Date and time: Tue Oct 14 07:26:21 2025
! Project name: Teste_Macro_Metasurface_Nanopilar.cst
! Parameters = {H=600; L_x=95; L_y=80; Lambda=1064; Max_L=200; Min_L=70; PathPara=1; Phi=0; Step_L=10; Theta=0; p=520; phaseX=180; phaseY=0}
! Header version: 2018
! Port assignment regex: !\s*Touchstone port\s*([0-9]+)\s*=\s*(CST MWS port|CST DS port)\s*([0-9]+|Zmin|Zmax)\s*\(\"(.*)\"\)(\s*mode\s*([0-9]+))?.*
! Touchstone port assignment:
! Touchstone port 1 = CST MWS port Zmax ("") mode 1
! Touchstone port 2 = CST MWS port Zmax ("") mode 2
! Touchstone port 3 = CST MWS port Zmin ("") mode 1
! Touchstone port 4 = CST MWS port Zmin ("") mode 2
! S-Parameters are not renormalized. Each port impedance will be approximated by the real part at minimum frequency. The values are described via the [Reference] keyword.
! Default impedance is overridden by [Reference]
[Version] 2.0
# GHz S RI R 376.73
[Number of Ports] 4
[Reference]
376.73 376.73 259.814 259.814 
[Number of Frequencies] 51
[Network Data]
281700                -0.0309942        0.114241      0.000461361     -3.0385e-06         0.992159       0.0328153     -2.82885e-05    -0.000169375
                     0.000575208     9.76715e-05       -0.0105224       0.0835601      3.64154e-05    -0.000331524          0.98416       -0.151527
                        0.992009       0.0326452     -7.40426e-05    -0.000299169        0.0232686        0.116133     -0.000462998     0.000138213
                     0.000197191    -8.31269e-05         0.983811       -0.151348     -0.000219554     8.99869e-05        0.0349861       0.0766764
281702                -0.0309538        0.114248       0.00046144    -3.40747e-06         0.992171       0.0324543     -2.83706e-05    -0.000169465
                     0.000575195     9.74791e-05        -0.010491       0.0835579      3.63554e-05    -0.000331411         0.984104       -0.151893
                        0.992021       0.0322843     -7.41067e-05    -0.000299237        0.0233124         0.11612     -0.000463033      0.00013828
                      0.00019698    -8.33139e-05         0.983755       -0.151713     -0.000219622     9.02193e-05        0.0350125       0.0766577
281704                -0.0309134        0.114255      0.000461519    -3.77748e-06         0.992184       0.0320932     -2.84528e-05    -0.000169556
                     0.000575183     9.72859e-05       -0.0104596       0.0835556      3.62957e-05    -0.000331298         0.984048       -0.152258
                        0.992033       0.0319235     -7.41695e-05    -0.000299304        0.0233561        0.116108     -0.000463069     0.000138348
                      0.00019677     -8.3501e-05         0.983699       -0.152079      -0.00021969     9.04514e-05        0.0350389        0.076639
281706                -0.0308731        0.114261      0.000461596    -4.14856e-06         0.992196       0.0317322      -2.8535e-05    -0.000169647
                      0.00057517     9.70921e-05       -0.0104282       0.0835534       3.6236e-05    -0.000331185         0.983992       -0.152624
                        0.992045       0.0315627     -7.42311e-05    -0.000299371        0.0233999        0.116095     -0.000463105     0.000138415
                      0.00019656    -8.36883e-05         0.983642       -0.152444     -0.000219757     9.06834e-05        0.0350652       0.0766203
281708                -0.0308327        0.114268      0.000461673    -4.52073e-06         0.992208       0.0313711     -2.86171e-05    -0.000169737
                     0.000575157     9.68976e-05       -0.0103969       0.0835512      3.61765e-05    -0.000331072         0.983936        -0.15299
                        0.992057       0.0312018     -7.42917e-05    -0.000299438        0.0234437        0.116082     -0.000463141     0.000138482
                      0.00019635    -8.38758e-05         0.983586        -0.15281     -0.000219825     9.09152e-05        0.0350916       0.0766015
281710                -0.0307923        0.114275      0.000461749    -4.89399e-06         0.992219       0.0310101     -2.86993e-05    -0.000169828
                     0.000575144     9.67024e-05       -0.0103655       0.0835489      3.61172e-05     -0.00033096         0.983879       -0.153356
                        0.992068        0.030841     -7.43513e-05    -0.000299505        0.0234874        0.116069     -0.000463177     0.000138549
                     0.000196141    -8.40633e-05          0.98353       -0.153175     -0.000219893     9.11468e-05        0.0351179       0.0765828
281712                 -0.030752        0.114282      0.000461825    -5.26834e-06         0.992231        0.030649     -2.87814e-05     -0.00016992
                     0.000575132     9.65066e-05       -0.0103341       0.0835466       3.6058e-05    -0.000330847         0.983822       -0.153721
                         0.99208       0.0304801     -7.44099e-05    -0.000299572        0.0235312        0.116056     -0.000463213     0.000138616
                     0.000195932     -8.4251e-05         0.983473       -0.153541      -0.00021996     9.13783e-05        0.0351442       0.0765641
281714                -0.0307116        0.114288        0.0004619    -5.64379e-06         0.992243        0.030288     -2.88636e-05    -0.000170011
                     0.000575119     9.63101e-05       -0.0103027       0.0835444       3.5999e-05    -0.000330735         0.983766       -0.154087
                        0.992091       0.0301193     -7.44678e-05    -0.000299639         0.023575        0.116043     -0.000463249     0.000138682
                     0.000195724    -8.44387e-05         0.983416       -0.153906     -0.000220028     9.16096e-05        0.0351705       0.0765453
281716                -0.0306712        0.114295      0.000461974    -6.02031e-06         0.992254       0.0299269     -2.89457e-05    -0.000170102
                     0.000575106     9.61131e-05       -0.0102714       0.0835421      3.59401e-05    -0.000330624         0.983709       -0.154453
                        0.992103       0.0297584      -7.4525e-05    -0.000299705        0.0236187         0.11603     -0.000463285     0.000138749
                     0.000195517    -8.46266e-05         0.983359       -0.154272     -0.000220095     9.18408e-05        0.0351968       0.0765266
281718                -0.0306309        0.114302      0.000462048    -6.39788e-06         0.992265       0.0295659     -2.90278e-05    -0.000170194
                     0.000575094     9.59154e-05         -0.01024       0.0835398      3.58813e-05    -0.000330512         0.983652       -0.154818
                        0.992114       0.0293975     -7.45815e-05    -0.000299771        0.0236624        0.116017     -0.000463321     0.000138815
                     0.000195309    -8.48145e-05         0.983302       -0.154637     -0.000220162     9.20717e-05        0.0352231       0.0765078
281720                -0.0305905        0.114308      0.000462122    -6.77649e-06         0.992276       0.0292048     -2.91099e-05    -0.000170285
                     0.000575081     9.57171e-05       -0.0102087       0.0835375      3.58228e-05    -0.000330401         0.983594       -0.155184
                        0.992125       0.0290367     -7.46374e-05    -0.000299838        0.0237062        0.116004     -0.000463357     0.000138881
                     0.000195103    -8.50024e-05         0.983245       -0.155002      -0.00022023     9.23025e-05        0.0352494        0.076489
281722                -0.0305501        0.114315      0.000462195    -7.15609e-06         0.992287       0.0288437      -2.9192e-05    -0.000170377
                     0.000575069     9.55183e-05       -0.0101773       0.0835351      3.57643e-05     -0.00033029         0.983537       -0.155549
                        0.992136       0.0286758     -7.46927e-05    -0.000299904        0.0237499        0.115991     -0.000463393     0.000138947
                     0.000194896    -8.51904e-05         0.983188       -0.155368     -0.000220297     9.25331e-05        0.0352757       0.0764702
281724                -0.0305097        0.114322      0.000462269    -7.53665e-06         0.992298       0.0284826     -2.92741e-05    -0.000170469
                     0.000575056     9.53189e-05       -0.0101459       0.0835328       3.5706e-05    -0.000330179          0.98348       -0.155915
                        0.992147       0.0283149     -7.47475e-05     -0.00029997        0.0237936        0.115978     -0.000463429     0.000139013
                     0.000194691    -8.53784e-05          0.98313       -0.155733     -0.000220364     9.27636e-05        0.0353019       0.0764514
281726                -0.0304694        0.114328      0.000462341    -7.91814e-06         0.992309       0.0281215     -2.93561e-05    -0.000170561
                     0.000575044      9.5119e-05       -0.0101146       0.0835305      3.56478e-05    -0.000330069         0.983422       -0.156281
                        0.992157        0.027954     -7.48019e-05    -0.000300036        0.0238373        0.115965     -0.000463465     0.000139079
                     0.000194485    -8.55664e-05         0.983073       -0.156098     -0.000220431     9.29938e-05        0.0353282       0.0764326
281728                 -0.030429        0.114335      0.000462414     -8.3005e-06          0.99232       0.0277605     -2.94381e-05    -0.000170653
                     0.000575032     9.49185e-05       -0.0100832       0.0835281      3.55898e-05    -0.000329958         0.983364       -0.156646
                        0.992168       0.0275932     -7.48558e-05    -0.000300102         0.023881        0.115952     -0.000463501     0.000139145
                     0.000194281    -8.57543e-05         0.983015       -0.156463     -0.000220498     9.32239e-05        0.0353545       0.0764138
281730                -0.0303886        0.114341      0.000462487    -8.68369e-06          0.99233       0.0273994     -2.95201e-05    -0.000170745
                      0.00057502     9.47175e-05       -0.0100519       0.0835257      3.55319e-05    -0.000329848         0.983307       -0.157012
                        0.992178       0.0272323     -7.49093e-05    -0.000300167        0.0239247        0.115939     -0.000463537      0.00013921
                     0.000194077    -8.59423e-05         0.982957       -0.156829     -0.000220565     9.34538e-05        0.0353807        0.076395
281732                -0.0303482        0.114348      0.000462559    -9.06767e-06          0.99234       0.0270383     -2.96021e-05    -0.000170838
                     0.000575008     9.45161e-05       -0.0100205       0.0835233      3.54741e-05    -0.000329739         0.983249       -0.157377
                        0.992189       0.0268714     -7.49624e-05    -0.000300233        0.0239684        0.115926     -0.000463573     0.000139275
                     0.000193873    -8.61302e-05         0.982899       -0.157194     -0.000220632     9.36835e-05        0.0354069       0.0763762
281734                -0.0303078        0.114355      0.000462631    -9.45239e-06         0.992351       0.0266772     -2.96841e-05     -0.00017093
                     0.000574996     9.43141e-05      -0.00998919       0.0835209      3.54165e-05    -0.000329629          0.98319       -0.157743
                        0.992199       0.0265105     -7.50151e-05    -0.000300299        0.0240121        0.115913      -0.00046361     0.000139341
                     0.000193669    -8.63181e-05         0.982841       -0.157559     -0.000220699     9.39129e-05        0.0354331       0.0763573
281736                -0.0302675        0.114361      0.000462703    -9.83781e-06         0.992361       0.0263161     -2.97661e-05    -0.000171023
                     0.000574984     9.41117e-05      -0.00995785       0.0835185       3.5359e-05     -0.00032952         0.983132       -0.158108
                        0.992209       0.0261496     -7.50675e-05    -0.000300364        0.0240558        0.115899     -0.000463646     0.000139406
                     0.000193467    -8.65058e-05         0.982783       -0.157924     -0.000220766     9.41422e-05        0.0354593       0.0763385
281738                -0.0302271        0.114368      0.000462776    -1.02239e-05         0.992371       0.0259549      -2.9848e-05    -0.000171115
                     0.000574972     9.39088e-05      -0.00992651       0.0835161      3.53015e-05    -0.000329411         0.983074       -0.158473
                        0.992219       0.0257887     -7.51196e-05    -0.000300429        0.0240995        0.115886     -0.000463682      0.00013947
                     0.000193264    -8.66935e-05         0.982725       -0.158289     -0.000220832     9.43711e-05        0.0354855       0.0763196
281740                -0.0301867        0.114374      0.000462847    -1.06106e-05          0.99238       0.0255938     -2.99299e-05    -0.000171208
                     0.000574961     9.37055e-05      -0.00989517       0.0835137      3.52441e-05    -0.000329302         0.983015       -0.158839
                        0.992228       0.0254278     -7.51715e-05    -0.000300495        0.0241431        0.115873     -0.000463718     0.000139535
                     0.000193063     -8.6881e-05         0.982666       -0.158655     -0.000220899     9.45997e-05        0.0355117       0.0763008
281742                -0.0301463        0.114381      0.000462919    -1.09978e-05          0.99239       0.0252327     -3.00118e-05    -0.000171301
                     0.000574949     9.35017e-05      -0.00986384       0.0835113      3.51866e-05    -0.000329194         0.982957       -0.159204
                        0.992238       0.0250668      -7.5223e-05     -0.00030056        0.0241868         0.11586     -0.000463754       0.0001396
                     0.000192861    -8.70684e-05         0.982607        -0.15902     -0.000220966     9.48277e-05        0.0355379       0.0762819
281744                -0.0301059        0.114387      0.000462991    -1.13856e-05           0.9924       0.0248716     -3.00937e-05    -0.000171394
                     0.000574938     9.32976e-05      -0.00983251       0.0835088      3.51287e-05    -0.000329086         0.982898        -0.15957
                        0.992247       0.0247059     -7.52742e-05    -0.000300625        0.0242304        0.115847      -0.00046379     0.000139664
                      0.00019266    -8.72557e-05         0.982549       -0.159385     -0.000221032     9.50546e-05        0.0355641        0.076263
281746                -0.0300655        0.114394      0.000463062     -1.1774e-05         0.992409       0.0245105     -3.01757e-05    -0.000171487
                     0.000574927     9.30931e-05      -0.00980118       0.0835063      3.50688e-05     -0.00032898         0.982839       -0.159935
                        0.992257        0.024345     -7.53252e-05    -0.000300691        0.0242741        0.115834     -0.000463827     0.000139729
                      0.00019246    -8.74427e-05          0.98249        -0.15975     -0.000221098     9.52774e-05        0.0355902       0.0762441
281748                -0.0300252          0.1144      0.000463134    -1.21628e-05         0.992418       0.0241491     -3.02578e-05    -0.000171581
                     0.000574916     9.28884e-05      -0.00976985       0.0835039       3.5221e-05    -0.000328916          0.98278         -0.1603
                        0.992266       0.0239841     -7.53758e-05    -0.000300756        0.0243178         0.11582     -0.000463864     0.000139793
                      0.00019226    -8.76295e-05         0.982431       -0.160115     -0.000221104      9.5725e-05        0.0356164       0.0762252
281750                -0.0299848        0.114407      0.000463205    -1.25521e-05         0.992427       0.0237882     -3.03406e-05    -0.000171677
                     0.000574905     9.26834e-05      -0.00973853       0.0835014      3.49687e-05    -0.000328755          0.98272       -0.160665
                        0.992275       0.0236231     -7.54262e-05    -0.000300821        0.0243614        0.115807     -0.000463903     0.000139856
                     0.000192061    -8.78159e-05         0.982371        -0.16048     -0.000221233     9.57558e-05        0.0356425       0.0762063
281752                -0.0299444        0.114413      0.000463275    -1.29418e-05         0.992437        0.023427      -3.0416e-05    -0.000171764
                     0.000574894     9.24783e-05       -0.0097072       0.0834989      3.49093e-05     -0.00032865         0.982661       -0.161031
                        0.992284       0.0232622     -7.54763e-05    -0.000300886         0.024405        0.115794     -0.000463928     0.000139919
                     0.000191862    -8.80017e-05         0.982312       -0.160845     -0.000221298     9.59788e-05        0.0356687       0.0761874
281754                 -0.029904        0.114419      0.000463345    -1.33321e-05         0.992445       0.0230659     -3.05007e-05    -0.000171858
                     0.000574884     9.22734e-05      -0.00967589       0.0834964      3.48521e-05    -0.000328543         0.982602       -0.161396
                        0.992293       0.0229013      -7.5526e-05    -0.000300951        0.0244486        0.115781     -0.000463968     0.000139984
                     0.000191663    -8.81868e-05         0.982253        -0.16121     -0.000221365     9.62049e-05        0.0356948       0.0761685
281756                -0.0298636        0.114426      0.000463415    -1.37228e-05         0.992454       0.0227048     -3.05828e-05    -0.000171952
                     0.000574874     9.20694e-05      -0.00964457       0.0834939      3.47956e-05    -0.000328436         0.982542       -0.161761
                        0.992302       0.0225403     -7.55753e-05    -0.000301016        0.0244922        0.115767     -0.000464005     0.000140048
                     0.000191465    -8.83702e-05         0.982193       -0.161575     -0.000221431     9.64318e-05        0.0357209       0.0761495
281758                -0.0298232        0.114432      0.000463484    -1.41141e-05         0.992463       0.0223436     -3.06646e-05    -0.000172046
                     0.000574865     9.18689e-05      -0.00961326       0.0834913      3.47395e-05     -0.00032833         0.982482       -0.162126
                         0.99231       0.0221794      -7.5624e-05    -0.000301081        0.0245358        0.115754     -0.000464041     0.000140111
                     0.000191266    -8.85489e-05         0.982133        -0.16194     -0.000221497     9.66588e-05         0.035747       0.0761306
281760                -0.0297828        0.114439      0.000463551    -1.45058e-05         0.992471       0.0219825     -3.07463e-05     -0.00017214
                     0.000574852     9.16934e-05      -0.00958194       0.0834888      3.46836e-05    -0.000328223         0.982422       -0.162492
                        0.992318       0.0218183     -7.56719e-05    -0.000301145        0.0245794        0.115741     -0.000464077     0.000140175
                     0.000191056    -8.86986e-05         0.982073       -0.162305     -0.000221563     9.68858e-05        0.0357731       0.0761117
281762                -0.0297424        0.114445      0.000463617    -1.48979e-05          0.99248       0.0216213     -3.08279e-05    -0.000172233
                     0.000574804     9.14027e-05      -0.00955063       0.0834862      3.46279e-05    -0.000328117         0.982362       -0.162857
                        0.992327       0.0214576     -7.57183e-05     -0.00030121         0.024623        0.115727     -0.000464113     0.000140238
