! TOUCHSTONE file generated by CST MICROWAVE STUDIO
! Date and time: Tue Oct 14 07:31:09 2025
! Project name: Teste_Macro_Metasurface_Nanopilar.cst
! Parameters = {H=600; L_x=170; L_y=110; Lambda=1064; Max_L=200; Min_L=70; PathPara=1; Phi=0; Step_L=10; Theta=0; p=520; phaseX=180; phaseY=0}
! Header version: 2018
! Port assignment regex: !\s*Touchstone port\s*([0-9]+)\s*=\s*(CST MWS port|CST DS port)\s*([0-9]+|Zmin|Zmax)\s*\(\"(.*)\"\)(\s*mode\s*([0-9]+))?.*
! Touchstone port assignment:
! Touchstone port 1 = CST MWS port Zmax ("") mode 1
! Touchstone port 2 = CST MWS port Zmax ("") mode 2
! Touchstone port 3 = CST MWS port Zmin ("") mode 1
! Touchstone port 4 = CST MWS port Zmin ("") mode 2
! S-Parameters are not renormalized. Each port impedance will be approximated by the real part at minimum frequency. The values are described via the [Reference] keyword.
! Default impedance is overridden by [Reference]
[Version] 2.0
# GHz S RI R 376.73
[Number of Ports] 4
[Reference]
376.73 376.73 259.814 259.814 
[Number of Frequencies] 51
[Network Data]
281700                -0.0987605       0.0201359     -0.000889243    -0.000230121        -0.921296        0.354194      -0.00125973     -0.00103127
                    -0.000926067    -0.000224328        -0.640781       -0.478832      0.000184592     0.000872231         0.555504       0.0869386
                       -0.920596        0.353679      0.000212826      0.00080261         0.085662      -0.0483902      -0.00053049      0.00174435
                     -0.00134608     -0.00109036         0.556773       0.0863818     -0.000501064      0.00173065         0.715067       -0.332948
281702                -0.0987348        0.020151     -0.000889601    -0.000229047        -0.921117        0.354667      -0.00126085     -0.00103042
                    -0.000926627    -0.000223094        -0.641416       -0.478524      0.000185802     0.000871973         0.555089       0.0863431
                       -0.920417        0.354152      0.000213991     0.000802381        0.0856024      -0.0484498     -0.000529218       0.0017453
                     -0.00134766     -0.00108934         0.556363       0.0857855     -0.000499694      0.00173156          0.71494       -0.333971
281704                -0.0987091       0.0201662     -0.000889959    -0.000227972        -0.920938         0.35514      -0.00126198     -0.00102957
                    -0.000927186    -0.000221857        -0.642052       -0.478216      0.000187014     0.000871714         0.554674       0.0857483
                       -0.920238        0.354625      0.000215157     0.000802151        0.0855427      -0.0485094     -0.000527957      0.00174626
                     -0.00134924     -0.00108833         0.555952       0.0851898     -0.000498322      0.00173247         0.714812       -0.334996
281706                -0.0986833       0.0201813     -0.000890315    -0.000226896        -0.920759        0.355612      -0.00126311     -0.00102872
                    -0.000927744    -0.000220619        -0.642687       -0.477906      0.000188226     0.000871454         0.554258       0.0851542
                       -0.920059        0.355098      0.000216323     0.000801919        0.0854829       -0.048569     -0.000526708      0.00174723
                     -0.00135083     -0.00108731          0.55554       0.0845946     -0.000496948      0.00173337         0.714682       -0.336021
281708                -0.0986576       0.0201964     -0.000890669    -0.000225819         -0.92058        0.356085      -0.00126424     -0.00102789
                      -0.0009283    -0.000219379        -0.643323       -0.477595      0.000189439     0.000871192         0.553843       0.0845606
                       -0.919879         0.35557      0.000217491     0.000801685        0.0854232      -0.0486284     -0.000525475      0.00174821
                     -0.00135241     -0.00108628         0.555126           0.084     -0.000495573      0.00173428          0.71455       -0.337046
281710                -0.0986319       0.0202114     -0.000891023    -0.000224741          -0.9204        0.356557      -0.00126537     -0.00102706
                    -0.000928855    -0.000218137        -0.643959       -0.477283      0.000190654     0.000870929         0.553427       0.0839677
                       -0.919699        0.356043      0.000218658      0.00080145        0.0853634      -0.0486878     -0.000524258       0.0017492
                     -0.00135399     -0.00108526         0.554711       0.0834059     -0.000494196      0.00173518         0.714417       -0.338072
281712                -0.0986062       0.0202265     -0.000891375    -0.000223662         -0.92022        0.357029      -0.00126651     -0.00102625
                    -0.000929408    -0.000216892        -0.644595       -0.476969      0.000191869     0.000870664          0.55301       0.0833753
                       -0.919519        0.356515      0.000219827     0.000801213        0.0853035      -0.0487472     -0.000523061       0.0017502
                     -0.00135558     -0.00108423         0.554295       0.0828124     -0.000492818      0.00173608         0.714282       -0.339099
281714                -0.0985805       0.0202415     -0.000891726    -0.000222582         -0.92004        0.357501      -0.00126766     -0.00102544
                     -0.00092996    -0.000215646        -0.645232       -0.476655      0.000193085     0.000870398         0.552594       0.0827834
                       -0.919339        0.356988      0.000220996     0.000800974        0.0852436      -0.0488065     -0.000521885      0.00175122
                     -0.00135716     -0.00108319         0.553878       0.0822194     -0.000491438      0.00173698         0.714145       -0.340127
281716                -0.0985549       0.0202565     -0.000892075    -0.000221502         -0.91986        0.357973      -0.00126881     -0.00102465
                     -0.00093051    -0.000214398        -0.645868        -0.47634      0.000194302     0.000870131         0.552177       0.0821921
                       -0.919158         0.35746      0.000222166     0.000800733        0.0851837      -0.0488657     -0.000520734      0.00175225
                     -0.00135874     -0.00108216         0.553459       0.0816271     -0.000490056      0.00173788         0.714007       -0.341155
281718                -0.0985292       0.0202715     -0.000892424     -0.00022042        -0.919679        0.358445      -0.00126996     -0.00102388
                    -0.000931059    -0.000213149        -0.646505       -0.476024       0.00019552     0.000869862         0.551759       0.0816012
                       -0.918977        0.357932      0.000223337     0.000800491        0.0851237      -0.0489249     -0.000519611       0.0017533
                     -0.00136033     -0.00108112         0.553039       0.0810352     -0.000488672      0.00173878         0.713868       -0.342184
281720                -0.0985035       0.0202865     -0.000892771    -0.000219337        -0.919498        0.358917      -0.00127112     -0.00102312
                    -0.000931607    -0.000211897        -0.647141       -0.475707      0.000196739     0.000869592         0.551341       0.0810109
                       -0.918796        0.358404      0.000224509     0.000800247        0.0850636      -0.0489841     -0.000518521      0.00175437
                     -0.00136192     -0.00108008         0.552618        0.080444     -0.000487287      0.00173968         0.713727       -0.343213
281722                -0.0984778       0.0203015     -0.000893116    -0.000218254        -0.919317        0.359388      -0.00127228     -0.00102239
                    -0.000932153    -0.000210643        -0.647778       -0.475388       0.00019796     0.000869321         0.550922       0.0804211
                       -0.918615        0.358876      0.000225681     0.000800001        0.0850036      -0.0490432     -0.000517467      0.00175547
                      -0.0013635     -0.00107903         0.552196       0.0798533     -0.000485901      0.00174057         0.713584       -0.344243
281724                -0.0984521       0.0203164     -0.000893461    -0.000217169        -0.919136         0.35986      -0.00127345     -0.00102168
                    -0.000932698    -0.000209387        -0.648416       -0.475069      0.000199181     0.000869048         0.550502       0.0798317
                       -0.918433        0.359348      0.000226854     0.000799754        0.0849435      -0.0491022     -0.000516456       0.0017566
                     -0.00136509     -0.00107798         0.551772       0.0792632     -0.000484512      0.00174147         0.713439       -0.345274
281726                -0.0984264       0.0203313     -0.000893804    -0.000216084        -0.918954        0.360332      -0.00127462       -0.001021
                    -0.000933241     -0.00020813        -0.649053       -0.474748      0.000200403     0.000868774         0.550082       0.0792428
                       -0.918251        0.359819      0.000228027     0.000799505        0.0848833      -0.0491611     -0.000515494      0.00175775
                     -0.00136667     -0.00107693         0.551347       0.0786737     -0.000483122      0.00174236         0.713293       -0.346305
281728                -0.0984008       0.0203462     -0.000894145    -0.000214997        -0.918772        0.360803      -0.00127579     -0.00102034
                    -0.000933783     -0.00020687         -0.64969       -0.474427      0.000201626     0.000868498         0.549661       0.0786544
                       -0.918069        0.360291      0.000229201     0.000799254        0.0848231      -0.0492201     -0.000514585      0.00175895
                     -0.00136826     -0.00107588         0.550921       0.0780847     -0.000481731      0.00174326         0.713145       -0.347337
281730                -0.0983751       0.0203611     -0.000894486     -0.00021391         -0.91859        0.361274      -0.00127697     -0.00101972
                    -0.000934323    -0.000205608        -0.650328       -0.474104       0.00020285     0.000868221         0.549239       0.0780664
                       -0.917887        0.360762      0.000230376     0.000799002        0.0847629      -0.0492789     -0.000513737      0.00176018
                     -0.00136985     -0.00107482         0.550494       0.0774964     -0.000480337      0.00174415         0.712995       -0.348369
281732                -0.0983494        0.020376     -0.000894824    -0.000212821        -0.918408        0.361746      -0.00127814     -0.00101914
                    -0.000934861    -0.000204345        -0.650966        -0.47378      0.000204075     0.000867943         0.548816        0.077479
                       -0.917704        0.361234      0.000231552     0.000798747        0.0847026      -0.0493377     -0.000512954      0.00176147
                     -0.00137144     -0.00107376         0.550065       0.0769086     -0.000478942      0.00174504         0.712844       -0.349402
281734                -0.0983238       0.0203908     -0.000895162    -0.000211732        -0.918225        0.362217      -0.00127931     -0.00101859
                    -0.000935399     -0.00020308        -0.651604       -0.473455      0.000205301     0.000867663         0.548391       0.0768921
                       -0.917522        0.361705      0.000232728     0.000798491        0.0846423      -0.0493965      -0.00051224      0.00176279
                     -0.00137303      -0.0010727         0.549635       0.0763215     -0.000477546      0.00174593         0.712691       -0.350436
281736                -0.0982981       0.0204056     -0.000895497    -0.000210642        -0.918043        0.362688      -0.00128048     -0.00101808
                    -0.000935934    -0.000201812        -0.652242        -0.47313      0.000206528     0.000867382         0.547966       0.0763058
                       -0.917339        0.362177      0.000233904     0.000798234        0.0845819      -0.0494552     -0.000511588      0.00176417
                     -0.00137462     -0.00107163         0.549204       0.0757349     -0.000476147      0.00174682         0.712537        -0.35147
281738                -0.0982725       0.0204204      -0.00089583    -0.000209551         -0.91786        0.363159      -0.00128163     -0.00101758
                    -0.000936469    -0.000200543         -0.65288       -0.472803      0.000207756       0.0008671         0.547538         0.07572
                       -0.917155        0.362648       0.00023508     0.000797974        0.0845216      -0.0495138     -0.000510983      0.00176557
                     -0.00137621     -0.00107056         0.548771       0.0751488     -0.000474747       0.0017477         0.712381       -0.352505
281740                -0.0982468       0.0204352     -0.000896159    -0.000208459        -0.917676        0.363629      -0.00128277     -0.00101709
                    -0.000937001    -0.000199272        -0.653519       -0.472475      0.000208985     0.000866816         0.547108        0.075135
                       -0.916972        0.363119      0.000236255     0.000797714        0.0844611      -0.0495724     -0.000510379      0.00176698
                      -0.0013778     -0.00106949         0.548338       0.0745634     -0.000473346      0.00174859         0.712223        -0.35354
281742                -0.0982212         0.02045     -0.000896468    -0.000207368        -0.917493          0.3641       -0.0012839     -0.00101654
                    -0.000937533    -0.000197999        -0.654157       -0.472146      0.000210215     0.000866531         0.546676       0.0745507
                       -0.916788         0.36359      0.000237416     0.000797456        0.0844006      -0.0496309     -0.000509689      0.00176835
                     -0.00137939     -0.00106842         0.547903       0.0739787     -0.000471942      0.00174947         0.712063       -0.354576
281744                -0.0981956       0.0204648     -0.000896884    -0.000206261        -0.917309        0.364571      -0.00128502     -0.00101586
                    -0.000938062    -0.000196724        -0.654796       -0.471815      0.000211446     0.000866244          0.54624       0.0739675
                       -0.916604         0.36406      0.000238659     0.000797175        0.0843401      -0.0496894     -0.000508748      0.00176955
                     -0.00138098     -0.00106734         0.547466       0.0733945     -0.000470537      0.00175036         0.711901       -0.355612
281746                -0.0981699       0.0204795     -0.000897182    -0.000205173        -0.917125        0.365041      -0.00128614     -0.00101492
                     -0.00093859    -0.000195446        -0.655435       -0.471484      0.000212678     0.000865956           0.5458       0.0733854
                        -0.91642        0.364531      0.000239816     0.000796914        0.0842796      -0.0497478     -0.000507284      0.00177041
                     -0.00138257     -0.00106625         0.547029       0.0728109     -0.000469131      0.00175124         0.711738       -0.356649
281748                -0.0981443       0.0204942     -0.000897505    -0.000204078        -0.916941        0.365512      -0.00128727      -0.0010135
                    -0.000939117    -0.000194167        -0.656074       -0.471152       0.00021391     0.000865666         0.545351        0.072805
                       -0.916235        0.365002      0.000240994     0.000796646        0.0842189      -0.0498061     -0.000504925      0.00177069
                     -0.00138416     -0.00106517          0.54659        0.072228     -0.000467723      0.00175212         0.711573       -0.357686
281750                -0.0981187       0.0205089      -0.00089783    -0.000202982        -0.916756        0.365982      -0.00128828     -0.00101135
                    -0.000939642    -0.000192886        -0.656713       -0.470818      0.000215143     0.000865375         0.544888       0.0722264
                       -0.916051        0.365472      0.000242174     0.000796376        0.0841583      -0.0498644     -0.000501309      0.00177013
                     -0.00138575     -0.00106408          0.54615       0.0716457     -0.000466314        0.001753         0.711405       -0.358723
281752                 -0.098093       0.0205236     -0.000898155    -0.000201884        -0.916572        0.366452      -0.00128888     -0.00100829
                    -0.000940166    -0.000191604        -0.657352       -0.470484      0.000216366     0.000865084         0.544396       0.0716487
                       -0.915866        0.365943      0.000243356     0.000796104        0.0840976      -0.0499227     -0.000496358      0.00176864
                     -0.00138735     -0.00106299         0.545709        0.071064     -0.000464906      0.00175388         0.711234        -0.35976
281754                -0.0980674       0.0205382     -0.000898479    -0.000200786        -0.916387        0.366922      -0.00128862     -0.00100464
                    -0.000940688    -0.000190319        -0.657991       -0.470148      0.000217626     0.000864788         0.543812       0.0710546
                        -0.91568        0.366413      0.000244539     0.000795831        0.0840369      -0.0499808     -0.000490535      0.00176652
                     -0.00138894      -0.0010619         0.545266       0.0704829     -0.000463474      0.00175474         0.711056       -0.360795
281756                -0.0980418       0.0205528     -0.000898802    -0.000199686        -0.916201        0.367392      -0.00128744     -0.00100124
                    -0.000941208    -0.000189032        -0.658631       -0.469812      0.000218859     0.000864493         0.542898       0.0699804
                       -0.915495        0.366884      0.000245723     0.000795555        0.0839761       -0.050039     -0.000484712      0.00176433
                     -0.00139053      -0.0010608         0.544822       0.0699025     -0.000462067      0.00175563         0.710761       -0.361776
281758                -0.0980162       0.0205675     -0.000899123    -0.000198585        -0.916016        0.367862      -0.00128605    -0.000998751
                    -0.000941727    -0.000187743        -0.659271       -0.469474      0.000220096     0.000864196         0.543663       0.0693345
                       -0.915309        0.367354      0.000246907     0.000795277        0.0839153       -0.050097     -0.000479649       0.0017626
                     -0.00139213      -0.0010597         0.544377       0.0693226     -0.000460652      0.00175651         0.710752       -0.362904
281760                -0.0979906        0.020582     -0.000899444    -0.000197484         -0.91583        0.368332      -0.00128515    -0.000997092
                    -0.000942243    -0.000186453         -0.65991       -0.469135      0.000221334     0.000863898         0.543095       0.0690899
                       -0.915123        0.367824      0.000248093     0.000794998        0.0838545      -0.0501551     -0.000475649      0.00176157
                     -0.00139372     -0.00105859         0.543931       0.0687434     -0.000459234      0.00175738         0.710565       -0.363936
281762                 -0.097965       0.0205966     -0.000899763    -0.000196381        -0.915644        0.368802      -0.00128494    -0.000995872
                    -0.000942758     -0.00018516         -0.66055       -0.468795      0.000222574     0.000863599         0.542584       0.0685841
                       -0.914937        0.368294      0.000249279     0.000794717        0.0837936       -0.050213      -0.00047262      0.00176121
