! TOUCHSTONE file generated by CST MICROWAVE STUDIO
! Date and time: Tue Oct 14 07:28:38 2025
! Project name: Teste_Macro_Metasurface_Nanopilar.cst
! Parameters = {H=600; L_x=130; L_y=115; Lambda=1064; Max_L=200; Min_L=70; PathPara=1; Phi=0; Step_L=10; Theta=0; p=520; phaseX=180; phaseY=0}
! Header version: 2018
! Port assignment regex: !\s*Touchstone port\s*([0-9]+)\s*=\s*(CST MWS port|CST DS port)\s*([0-9]+|Zmin|Zmax)\s*\(\"(.*)\"\)(\s*mode\s*([0-9]+))?.*
! Touchstone port assignment:
! Touchstone port 1 = CST MWS port Zmax ("") mode 1
! Touchstone port 2 = CST MWS port Zmax ("") mode 2
! Touchstone port 3 = CST MWS port Zmin ("") mode 1
! Touchstone port 4 = CST MWS port Zmin ("") mode 2
! S-Parameters are not renormalized. Each port impedance will be approximated by the real part at minimum frequency. The values are described via the [Reference] keyword.
! Default impedance is overridden by [Reference]
[Version] 2.0
# GHz S RI R 376.73
[Number of Ports] 4
[Reference]
376.73 376.73 259.814 259.814 
[Number of Frequencies] 51
[Network Data]
281700                 -0.116265        0.049373      -0.00123974     0.000181987        -0.961845       -0.199767      0.000226863    -1.56564e-05
                     -0.00135786     0.000195156      -0.00960587      -0.0420893     -7.01645e-05      0.00023534        -0.681046        0.719943
                       -0.962119        -0.19986     -7.21715e-05     0.000272604        0.0845504         0.09199       0.00104395    -0.000651971
                     0.000194803    -4.65591e-05         -0.68096        0.720095       0.00114292    -0.000628278       -0.0428845     -0.00462923
281702                 -0.116227        0.049404      -0.00123962     0.000182999        -0.961954       -0.199256      0.000226814    -1.58586e-05
                     -0.00135778     0.000196059      -0.00962431      -0.0421139     -6.99105e-05      0.00023526        -0.680687        0.720281
                       -0.962228       -0.199349     -7.20066e-05     0.000272572        0.0846001       0.0919125       0.00104373    -0.000652078
                     0.000194498    -4.66282e-05        -0.680601        0.720434       0.00114261    -0.000628725       -0.0429156     -0.00460392
281704                 -0.116188       0.0494351      -0.00123949      0.00018401        -0.962062       -0.198745      0.000226765     -1.6061e-05
                      -0.0013577     0.000196961      -0.00964277      -0.0421386     -6.96568e-05     0.000235179        -0.680327         0.72062
                       -0.962337       -0.198839     -7.18416e-05      0.00027254        0.0846497        0.091835        0.0010435    -0.000652185
                     0.000194191    -4.66979e-05        -0.680241        0.720772        0.0011423    -0.000629173       -0.0429467     -0.00457858
281706                  -0.11615        0.049466      -0.00123937     0.000185022         -0.96217       -0.198234      0.000226716    -1.62636e-05
                     -0.00135761     0.000197863      -0.00966125      -0.0421632     -6.94033e-05     0.000235098        -0.679967        0.720958
                       -0.962446       -0.198328     -7.16765e-05     0.000272508        0.0846993       0.0917575       0.00104328    -0.000652291
                     0.000193884    -4.67682e-05        -0.679881        0.721111       0.00114198     -0.00062962       -0.0429778      -0.0045532
281708                 -0.116111        0.049497      -0.00123924     0.000186034        -0.962278       -0.197722      0.000226667    -1.64664e-05
                     -0.00135753     0.000198764      -0.00967974      -0.0421878     -6.91501e-05     0.000235016        -0.679607        0.721296
                       -0.962555       -0.197817     -7.15115e-05     0.000272476        0.0847487       0.0916799       0.00104305    -0.000652398
                     0.000193575    -4.68391e-05        -0.679521        0.721449       0.00114167    -0.000630067       -0.0430089     -0.00452778
281710                 -0.116073       0.0495279      -0.00123911     0.000187046        -0.962386       -0.197211      0.000226618    -1.66694e-05
                     -0.00135745     0.000199665      -0.00969826      -0.0422124     -6.88972e-05     0.000234934        -0.679246        0.721634
                       -0.962663       -0.197306     -7.13464e-05     0.000272443        0.0847981       0.0916023       0.00104283    -0.000652504
                     0.000193266    -4.69106e-05        -0.679161        0.721787       0.00114135    -0.000630514       -0.0430399     -0.00450232
281712                 -0.116034       0.0495588      -0.00123898     0.000188058        -0.962493         -0.1967      0.000226568    -1.68726e-05
                     -0.00135736     0.000200565      -0.00971679       -0.042237     -6.86445e-05     0.000234851        -0.678886        0.721971
                       -0.962771       -0.196795     -7.11812e-05      0.00027241        0.0848475       0.0915247        0.0010426     -0.00065261
                     0.000192956    -4.69827e-05          -0.6788        0.722124       0.00114103     -0.00063096        -0.043071     -0.00447683
281714                 -0.115996       0.0495897      -0.00123885      0.00018907          -0.9626       -0.196189      0.000226519     -1.7076e-05
                     -0.00135728     0.000201465      -0.00973535      -0.0422616      -6.8392e-05     0.000234769        -0.678525        0.722309
                       -0.962879       -0.196284      -7.1016e-05     0.000272377        0.0848968       0.0914471       0.00104238    -0.000652716
                     0.000192644    -4.70554e-05         -0.67844        0.722462       0.00114072    -0.000631407        -0.043102     -0.00445131
281716                 -0.115957       0.0496206      -0.00123873     0.000190082        -0.962707       -0.195677       0.00022647    -1.72796e-05
                     -0.00135719     0.000202365      -0.00975392      -0.0422862     -6.81396e-05     0.000234685        -0.678164        0.722646
                       -0.962986       -0.195773     -7.08507e-05     0.000272344         0.084946       0.0913694       0.00104215    -0.000652822
                     0.000192332    -4.71287e-05        -0.678079        0.722799        0.0011404    -0.000631853        -0.043133     -0.00442574
281718                 -0.115919       0.0496514      -0.00123859     0.000191094        -0.962813       -0.195166       0.00022642    -1.74834e-05
                     -0.00135711     0.000203264      -0.00977251      -0.0423108     -6.78873e-05     0.000234601        -0.677803        0.722983
                       -0.963094       -0.195262     -7.06854e-05     0.000272311        0.0849951       0.0912917       0.00104193    -0.000652928
                     0.000192019    -4.72025e-05        -0.677718        0.723136       0.00114008    -0.000632299       -0.0431639     -0.00440014
281720                  -0.11588       0.0496822      -0.00123846     0.000192106         -0.96292       -0.194654      0.000226371    -1.76873e-05
                     -0.00135702     0.000204162      -0.00979112      -0.0423353      -6.7635e-05     0.000234517        -0.677442         0.72332
                       -0.963201       -0.194751     -7.05201e-05     0.000272277        0.0850442       0.0912139        0.0010417    -0.000653033
                     0.000191706    -4.72768e-05        -0.677357        0.723473       0.00113976    -0.000632744       -0.0431949      -0.0043745
281722                 -0.115841        0.049713      -0.00123833     0.000193119        -0.963026       -0.194143      0.000226321    -1.78915e-05
                     -0.00135693     0.000205061      -0.00980975      -0.0423598     -6.73825e-05     0.000234431        -0.677081        0.723656
                       -0.963307        -0.19424     -7.03547e-05     0.000272243        0.0850932       0.0911361       0.00104148    -0.000653139
                     0.000191391    -4.73517e-05        -0.676996         0.72381       0.00113944    -0.000633189       -0.0432258     -0.00434883
281724                 -0.115803       0.0497437       -0.0012382     0.000194131        -0.963131       -0.193631      0.000226271    -1.80958e-05
                     -0.00135685     0.000205958       -0.0098284      -0.0423844     -6.71296e-05     0.000234343         -0.67672        0.723993
                       -0.963414       -0.193729     -7.01893e-05     0.000272209        0.0851422       0.0910583       0.00104125    -0.000653244
                     0.000191075    -4.74271e-05        -0.676634        0.724147       0.00113911    -0.000633634       -0.0432567     -0.00432312
281726                 -0.115764       0.0497744      -0.00123806     0.000195144        -0.963237       -0.193119      0.000226222    -1.83003e-05
                     -0.00135676     0.000206856      -0.00984707      -0.0424089     -6.68778e-05      0.00023425        -0.676358        0.724329
                        -0.96352       -0.193217     -7.00238e-05     0.000272175         0.085191       0.0909805       0.00104103    -0.000653349
                     0.000190759    -4.75031e-05        -0.676273        0.724483       0.00113878    -0.000634076       -0.0432876     -0.00429737
281728                 -0.115726       0.0498051      -0.00123793     0.000196156        -0.963342       -0.192608      0.000226172     -1.8505e-05
                     -0.00135668     0.000207752      -0.00986575      -0.0424334     -6.66399e-05     0.000234153        -0.675996        0.724665
                       -0.963626       -0.192706     -6.98584e-05     0.000272141        0.0852398       0.0909026        0.0010408    -0.000653454
                     0.000190442    -4.75795e-05        -0.675911        0.724819       0.00113845    -0.000634509       -0.0433185     -0.00427159
281730                 -0.115687       0.0498358      -0.00123779     0.000197169        -0.963447       -0.192096      0.000226122    -1.87099e-05
                     -0.00135659     0.000208649      -0.00988446      -0.0424579      -6.6405e-05     0.000234079        -0.675634        0.725001
                       -0.963731       -0.192195     -6.96928e-05     0.000272106        0.0852886       0.0908247       0.00104058    -0.000653559
                     0.000190124    -4.76565e-05        -0.675549        0.725155       0.00113814    -0.000634913       -0.0433494     -0.00424577
281732                 -0.115649       0.0498664      -0.00123766     0.000198182        -0.963551       -0.191584      0.000226072     -1.8915e-05
                      -0.0013565     0.000209545      -0.00990318      -0.0424824     -6.61538e-05     0.000234002        -0.675272        0.725337
                       -0.963837       -0.191683     -6.95273e-05     0.000272071        0.0853373       0.0907468       0.00104035    -0.000653664
                     0.000189805     -4.7734e-05        -0.675187        0.725491       0.00113786     -0.00063538       -0.0433802     -0.00421991
281734                  -0.11561        0.049897      -0.00123752     0.000199194        -0.963656       -0.191072      0.000226022    -1.91202e-05
                     -0.00135641      0.00021044      -0.00992193      -0.0425069     -6.59017e-05     0.000233919         -0.67491        0.725672
                       -0.963942       -0.191172     -6.93617e-05     0.000272036        0.0853859       0.0906689       0.00104013    -0.000653769
                     0.000189485    -4.78119e-05        -0.674825        0.725827       0.00113753    -0.000635842        -0.043411     -0.00419402
281736                 -0.115571       0.0499276      -0.00123738     0.000200207         -0.96376        -0.19056      0.000225972    -1.93256e-05
                     -0.00135632     0.000211336      -0.00994069      -0.0425313     -6.56508e-05     0.000233833        -0.674548        0.726008
                       -0.964047        -0.19066     -6.91961e-05     0.000272001        0.0854344       0.0905909        0.0010399    -0.000653874
                     0.000189164    -4.78903e-05        -0.674462        0.726162        0.0011372    -0.000636292       -0.0434419     -0.00416809
281738                 -0.115533       0.0499582      -0.00123724      0.00020122        -0.963863       -0.190048      0.000225922    -1.95311e-05
                     -0.00135624      0.00021223      -0.00995947      -0.0425558     -6.54008e-05     0.000233747        -0.674185        0.726343
                       -0.964151       -0.190149     -6.90304e-05     0.000271966        0.0854829       0.0905129       0.00103968    -0.000653979
                     0.000188843    -4.79693e-05          -0.6741        0.726497       0.00113687    -0.000636738       -0.0434726     -0.00414213
281740                 -0.115494       0.0499887       -0.0012371     0.000202232        -0.963967       -0.189536      0.000225872    -1.97369e-05
                     -0.00135615     0.000213125      -0.00997827      -0.0425802     -6.51515e-05      0.00023366        -0.673822        0.726678
                       -0.964256       -0.189637     -6.88648e-05     0.000271931        0.0855313       0.0904349       0.00103945    -0.000654083
                      0.00018852    -4.80486e-05        -0.673737        0.726833       0.00113654    -0.000637183       -0.0435034     -0.00411612
281742                 -0.115455       0.0500192      -0.00123696     0.000203245         -0.96407       -0.189024      0.000225821    -1.99428e-05
                     -0.00135606     0.000214019      -0.00999708      -0.0426046     -6.49027e-05     0.000233572        -0.673459        0.727013
                        -0.96436       -0.189125     -6.86991e-05     0.000271896        0.0855797       0.0903568       0.00103923    -0.000654188
                     0.000188197    -4.81285e-05        -0.673374        0.727168       0.00113621    -0.000637627       -0.0435342     -0.00409009
281744                 -0.115417       0.0500497      -0.00123682     0.000204258        -0.964173       -0.188512      0.000225771    -2.01488e-05
                     -0.00135597     0.000214912       -0.0100159      -0.0426291     -6.46543e-05     0.000233484        -0.673096        0.727347
                       -0.964463       -0.188613     -6.85334e-05      0.00027186         0.085628       0.0902787         0.001039    -0.000654292
                     0.000187874    -4.82088e-05        -0.673011        0.727502       0.00113588    -0.000638071       -0.0435649     -0.00406401
281746                 -0.115378       0.0500802      -0.00123668      0.00020527        -0.964276          -0.188      0.000225721     -2.0355e-05
                     -0.00135588     0.000215805       -0.0100348      -0.0426535     -6.44063e-05     0.000233395        -0.672733        0.727682
                       -0.964567       -0.188101     -6.83677e-05     0.000271824        0.0856762       0.0902006       0.00103878    -0.000654396
                     0.000187549    -4.82895e-05        -0.672648        0.727837       0.00113555    -0.000638514       -0.0435956      -0.0040379
281748                 -0.115339       0.0501106      -0.00123653     0.000206283        -0.964378       -0.187487      0.000225671    -2.05614e-05
                     -0.00135579     0.000216698       -0.0100536      -0.0426779     -6.41586e-05     0.000233306         -0.67237        0.728016
                        -0.96467        -0.18759      -6.8202e-05     0.000271789        0.0857243       0.0901225       0.00103855    -0.000654501
                     0.000187223    -4.83707e-05        -0.672285        0.728171       0.00113522    -0.000638956       -0.0436263     -0.00401175
281750                 -0.115301        0.050141      -0.00123639     0.000207296         -0.96448       -0.186975       0.00022562    -2.07679e-05
                      -0.0013557      0.00021759       -0.0100725      -0.0427022     -6.39112e-05     0.000233217        -0.672006         0.72835
                       -0.964773       -0.187078     -6.80363e-05     0.000271753        0.0857724       0.0900443       0.00103832    -0.000654605
                     0.000186897    -4.84524e-05        -0.671921        0.728505       0.00113489    -0.000639399        -0.043657     -0.00398557
281752                 -0.115262       0.0501713      -0.00123625     0.000208309        -0.964582       -0.186462       0.00022557    -2.09745e-05
                     -0.00135561     0.000218482       -0.0100915      -0.0427266     -6.36641e-05     0.000233127        -0.671642        0.728684
                       -0.964875       -0.186566     -6.78706e-05     0.000271717        0.0858204       0.0899661        0.0010381    -0.000654709
                      0.00018657    -4.85345e-05        -0.671558        0.728839       0.00113455    -0.000639841       -0.0436876     -0.00395935
281754                 -0.115223       0.0502017       -0.0012361     0.000209321        -0.964684        -0.18595      0.000225519    -2.11813e-05
                     -0.00135551     0.000219373       -0.0101104       -0.042751     -6.34172e-05     0.000233037        -0.671279        0.729018
                       -0.964978       -0.186054     -6.77049e-05     0.000271681        0.0858684       0.0898878       0.00103787    -0.000654813
                     0.000186242     -4.8617e-05        -0.671194        0.729173       0.00113422    -0.000640283       -0.0437182     -0.00393309
281756                 -0.115185        0.050232      -0.00123595     0.000210334        -0.964785       -0.185437      0.000225469    -2.13883e-05
                     -0.00135542     0.000220264       -0.0101293      -0.0427753     -6.31706e-05     0.000232946        -0.670915        0.729351
                        -0.96508       -0.185541     -6.75392e-05     0.000271645        0.0859163       0.0898096       0.00103765    -0.000654917
                     0.000185913    -4.87001e-05         -0.67083        0.729507       0.00113389    -0.000640724       -0.0437489      -0.0039068
281758                 -0.115146       0.0502623      -0.00123581     0.000211346        -0.964886       -0.184925      0.000225418    -2.15954e-05
                     -0.00135533     0.000221155       -0.0101483      -0.0427997     -6.29243e-05     0.000232855         -0.67055        0.729684
                       -0.965182       -0.185029     -6.73735e-05     0.000271608        0.0859641       0.0897313       0.00103742    -0.000655021
                     0.000185584    -4.87836e-05        -0.670466         0.72984       0.00113355    -0.000641165       -0.0437795     -0.00388047
281760                 -0.115107       0.0502926      -0.00123566     0.000212359        -0.964987       -0.184412      0.000225368    -2.18026e-05
                     -0.00135524     0.000222045       -0.0101673       -0.042824     -6.26781e-05     0.000232764        -0.670186        0.730017
                       -0.965283       -0.184517     -6.72078e-05     0.000271572        0.0860118        0.089653        0.0010372    -0.000655125
                     0.000185254    -4.88677e-05        -0.670101        0.730173       0.00113321    -0.000641607         -0.04381      -0.0038541
281762                 -0.115068       0.0503228      -0.00123551     0.000213372        -0.965087       -0.183899      0.000225317    -2.20099e-05
                     -0.00135515     0.000222934       -0.0101863      -0.0428483     -6.24322e-05     0.000232672        -0.669822         0.73035
                       -0.965385       -0.184005     -6.70421e-05     0.000271535        0.0860595       0.0895746       0.00103697    -0.000655229
