! TOUCHSTONE file generated by CST MICROWAVE STUDIO
! Date and time: Tue Oct 14 07:30:03 2025
! Project name: Teste_Macro_Metasurface_Nanopilar.cst
! Parameters = {H=600; L_x=150; L_y=180; Lambda=1064; Max_L=200; Min_L=70; PathPara=1; Phi=0; Step_L=10; Theta=0; p=520; phaseX=180; phaseY=0}
! Header version: 2018
! Port assignment regex: !\s*Touchstone port\s*([0-9]+)\s*=\s*(CST MWS port|CST DS port)\s*([0-9]+|Zmin|Zmax)\s*\(\"(.*)\"\)(\s*mode\s*([0-9]+))?.*
! Touchstone port assignment:
! Touchstone port 1 = CST MWS port Zmax ("") mode 1
! Touchstone port 2 = CST MWS port Zmax ("") mode 2
! Touchstone port 3 = CST MWS port Zmin ("") mode 1
! Touchstone port 4 = CST MWS port Zmin ("") mode 2
! S-Parameters are not renormalized. Each port impedance will be approximated by the real part at minimum frequency. The values are described via the [Reference] keyword.
! Default impedance is overridden by [Reference]
[Version] 2.0
# GHz S RI R 376.73
[Number of Ports] 4
[Reference]
376.73 376.73 259.814 259.814 
[Number of Frequencies] 51
[Network Data]
281700                  -0.18748      -0.0514487      7.96404e-05    -0.000200927         0.863059        0.458102      0.000138809     4.66156e-05
                     8.50768e-05    -0.000165993        -0.173245     -0.00411981      0.000113845    -7.20288e-05         0.658443        0.727038
                        0.863249         0.45779     -6.28717e-06    -0.000185441         0.146422        0.123308      8.96776e-05    -5.81974e-06
                     0.000220777     1.50449e-05         0.658399        0.726546      0.000118406    -8.50564e-05       -0.0127863        0.168578
281702                 -0.187473      -0.0514065      7.96857e-05    -0.000200565         0.863247        0.457744       0.00013783      4.7092e-05
                     7.77004e-05    -0.000168251        -0.173243     -0.00409582      0.000114504     -7.1997e-05         0.658755         0.72676
                        0.863469        0.457437     -6.57077e-06    -0.000185381         0.146511        0.123226       8.9937e-05    -6.67376e-06
                       0.0002105     1.04854e-05         0.658711        0.726266      0.000118757    -8.49866e-05       -0.0126652        0.168585
281704                 -0.187485      -0.0513744       7.9735e-05    -0.000200179         0.863435        0.457386      0.000136853     4.75143e-05
                     6.68038e-05    -0.000166319        -0.173241     -0.00407185      0.000115176    -7.19588e-05         0.659068        0.726482
                         0.86369        0.457099     -6.85399e-06    -0.000185309           0.1466        0.123143      9.01735e-05    -7.71372e-06
                       0.0002086     4.63219e-06         0.659022        0.725986      0.000119122    -8.49268e-05       -0.0125441        0.168592
281706                 -0.187503      -0.0513422      7.97878e-05    -0.000199765         0.863623        0.457028      0.000135883     4.78799e-05
                     5.73531e-05    -0.000156115        -0.173239      -0.0040479      0.000115862    -7.19134e-05          0.65938        0.726203
                        0.863899        0.456775     -7.13643e-06    -0.000185225         0.146689         0.12306      9.03211e-05    -8.99518e-06
                     0.000208965     1.38032e-06         0.659333        0.725706      0.000119504    -8.48792e-05       -0.0124229        0.168599
281708                 -0.187523      -0.0513096      7.98429e-05    -0.000199317          0.86381        0.456669      0.000134926     4.81867e-05
                     5.71269e-05    -0.000142465        -0.173237     -0.00402398      0.000116563    -7.18601e-05         0.659692        0.725925
                        0.864089        0.456454     -7.41768e-06    -0.000185127         0.146778        0.122977      9.02557e-05    -1.05636e-05
                     0.000209587     -4.4961e-07         0.659643        0.725426      0.000119905    -8.48461e-05       -0.0123016        0.168606
281710                 -0.187544      -0.0512766      7.98987e-05    -0.000198829         0.863997        0.456311      0.000133993     4.84339e-05
                     6.33308e-05    -0.000133989        -0.173235      -0.0040001       0.00011728    -7.17977e-05         0.660003        0.725646
                        0.864266        0.456123     -7.69727e-06    -0.000185013         0.146867        0.122894      8.97745e-05     -1.2402e-05
                     0.000210121    -1.58284e-06         0.659954        0.725146      0.000120327    -8.48307e-05       -0.0121802        0.168613
281712                 -0.187566      -0.0512433      7.99523e-05    -0.000198293         0.864183        0.455952       0.00013309     4.86222e-05
                     6.97148e-05    -0.000130833        -0.173232     -0.00397627      0.000118018     -7.1725e-05         0.660315        0.725366
                        0.864439        0.455781     -7.97472e-06    -0.000184883         0.146955        0.122811      8.86258e-05    -1.43313e-05
                     0.000210535    -2.34843e-06         0.660264        0.724865      0.000120774    -8.48369e-05       -0.0120588         0.16862
281714                 -0.187588      -0.0512097      7.99991e-05    -0.000197698          0.86437        0.455593      0.000132229     4.87539e-05
                     7.43918e-05    -0.000130231         -0.17323     -0.00395249      0.000118777    -7.16404e-05         0.660625        0.725087
                        0.864613        0.455432     -8.24948e-06    -0.000184734         0.147043        0.122727      8.66767e-05    -1.59272e-05
                     0.000210848    -2.90309e-06         0.660574        0.724585       0.00012125    -8.48698e-05       -0.0119372        0.168627
281716                  -0.18761      -0.0511761      8.00322e-05    -0.000197034         0.864556        0.455234      0.000131419     4.88337e-05
                     7.75561e-05    -0.000130561        -0.173228     -0.00392876      0.000119563    -7.15418e-05         0.660936        0.724807
                        0.864789        0.455079       -8.521e-06    -0.000184564         0.147131        0.122643      8.41792e-05    -1.66672e-05
                     0.000211083     -3.3278e-06         0.660884        0.724304      0.000121759     -8.4936e-05       -0.0118156        0.168634
281718                 -0.187633      -0.0511423      8.00406e-05    -0.000196284         0.864741        0.454875      0.000130669     4.88687e-05
                     7.96796e-05    -0.000131159        -0.173226     -0.00390509      0.000120378    -7.14266e-05         0.661246        0.724527
                        0.864967        0.454722      -8.7887e-06    -0.000184371         0.147219        0.122559      8.17608e-05    -1.63586e-05
                     0.000211259    -3.66772e-06         0.661193        0.724023      0.000122307    -8.50443e-05        -0.011694        0.168641
281720                 -0.187655      -0.0511085      8.00069e-05    -0.000195431         0.864927        0.454516      0.000129988     4.88685e-05
                     8.11178e-05    -0.000131784        -0.173224     -0.00388147       0.00012123    -7.12909e-05         0.661555        0.724247
                        0.865148        0.454365     -9.05196e-06     -0.00018415         0.147306        0.122475      7.99623e-05     -1.5326e-05
                     0.000211389    -3.94967e-06         0.661503        0.723742      0.000122899    -8.52062e-05       -0.0115723        0.168648
281722                 -0.187678      -0.0510746      7.99043e-05    -0.000194455         0.865112        0.454157      0.000129383      4.8845e-05
                     8.21006e-05    -0.000132352        -0.173222     -0.00385788      0.000122127    -7.11297e-05         0.661865        0.723966
                        0.865329        0.454006      -9.3101e-06    -0.000183896         0.147393         0.12239      7.89046e-05    -1.40734e-05
                     0.000211483    -4.19045e-06         0.661812         0.72346      0.000123542    -8.54377e-05       -0.0114506        0.168654
281724                 -0.187701      -0.0510406      7.96911e-05    -0.000193333         0.865297        0.453798      0.000128856     4.88118e-05
                     8.27727e-05    -0.000132842        -0.173219     -0.00383433      0.000123078    -7.09358e-05         0.662173        0.723685
                        0.865512        0.453647     -9.56239e-06    -0.000183601          0.14748        0.122306      7.84176e-05    -1.29367e-05
                     0.000211549    -4.40105e-06         0.662121        0.723179      0.000124244    -8.57606e-05       -0.0113288        0.168661
281726                 -0.187724      -0.0510065      7.93031e-05    -0.000192049         0.865482        0.453439      0.000128409     4.87835e-05
                     8.32268e-05    -0.000133255        -0.173217     -0.00381079      0.000124098    -7.06988e-05         0.662482        0.723404
                        0.865695        0.453288     -9.80789e-06    -0.000183253         0.147567        0.122222      7.82797e-05    -1.20397e-05
                     0.000211592    -4.58896e-06          0.66243        0.722897      0.000125013    -8.62058e-05        -0.011207        0.168668
281728                 -0.187747      -0.0509725      7.86447e-05    -0.000190601         0.865666        0.453079      0.000128039     4.87746e-05
                     8.35236e-05    -0.000133599        -0.173216     -0.00378725      0.000125208    -7.04026e-05          0.66279        0.723123
                        0.865878        0.452929     -1.00452e-05    -0.000182836         0.147653        0.122137      7.83259e-05    -1.13865e-05
                     0.000211617    -4.75941e-06         0.662739        0.722615      0.000125855    -8.68172e-05       -0.0110852        0.168675
281730                 -0.187769      -0.0509384       7.7582e-05    -0.000189028         0.865851         0.45272      0.000127738     4.87985e-05
                     8.37039e-05    -0.000133884        -0.173214      -0.0037637      0.000126436     -7.0022e-05         0.663097        0.722841
                        0.866062         0.45257     -1.02718e-05    -0.000182319         0.147739        0.122053       7.8456e-05    -1.09392e-05
                     0.000211627    -4.91618e-06         0.663047        0.722333      0.000126769    -8.76588e-05       -0.0109633        0.168681
281732                 -0.187792      -0.0509042      7.59524e-05    -0.000187456         0.866035         0.45236      0.000127497     4.88663e-05
                     8.37957e-05    -0.000134118        -0.173212     -0.00374012      0.000127825    -6.95143e-05         0.663404        0.722559
                        0.866246         0.45221     -1.04814e-05    -0.000181649         0.147824        0.121969      7.86155e-05    -1.06539e-05
                     0.000211624    -5.06208e-06         0.663356        0.722051      0.000127741    -8.88239e-05       -0.0108415        0.168688
281734                 -0.187815      -0.0508701      7.36205e-05    -0.000186152         0.866218        0.452001      0.000127304     4.89864e-05
                     8.38191e-05     -0.00013431         -0.17321     -0.00371652      0.000129444    -6.88036e-05          0.66371        0.722277
                        0.866431        0.451851     -1.06573e-05    -0.000180725          0.14791        0.121885      7.87765e-05    -1.04933e-05
                     0.000211611    -5.19921e-06         0.663664        0.721769      0.000128719     -9.0448e-05       -0.0107196        0.168694
281736                 -0.187838      -0.0508358       7.0614e-05    -0.000185541         0.866402        0.451641      0.000127147     4.91633e-05
                     8.37885e-05    -0.000134468        -0.173208     -0.00369288      0.000131394    -6.77423e-05         0.664016        0.721995
                        0.866615        0.451491     -1.07425e-05    -0.000179318         0.147995        0.121801      7.89259e-05    -1.04286e-05
                     0.000211589    -5.32921e-06         0.663972        0.721486      0.000129574    -9.27198e-05       -0.0105977        0.168701
281738                 -0.187861      -0.0508016      6.72937e-05    -0.000186059         0.866585        0.451281      0.000127011     4.93985e-05
                     8.37144e-05    -0.000134599        -0.173206     -0.00366921      0.000133835    -6.60132e-05         0.664321        0.721712
                        0.866799        0.451132     -1.04855e-05    -0.000176809          0.14808        0.121717      7.90581e-05    -1.04387e-05
                     0.000211558    -5.45336e-06         0.664279        0.721204      0.000130002    -9.58662e-05       -0.0104758        0.168707
281740                 -0.187884      -0.0507674       6.4338e-05    -0.000187833         0.866768        0.450921      0.000126885     4.96898e-05
                     8.36051e-05    -0.000134707        -0.173205      -0.0036455      0.000136958    -6.28422e-05         0.664625        0.721429
                        0.866983        0.450772     -8.07381e-06    -0.000171051         0.148166        0.121634      7.91718e-05    -1.05088e-05
                     0.000211521     -5.5727e-06         0.664587        0.720921      0.000129381    -0.000100032       -0.0103538        0.168714
281742                 -0.187907      -0.0507331      6.23734e-05    -0.000190465         0.866951        0.450561      0.000126758     5.00322e-05
                     8.34669e-05    -0.000134799        -0.173203     -0.00362177      0.000140487    -5.60904e-05         0.664929        0.721146
                        0.867167        0.450412      1.84718e-05    -0.000169886         0.148251         0.12155      7.92673e-05    -1.06288e-05
                     0.000211479    -5.68805e-06         0.664894        0.720638      0.000126674    -0.000104878       -0.0102319         0.16872
281744                  -0.18793      -0.0506988      6.15781e-05     -0.00019328         0.867134        0.450201      0.000126621     5.04184e-05
                     8.33049e-05    -0.000134878        -0.173201     -0.00359801      0.000138992    -4.08465e-05         0.665232        0.720862
                        0.867351        0.450053     -4.52762e-07    -0.000196009         0.148337        0.121467      7.93462e-05    -1.07923e-05
                     0.000211431    -5.80014e-06         0.665201        0.720355      0.000120945    -0.000108872         -0.01011        0.168726
281746                 -0.187953      -0.0506645      6.16998e-05    -0.000195757         0.867316        0.449841      0.000126467     5.08394e-05
                     8.31235e-05     -0.00013495        -0.173199     -0.00357424      0.000113003    -3.20036e-05         0.665535        0.720577
                        0.867535        0.449693     -7.36463e-06    -0.000191069         0.148422        0.121384      7.94101e-05    -1.09962e-05
                     0.000211378    -5.90956e-06         0.665508        0.720071      0.000113023    -0.000109514      -0.00998804        0.168732
281748                 -0.187976      -0.0506301      6.23514e-05    -0.000197689         0.867499        0.449481      0.000126291     5.12846e-05
                      8.2927e-05    -0.000135018        -0.173197     -0.00355045      0.000101559    -5.36412e-05         0.665838        0.720292
                        0.867718        0.449333     -9.10992e-06    -0.000188565         0.148508          0.1213      7.94608e-05    -1.12406e-05
                     0.000211321    -6.01687e-06         0.665815        0.719788       0.00010601    -0.000105981       -0.0098661        0.168738
281750                 -0.187999      -0.0505958      6.32217e-05    -0.000199096         0.867681        0.449121      0.000126092     5.17421e-05
                     8.27194e-05    -0.000135087        -0.173196     -0.00352667      0.000107315    -6.45486e-05         0.666142        0.720006
                        0.867902        0.448973     -9.83842e-06    -0.000187135         0.148594        0.121217      7.94995e-05    -1.15289e-05
                      0.00021126    -6.12254e-06         0.666122        0.719504       0.00010213    -0.000100414      -0.00974417        0.168744
281752                 -0.188022      -0.0505614      6.41227e-05    -0.000200083         0.867863        0.448761      0.000125869     5.21985e-05
                     8.25051e-05     -0.00013516        -0.173194     -0.00350289      0.000112517    -6.81821e-05         0.666446        0.719719
                        0.868085        0.448613     -1.02227e-05    -0.000186189          0.14868        0.121133      7.95266e-05    -1.18692e-05
                     0.000211196    -6.22707e-06         0.666428         0.71922      0.000101012     -9.5164e-05      -0.00962225         0.16875
281754                 -0.188045       -0.050527      6.49594e-05    -0.000200766         0.868045        0.448401      0.000125621     5.26375e-05
                     8.22894e-05    -0.000135242        -0.173192     -0.00347913      0.000116115    -6.94861e-05         0.666751        0.719432
                        0.868268        0.448253     -1.04481e-05      -0.0001855         0.148766         0.12105      7.95407e-05    -1.22763e-05
                     0.000211128    -6.33092e-06         0.666734        0.718935      0.000101371    -9.11019e-05      -0.00950034        0.168756
281756                 -0.188067      -0.0504926      6.56906e-05    -0.000201242         0.868227         0.44804       0.00012535     5.30391e-05
                     8.20783e-05    -0.000135334         -0.17319     -0.00345541      0.000118675    -6.99297e-05         0.667058        0.719147
                         0.86845        0.447893     -1.05838e-05    -0.000184965         0.148852        0.120966      7.95357e-05    -1.27766e-05
                     0.000211058    -6.43462e-06          0.66704        0.718649       0.00010227    -8.81831e-05      -0.00937847        0.168761
281758                  -0.18809      -0.0504581       6.6301e-05    -0.000201588          0.86841         0.44768      0.000125054      5.3375e-05
                     8.18793e-05    -0.000135439        -0.173188     -0.00343175      0.000120577    -6.99803e-05         0.667365        0.718862
                        0.868633        0.447533     -1.06611e-05    -0.000184532         0.148939        0.120881       7.9494e-05    -1.34174e-05
                     0.000210984    -6.53875e-06         0.667347        0.718362      0.000103227    -8.61312e-05      -0.00925667        0.168766
281760                 -0.188113      -0.0504237      6.67834e-05    -0.000201867         0.868592         0.44732      0.000124723     5.36037e-05
                     8.17008e-05    -0.000135556        -0.173187     -0.00340821      0.000122018    -6.98001e-05         0.667671        0.718579
                        0.868815        0.447173     -1.06964e-05    -0.000184172         0.149025        0.120797      7.93639e-05    -1.42862e-05
                     0.000210907    -6.64399e-06         0.667655        0.718073      0.000104013    -8.47002e-05      -0.00913499        0.168771
281762                 -0.188136      -0.0503892      6.71273e-05    -0.000202135         0.868775        0.446961      0.000124324     5.36604e-05
                     8.15521e-05    -0.000135681        -0.173185     -0.00338487      0.000123082    -6.94331e-05         0.667978        0.718297
                        0.868997        0.446813     -1.06994e-05    -0.000183869         0.149112        0.120712      7.89824e-05    -1.55471e-05
