! TOUCHSTONE file generated by CST MICROWAVE STUDIO
! Date and time: Tue Oct 14 07:25:45 2025
! Project name: Teste_Macro_Metasurface_Nanopilar.cst
! Parameters = {H=600; L_x=85; L_y=90; Lambda=1064; Max_L=200; Min_L=70; PathPara=1; Phi=0; Step_L=10; Theta=0; p=520; phaseX=180; phaseY=0}
! Header version: 2018
! Port assignment regex: !\s*Touchstone port\s*([0-9]+)\s*=\s*(CST MWS port|CST DS port)\s*([0-9]+|Zmin|Zmax)\s*\(\"(.*)\"\)(\s*mode\s*([0-9]+))?.*
! Touchstone port assignment:
! Touchstone port 1 = CST MWS port Zmax ("") mode 1
! Touchstone port 2 = CST MWS port Zmax ("") mode 2
! Touchstone port 3 = CST MWS port Zmin ("") mode 1
! Touchstone port 4 = CST MWS port Zmin ("") mode 2
! S-Parameters are not renormalized. Each port impedance will be approximated by the real part at minimum frequency. The values are described via the [Reference] keyword.
! Default impedance is overridden by [Reference]
[Version] 2.0
# GHz S RI R 376.73
[Number of Ports] 4
[Reference]
376.73 376.73 259.814 259.814 
[Number of Frequencies] 51
[Network Data]
281700                -0.0171772       0.0957391      0.000230671     0.000115304         0.990582      -0.0897888       1.3929e-05     0.000481222
                     8.88952e-05     0.000505286       -0.0247408        0.105479      1.59384e-05     0.000516746         0.993349      -0.0281117
                        0.990304      -0.0895344      3.58161e-05     0.000404978        0.0339425        0.091254     -0.000511974     0.000267428
                     -0.00017225     0.000597728         0.993066      -0.0281173     -0.000369971      0.00032496        0.0305316        0.103985
281702                -0.0171416       0.0957403      0.000230851      0.00011536         0.990549      -0.0901542      1.42629e-05     0.000481404
                     8.87999e-05     0.000505443       -0.0247025        0.105484      1.61149e-05     0.000516711          0.99334      -0.0284753
                        0.990271      -0.0898997      3.59741e-05      0.00040496         0.033975       0.0912364      -0.00051183       0.0002677
                    -0.000172246     0.000597802         0.993056      -0.0284808     -0.000369881     0.000325094        0.0305699        0.103969
281704                 -0.017106       0.0957414      0.000231031     0.000115416         0.990517      -0.0905196       1.4597e-05     0.000481586
                     8.87048e-05       0.0005056       -0.0246643        0.105488      1.62917e-05     0.000516676          0.99333      -0.0288389
                        0.990238      -0.0902651      3.61321e-05     0.000404943        0.0340074       0.0912189     -0.000511684     0.000267972
                    -0.000172243     0.000597877         0.993046      -0.0288444     -0.000369792     0.000325227         0.030608        0.103953
281706                -0.0170705       0.0957425      0.000231212     0.000115472         0.990484       -0.090885      1.49314e-05     0.000481768
                     8.86098e-05     0.000505756       -0.0246261        0.105492      1.64687e-05      0.00051664         0.993319      -0.0292025
                        0.990205      -0.0906305      3.62899e-05     0.000404925        0.0340399       0.0912013     -0.000511539     0.000268244
                     -0.00017224     0.000597952         0.993036      -0.0292079     -0.000369702      0.00032536        0.0306462        0.103937
281708                -0.0170349       0.0957436      0.000231393     0.000115527         0.990451      -0.0912503      1.52661e-05     0.000481949
                     8.85151e-05     0.000505912       -0.0245879        0.105496      1.66459e-05     0.000516604         0.993309      -0.0295661
                        0.990172      -0.0909958      3.64475e-05     0.000404907        0.0340723       0.0911837     -0.000511393     0.000268515
                    -0.000172236     0.000598027         0.993026      -0.0295715     -0.000369611     0.000325494        0.0306844        0.103921
281710                -0.0169993       0.0957447      0.000231574     0.000115583         0.990418      -0.0916157      1.56009e-05      0.00048213
                     8.84205e-05     0.000506067       -0.0245497        0.105501      1.68233e-05     0.000516569         0.993299      -0.0299297
                        0.990139      -0.0913611       3.6605e-05     0.000404888        0.0341048       0.0911661     -0.000511247     0.000268786
                    -0.000172233     0.000598101         0.993015       -0.029935     -0.000369521     0.000325627        0.0307226        0.103905
281712                -0.0169638       0.0957458      0.000231756     0.000115638         0.990384      -0.0919811       1.5936e-05     0.000482311
                     8.83261e-05     0.000506222       -0.0245115        0.105505       1.7001e-05     0.000516533         0.993288      -0.0302933
                        0.990105      -0.0917264      3.67624e-05      0.00040487        0.0341372       0.0911484     -0.000511101     0.000269056
                    -0.000172229     0.000598176         0.993005      -0.0302985      -0.00036943     0.000325761        0.0307608        0.103889
281714                -0.0169282       0.0957469      0.000231938     0.000115693         0.990351      -0.0923464      1.62714e-05     0.000482491
                      8.8232e-05     0.000506377       -0.0244733        0.105509      1.71788e-05     0.000516497         0.993277      -0.0306569
                        0.990072      -0.0920917      3.69196e-05      0.00040485        0.0341697       0.0911308     -0.000510954     0.000269326
                    -0.000172226     0.000598251         0.992994      -0.0306621     -0.000369339     0.000325894        0.0307989        0.103873
281716                -0.0168926        0.095748       0.00023212     0.000115748         0.990317      -0.0927117      1.66069e-05     0.000482671
                      8.8138e-05     0.000506532       -0.0244351        0.105513      1.73569e-05      0.00051646         0.993267      -0.0310205
                        0.990038       -0.092457      3.70767e-05     0.000404831        0.0342021       0.0911132     -0.000510807     0.000269595
                    -0.000172222     0.000598326         0.992983      -0.0310256     -0.000369247     0.000326028        0.0308371        0.103857
281718                -0.0168571        0.095749      0.000232303     0.000115803         0.990283       -0.093077      1.69426e-05     0.000482851
                     8.80442e-05     0.000506686       -0.0243969        0.105517      1.75353e-05     0.000516424         0.993256      -0.0313841
                        0.990004      -0.0928223      3.72337e-05     0.000404811        0.0342345       0.0910955     -0.000510659     0.000269864
                    -0.000172218       0.0005984         0.992973      -0.0313891     -0.000369155     0.000326162        0.0308752         0.10384
281720                -0.0168215         0.09575      0.000232487     0.000115858          0.99025      -0.0934423      1.72785e-05     0.000483031
                     8.79506e-05     0.000506839       -0.0243586        0.105522      1.77138e-05     0.000516388         0.993244      -0.0317477
                         0.98997      -0.0931876      3.73905e-05     0.000404791        0.0342669       0.0910778     -0.000510511     0.000270132
                    -0.000172215     0.000598475         0.992962      -0.0317526     -0.000369063     0.000326295        0.0309133        0.103824
281722                -0.0167859       0.0957511      0.000232671     0.000115912         0.990216      -0.0938076      1.76146e-05      0.00048321
                     8.78572e-05     0.000506993       -0.0243204        0.105526      1.78926e-05     0.000516351         0.993233      -0.0321113
                        0.989936      -0.0935529      3.75473e-05     0.000404771        0.0342993       0.0910601     -0.000510363       0.0002704
                    -0.000172211      0.00059855          0.99295      -0.0321161     -0.000368971     0.000326429        0.0309514        0.103808
281724                -0.0167504       0.0957521      0.000232856     0.000115967         0.990181      -0.0941729      1.79509e-05      0.00048339
                     8.77639e-05     0.000507146       -0.0242822         0.10553      1.80715e-05     0.000516314         0.993222      -0.0324749
                        0.989902      -0.0939181      3.77039e-05      0.00040475        0.0343317       0.0910425     -0.000510215     0.000270668
                    -0.000172207     0.000598625         0.992939      -0.0324796     -0.000368878     0.000326563        0.0309896        0.103792
281726                -0.0167148       0.0957531      0.000233041     0.000116022         0.990147      -0.0945382      1.82873e-05     0.000483569
                     8.76709e-05     0.000507298        -0.024244        0.105534      1.82507e-05     0.000516277          0.99321      -0.0328384
                        0.989868      -0.0942834      3.78605e-05      0.00040473         0.034364       0.0910248     -0.000510067     0.000270935
                    -0.000172203     0.000598699         0.992928      -0.0328431     -0.000368785     0.000326697        0.0310277        0.103776
281728                -0.0166793        0.095754      0.000233228     0.000116077         0.990113      -0.0949035      1.86239e-05     0.000483747
                     8.75781e-05     0.000507451       -0.0242058        0.105538      1.84301e-05      0.00051624         0.993199       -0.033202
                        0.989833      -0.0946486      3.80172e-05     0.000404709        0.0343964        0.091007     -0.000509918     0.000271202
                    -0.000172199     0.000598774         0.992916      -0.0332066     -0.000368691     0.000326832        0.0310658         0.10376
281730                -0.0166437        0.095755      0.000233415     0.000116132         0.990078      -0.0952687      1.89605e-05     0.000483926
                     8.74855e-05     0.000507603       -0.0241676        0.105542      1.86097e-05     0.000516203         0.993187      -0.0335656
                        0.989798      -0.0950138       3.8174e-05     0.000404687        0.0344288       0.0909893     -0.000509769     0.000271468
                    -0.000172196     0.000598849         0.992904      -0.0335701     -0.000368598     0.000326966        0.0311039        0.103744
281732                -0.0166081        0.095756      0.000233605     0.000116189         0.990044      -0.0956339      1.92973e-05     0.000484104
                     8.73931e-05     0.000507754       -0.0241294        0.105546      1.87895e-05     0.000516166         0.993175      -0.0339292
                        0.989764       -0.095379      3.83313e-05     0.000404665        0.0344611       0.0909716     -0.000509619     0.000271734
                    -0.000172192     0.000598924         0.992893      -0.0339336     -0.000368504       0.0003271        0.0311419        0.103728
281734                -0.0165726       0.0957569      0.000233798     0.000116251         0.990009      -0.0959992      1.96341e-05     0.000484282
                     8.73009e-05     0.000507905       -0.0240911         0.10555      1.89696e-05     0.000516129         0.993163      -0.0342927
                        0.989729      -0.0957442      3.84896e-05     0.000404643        0.0344934       0.0909538      -0.00050947     0.000271999
                    -0.000172188     0.000598998         0.992881      -0.0342971     -0.000368409     0.000327234          0.03118        0.103711
281736                 -0.016537       0.0957578      0.000233996      0.00011634         0.989974      -0.0963644      1.99709e-05      0.00048446
                     8.72089e-05     0.000508056       -0.0240529        0.105554      1.91498e-05     0.000516091         0.993151      -0.0346563
                        0.989694      -0.0961094      3.86494e-05     0.000404618        0.0345258       0.0909361      -0.00050932     0.000272264
                    -0.000172183     0.000599073         0.992869      -0.0346606     -0.000368315     0.000327369        0.0312181        0.103695
281738                -0.0165015       0.0957588      0.000234044     0.000116394         0.989939      -0.0967296      2.03077e-05     0.000484637
                     8.71171e-05     0.000508206       -0.0240147        0.105558      1.93303e-05     0.000516054         0.993139      -0.0350198
                        0.989659      -0.0964746      3.88098e-05     0.000404586        0.0345581       0.0909183      -0.00050917     0.000272529
                    -0.000172179     0.000599148         0.992856       -0.035024      -0.00036822     0.000327504        0.0312561        0.103679
281740                -0.0164659       0.0957597      0.000234291     0.000116379         0.989903      -0.0970948      2.06443e-05     0.000484814
                     8.70256e-05     0.000508356       -0.0239765        0.105562      1.95109e-05     0.000516016         0.993126      -0.0353834
                        0.989623      -0.0968397      3.89586e-05     0.000404547        0.0345904       0.0909005     -0.000509021     0.000272793
                    -0.000172175     0.000599222         0.992844      -0.0353875     -0.000368125     0.000327638        0.0312942        0.103663
281742                -0.0164304       0.0957605      0.000234498     0.000116431         0.989868        -0.09746      2.09806e-05     0.000484991
                     8.69342e-05     0.000508506       -0.0239383        0.105567      1.96918e-05     0.000515978         0.993114      -0.0357469
                        0.989588      -0.0972049      3.90961e-05     0.000404522        0.0346227       0.0908827     -0.000508871     0.000273057
                    -0.000172171     0.000599297          0.99283      -0.0357513     -0.000368029     0.000327773        0.0313322        0.103647
281744                -0.0163948       0.0957614      0.000234694     0.000116484         0.989833      -0.0978251      2.13163e-05     0.000485168
                      8.6843e-05     0.000508655       -0.0239001        0.105571      1.98729e-05      0.00051594         0.993101      -0.0361105
                        0.989552        -0.09757      3.92428e-05     0.000404506         0.034655       0.0908649     -0.000508721     0.000273321
                    -0.000172166     0.000599372         0.992819      -0.0361146     -0.000367933     0.000327908        0.0313703         0.10363
281746                -0.0163593       0.0957623      0.000234887     0.000116537         0.989797      -0.0981903      2.16509e-05     0.000485345
                     8.67521e-05     0.000508804       -0.0238618        0.105575      2.00541e-05     0.000515902         0.993088       -0.036474
                        0.989517      -0.0979351      3.93947e-05     0.000404487        0.0346873       0.0908471     -0.000508572     0.000273585
                    -0.000172162     0.000599446         0.992806       -0.036478     -0.000367837     0.000328043        0.0314083        0.103614
281748                -0.0163237       0.0957631      0.000235079     0.000116589         0.989761      -0.0985554      2.19832e-05     0.000485521
                     8.66613e-05     0.000508952       -0.0238236        0.105578      2.02356e-05     0.000515864         0.993075      -0.0368376
                        0.989481      -0.0983003      3.95478e-05     0.000404467        0.0347196       0.0908293     -0.000508424     0.000273849
                    -0.000172158     0.000599521         0.992793      -0.0368414     -0.000367741     0.000328178        0.0314463        0.103598
281750                -0.0162882        0.095764      0.000235271     0.000116641         0.989725      -0.0989205      2.23093e-05     0.000485698
                     8.65708e-05       0.0005091       -0.0237854        0.105582      2.04173e-05     0.000515826         0.993062      -0.0372011
                        0.989445      -0.0986654       3.9701e-05     0.000404444        0.0347518       0.0908114     -0.000508281     0.000274115
                    -0.000172153     0.000599595          0.99278      -0.0372049     -0.000367644     0.000328313        0.0314843        0.103582
281752                -0.0162526       0.0957648      0.000235462     0.000116692         0.989689      -0.0992857      2.26104e-05     0.000485878
                     8.64805e-05     0.000509248       -0.0237472        0.105586      2.05992e-05     0.000515788         0.993049      -0.0375647
                        0.989409      -0.0990304       3.9854e-05     0.000404421        0.0347841       0.0907936     -0.000508162     0.000274386
                    -0.000172148      0.00059967         0.992767      -0.0375683     -0.000367547     0.000328448        0.0315223        0.103565
281754                -0.0162171       0.0957656      0.000235654     0.000116743         0.989653      -0.0996508      2.41948e-05     0.000487554
                     8.63904e-05     0.000509395        -0.023709         0.10559      2.07813e-05      0.00051575         0.993036      -0.0379279
                        0.989372      -0.0993955      4.00067e-05     0.000404398        0.0348163       0.0907757      -0.00050792     0.000274512
                    -0.000172144     0.000599745         0.992754      -0.0379318      -0.00036745     0.000328584        0.0315603        0.103549
281756                -0.0161815       0.0957664      0.000235846     0.000116794         0.989617       -0.100016      2.34333e-05      0.00048622
                     8.63004e-05     0.000509542       -0.0236708        0.105594      2.09636e-05     0.000515711         0.993022      -0.0382916
                        0.989336      -0.0997606       4.0159e-05     0.000404374        0.0348486       0.0907579     -0.000507782     0.000274861
                    -0.000172139     0.000599819         0.992741      -0.0382952     -0.000367353     0.000328719        0.0315983        0.103533
281758                 -0.016146       0.0957672      0.000236039     0.000116845         0.989581       -0.100381      2.37368e-05     0.000486396
                     8.62106e-05     0.000509688       -0.0236325        0.105598      2.11461e-05     0.000515673         0.993008      -0.0386551
                          0.9893       -0.100126       4.0311e-05     0.000404349        0.0348808         0.09074     -0.000507638     0.000275132
                    -0.000172134     0.000599894         0.992727      -0.0386586     -0.000367255     0.000328855        0.0316362        0.103516
281760                -0.0161104        0.095768      0.000236232     0.000116895         0.989544       -0.100746      2.40637e-05      0.00048657
                      8.6121e-05     0.000509833       -0.0235943        0.105602      2.13288e-05     0.000515634         0.992995      -0.0390187
                        0.989263       -0.100491      4.04627e-05     0.000404324         0.034913       0.0907221     -0.000507489     0.000275396
                    -0.000172129     0.000599969         0.992713       -0.039022     -0.000367157      0.00032899        0.0316742          0.1035
281762                -0.0160749       0.0957687      0.000236425     0.000116944         0.989507       -0.101111      2.43966e-05     0.000486745
                     8.60312e-05     0.000509977       -0.0235561        0.105606      2.15119e-05     0.000515595         0.992981      -0.0393822
                        0.989226       -0.100856       4.0614e-05     0.000404299        0.0349452       0.0907042     -0.000507339     0.000275658
