! TOUCHSTONE file generated by CST MICROWAVE STUDIO
! Date and time: Tue Oct 14 07:28:37 2025
! Project name: Teste_Macro_Metasurface_Nanopilar.cst
! Parameters = {H=600; L_x=130; L_y=105; Lambda=1064; Max_L=200; Min_L=70; PathPara=1; Phi=0; Step_L=10; Theta=0; p=520; phaseX=180; phaseY=0}
! Header version: 2018
! Port assignment regex: !\s*Touchstone port\s*([0-9]+)\s*=\s*(CST MWS port|CST DS port)\s*([0-9]+|Zmin|Zmax)\s*\(\"(.*)\"\)(\s*mode\s*([0-9]+))?.*
! Touchstone port assignment:
! Touchstone port 1 = CST MWS port Zmax ("") mode 1
! Touchstone port 2 = CST MWS port Zmax ("") mode 2
! Touchstone port 3 = CST MWS port Zmin ("") mode 1
! Touchstone port 4 = CST MWS port Zmin ("") mode 2
! S-Parameters are not renormalized. Each port impedance will be approximated by the real part at minimum frequency. The values are described via the [Reference] keyword.
! Default impedance is overridden by [Reference]
[Version] 2.0
# GHz S RI R 376.73
[Number of Ports] 4
[Reference]
376.73 376.73 259.814 259.814 
[Number of Frequencies] 51
[Network Data]
281700                 -0.115785      -0.0978476      0.000347026     0.000353934       -0.0793776       -0.979127      0.000336522    -0.000454389
                      0.00033632     0.000292223      -0.00383531       0.0390902      0.000527536    -0.000459797        -0.926931        0.348638
                      -0.0790278       -0.979336      0.000362309    -0.000478838       -0.0972993        0.115556     -0.000621168    -8.89873e-05
                     0.000227353    -0.000412551        -0.926658        0.348279     -0.000703964    -0.000129265         0.026462       0.0292126
281702                 -0.115831      -0.0978146      0.000346989     0.000353776        -0.079844       -0.979087      0.000289032    -0.000517183
                     0.000336638     0.000292021      -0.00381058       0.0390591      0.000527216    -0.000459895        -0.926758        0.349094
                       -0.079494       -0.979296         0.000362    -0.000479056         -0.09724        0.115624     -0.000622215    -1.06496e-05
                     0.000227083    -0.000412717        -0.926478        0.348765     -0.000703907    -0.000128819        0.0264524       0.0291765
281704                 -0.115877      -0.0977817      0.000346952     0.000353618       -0.0803104       -0.979046      0.000277671    -0.000502423
                     0.000336956     0.000291818      -0.00378589        0.039028      0.000526896    -0.000459992        -0.926584        0.349553
                      -0.0799602       -0.979256       0.00036169    -0.000479275       -0.0971805        0.115692     -0.000615357    -1.46361e-05
                     0.000226812    -0.000412883        -0.926297         0.34925      -0.00070385    -0.000128373        0.0264429       0.0291404
281706                 -0.115922      -0.0977486      0.000346915     0.000353459       -0.0807768       -0.979005      0.000275732    -0.000497181
                     0.000337274     0.000291615      -0.00376122       0.0389969      0.000526576     -0.00046009        -0.926407        0.350016
                      -0.0804263       -0.979215       0.00036138    -0.000479494        -0.097121        0.115759     -0.000613498    -1.58329e-05
                     0.000226541    -0.000413048        -0.926115        0.349735     -0.000703792    -0.000127926        0.0264333       0.0291045
281708                 -0.115968      -0.0977156      0.000346877       0.0003533       -0.0812432       -0.978964      0.000275089    -0.000494837
                     0.000337592     0.000291411      -0.00373657       0.0389658      0.000526255    -0.000460189        -0.926229        0.350485
                      -0.0808925       -0.979175      0.000361071    -0.000479712       -0.0970615        0.115827     -0.000612714    -1.62161e-05
                      0.00022627    -0.000413214        -0.925934         0.35022     -0.000703735     -0.00012748        0.0264237       0.0290688
281710                 -0.116014      -0.0976825       0.00034684     0.000353141       -0.0817096       -0.978923      0.000274807     -0.00049377
                      0.00033791     0.000291207      -0.00371196       0.0389347      0.000525934    -0.000460287         -0.92605         0.35096
                      -0.0813586       -0.979134      0.000360761    -0.000479931       -0.0970019        0.115895     -0.000612367    -1.62296e-05
                     0.000225998     -0.00041338        -0.925752        0.350705     -0.000703677    -0.000127033         0.026414       0.0290331
281712                  -0.11606      -0.0976494      0.000346802     0.000352982       -0.0821759       -0.978882      0.000274688    -0.000493563
                     0.000338229     0.000291002      -0.00368737       0.0389035      0.000525612    -0.000460386         -0.92587        0.351443
                      -0.0818248       -0.979093      0.000360451     -0.00048015       -0.0969423        0.115962     -0.000612303    -1.59886e-05
                     0.000225726    -0.000413545         -0.92557         0.35119     -0.000703619    -0.000126587        0.0264043       0.0289977
281714                 -0.116106      -0.0976163      0.000346765     0.000352823       -0.0826423        -0.97884      0.000274741    -0.000494433
                     0.000338548     0.000290797      -0.00366281       0.0388724      0.000525291    -0.000460484        -0.925688        0.351939
                      -0.0822909       -0.979051      0.000360141     -0.00048037       -0.0968826         0.11603     -0.000612591    -1.54294e-05
                     0.000225454    -0.000413711        -0.925388        0.351675      -0.00070356     -0.00012614        0.0263946       0.0289626
281716                 -0.116151      -0.0975832      0.000346727     0.000352663       -0.0831086       -0.978798      0.000275529    -0.000498597
                     0.000338867     0.000290592      -0.00363827       0.0388412      0.000524969    -0.000460583        -0.925502        0.352456
                       -0.082757        -0.97901      0.000359831    -0.000480589       -0.0968228        0.116098      -0.00061399    -1.39318e-05
                     0.000225181    -0.000413877        -0.925205        0.352159     -0.000703502    -0.000125693        0.0263848        0.028928
281718                 -0.116197        -0.09755      0.000346689     0.000352503       -0.0835749       -0.978756      0.000346479    -0.000450257
                     0.000339186     0.000290385      -0.00361376         0.03881      0.000524646    -0.000460682        -0.925302        0.353016
                      -0.0832231       -0.978968      0.000359521    -0.000480808        -0.096763        0.116165     -0.000624654    -8.89995e-05
                     0.000224908    -0.000414043        -0.925022        0.352644     -0.000703443    -0.000125246        0.0263749       0.0288942
281720                 -0.116243      -0.0975168      0.000346652     0.000352344       -0.0840412       -0.978714      0.000274481    -0.000480613
                     0.000339505     0.000290179      -0.00358928       0.0387789      0.000524323    -0.000460782        -0.925034        0.353674
                      -0.0836891       -0.978926      0.000359211    -0.000481028       -0.0967032        0.116233      -0.00060828    -1.89372e-05
                     0.000224635    -0.000414208        -0.924839        0.353128     -0.000703384    -0.000124799        0.0263649       0.0288622
281722                 -0.116289      -0.0974836      0.000346614     0.000352184       -0.0845075       -0.978671      0.000274012    -0.000484517
                     0.000339825     0.000289972      -0.00356483       0.0387477         0.000524    -0.000460881        -0.924294        0.354421
                      -0.0841552       -0.978884      0.000358901    -0.000481247       -0.0966433          0.1163     -0.000609468    -1.72901e-05
                     0.000224361    -0.000414374        -0.924656        0.353613     -0.000703324    -0.000124352        0.0263544       0.0288362
281724                 -0.116335      -0.0974504      0.000346576     0.000352024       -0.0849737       -0.978629      0.000273891    -0.000485812
                     0.000340145     0.000289764       -0.0035404       0.0387164      0.000523677    -0.000460981        -0.923766        0.353796
                      -0.0846213       -0.978841      0.000358591    -0.000481467       -0.0965834        0.116368     -0.000609868    -1.65568e-05
                     0.000224087     -0.00041454        -0.924473        0.354097     -0.000703265    -0.000123904        0.0263368       0.0288669
281726                  -0.11638      -0.0974172      0.000346538     0.000351864         -0.08544       -0.978586      0.000273816    -0.000486451
                     0.000340465     0.000289556        -0.003516       0.0386852      0.000523353    -0.000461081        -0.924162        0.354169
                      -0.0850873       -0.978799      0.000358281    -0.000481686       -0.0965234        0.116435     -0.000610066    -1.60427e-05
                     0.000223813    -0.000414706        -0.924289        0.354581     -0.000703205    -0.000123457        0.0263358        0.028695
281728                 -0.116426      -0.0973839        0.0003465     0.000351704       -0.0859062       -0.978542      0.000273751    -0.000486837
                     0.000340785     0.000289348      -0.00349163        0.038654       0.00052303    -0.000461181        -0.924151        0.354737
                      -0.0855533       -0.978756      0.000357971    -0.000481906       -0.0964634        0.116503     -0.000610187    -1.56114e-05
                     0.000223538    -0.000414871        -0.924105        0.355065     -0.000703145    -0.000123009        0.0263263       0.0286875
281730                 -0.116472      -0.0973506      0.000346463     0.000351543       -0.0863725       -0.978499      0.000273691    -0.000487103
                     0.000341105     0.000289139      -0.00346728       0.0386227      0.000522705    -0.000461281        -0.924033        0.355273
                      -0.0860193       -0.978713      0.000357661    -0.000482126       -0.0964033         0.11657      -0.00061027    -1.52186e-05
                     0.000223263    -0.000415037        -0.923921        0.355549     -0.000703084    -0.000122561        0.0263162       0.0286589
281732                 -0.116517      -0.0973173      0.000346425     0.000351383       -0.0868387       -0.978455      0.000273632    -0.000487307
                     0.000341425      0.00028893      -0.00344296       0.0385914      0.000522381    -0.000461382         -0.92388        0.355787
                      -0.0864853       -0.978669      0.000357351    -0.000482346       -0.0963432        0.116637     -0.000610333     -1.4846e-05
                     0.000222988    -0.000415203        -0.923736        0.356033     -0.000703024    -0.000122114        0.0263061       0.0286265
281734                 -0.116563      -0.0972839      0.000346387     0.000351222       -0.0873049       -0.978411      0.000273573    -0.000487475
                     0.000341746      0.00028872      -0.00341867       0.0385601      0.000522056    -0.000461482        -0.923712        0.356289
                      -0.0869513       -0.978626       0.00035704    -0.000482565        -0.096283        0.116705     -0.000610384    -1.44847e-05
                     0.000222712    -0.000415369        -0.923551        0.356517     -0.000702963    -0.000121666         0.026296       0.0285927
281736                 -0.116609      -0.0972505      0.000346349     0.000351062       -0.0877711       -0.978367      0.000273515    -0.000487621
                     0.000342067      0.00028851       -0.0033944       0.0385288      0.000521731    -0.000461583        -0.923538        0.356784
                      -0.0874173       -0.978582       0.00035673    -0.000482785       -0.0962228        0.116772     -0.000610429    -1.41301e-05
                     0.000222437    -0.000415535        -0.923366           0.357     -0.000702902    -0.000121218        0.0262859       0.0285584
281738                 -0.116654      -0.0972172      0.000346311     0.000350901       -0.0882372       -0.978323      0.000273457    -0.000487755
                     0.000342388     0.000288299      -0.00337016       0.0384975      0.000521405    -0.000461684        -0.923359        0.357274
                      -0.0878833       -0.978538       0.00035642    -0.000483005       -0.0961626        0.116839     -0.000610469    -1.37797e-05
                      0.00022216    -0.000415701        -0.923181        0.357484     -0.000702841    -0.000120769        0.0262758       0.0285238
281740                   -0.1167      -0.0971837      0.000346274      0.00035074       -0.0887034       -0.978278        0.0002734     -0.00048788
                     0.000342709     0.000288088      -0.00334595       0.0384662       0.00052108    -0.000461786        -0.923178        0.357762
                      -0.0883492       -0.978494       0.00035611    -0.000483225       -0.0961022        0.116906     -0.000610506    -1.34317e-05
                     0.000221884    -0.000415866        -0.922995        0.357967     -0.000702779    -0.000120321        0.0262656        0.028489
281742                 -0.116746      -0.0971503      0.000346236      0.00035058       -0.0891695       -0.978234      0.000273342       -0.000488
                     0.000343031     0.000287876      -0.00332176       0.0384348      0.000520754    -0.000461887        -0.922994        0.358248
                      -0.0888152       -0.978449        0.0003558    -0.000483445       -0.0960419        0.116974     -0.000610541    -1.30853e-05
                     0.000221607    -0.000416032         -0.92281        0.358451     -0.000702717    -0.000119872        0.0262554       0.0284541
281744                 -0.116791      -0.0971168      0.000346198     0.000350419       -0.0896356       -0.978189      0.000273284    -0.000488116
                     0.000343353     0.000287664       -0.0032976       0.0384035      0.000520428    -0.000461989         -0.92281        0.358733
                      -0.0892811       -0.978405      0.000355489    -0.000483665       -0.0959815        0.117041     -0.000610575    -1.27399e-05
                      0.00022133    -0.000416198        -0.922624        0.358934     -0.000702656    -0.000119424        0.0262452       0.0284192
281746                 -0.116837      -0.0970834       0.00034616     0.000350258       -0.0901017       -0.978143      0.000273226    -0.000488231
                     0.000343674     0.000287452      -0.00327347       0.0383721      0.000520102    -0.000462091        -0.922625        0.359217
                       -0.089747        -0.97836      0.000355179    -0.000483884        -0.095921        0.117108     -0.000610608    -1.23949e-05
                     0.000221053    -0.000416364        -0.922437        0.359417     -0.000702593    -0.000118974        0.0262349       0.0283842
281748                 -0.116883      -0.0970498      0.000346123     0.000350097       -0.0905678       -0.978098      0.000273168    -0.000488344
                     0.000343996     0.000287239      -0.00324937       0.0383407      0.000519776    -0.000462194        -0.922439        0.359701
                      -0.0902129       -0.978315      0.000354869    -0.000484104       -0.0958605        0.117175     -0.000610639    -1.20503e-05
                     0.000220775     -0.00041653        -0.922251          0.3599     -0.000702531    -0.000118525        0.0262246       0.0283492
281750                 -0.116928      -0.0970163      0.000346085     0.000349937       -0.0910338       -0.978052      0.000273111    -0.000488456
                     0.000344319     0.000287025      -0.00322529       0.0383094      0.000519452    -0.000462297        -0.922253        0.360184
                      -0.0906788       -0.978269      0.000354559    -0.000484323       -0.0957999        0.117242     -0.000610671    -1.17057e-05
                     0.000220497    -0.000416696        -0.922064        0.360383     -0.000702469    -0.000118075        0.0262143       0.0283142
281752                 -0.116974      -0.0969828      0.000346047     0.000349776       -0.0914998       -0.978006      0.000273053    -0.000488569
                     0.000344641     0.000286811      -0.00320123       0.0382779      0.000519136    -0.000462401        -0.922066        0.360667
                      -0.0911446       -0.978224      0.000354249    -0.000484542       -0.0957393        0.117309     -0.000610701    -1.13611e-05
                     0.000220218    -0.000416862        -0.921877        0.360866     -0.000702408    -0.000117621        0.0262039       0.0282793
281754                  -0.11702      -0.0969492       0.00034601     0.000349616       -0.0919668       -0.977961      0.000272994    -0.000488681
                     0.000344964     0.000286596      -0.00317721       0.0382465      0.000518703    -0.000462465        -0.921879        0.361149
                      -0.0916105       -0.978178      0.000353939    -0.000484761       -0.0956787        0.117376     -0.000610732    -1.10164e-05
                     0.000219939    -0.000417028         -0.92169        0.361348     -0.000702314    -0.000117208        0.0261935       0.0282443
281756                 -0.117065      -0.0969156      0.000345972     0.000349457       -0.0924322       -0.977914      0.000272936    -0.000488794
                     0.000345287     0.000286379      -0.00315321       0.0382151      0.000518443      -0.0004626        -0.921692        0.361632
                      -0.0920763       -0.978132      0.000353629    -0.000484978        -0.095618        0.117443     -0.000610761    -1.06716e-05
                     0.000219659    -0.000417193        -0.921502        0.361831     -0.000702276    -0.000116737        0.0261831       0.0282094
281758                 -0.117111       -0.096882      0.000345935     0.000349301       -0.0928982       -0.977867      0.000272878    -0.000488906
                     0.000345607     0.000286142      -0.00312923       0.0381836      0.000518121    -0.000462705        -0.921504        0.362114
                      -0.0925421       -0.978086       0.00035332    -0.000485191       -0.0955572         0.11751     -0.000610791    -1.03266e-05
                     0.000219364    -0.000417353        -0.921314        0.362314     -0.000702213    -0.000116285        0.0261727       0.0281744
281760                 -0.117156      -0.0968483      0.000345901     0.000349165       -0.0933642       -0.977821       0.00027282     -0.00048902
                     0.000345932     0.000285962      -0.00310523       0.0381521      0.000517794    -0.000462809        -0.921316        0.362597
                       -0.093008       -0.978039      0.000353018    -0.000485369       -0.0954964        0.117577      -0.00061082    -9.98131e-06
                     0.000219109    -0.000417528        -0.921126        0.362796      -0.00070215    -0.000115835        0.0261622       0.0281396
281762                 -0.117202      -0.0968146      0.000345855     0.000348918       -0.0938301       -0.977774      0.000272761    -0.000489133
                     0.000346256     0.000285742      -0.00308145       0.0381207      0.000517466    -0.000462913        -0.921128        0.363079
                      -0.0934738       -0.977993       0.00035269    -0.000485693       -0.0954356        0.117644     -0.000610849    -9.63583e-06
