! TOUCHSTONE file generated by CST MICROWAVE STUDIO
! Date and time: Tue Oct 14 07:25:37 2025
! Project name: Teste_Macro_Metasurface_Nanopilar.cst
! Parameters = {H=600; L_x=80; L_y=165; Lambda=1064; Max_L=200; Min_L=70; PathPara=1; Phi=0; Step_L=10; Theta=0; p=520; phaseX=180; phaseY=0}
! Header version: 2018
! Port assignment regex: !\s*Touchstone port\s*([0-9]+)\s*=\s*(CST MWS port|CST DS port)\s*([0-9]+|Zmin|Zmax)\s*\(\"(.*)\"\)(\s*mode\s*([0-9]+))?.*
! Touchstone port assignment:
! Touchstone port 1 = CST MWS port Zmax ("") mode 1
! Touchstone port 2 = CST MWS port Zmax ("") mode 2
! Touchstone port 3 = CST MWS port Zmin ("") mode 1
! Touchstone port 4 = CST MWS port Zmin ("") mode 2
! S-Parameters are not renormalized. Each port impedance will be approximated by the real part at minimum frequency. The values are described via the [Reference] keyword.
! Default impedance is overridden by [Reference]
[Version] 2.0
# GHz S RI R 376.73
[Number of Ports] 4
[Reference]
376.73 376.73 259.814 259.814 
[Number of Frequencies] 51
[Network Data]
281700                0.00760949       -0.128697      0.000517595     0.000402359        -0.334949        0.926029     -7.45887e-05     0.000366874
                     0.000500574     0.000328723        0.0174907       0.0517666     -0.000269114     0.000129894         0.925606       -0.370773
                       -0.334589        0.926068     -0.000247987     0.000235931       -0.0756417         0.10539     -0.000462879    -0.000415491
                    -0.000115722     0.000330334         0.926114       -0.371165     -0.000420112    -0.000478379        0.0230106       0.0499428
281702                0.00755639       -0.128726      0.000518033     0.000402316        -0.334505        0.926186     -7.44262e-05     0.000366955
                     0.000500943     0.000328523        0.0175138       0.0517531     -0.000269095      0.00013007         0.925465       -0.371125
                       -0.334144        0.926226     -0.000247877     0.000236391       -0.0756005        0.105451     -0.000463089    -0.000415386
                    -0.000115528     0.000330468         0.925974       -0.371517      -0.00042037    -0.000478292        0.0230226       0.0499315
281704                0.00750326       -0.128754      0.000518472     0.000402272         -0.33406        0.926344     -7.42638e-05     0.000367037
                     0.000501311     0.000328323        0.0175368       0.0517396     -0.000269076     0.000130244         0.925324       -0.371477
                       -0.333699        0.926383     -0.000247767     0.000236852       -0.0755593        0.105511     -0.000463299     -0.00041528
                    -0.000115335     0.000330603         0.925834       -0.371869     -0.000420628    -0.000478205        0.0230345       0.0499202
281706                0.00745012       -0.128783      0.000518911     0.000402229        -0.333616        0.926501     -7.41015e-05     0.000367118
                     0.000501679     0.000328122        0.0175598       0.0517261     -0.000269058     0.000130419         0.925183       -0.371829
                       -0.333253        0.926539     -0.000247657     0.000237314       -0.0755181        0.105572     -0.000463509    -0.000415174
                    -0.000115142     0.000330737         0.925693        -0.37222     -0.000420885    -0.000478117        0.0230464       0.0499089
281708                0.00739696       -0.128812       0.00051935     0.000402187        -0.333171        0.926658     -7.39391e-05     0.000367199
                     0.000502048     0.000327922        0.0175828       0.0517125     -0.000269041     0.000130593         0.925041       -0.372181
                       -0.332808        0.926696     -0.000247547     0.000237778       -0.0754767        0.105633     -0.000463719    -0.000415068
                    -0.000114948     0.000330872         0.925553       -0.372572     -0.000421142    -0.000478029        0.0230583       0.0498976
281710                0.00734379       -0.128841       0.00051979     0.000402144        -0.332726        0.926814     -7.37768e-05      0.00036728
                     0.000502416     0.000327721        0.0176058        0.051699     -0.000269027     0.000130768           0.9249       -0.372533
                       -0.332363        0.926852     -0.000247438     0.000238243       -0.0754354        0.105693     -0.000463929    -0.000414962
                    -0.000114755     0.000331006         0.925412       -0.372924     -0.000421399    -0.000477941        0.0230702       0.0498863
281712                 0.0072906        -0.12887       0.00052023     0.000402102        -0.332281        0.926971     -7.36146e-05     0.000367361
                     0.000502784      0.00032752        0.0176288       0.0516854     -0.000269014     0.000130945         0.924758       -0.372885
                       -0.331918        0.927008     -0.000247328     0.000238709        -0.075394        0.105754     -0.000464139    -0.000414856
                    -0.000114561      0.00033114         0.925271       -0.373276     -0.000421654    -0.000477852        0.0230821        0.049875
281714                 0.0072374       -0.128898      0.000520671      0.00040206        -0.331836        0.927127     -7.34524e-05     0.000367442
                     0.000503152     0.000327318        0.0176518       0.0516719     -0.000269002     0.000131125         0.924617       -0.373237
                       -0.331472        0.927164     -0.000247219     0.000239176       -0.0753526        0.105814     -0.000464349     -0.00041475
                    -0.000114367     0.000331275          0.92513       -0.373628      -0.00042191    -0.000477762        0.0230939       0.0498637
281716                0.00718418       -0.128927      0.000521111     0.000402019        -0.331392        0.927283     -7.32903e-05     0.000367523
                      0.00050352     0.000327117        0.0176748       0.0516583     -0.000268988     0.000131311         0.924475       -0.373588
                       -0.331027         0.92732      -0.00024711     0.000239645       -0.0753111        0.105875     -0.000464559    -0.000414644
                    -0.000114174     0.000331409         0.924989       -0.373979     -0.000422165    -0.000477672        0.0231058       0.0498524
281718                0.00713094       -0.128956      0.000521552     0.000401977        -0.330947        0.927439     -7.31282e-05     0.000367604
                     0.000503888     0.000326915        0.0176978       0.0516447      -0.00026897     0.000131498         0.924333        -0.37394
                       -0.330581        0.927475     -0.000247001     0.000240115       -0.0752695        0.105936      -0.00046477    -0.000414537
                     -0.00011398     0.000331544         0.924848       -0.374331     -0.000422419    -0.000477582        0.0231177       0.0498411
281720                0.00707769       -0.128985      0.000521994     0.000401936        -0.330501        0.927594     -7.29662e-05     0.000367684
                     0.000504256     0.000326713        0.0177207       0.0516311     -0.000268947     0.000131683         0.924191       -0.374292
                       -0.330135        0.927631     -0.000246892     0.000240587       -0.0752279        0.105996      -0.00046498     -0.00041443
                    -0.000113786     0.000331678         0.924707       -0.374682     -0.000422674    -0.000477492        0.0231296       0.0498298
281722                0.00702442       -0.129013      0.000522436     0.000401895        -0.330056        0.927749     -7.28042e-05     0.000367765
                     0.000504624     0.000326511        0.0177437       0.0516175     -0.000268923     0.000131867         0.924048       -0.374643
                        -0.32969        0.927786     -0.000246783      0.00024106       -0.0751863        0.106057      -0.00046519    -0.000414324
                    -0.000113592     0.000331813         0.924566       -0.375034     -0.000422927    -0.000477401        0.0231414       0.0498185
281724                0.00697113       -0.129042      0.000522878     0.000401855        -0.329611        0.927905     -7.26422e-05     0.000367846
                     0.000504991     0.000326308        0.0177667       0.0516039     -0.000268898     0.000132049         0.923906       -0.374995
                       -0.329244         0.92794     -0.000246675     0.000241534       -0.0751446        0.106117       -0.0004654    -0.000414217
                    -0.000113398     0.000331947         0.924424       -0.375385     -0.000423181     -0.00047731        0.0231533       0.0498072
281726                0.00691783       -0.129071      0.000523321     0.000401815        -0.329166        0.928059     -7.24803e-05     0.000367926
                     0.000505359     0.000326106        0.0177896       0.0515903     -0.000268872      0.00013223         0.923763       -0.375346
                       -0.328798        0.928095     -0.000246566     0.000242009       -0.0751029        0.106178      -0.00046561     -0.00041411
                    -0.000113204     0.000332082         0.924282       -0.375737     -0.000423434    -0.000477219        0.0231651       0.0497959
281728                0.00686451       -0.129099      0.000523763     0.000401775         -0.32872        0.928214     -7.23185e-05     0.000368006
                     0.000505726     0.000325903        0.0178126       0.0515767     -0.000268847     0.000132409         0.923621       -0.375697
                       -0.328352        0.928249     -0.000246458     0.000242486       -0.0750611        0.106238     -0.000465821    -0.000414002
                     -0.00011301     0.000332216          0.92414       -0.376088     -0.000423686    -0.000477128         0.023177       0.0497846
281730                0.00681118       -0.129128      0.000524207     0.000401735        -0.328275        0.928369     -7.21567e-05     0.000368087
                     0.000506094       0.0003257        0.0178355        0.051563     -0.000268823     0.000132589         0.923478       -0.376049
                       -0.327906        0.928403      -0.00024635     0.000242964       -0.0750193        0.106299     -0.000466031    -0.000413895
                    -0.000112815     0.000332351         0.923999       -0.376439     -0.000423939    -0.000477037        0.0231888       0.0497733
281732                0.00675783       -0.129156       0.00052465     0.000401696         -0.32783        0.928523      -7.1995e-05     0.000368167
                     0.000506461     0.000325497        0.0178584       0.0515494     -0.000268798     0.000132768         0.923335         -0.3764
                        -0.32746        0.928557     -0.000246242     0.000243444       -0.0749774        0.106359     -0.000466241    -0.000413788
                    -0.000112621     0.000332485         0.923856        -0.37679     -0.000424191    -0.000476945        0.0232006        0.049762
281734                0.00670446       -0.129185      0.000525094     0.000401656        -0.327384        0.928677     -7.18333e-05     0.000368247
                     0.000506829     0.000325293        0.0178814       0.0515357     -0.000268773     0.000132946         0.923192       -0.376751
                       -0.327014        0.928711     -0.000246134     0.000243924       -0.0749355         0.10642     -0.000466452     -0.00041368
                    -0.000112427     0.000332619         0.923714       -0.377141     -0.000424443    -0.000476854        0.0232125       0.0497507
281736                0.00665108       -0.129213      0.000525538     0.000401618        -0.326938        0.928831     -7.16716e-05     0.000368327
                     0.000507196      0.00032509        0.0179043       0.0515221     -0.000268748     0.000133125         0.923049       -0.377102
                       -0.326568        0.928865     -0.000246026     0.000244406       -0.0748935         0.10648     -0.000466662    -0.000413572
                    -0.000112232     0.000332754         0.923572       -0.377492     -0.000424694    -0.000476762        0.0232243       0.0497394
281738                0.00659768       -0.129242      0.000525983     0.000401579        -0.326493        0.928984     -7.15101e-05     0.000368407
                     0.000507563     0.000324886        0.0179272       0.0515084     -0.000268724     0.000133304         0.922905       -0.377454
                       -0.326122        0.929018     -0.000245919      0.00024489       -0.0748515        0.106541     -0.000466872    -0.000413464
                    -0.000112037     0.000332888         0.923429       -0.377844     -0.000424946     -0.00047667        0.0232361       0.0497281
281740                0.00654426        -0.12927      0.000526427     0.000401541        -0.326047        0.929138     -7.13485e-05     0.000368487
                      0.00050793     0.000324682        0.0179501       0.0514947     -0.000268699     0.000133482         0.922762       -0.377805
                       -0.325675        0.929171     -0.000245811     0.000245375       -0.0748094        0.106601     -0.000467083    -0.000413356
                    -0.000111843     0.000333023         0.923287       -0.378195     -0.000425197    -0.000476578        0.0232479       0.0497167
281742                0.00649083       -0.129299      0.000526873     0.000401503        -0.325601        0.929291     -7.11871e-05     0.000368567
                     0.000508297     0.000324477         0.017973        0.051481     -0.000268674     0.000133661         0.922618       -0.378156
                       -0.325229        0.929324     -0.000245704     0.000245861       -0.0747673        0.106662     -0.000467293    -0.000413248
                    -0.000111648     0.000333157         0.923144       -0.378545     -0.000425447    -0.000476486        0.0232597       0.0497054
281744                0.00643739       -0.129327      0.000527318     0.000401465        -0.325155        0.929444     -7.10256e-05     0.000368647
                     0.000508664     0.000324273        0.0179959       0.0514673     -0.000268649     0.000133839         0.922474       -0.378507
                       -0.324783        0.929477     -0.000245597     0.000246348       -0.0747251        0.106722     -0.000467504     -0.00041314
                    -0.000111453     0.000333292         0.923001       -0.378896     -0.000425698    -0.000476393        0.0232715       0.0496941
281746                0.00638393       -0.129356      0.000527764     0.000401427        -0.324709        0.929597     -7.08643e-05     0.000368727
                     0.000509031     0.000324068        0.0180188       0.0514536     -0.000268623     0.000134018          0.92233       -0.378858
                       -0.324336        0.929629      -0.00024549     0.000246837       -0.0746829        0.106783     -0.000467715    -0.000413031
                    -0.000111259     0.000333426         0.922858       -0.379247     -0.000425948    -0.000476301        0.0232833       0.0496828
281748                0.00633045       -0.129384       0.00052821      0.00040139        -0.324263        0.929749      -7.0703e-05     0.000368807
                     0.000509398     0.000323863        0.0180417       0.0514399     -0.000268597     0.000134196         0.922186       -0.379208
                        -0.32389        0.929781     -0.000245383     0.000247327       -0.0746407        0.106843     -0.000467926    -0.000412921
                    -0.000111064      0.00033356         0.922715       -0.379598     -0.000426198    -0.000476208        0.0232951       0.0496715
281750                0.00627695       -0.129412      0.000528656     0.000401353        -0.323817        0.929901      -7.0542e-05      0.00036889
                     0.000509765     0.000323658        0.0180646       0.0514261     -0.000268571     0.000134374         0.922042       -0.379559
                       -0.323443        0.929933     -0.000245277     0.000247819       -0.0745984        0.106903     -0.000468146      -0.0004128
                    -0.000110869     0.000333695         0.922572       -0.379949     -0.000426447    -0.000476115        0.0233068       0.0496602
281752                0.00622344       -0.129441      0.000529103     0.000401316        -0.323371        0.930053     -7.03803e-05     0.000368963
                     0.000510126     0.000323446        0.0180874       0.0514124     -0.000268543     0.000134553         0.921898        -0.37991
                       -0.322996        0.930085      -0.00024517     0.000248312        -0.074556        0.106964     -0.000468342    -0.000412711
                    -0.000110674     0.000333835         0.922429       -0.380299     -0.000426696    -0.000476022        0.0233186       0.0496489
281754                0.00616992       -0.129469      0.000529551      0.00040128        -0.322925        0.930205     -7.02192e-05     0.000369043
                     0.000510498     0.000323247        0.0181103       0.0513986     -0.000268513     0.000134731         0.921754       -0.380261
                        -0.32255        0.930237     -0.000245064     0.000248807       -0.0745136        0.107024     -0.000468554      -0.0004126
                    -0.000110478     0.000333964         0.922285        -0.38065     -0.000426944    -0.000475928        0.0233304       0.0496376
281756                0.00611637       -0.129497      0.000529998     0.000401243        -0.322479        0.930357     -7.00582e-05     0.000369123
                     0.000510864     0.000323041        0.0181332       0.0513849     -0.000268474      0.00013491         0.921609       -0.380611
                       -0.322103        0.930388     -0.000244958     0.000249302       -0.0744712        0.107085     -0.000468765     -0.00041249
                    -0.000110283     0.000334099         0.922141          -0.381      -0.00042719    -0.000475833        0.0233421       0.0496263
281758                0.00606282       -0.129526      0.000530446     0.000401207        -0.322032        0.930508     -6.98971e-05     0.000369202
                     0.000511231     0.000322835         0.018156       0.0513711      -0.00026842     0.000135144         0.921464       -0.380962
                       -0.321656        0.930539     -0.000244851       0.0002498       -0.0744287        0.107145     -0.000468976    -0.000412381
                    -0.000110088     0.000334233         0.921998       -0.381351     -0.000427432    -0.000475733        0.0233539        0.049615
281760                0.00600924       -0.129554      0.000530896      0.00040117        -0.321586         0.93066     -6.97361e-05     0.000369281
                     0.000511597     0.000322629        0.0181789       0.0513573     -0.000268469     0.000135303          0.92132       -0.381312
                       -0.321209         0.93069     -0.000244744     0.000250299       -0.0743861        0.107205     -0.000469186    -0.000412272
                    -0.000109893     0.000334367         0.921854       -0.381701     -0.000427676    -0.000475608        0.0233656       0.0496037
281762                0.00595565       -0.129582       0.00053135     0.000401131        -0.321139         0.93081     -6.95752e-05      0.00036936
                     0.000511964     0.000322423        0.0182017       0.0513435     -0.000268436     0.000135465         0.921175       -0.381663
                       -0.320762        0.930841     -0.000244637     0.000250805       -0.0743434        0.107266     -0.000469397    -0.000412162
