! TOUCHSTONE file generated by CST MICROWAVE STUDIO
! Date and time: Tue Oct 14 07:27:03 2025
! Project name: Teste_Macro_Metasurface_Nanopilar.cst
! Parameters = {H=600; L_x=105; L_y=110; Lambda=1064; Max_L=200; Min_L=70; PathPara=1; Phi=0; Step_L=10; Theta=0; p=520; phaseX=180; phaseY=0}
! Header version: 2018
! Port assignment regex: !\s*Touchstone port\s*([0-9]+)\s*=\s*(CST MWS port|CST DS port)\s*([0-9]+|Zmin|Zmax)\s*\(\"(.*)\"\)(\s*mode\s*([0-9]+))?.*
! Touchstone port assignment:
! Touchstone port 1 = CST MWS port Zmax ("") mode 1
! Touchstone port 2 = CST MWS port Zmax ("") mode 2
! Touchstone port 3 = CST MWS port Zmin ("") mode 1
! Touchstone port 4 = CST MWS port Zmin ("") mode 2
! S-Parameters are not renormalized. Each port impedance will be approximated by the real part at minimum frequency. The values are described via the [Reference] keyword.
! Default impedance is overridden by [Reference]
[Version] 2.0
# GHz S RI R 376.73
[Number of Ports] 4
[Reference]
376.73 376.73 259.814 259.814 
[Number of Frequencies] 51
[Network Data]
281700                -0.0847634      -0.0788151      0.000284052     4.06051e-05         0.221515       -0.963077      0.000130416    -0.000154931
                     0.000327273     2.52873e-05       -0.0346557      -0.0705025     -2.62147e-05     0.000225335            0.459       -0.880723
                        0.221482        -0.96304      4.86761e-05     0.000128149        -0.109914       0.0349068      0.000307176     0.000171112
                     0.000178711    -0.000176006         0.458991       -0.880369      0.000256957     0.000185037       -0.0772254       0.0130753
281702                -0.0847997      -0.0787982      0.000283992     4.05639e-05         0.221077       -0.963176      0.000130371    -0.000155048
                      0.00032722     2.52283e-05       -0.0346838      -0.0705066     -2.59627e-05     0.000225268         0.458618       -0.880922
                        0.221043       -0.963139       4.8684e-05     0.000128101        -0.109908       0.0349759      0.000307469      0.00017076
                     0.000178568    -0.000176082         0.458607       -0.880567      0.000257122     0.000184869       -0.0772341       0.0131219
281704                 -0.084836      -0.0787812      0.000283933     4.05229e-05         0.220638       -0.963274       0.00013032    -0.000155156
                     0.000327166     2.51691e-05       -0.0347119      -0.0705108     -2.57109e-05     0.000225201         0.458235        -0.88112
                        0.220604       -0.963237       4.8692e-05     0.000128053        -0.109902       0.0350451      0.000307754     0.000170417
                     0.000178424    -0.000176159         0.458224       -0.880764      0.000257288       0.0001847       -0.0772428       0.0131685
281706                -0.0848723      -0.0787642      0.000283873     4.04822e-05         0.220199       -0.963372      0.000130264    -0.000155255
                     0.000327113     2.51098e-05         -0.03474      -0.0705149     -2.54594e-05     0.000225133         0.457853       -0.881318
                        0.220166       -0.963335      4.87001e-05     0.000128005        -0.109896       0.0351142      0.000308031     0.000170086
                      0.00017828    -0.000176236          0.45784       -0.880962      0.000257453     0.000184531       -0.0772514        0.013215
281708                -0.0849086      -0.0787472      0.000283813     4.04417e-05         0.219761        -0.96347      0.000130202    -0.000155344
                      0.00032706     2.50503e-05       -0.0347681       -0.070519      -2.5208e-05     0.000225065          0.45747       -0.881516
                        0.219727       -0.963433      4.87082e-05     0.000127957        -0.109889       0.0351834      0.000308298     0.000169767
                     0.000178135    -0.000176314         0.457457       -0.881159      0.000257619     0.000184362       -0.0772599       0.0132617
281710                -0.0849449      -0.0787302      0.000283753     4.04014e-05         0.219322       -0.963568      0.000130133    -0.000155421
                     0.000327008     2.49907e-05       -0.0347963      -0.0705231     -2.49569e-05     0.000224997         0.457086       -0.881714
                        0.219288       -0.963531      4.87164e-05     0.000127909        -0.109883       0.0352526      0.000308555     0.000169462
                     0.000177991    -0.000176392         0.457073       -0.881357      0.000257784     0.000184193       -0.0772684       0.0133083
281712                -0.0849812      -0.0787131      0.000283694     4.03614e-05         0.218883       -0.963665      0.000130057    -0.000155486
                     0.000326955     2.49308e-05       -0.0348244      -0.0705272     -2.47061e-05     0.000224928         0.456703       -0.881911
                        0.218849       -0.963628      4.87246e-05     0.000127862        -0.109877       0.0353218      0.000308801     0.000169173
                     0.000177847     -0.00017647         0.456689       -0.881554       0.00025795     0.000184023       -0.0772769        0.013355
281714                -0.0850174      -0.0786961      0.000283634     4.03217e-05         0.218444       -0.963763      0.000129972    -0.000155536
                     0.000326902     2.48709e-05       -0.0348525      -0.0705313     -2.44555e-05      0.00022486         0.456319       -0.882108
                        0.218411       -0.963725       4.8733e-05     0.000127814         -0.10987       0.0353909      0.000309034     0.000168901
                     0.000177702    -0.000176548         0.456305       -0.881751      0.000258115     0.000183852       -0.0772853       0.0134017
281716                -0.0850537       -0.078679      0.000283574     4.02822e-05         0.218005        -0.96386      0.000129879    -0.000155569
                      0.00032685     2.48107e-05       -0.0348807      -0.0705354     -2.42051e-05     0.000224791         0.455935       -0.882305
                        0.217972       -0.963822      4.87414e-05     0.000127766        -0.109864       0.0354601      0.000309255     0.000168649
                     0.000177557    -0.000176627         0.455921       -0.881947      0.000258281     0.000183682       -0.0772936       0.0134484
281718                  -0.08509      -0.0786619      0.000283514     4.02429e-05         0.217566       -0.963957      0.000129775    -0.000155583
                     0.000326798     2.47504e-05       -0.0349089      -0.0705394     -2.39549e-05     0.000224722         0.455551       -0.882501
                        0.217533       -0.963919        4.875e-05     0.000127719        -0.109858       0.0355293       0.00030946      0.00016842
                     0.000177412    -0.000176706         0.455537       -0.882144      0.000258447     0.000183511       -0.0773018       0.0134951
281720                -0.0851263      -0.0786448      0.000283454     4.02038e-05         0.217127       -0.964054       0.00012966    -0.000155576
                     0.000326745       2.469e-05        -0.034937      -0.0705435     -2.37049e-05     0.000224652         0.455167       -0.882698
                        0.217094       -0.964016      4.87586e-05     0.000127671        -0.109851       0.0355985       0.00030965     0.000168215
                     0.000177267    -0.000176785         0.455153        -0.88234      0.000258612      0.00018334         -0.07731       0.0135419
281722                -0.0851626      -0.0786277      0.000283395      4.0165e-05         0.216688        -0.96415      0.000129533    -0.000155545
                     0.000326693     2.46294e-05       -0.0349652      -0.0705475     -2.34552e-05     0.000224583         0.454782       -0.882893
                        0.216655       -0.964112      4.87673e-05     0.000127624        -0.109844       0.0356677      0.000309821     0.000168038
                     0.000177121    -0.000176864         0.454768       -0.882537      0.000258778     0.000183168       -0.0773182       0.0135886
281724                -0.0851989      -0.0786105      0.000283335     4.01265e-05         0.216249       -0.964247      0.000129393    -0.000155487
                     0.000326641     2.45687e-05       -0.0349934      -0.0705516     -2.32057e-05     0.000224513         0.454397       -0.883089
                        0.216215       -0.964208      4.87761e-05     0.000127576        -0.109838       0.0357369      0.000309973     0.000167893
                     0.000176976    -0.000176944         0.454384       -0.882733      0.000258944     0.000182996       -0.0773262       0.0136354
281726                -0.0852351      -0.0785934      0.000283275     4.00881e-05         0.215809       -0.964343      0.000129238    -0.000155397
                      0.00032659     2.45079e-05       -0.0350216      -0.0705556     -2.29564e-05     0.000224443         0.454012       -0.883284
                        0.215776       -0.964304      4.87849e-05     0.000127529        -0.109831       0.0358061      0.000310103     0.000167784
                      0.00017683    -0.000177024         0.453999       -0.882929      0.000259109     0.000182824       -0.0773343       0.0136823
281728                -0.0852714      -0.0785762      0.000283216       4.005e-05          0.21537       -0.964439      0.000129066    -0.000155273
                     0.000326538     2.44469e-05       -0.0350498      -0.0705596     -2.27073e-05     0.000224372         0.453627       -0.883479
                        0.215337         -0.9644      4.87939e-05     0.000127481        -0.109825       0.0358753       0.00031021     0.000167713
                     0.000176684    -0.000177104         0.453615       -0.883124      0.000259275     0.000182651       -0.0773422       0.0137291
281730                -0.0853077       -0.078559      0.000283156     4.00121e-05         0.214931       -0.964535      0.000128878    -0.000155109
                     0.000326486     2.43858e-05        -0.035078      -0.0705636     -2.24585e-05     0.000224302         0.453241       -0.883674
                        0.214898       -0.964496      4.88029e-05     0.000127433        -0.109818       0.0359445      0.000310292     0.000167686
                     0.000176538    -0.000177185          0.45323        -0.88332      0.000259441     0.000182479       -0.0773501        0.013776
281732                 -0.085344      -0.0785418      0.000283097     3.99745e-05         0.214491       -0.964631      0.000128671    -0.000154903
                     0.000326435     2.43246e-05       -0.0351062      -0.0705676     -2.22099e-05     0.000224231         0.452855       -0.883869
                        0.214458       -0.964591       4.8812e-05     0.000127386        -0.109811       0.0360137      0.000310347     0.000167704
                     0.000176392    -0.000177266         0.452845       -0.883515      0.000259607     0.000182305        -0.077358       0.0138228
281734                -0.0853802      -0.0785246      0.000283038      3.9937e-05         0.214052       -0.964726      0.000128447    -0.000154652
                     0.000326384     2.42633e-05       -0.0351344      -0.0705715     -2.19615e-05      0.00022416         0.452469       -0.884063
                        0.214019       -0.964687      4.88211e-05     0.000127338        -0.109804       0.0360829      0.000310375      0.00016777
                     0.000176246    -0.000177347          0.45246       -0.883711      0.000259773     0.000182132       -0.0773657       0.0138697
281736                -0.0854165      -0.0785073      0.000282979     3.98998e-05         0.213612       -0.964821      0.000128207    -0.000154356
                     0.000326333     2.42018e-05       -0.0351627      -0.0705755     -2.17133e-05     0.000224089         0.452083       -0.884258
                        0.213579       -0.964782      4.88303e-05      0.00012729        -0.109797       0.0361522      0.000310378     0.000167881
                       0.0001761    -0.000177428         0.452075       -0.883906      0.000259939     0.000181958       -0.0773735       0.0139166
281738                -0.0854528      -0.0784901       0.00028292     3.98628e-05         0.213173       -0.964916      0.000127955    -0.000154022
                     0.000326281     2.41403e-05       -0.0351909      -0.0705794     -2.14653e-05     0.000224018         0.451696       -0.884452
                         0.21314       -0.964876      4.88395e-05     0.000127243         -0.10979       0.0362214      0.000310363     0.000168027
                     0.000175953     -0.00017751          0.45169       -0.884101      0.000260104     0.000181784       -0.0773812       0.0139635
281740                -0.0854891      -0.0784728      0.000282861     3.98259e-05         0.212733       -0.965011      0.000127701    -0.000153669
                     0.000326231     2.40786e-05       -0.0352192      -0.0705834     -2.12175e-05     0.000223947          0.45131       -0.884646
                          0.2127       -0.964971      4.88488e-05     0.000127195        -0.109783       0.0362906      0.000310342     0.000168188
                     0.000175806    -0.000177591         0.451305       -0.884296      0.000260271     0.000181609       -0.0773889       0.0140105
281742                -0.0855253      -0.0784555      0.000282802     3.97893e-05         0.212294       -0.965106      0.000127461    -0.000153341
                      0.00032618     2.40168e-05       -0.0352474      -0.0705873       -2.097e-05     0.000223875         0.450923        -0.88484
                        0.212261       -0.965066      4.88581e-05     0.000127147        -0.109776       0.0363598      0.000310342     0.000168319
                     0.000175659    -0.000177674          0.45092        -0.88449      0.000260437     0.000181435       -0.0773967       0.0140574
281744                -0.0855616      -0.0784382      0.000282744     3.97529e-05         0.211854         -0.9652      0.000127266    -0.000153117
                     0.000326129     2.39549e-05       -0.0352757      -0.0705912     -2.07227e-05     0.000223804         0.450537       -0.885034
                        0.211821        -0.96516      4.88674e-05     0.000127099        -0.109769       0.0364291      0.000310412     0.000168335
                     0.000175512    -0.000177756         0.450535       -0.884685      0.000260603      0.00018126       -0.0774044       0.0141043
281746                -0.0855979      -0.0784208      0.000282685     3.97167e-05         0.211414       -0.965294      0.000127168    -0.000153143
                     0.000326079     2.38929e-05       -0.0353039      -0.0705951     -2.04755e-05     0.000223732         0.450152       -0.885229
                        0.211381       -0.965254      4.88767e-05      0.00012705        -0.109762       0.0364983      0.000310636     0.000168091
                     0.000175365    -0.000177839         0.450149       -0.884879      0.000260769     0.000181084       -0.0774124       0.0141511
281748                -0.0856342      -0.0784035      0.000282627     3.96807e-05         0.210974       -0.965388      0.000127254    -0.000153643
                     0.000326028     2.38308e-05       -0.0353322       -0.070599     -2.02286e-05      0.00022366         0.449769       -0.885424
                        0.210942       -0.965348      4.88861e-05     0.000127002        -0.109755       0.0365675      0.000311145     0.000167353
                     0.000175218    -0.000177922         0.449764       -0.885073      0.000260935     0.000180908       -0.0774206       0.0141979
281750                -0.0856704      -0.0783861      0.000282569     3.96448e-05         0.210534       -0.965482      0.000127657    -0.000154896
                     0.000325978     2.37687e-05       -0.0353605      -0.0706029     -1.99819e-05     0.000223588         0.449388        -0.88562
                        0.210502       -0.965441      4.88954e-05     0.000126954        -0.109748       0.0366368      0.000312119     0.000165792
                      0.00017507    -0.000178006         0.449378       -0.885267      0.000261101     0.000180732       -0.0774294       0.0142447
281752                -0.0857067      -0.0783687      0.000282511     3.96092e-05         0.210094       -0.965576      0.000128553    -0.000157113
                     0.000325928     2.37066e-05       -0.0353888      -0.0706068     -1.97354e-05     0.000223515         0.449014       -0.885817
                        0.210062       -0.965535      4.89048e-05     0.000126905        -0.109741        0.036706      0.000313744     0.000163063
                     0.000174922    -0.000178091         0.448992       -0.885461      0.000261268     0.000180556       -0.0774391       0.0142915
281754                 -0.085743      -0.0783513      0.000282453     3.95738e-05         0.209655       -0.965669      0.000130066    -0.000160191
                     0.000325878     2.36446e-05       -0.0354171      -0.0706106     -1.94891e-05     0.000223443          0.44865       -0.886012
                        0.209622       -0.965628      4.89141e-05     0.000126857        -0.109734       0.0367753      0.000316088     0.000159011
                     0.000174793    -0.000178206         0.448607       -0.885654      0.000261434     0.000180379       -0.0774507        0.014339
281756                -0.0857792      -0.0783339      0.000282396     3.95385e-05         0.209215       -0.965762       0.00013209    -0.000163592
                     0.000325827     2.35824e-05       -0.0354454      -0.0706145      -1.9243e-05      0.00022337         0.448303       -0.886199
                        0.209182       -0.965721      4.89235e-05     0.000126808        -0.109726       0.0368446      0.000318954     0.000153953
                     0.000174631    -0.000178248         0.448221       -0.885848      0.000261601     0.000180202       -0.0774647       0.0143891
281758                -0.0858155      -0.0783165      0.000282338     3.95035e-05         0.208774       -0.965855      0.000134223    -0.000166632
                     0.000325777     2.35198e-05       -0.0354737      -0.0706183     -1.89971e-05     0.000223297         0.447973       -0.886356
                        0.208742       -0.965814      4.89328e-05     0.000126759        -0.109719       0.0369138      0.000321881     0.000148706
                     0.000174481    -0.000178334         0.447835       -0.886041      0.000261767     0.000180025        -0.077479       0.0144459
281760                -0.0858517       -0.078299      0.000282281     3.94686e-05         0.208334       -0.965948      0.000136017    -0.000168914
                     0.000325727      2.3457e-05       -0.0355021      -0.0706221     -1.87514e-05     0.000223224         0.447624       -0.886468
                        0.208302       -0.965907      4.89422e-05     0.000126711        -0.109712       0.0369831      0.000324383     0.000144158
                     0.000174332    -0.000178419         0.447449       -0.886234      0.000261934     0.000179847       -0.0774847       0.0145077
281762                 -0.085888      -0.0782815      0.000282224      3.9434e-05         0.207894       -0.966041      0.000137258    -0.000170425
                     0.000325677     2.33941e-05       -0.0355304      -0.0706259     -1.85058e-05     0.000223151         0.447222       -0.886576
                        0.207862       -0.965999      4.89516e-05     0.000126662        -0.109704       0.0370523      0.000326218     0.000140781
