! TOUCHSTONE file generated by CST MICROWAVE STUDIO
! Date and time: Tue Oct 14 07:31:43 2025
! Project name: Teste_Macro_Metasurface_Nanopilar.cst
! Parameters = {H=600; L_x=180; L_y=85; Lambda=1064; Max_L=200; Min_L=70; PathPara=1; Phi=0; Step_L=10; Theta=0; p=520; phaseX=180; phaseY=0}
! Header version: 2018
! Port assignment regex: !\s*Touchstone port\s*([0-9]+)\s*=\s*(CST MWS port|CST DS port)\s*([0-9]+|Zmin|Zmax)\s*\(\"(.*)\"\)(\s*mode\s*([0-9]+))?.*
! Touchstone port assignment:
! Touchstone port 1 = CST MWS port Zmax ("") mode 1
! Touchstone port 2 = CST MWS port Zmax ("") mode 2
! Touchstone port 3 = CST MWS port Zmin ("") mode 1
! Touchstone port 4 = CST MWS port Zmin ("") mode 2
! S-Parameters are not renormalized. Each port impedance will be approximated by the real part at minimum frequency. The values are described via the [Reference] keyword.
! Default impedance is overridden by [Reference]
[Version] 2.0
# GHz S RI R 376.73
[Number of Ports] 4
[Reference]
376.73 376.73 259.814 259.814 
[Number of Frequencies] 51
[Network Data]
281700                 0.0377345      -0.0236958       0.00027044     0.000476201         0.731906       -0.676703     -0.000460057    -7.96649e-06
                     0.000358012     0.000546705        -0.114318       -0.280726      0.000503731     2.52752e-05         0.410618        0.853668
                        0.731992       -0.676549      0.000470781     6.50208e-05        -0.026313       0.0366164     -0.000373957      0.00030698
                    -0.000517339    -9.14235e-05         0.411121        0.853732     -0.000240894     0.000337512         0.149775        0.261592
281702                 0.0377329      -0.0237228      0.000270621     0.000476276         0.731634       -0.676996     -0.000460007    -7.69242e-06
                      0.00035735     0.000546405        -0.114428       -0.280738      0.000503757     2.49748e-05         0.411019        0.853456
                         0.73172       -0.676841      0.000470921     6.48977e-05       -0.0263108       0.0366339     -0.000373807     0.000307361
                    -0.000516871    -9.16526e-05         0.411523         0.85352     -0.000240619     0.000337709         0.149969        0.261541
281704                 0.0377313      -0.0237499      0.000270803     0.000476351         0.731362       -0.677289     -0.000459956    -7.41846e-06
                     0.000356679     0.000546097        -0.114537       -0.280751      0.000503783     2.46746e-05          0.41142        0.853244
                        0.731448       -0.677133       0.00047106     6.47747e-05       -0.0263085       0.0366513     -0.000373657     0.000307742
                    -0.000516393    -9.18825e-05         0.411924        0.853308     -0.000240345     0.000337906         0.150162        0.261491
281706                 0.0377296      -0.0237769      0.000270985     0.000476425         0.731089       -0.677582     -0.000459905    -7.14462e-06
                     0.000355997     0.000545781        -0.114646       -0.280764      0.000503809     2.43744e-05          0.41182        0.853031
                        0.731175       -0.677424      0.000471199     6.46518e-05       -0.0263063       0.0366688     -0.000373507     0.000308122
                    -0.000515904    -9.21129e-05         0.412325        0.853095      -0.00024007     0.000338104         0.150356         0.26144
281708                  0.037728       -0.023804      0.000271167     0.000476499         0.730817       -0.677875     -0.000459853    -6.87089e-06
                     0.000355306     0.000545455        -0.114756       -0.280776      0.000503834     2.40743e-05         0.412221        0.852819
                        0.730903       -0.677716      0.000471337     6.45288e-05        -0.026304       0.0366863     -0.000373357     0.000308503
                    -0.000515406    -9.23437e-05         0.412726        0.852883     -0.000239795     0.000338301          0.15055        0.261389
281710                 0.0377263       -0.023831       0.00027135     0.000476573         0.730544       -0.678167     -0.000459802    -6.59726e-06
                     0.000354605      0.00054512        -0.114865       -0.280789       0.00050386     2.37742e-05         0.412621        0.852606
                         0.73063       -0.678007      0.000471474     6.44058e-05       -0.0263017       0.0367038     -0.000373207     0.000308884
                    -0.000514897    -9.25749e-05         0.413127         0.85267     -0.000239521     0.000338499         0.150743        0.261338
281712                 0.0377247      -0.0238581      0.000271533     0.000476647         0.730271        -0.67846     -0.000459751    -6.32373e-06
                     0.000353894     0.000544776        -0.114975       -0.280801      0.000503885     2.34743e-05         0.413021        0.852393
                        0.730358       -0.678298      0.000471611     6.42829e-05       -0.0262994       0.0367213     -0.000373057     0.000309264
                    -0.000514378    -9.28063e-05         0.413527        0.852457     -0.000239246     0.000338696         0.150937        0.261287
281714                  0.037723      -0.0238851      0.000271716      0.00047672         0.729998       -0.678753     -0.000459699     -6.0503e-06
                     0.000353173     0.000544422        -0.115084       -0.280814       0.00050391     2.31744e-05         0.413422         0.85218
                        0.730085        -0.67859      0.000471747     6.41599e-05       -0.0262971       0.0367388     -0.000372908     0.000309645
                    -0.000513848    -9.30378e-05         0.413928        0.852244     -0.000238971     0.000338893          0.15113        0.261236
281716                 0.0377213      -0.0239122        0.0002719     0.000476794         0.729725       -0.679045     -0.000459648    -5.77696e-06
                     0.000352443     0.000544059        -0.115194       -0.280826      0.000503935     2.28746e-05         0.413822        0.851967
                        0.729812       -0.678881      0.000471883     6.40369e-05       -0.0262948       0.0367563     -0.000372759     0.000310025
                    -0.000513308    -9.32692e-05         0.414329         0.85203     -0.000238696     0.000339091         0.151324        0.261185
281718                 0.0377195      -0.0239392      0.000272084     0.000476867         0.729452       -0.679337     -0.000459596    -5.50372e-06
                     0.000351703     0.000543686        -0.115303       -0.280839       0.00050396     2.25749e-05         0.414222        0.851753
                        0.729539       -0.679171      0.000472018     6.39139e-05       -0.0262924       0.0367738     -0.000372609     0.000310405
                    -0.000512757    -9.35005e-05         0.414729        0.851817     -0.000238421     0.000339288         0.151518        0.261133
281720                 0.0377178      -0.0239663      0.000272269     0.000476939         0.729179       -0.679629     -0.000459544    -5.23056e-06
                     0.000350953     0.000543303        -0.115413       -0.280851      0.000503985     2.22752e-05         0.414621        0.851539
                        0.729266       -0.679462      0.000472152     6.37909e-05       -0.0262901       0.0367913      -0.00037246     0.000310786
                    -0.000512196    -9.37316e-05         0.415129        0.851603     -0.000238146     0.000339485         0.151711        0.261081
281722                  0.037716      -0.0239934      0.000272454     0.000477012         0.728905       -0.679922     -0.000459492    -4.95749e-06
                     0.000350194      0.00054291        -0.115522       -0.280864       0.00050401     2.19756e-05         0.415021        0.851326
                        0.728993       -0.679753      0.000472286     6.36678e-05       -0.0262877       0.0368088     -0.000372311     0.000311166
                    -0.000511625    -9.39624e-05          0.41553        0.851389     -0.000237871     0.000339681         0.151905         0.26103
281724                 0.0377143      -0.0240204      0.000272639     0.000477084         0.728632       -0.680213      -0.00045944     -4.6845e-06
                     0.000349425     0.000542508        -0.115632       -0.280876      0.000504035     2.16761e-05         0.415421        0.851111
                        0.728719       -0.680044       0.00047242     6.35447e-05       -0.0262854       0.0368263     -0.000372162     0.000311546
                    -0.000511042    -9.41928e-05          0.41593        0.851175     -0.000237596     0.000339878         0.152098        0.260978
281726                 0.0377125      -0.0240475      0.000272825     0.000477156         0.728358       -0.680505     -0.000459387    -4.41159e-06
                     0.000348646     0.000542095        -0.115742       -0.280888      0.000504059     2.13766e-05          0.41582        0.850897
                        0.728446       -0.680334      0.000472552     6.34215e-05        -0.026283       0.0368439     -0.000372012     0.000311926
                    -0.000510449    -9.44226e-05          0.41633         0.85096     -0.000237321     0.000340075         0.152292        0.260926
281728                 0.0377107      -0.0240746      0.000273011     0.000477228         0.728084       -0.680797     -0.000459335    -4.13876e-06
                     0.000347858     0.000541672        -0.115851       -0.280901      0.000504084     2.10771e-05          0.41622        0.850683
                        0.728172       -0.680624      0.000472684     6.32983e-05       -0.0262806       0.0368614     -0.000371863     0.000312306
                    -0.000509845     -9.4652e-05          0.41673        0.850746     -0.000237045     0.000340271         0.152486        0.260874
281730                 0.0377089      -0.0241016      0.000273198       0.0004773          0.72781       -0.681089     -0.000459282    -3.86601e-06
                     0.000347059     0.000541239        -0.115961       -0.280913      0.000504108     2.07777e-05         0.416619        0.850468
                        0.727898       -0.680915      0.000472816      6.3175e-05       -0.0262782        0.036879     -0.000371714     0.000312686
                     -0.00050923    -9.48808e-05          0.41713        0.850531      -0.00023677     0.000340467         0.152679        0.260821
281732                 0.0377071      -0.0241287      0.000273385     0.000477371         0.727536        -0.68138      -0.00045923    -3.59333e-06
                     0.000346251     0.000540796        -0.116071       -0.280925      0.000504133     2.04783e-05         0.417019        0.850253
                        0.727625       -0.681205      0.000472947     6.30516e-05       -0.0262758       0.0368965     -0.000371564     0.000313066
                    -0.000508604    -9.51089e-05         0.417529        0.850316     -0.000236494     0.000340663         0.152873        0.260769
281734                 0.0377052      -0.0241558      0.000273573     0.000477443         0.727262       -0.681672     -0.000459177    -3.32071e-06
                     0.000345434     0.000540343         -0.11618       -0.280937      0.000504157      2.0179e-05         0.417418        0.850038
                         0.72735       -0.681495      0.000473077     6.29282e-05       -0.0262734       0.0369141     -0.000371415     0.000313446
                    -0.000507967    -9.53363e-05         0.417929        0.850101     -0.000236218     0.000340859         0.153067        0.260716
281736                 0.0377033      -0.0241829       0.00027376     0.000477514         0.726988       -0.681963     -0.000459124    -3.04817e-06
                     0.000344607     0.000539879         -0.11629        -0.28095      0.000504181     1.98796e-05         0.417817        0.849823
                        0.727076       -0.681785      0.000473207     6.28046e-05        -0.026271       0.0369317     -0.000371265     0.000313826
                    -0.000507319     -9.5563e-05         0.418328        0.849885     -0.000235942     0.000341054          0.15326        0.260664
281738                 0.0377015      -0.0242099      0.000273949     0.000477584         0.726713       -0.682254      -0.00045907     -2.7757e-06
                      0.00034377     0.000539405          -0.1164       -0.280962      0.000504205     1.95803e-05         0.418216        0.849607
                        0.726802       -0.682075      0.000473336      6.2681e-05       -0.0262686       0.0369492     -0.000371116     0.000314205
                    -0.000506659     -9.5789e-05         0.418728         0.84967     -0.000235666      0.00034125         0.153454        0.260611
281740                 0.0376996       -0.024237      0.000274137     0.000477655         0.726439       -0.682545     -0.000459017    -2.50329e-06
                     0.000342923     0.000538921         -0.11651       -0.280974      0.000504229      1.9281e-05         0.418614        0.849391
                        0.726528       -0.682365      0.000473465     6.25573e-05       -0.0262661       0.0369668     -0.000370966     0.000314585
                    -0.000505989    -9.60141e-05         0.419127        0.849454      -0.00023539     0.000341445         0.153648        0.260558
281742                 0.0376977      -0.0242641      0.000274326     0.000477726         0.726164       -0.682836     -0.000458964    -2.23095e-06
                     0.000342067     0.000538426         -0.11662       -0.280986      0.000504253     1.89817e-05         0.419013        0.849175
                        0.726253       -0.682654      0.000473593     6.24335e-05       -0.0262637       0.0369844     -0.000370816     0.000314965
                    -0.000505307    -9.62385e-05         0.419526        0.849238     -0.000235113     0.000341639         0.153841        0.260505
281744                 0.0376957      -0.0242912      0.000274516     0.000477796          0.72589       -0.683127      -0.00045891    -1.95867e-06
                     0.000341201     0.000537921         -0.11673       -0.280998      0.000504277     1.86824e-05         0.419412        0.848959
                        0.725979       -0.682944      0.000473721     6.23096e-05       -0.0262612        0.037002     -0.000370666     0.000315344
                    -0.000504614     -9.6462e-05         0.419925        0.849022     -0.000234837     0.000341834         0.154035        0.260452
281746                 0.0376938      -0.0243183      0.000274705     0.000477866         0.725615       -0.683418     -0.000458856    -1.68646e-06
                     0.000340326     0.000537406         -0.11684        -0.28101      0.000504301     1.83831e-05          0.41981        0.848743
                        0.725704       -0.683233      0.000473848     6.21856e-05       -0.0262588       0.0370196     -0.000370516     0.000315724
                     -0.00050391    -9.66845e-05         0.420324        0.848805      -0.00023456     0.000342028         0.154229        0.260398
281748                 0.0376918      -0.0243454      0.000274895     0.000477936          0.72534       -0.683709     -0.000458802     -1.4143e-06
                     0.000339442     0.000536881        -0.116949       -0.281022      0.000504324     1.80838e-05         0.420209        0.848527
                        0.725429       -0.683522      0.000473975     6.20615e-05       -0.0262563       0.0370372     -0.000370365     0.000316103
                    -0.000503194    -9.69062e-05         0.420723        0.848589     -0.000234283     0.000342222         0.154422        0.260345
281750                 0.0376899      -0.0243725      0.000275086     0.000478005         0.725065       -0.683999     -0.000458748     -1.1422e-06
                     0.000338547     0.000536345        -0.117059       -0.281034      0.000504348     1.77845e-05         0.420607         0.84831
                        0.725154       -0.683812      0.000474101     6.19372e-05       -0.0262538       0.0370548     -0.000370214     0.000316482
                    -0.000502467    -9.71269e-05         0.421122        0.848372     -0.000234006     0.000342416         0.154616        0.260291
281752                 0.0376879      -0.0243996      0.000275277     0.000478075         0.724789        -0.68429     -0.000458693    -8.70167e-07
                     0.000337644     0.000535799        -0.117169       -0.281046      0.000504371     1.74851e-05         0.421005        0.848093
                        0.724879       -0.684101      0.000474226     6.18129e-05       -0.0262513       0.0370724     -0.000370064     0.000316862
                    -0.000501729    -9.73466e-05         0.421521        0.848155     -0.000233728      0.00034261          0.15481        0.260237
281754                 0.0376859      -0.0244267      0.000275468     0.000478144         0.724514        -0.68458     -0.000458639    -5.98187e-07
                     0.000336731     0.000535243        -0.117279       -0.281058      0.000504395     1.71858e-05         0.421403        0.847876
                        0.724603        -0.68439      0.000474351     6.16884e-05       -0.0262488       0.0370901     -0.000369913     0.000317241
                    -0.000500979    -9.75653e-05         0.421919        0.847938     -0.000233451     0.000342803         0.155003        0.260183
281756                 0.0376838      -0.0244537       0.00027566     0.000478214         0.724239        -0.68487     -0.000458584    -3.26265e-07
                     0.000335809     0.000534677         -0.11739        -0.28107      0.000504418     1.68864e-05         0.421801        0.847659
                        0.724328       -0.684679      0.000474475     6.15637e-05       -0.0262462       0.0371077     -0.000369761      0.00031762
                    -0.000500219    -9.77829e-05         0.422318        0.847721     -0.000233173     0.000342996         0.155197        0.260129
281758                 0.0376818      -0.0244808      0.000275852     0.000478283         0.723963       -0.685161     -0.000458529    -5.43988e-08
                     0.000334878       0.0005341          -0.1175       -0.281082      0.000504441     1.65869e-05         0.422199        0.847441
                        0.724052       -0.684967      0.000474599      6.1439e-05       -0.0262437       0.0371253      -0.00036961     0.000317999
                    -0.000499446    -9.79994e-05         0.422716        0.847503     -0.000232895     0.000343188         0.155391        0.260075
281760                 0.0376797      -0.0245079      0.000276045     0.000478351         0.723687       -0.685451     -0.000458474     2.17412e-07
                     0.000333937     0.000533513         -0.11761       -0.281093      0.000504464     1.62874e-05         0.422597        0.847223
                        0.723777       -0.685256      0.000474722     6.13141e-05       -0.0262412        0.037143     -0.000369458     0.000318378
                    -0.000498663    -9.82147e-05         0.423114        0.847285     -0.000232617     0.000343381         0.155584        0.260021
281762                 0.0376777       -0.024535      0.000276238      0.00047842         0.723412       -0.685741     -0.000458419     4.89167e-07
                     0.000332988     0.000532916         -0.11772       -0.281105      0.000504487     1.59879e-05         0.422995        0.847006
                        0.723501       -0.685545      0.000474845      6.1189e-05       -0.0262386       0.0371606     -0.000369306     0.000318757
