! TOUCHSTONE file generated by CST MICROWAVE STUDIO
! Date and time: Tue Oct 14 07:29:33 2025
! Project name: Teste_Macro_Metasurface_Nanopilar.cst
! Parameters = {H=600; L_x=145; L_y=100; Lambda=1064; Max_L=200; Min_L=70; PathPara=1; Phi=0; Step_L=10; Theta=0; p=520; phaseX=180; phaseY=0}
! Header version: 2018
! Port assignment regex: !\s*Touchstone port\s*([0-9]+)\s*=\s*(CST MWS port|CST DS port)\s*([0-9]+|Zmin|Zmax)\s*\(\"(.*)\"\)(\s*mode\s*([0-9]+))?.*
! Touchstone port assignment:
! Touchstone port 1 = CST MWS port Zmax ("") mode 1
! Touchstone port 2 = CST MWS port Zmax ("") mode 2
! Touchstone port 3 = CST MWS port Zmin ("") mode 1
! Touchstone port 4 = CST MWS port Zmin ("") mode 2
! S-Parameters are not renormalized. Each port impedance will be approximated by the real part at minimum frequency. The values are described via the [Reference] keyword.
! Default impedance is overridden by [Reference]
[Version] 2.0
# GHz S RI R 376.73
[Number of Ports] 4
[Reference]
376.73 376.73 259.814 259.814 
[Number of Frequencies] 51
[Network Data]
281700                -0.0805207       -0.119124      0.000865132     0.000564499         0.071773       -0.981369      0.000373459    -0.000843006
                     0.000875969     0.000566919       -0.0227071       -0.111707      9.74106e-05     -0.00109073        -0.331687        0.929602
                       0.0721167       -0.981677      2.36128e-05     -0.00116425       -0.0957246        0.106708      -0.00110047     0.000111738
                     0.000258871    -0.000803432        -0.330927        0.929626       -0.0011006     0.000107365       -0.0875402       0.0736791
281702                -0.0805721       -0.119109      0.000865489     0.000564173        0.0713191       -0.981399      0.000373079    -0.000843242
                     0.000876255     0.000566607       -0.0227545        -0.11172      9.69294e-05     -0.00109083        -0.331247        0.929757
                       0.0716626       -0.981707       2.3152e-05      -0.0011642       -0.0956748        0.106774      -0.00110043     0.000112218
                     0.000258589    -0.000803595        -0.330486        0.929781      -0.00110062     0.000107837       -0.0875162       0.0737423
281704                -0.0806235       -0.119094      0.000865845     0.000563848        0.0708652       -0.981429      0.000372699    -0.000843477
                     0.000876542     0.000566296       -0.0228019       -0.111734      9.64482e-05     -0.00109092        -0.330806        0.929911
                       0.0712086       -0.981737       2.2691e-05     -0.00116416        -0.095625        0.106841      -0.00110039     0.000112697
                     0.000258306    -0.000803758        -0.330045        0.929935      -0.00110064     0.000108309       -0.0874923       0.0738055
281706                -0.0806749       -0.119079        0.0008662     0.000563522        0.0704112       -0.981459      0.000372319    -0.000843712
                     0.000876828     0.000565984       -0.0228493       -0.111747      9.59671e-05     -0.00109101        -0.330365        0.930065
                       0.0707544       -0.981767      2.22299e-05     -0.00116411       -0.0955752        0.106908      -0.00110035     0.000113177
                     0.000258023     -0.00080392        -0.329604        0.930089      -0.00110066      0.00010878       -0.0874683       0.0738687
281708                -0.0807263       -0.119065      0.000866556     0.000563196        0.0699573       -0.981488      0.000371939    -0.000843947
                     0.000877115     0.000565672       -0.0228967       -0.111761      9.54861e-05      -0.0010911        -0.329925        0.930219
                       0.0703003       -0.981797      2.17686e-05     -0.00116406       -0.0955252        0.106975      -0.00110031     0.000113657
                      0.00025774    -0.000804083        -0.329163        0.930242      -0.00110068      0.00010925       -0.0874442       0.0739319
281710                -0.0807778        -0.11905      0.000866912      0.00056287        0.0695033       -0.981518       0.00037156    -0.000844182
                     0.000877401      0.00056536       -0.0229441       -0.111774      9.50052e-05     -0.00109119        -0.329484        0.930373
                       0.0698462       -0.981826      2.13072e-05     -0.00116402       -0.0954753        0.107041      -0.00110027     0.000114137
                     0.000257457    -0.000804245        -0.328722        0.930396       -0.0011007      0.00010972       -0.0874201       0.0739951
281712                -0.0808292       -0.119035      0.000867267     0.000562544        0.0690493       -0.981547      0.000371181    -0.000844417
                     0.000877688     0.000565048       -0.0229915       -0.111788      9.45243e-05     -0.00109128        -0.329043        0.930526
                        0.069392       -0.981856      2.08456e-05     -0.00116397       -0.0954253        0.107108      -0.00110023     0.000114617
                     0.000257173    -0.000804407         -0.32828        0.930549      -0.00110072     0.000110189        -0.087396       0.0740583
281714                -0.0808806        -0.11902      0.000867623     0.000562218        0.0685952       -0.981576      0.000370802    -0.000844651
                     0.000877974     0.000564735       -0.0230389       -0.111801      9.40435e-05     -0.00109137        -0.328602         0.93068
                       0.0689378       -0.981885      2.03839e-05     -0.00116392       -0.0953752        0.107175      -0.00110019     0.000115096
                     0.000256889    -0.000804569        -0.327839        0.930702      -0.00110074     0.000110658       -0.0873718       0.0741215
281716                 -0.080932       -0.119005      0.000867978     0.000561891        0.0681412       -0.981604      0.000370423    -0.000844885
                     0.000878261     0.000564423       -0.0230864       -0.111814      9.35627e-05     -0.00109146        -0.328161        0.930833
                       0.0684836       -0.981914       1.9922e-05     -0.00116387       -0.0953251        0.107241      -0.00110015     0.000115576
                     0.000256605    -0.000804731        -0.327398        0.930855      -0.00110076     0.000111126       -0.0873475       0.0741847
281718                -0.0809834        -0.11899      0.000868333     0.000561565        0.0676871       -0.981633      0.000370045    -0.000845119
                     0.000878548      0.00056411       -0.0231338       -0.111828       9.3082e-05     -0.00109154         -0.32772        0.930985
                       0.0680294       -0.981942        1.946e-05     -0.00116383        -0.095275        0.107308      -0.00110011     0.000116056
                      0.00025632    -0.000804892        -0.326956        0.931008      -0.00110078     0.000111594       -0.0873232       0.0742479
281720                -0.0810348       -0.118975      0.000868688     0.000561238         0.067233       -0.981661      0.000369666    -0.000845353
                     0.000878834     0.000563797       -0.0231813       -0.111841      9.26014e-05     -0.00109163        -0.327279        0.931138
                       0.0675751       -0.981971      1.89979e-05     -0.00116378       -0.0952248        0.107374      -0.00110008     0.000116536
                     0.000256035    -0.000805054        -0.326515         0.93116      -0.00110079     0.000112061       -0.0872989       0.0743111
281722                -0.0810862        -0.11896      0.000869042     0.000560911        0.0667789       -0.981689      0.000369288    -0.000845587
                     0.000879121     0.000563484       -0.0232288       -0.111855      9.21209e-05     -0.00109171        -0.326838         0.93129
                       0.0671208       -0.981999      1.85356e-05     -0.00116373       -0.0951746        0.107441      -0.00110004     0.000117016
                      0.00025575    -0.000805215        -0.326073        0.931312      -0.00110081     0.000112527       -0.0872745       0.0743743
281724                -0.0811376       -0.118945      0.000869397     0.000560583        0.0663248       -0.981717       0.00036891     -0.00084582
                     0.000879408     0.000563171       -0.0232762       -0.111868      9.16404e-05      -0.0010918        -0.326396        0.931443
                       0.0666665       -0.982027      1.80731e-05     -0.00116369       -0.0951243        0.107508          -0.0011     0.000117496
                     0.000255464    -0.000805376        -0.325632        0.931464      -0.00110083     0.000112993       -0.0872501       0.0744374
281726                 -0.081189        -0.11893      0.000869752     0.000560256        0.0658706       -0.981745      0.000368532    -0.000846053
                     0.000879695     0.000562858       -0.0233237       -0.111881      9.11601e-05     -0.00109188        -0.325955        0.931595
                       0.0662122       -0.982055      1.76105e-05     -0.00116364        -0.095074        0.107574      -0.00109997     0.000117976
                     0.000255178    -0.000805537         -0.32519        0.931616      -0.00110084     0.000113459       -0.0872256       0.0745006
281728                -0.0812404       -0.118915      0.000870106     0.000559928        0.0654165       -0.981773      0.000368154    -0.000846286
                     0.000879982     0.000562545       -0.0233712       -0.111895      9.06797e-05     -0.00109196        -0.325514        0.931746
                       0.0657579       -0.982083      1.71477e-05      -0.0011636       -0.0950236        0.107641      -0.00109993     0.000118455
                     0.000254892    -0.000805698        -0.324748        0.931768      -0.00110085     0.000113924       -0.0872011       0.0745638
281730                -0.0812918         -0.1189       0.00087046       0.0005596        0.0649623         -0.9818      0.000367777    -0.000846519
                     0.000880269     0.000562231       -0.0234187       -0.111908      9.01995e-05     -0.00109204        -0.325072        0.931898
                       0.0653035        -0.98211      1.66848e-05     -0.00116355       -0.0949732        0.107707       -0.0010999     0.000118935
                     0.000254605    -0.000805859        -0.324307        0.931919      -0.00110087     0.000114388       -0.0871765        0.074627
281732                -0.0813432       -0.118885      0.000870814     0.000559272        0.0645081       -0.981827        0.0003674    -0.000846751
                     0.000880556     0.000561918       -0.0234662       -0.111921      8.97193e-05     -0.00109212        -0.324631        0.932049
                       0.0648492       -0.982137      1.62217e-05      -0.0011635       -0.0949227        0.107773      -0.00109986     0.000119415
                     0.000254318    -0.000806019        -0.323865         0.93207      -0.00110088     0.000114852       -0.0871519       0.0746901
281734                -0.0813946        -0.11887      0.000871168     0.000558944        0.0640539       -0.981854      0.000367023    -0.000846983
                     0.000880843     0.000561604       -0.0235138       -0.111934      8.92393e-05      -0.0010922        -0.324189          0.9322
                       0.0643948       -0.982164      1.57585e-05     -0.00116346       -0.0948722         0.10784      -0.00109983     0.000119894
                     0.000254031    -0.000806179        -0.323423        0.932221      -0.00110089     0.000115316       -0.0871273       0.0747533
281736                 -0.081446       -0.118854      0.000871522     0.000558616        0.0635996        -0.98188      0.000366646    -0.000847215
                      0.00088113      0.00056129       -0.0235613       -0.111947      8.87592e-05     -0.00109228        -0.323747        0.932351
                       0.0639404       -0.982191      1.52951e-05     -0.00116341       -0.0948216        0.107906      -0.00109979     0.000120373
                     0.000253743    -0.000806339        -0.322981        0.932372       -0.0011009     0.000115779       -0.0871026       0.0748164
281738                -0.0814974       -0.118839      0.000871876     0.000558287        0.0631454       -0.981907      0.000366269    -0.000847447
                     0.000881417     0.000560976       -0.0236089       -0.111961      8.82793e-05     -0.00109236        -0.323306        0.932502
                        0.063486       -0.982217      1.48315e-05     -0.00116337        -0.094771        0.107973      -0.00109976     0.000120853
                     0.000253455    -0.000806499        -0.322539        0.932522      -0.00110091     0.000116241       -0.0870778       0.0748796
281740                -0.0815488       -0.118824      0.000872229     0.000557958        0.0626911       -0.981933      0.000365892    -0.000847679
                     0.000881704     0.000560661       -0.0236564       -0.111974      8.77995e-05     -0.00109243        -0.322864        0.932653
                       0.0630315       -0.982244      1.43678e-05     -0.00116332       -0.0947204        0.108039      -0.00109973     0.000121332
                     0.000253167    -0.000806659        -0.322097        0.932673      -0.00110092     0.000116703        -0.087053       0.0749427
281742                -0.0816002       -0.118809      0.000872583     0.000557629        0.0622368       -0.981959      0.000365516     -0.00084791
                     0.000881991     0.000560347        -0.023704       -0.111987      8.73197e-05     -0.00109251        -0.322422        0.932803
                        0.062577        -0.98227      1.39039e-05     -0.00116327       -0.0946697        0.108105       -0.0010997     0.000121811
                     0.000252878    -0.000806819        -0.321655        0.932823      -0.00110093     0.000117165       -0.0870282       0.0750059
281744                -0.0816516       -0.118793      0.000872936       0.0005573        0.0617825       -0.981985       0.00036514    -0.000848141
                     0.000882279     0.000560032       -0.0237515          -0.112        8.684e-05     -0.00109258         -0.32198        0.932953
                       0.0621226       -0.982296      1.34398e-05     -0.00116323       -0.0946189        0.108172      -0.00109967      0.00012229
                     0.000252589    -0.000806978        -0.321212        0.932973      -0.00110093     0.000117626       -0.0870033        0.075069
281746                 -0.081703       -0.118778       0.00087329      0.00055697        0.0613281       -0.982011      0.000364763    -0.000848372
                     0.000882566     0.000559718       -0.0237991       -0.112013      8.63604e-05     -0.00109265        -0.321538        0.933103
                       0.0616681       -0.982322      1.29756e-05     -0.00116318       -0.0945681        0.108238      -0.00109964     0.000122769
                       0.0002523    -0.000807137         -0.32077        0.933122      -0.00110094     0.000118086       -0.0869783       0.0751321
281748                -0.0817544       -0.118763      0.000873643      0.00055664        0.0608738       -0.982036      0.000364388    -0.000848602
                     0.000882854     0.000559403       -0.0238467       -0.112026      8.58809e-05     -0.00109273        -0.321096        0.933252
                       0.0612135       -0.982347      1.25111e-05     -0.00116314       -0.0945173        0.108304      -0.00109961     0.000123248
                      0.00025201    -0.000807296        -0.320328        0.933272      -0.00110095     0.000118547       -0.0869533       0.0751953
281750                -0.0818058       -0.118747      0.000873997      0.00055631        0.0604194       -0.982061      0.000364012    -0.000848833
                     0.000883141     0.000559088       -0.0238943       -0.112039      8.54014e-05      -0.0010928        -0.320654        0.933402
                        0.060759       -0.982372      1.20465e-05     -0.00116309       -0.0944664         0.10837      -0.00109958     0.000123726
                     0.000251721    -0.000807455        -0.319885        0.933421      -0.00110095     0.000119006       -0.0869283       0.0752584
281752                -0.0818573       -0.118732       0.00087435     0.000555979         0.059965       -0.982086      0.000363636    -0.000849063
                     0.000883429     0.000558773       -0.0239419       -0.112052       8.4922e-05     -0.00109287        -0.320212        0.933551
                       0.0603044       -0.982398      1.15816e-05     -0.00116304       -0.0944155        0.108436      -0.00109955     0.000124205
                      0.00025143    -0.000807614        -0.319443         0.93357      -0.00110096     0.000119466       -0.0869032       0.0753215
281754                -0.0819087       -0.118717      0.000874704     0.000555648        0.0595106       -0.982111      0.000363261    -0.000849293
                     0.000883716     0.000558457       -0.0239895       -0.112065      8.44428e-05     -0.00109294         -0.31977          0.9337
                       0.0598499       -0.982422      1.11163e-05       -0.001163       -0.0943645        0.108503      -0.00109952     0.000124683
                      0.00025114    -0.000807773           -0.319        0.933719      -0.00110096     0.000119924       -0.0868781       0.0753846
281756                -0.0819601       -0.118701       0.00087506     0.000555314        0.0590562       -0.982135      0.000362885    -0.000849522
                     0.000884004     0.000558142       -0.0240372       -0.112078      8.39636e-05       -0.001093        -0.319328        0.933849
                       0.0593953       -0.982447      1.06505e-05     -0.00116295       -0.0943134        0.108569      -0.00109949     0.000125161
                     0.000250849    -0.000807931        -0.318558        0.933868      -0.00110096     0.000120383       -0.0868529       0.0754478
281758                -0.0820115       -0.118686       0.00087542     0.000554975        0.0586017        -0.98216       0.00036251    -0.000849751
                     0.000884292     0.000557826       -0.0240848       -0.112091      8.34845e-05     -0.00109307        -0.318885        0.933997
                       0.0589407       -0.982472      1.01832e-05     -0.00116289       -0.0942624        0.108635      -0.00109946     0.000125639
                     0.000250558    -0.000808089        -0.318115        0.934016      -0.00110096     0.000120841       -0.0868277       0.0755109
281760                -0.0820629        -0.11867      0.000875842     0.000554571        0.0581472       -0.982184      0.000362135    -0.000849981
                     0.000884579     0.000557511       -0.0241324       -0.112104      8.30055e-05     -0.00109314        -0.318443        0.934146
                        0.058486       -0.982496       9.7029e-06     -0.00116273       -0.0942113        0.108701      -0.00109943     0.000126117
                     0.000250266    -0.000808247        -0.317673        0.934164      -0.00110096     0.000121298       -0.0868025        0.075574
281762                -0.0821143       -0.118655      0.000876074     0.000554369        0.0576928       -0.982208      0.000361761    -0.000850209
                     0.000884867     0.000557195       -0.0241801       -0.112117      8.25266e-05      -0.0010932           -0.318        0.934294
                       0.0580314        -0.98252      9.26804e-06     -0.00116288       -0.0941601        0.108767      -0.00109941     0.000126595
