! TOUCHSTONE file generated by CST MICROWAVE STUDIO
! Date and time: Tue Oct 14 07:27:53 2025
! Project name: Teste_Macro_Metasurface_Nanopilar.cst
! Parameters = {H=600; L_x=115; L_y=200; Lambda=1064; Max_L=200; Min_L=70; PathPara=1; Phi=0; Step_L=10; Theta=0; p=520; phaseX=180; phaseY=0}
! Header version: 2018
! Port assignment regex: !\s*Touchstone port\s*([0-9]+)\s*=\s*(CST MWS port|CST DS port)\s*([0-9]+|Zmin|Zmax)\s*\(\"(.*)\"\)(\s*mode\s*([0-9]+))?.*
! Touchstone port assignment:
! Touchstone port 1 = CST MWS port Zmax ("") mode 1
! Touchstone port 2 = CST MWS port Zmax ("") mode 2
! Touchstone port 3 = CST MWS port Zmin ("") mode 1
! Touchstone port 4 = CST MWS port Zmin ("") mode 2
! S-Parameters are not renormalized. Each port impedance will be approximated by the real part at minimum frequency. The values are described via the [Reference] keyword.
! Default impedance is overridden by [Reference]
[Version] 2.0
# GHz S RI R 376.73
[Number of Ports] 4
[Reference]
376.73 376.73 259.814 259.814 
[Number of Frequencies] 51
[Network Data]
281700                  -0.15302       0.0648172     -3.28333e-05     0.000364942         0.764768        0.614356      -0.00046283     7.31962e-07
                     -4.8084e-07     0.000338424       -0.0792294      -0.0766242     -0.000308123     0.000360125         -0.21702        0.963954
                        0.765133        0.614258     -0.000283399     0.000200989       -0.0306447        0.156881     -0.000308516    -0.000391312
                    -0.000444607    -9.55864e-06        -0.217278        0.964147     -0.000221112    -0.000209383        -0.102657       0.0360825
281702                 -0.153003       0.0648139     -3.33989e-05     0.000365358         0.765041        0.614018     -0.000462534      7.9251e-07
                    -5.67712e-07     0.000338176       -0.0792544      -0.0766191     -0.000308322     0.000359597        -0.216578        0.964054
                        0.765407        0.613921     -0.000285322     0.000201197       -0.0305036        0.156892     -0.000308614    -0.000390666
                    -0.000444385     -9.2033e-06        -0.216836        0.964244     -0.000220981    -0.000208157        -0.102646       0.0361621
281704                 -0.152986       0.0648107     -3.39563e-05     0.000365762         0.765313         0.61368     -0.000462218     8.69162e-07
                    -6.53702e-07     0.000337928       -0.0792794      -0.0766139       -0.0003085     0.000359064        -0.216136        0.964153
                        0.765681        0.613584     -0.000287217     0.000201405       -0.0303625        0.156903     -0.000308704    -0.000390026
                    -0.000444163    -8.84943e-06        -0.216393        0.964341     -0.000220858    -0.000206958        -0.102634       0.0362416
281706                 -0.152969       0.0648075     -3.45056e-05     0.000366154         0.765585        0.613342     -0.000461878     9.63433e-07
                    -7.38809e-07      0.00033768       -0.0793044      -0.0766087     -0.000308659     0.000358524        -0.215694        0.964252
                        0.765954        0.613247     -0.000289084     0.000201614       -0.0302215        0.156913     -0.000308788    -0.000389393
                    -0.000443941    -8.49703e-06        -0.215951        0.964437     -0.000220743    -0.000205787        -0.102621       0.0363211
281708                 -0.152952       0.0648042     -3.50468e-05     0.000366534         0.765857        0.613004     -0.000461512     1.07701e-06
                    -8.23032e-07     0.000337432       -0.0793294      -0.0766035     -0.000308801     0.000357977        -0.215253        0.964351
                        0.766228        0.612909     -0.000290922     0.000201823       -0.0300804        0.156924     -0.000308864    -0.000388767
                    -0.000443718    -8.14607e-06        -0.215508        0.964533     -0.000220635    -0.000204642        -0.102609       0.0364003
281710                 -0.152936        0.064801     -3.55802e-05     0.000366901         0.766129        0.612666     -0.000461117     1.21177e-06
                     -9.0637e-07     0.000337186       -0.0793544      -0.0765983     -0.000308925     0.000357421        -0.214812        0.964449
                        0.766501        0.612572     -0.000292732     0.000202032       -0.0299394        0.156934     -0.000308932    -0.000388148
                    -0.000443496    -7.79656e-06        -0.215066        0.964629     -0.000220534    -0.000203524        -0.102597       0.0364795
281712                 -0.152919       0.0647978     -3.61056e-05     0.000367257         0.766401        0.612327     -0.000460691      1.3698e-06
                    -9.88825e-07     0.000336939       -0.0793794      -0.0765931     -0.000309033     0.000356858        -0.214371        0.964546
                        0.766774        0.612234     -0.000294513     0.000202242       -0.0297983        0.156945     -0.000308991    -0.000387537
                    -0.000443273    -7.44849e-06        -0.214623        0.964725      -0.00022044    -0.000202431        -0.102584       0.0365585
281714                 -0.152902       0.0647946     -3.66232e-05     0.000367601         0.766673        0.611989     -0.000460229     1.55339e-06
                    -1.07039e-06     0.000336694       -0.0794044      -0.0765878     -0.000309127     0.000356286         -0.21393        0.964643
                        0.767047        0.611896     -0.000296265     0.000202451       -0.0296573        0.156955     -0.000309042    -0.000386935
                     -0.00044305    -7.10184e-06         -0.21418        0.964821     -0.000220352    -0.000201362        -0.102571       0.0366374
281716                 -0.152885       0.0647914      -3.7133e-05     0.000367934         0.766944        0.611651     -0.000459728     1.76508e-06
                    -1.15108e-06     0.000336448       -0.0794294      -0.0765826     -0.000309207     0.000355706         -0.21349         0.96474
                         0.76732        0.611558     -0.000297989     0.000202661       -0.0295163        0.156965     -0.000309083    -0.000386341
                    -0.000442827    -6.75661e-06        -0.213738        0.964916      -0.00022027    -0.000200318        -0.102558       0.0367161
281718                 -0.152869       0.0647882      -3.7635e-05     0.000368254         0.767216        0.611312     -0.000459183     2.00764e-06
                    -1.23088e-06     0.000336203       -0.0794545      -0.0765774     -0.000309274     0.000355119         -0.21305        0.964836
                        0.767593         0.61122     -0.000299683      0.00020287       -0.0293753        0.156975     -0.000309114    -0.000385757
                    -0.000442604    -6.41279e-06        -0.213295        0.965011     -0.000220193    -0.000199297        -0.102545       0.0367946
281720                 -0.152852        0.064785     -3.81294e-05     0.000368563         0.767487        0.610974     -0.000458589     2.28404e-06
                    -1.30979e-06     0.000335959       -0.0794795      -0.0765722      -0.00030933     0.000354524         -0.21261        0.964932
                        0.767865        0.610882     -0.000301349      0.00020308       -0.0292344        0.156985     -0.000309134    -0.000385183
                     -0.00044238    -6.07037e-06        -0.212853        0.965106     -0.000220121      -0.0001983        -0.102532        0.036873
281722                 -0.152835       0.0647818      -3.8616e-05      0.00036886         0.767758        0.610635     -0.000457942     2.59742e-06
                    -1.38781e-06     0.000335715       -0.0795045      -0.0765669     -0.000309376     0.000353923         -0.21217        0.965027
                        0.768138        0.610544     -0.000302985     0.000203289       -0.0290934        0.156995     -0.000309143    -0.000384619
                    -0.000442157    -5.72935e-06         -0.21241        0.965201     -0.000220054    -0.000197324        -0.102519       0.0369513
281724                 -0.152819       0.0647786     -3.90948e-05     0.000369145          0.76803        0.610296     -0.000457235     2.95096e-06
                    -1.46495e-06     0.000335472       -0.0795295      -0.0765617     -0.000309412     0.000353315        -0.211731        0.965122
                         0.76841        0.610205     -0.000304592     0.000203499       -0.0289525        0.157005     -0.000309141    -0.000384067
                    -0.000441933    -5.38971e-06        -0.211967        0.965296     -0.000219991    -0.000196371        -0.102506       0.0370294
281726                 -0.152802       0.0647755     -3.95658e-05     0.000369419         0.768301        0.609958     -0.000456463     3.34772e-06
                     -1.5412e-06     0.000335229       -0.0795545      -0.0765564     -0.000309438     0.000352702        -0.211292        0.965217
                        0.768682        0.609867      -0.00030617     0.000203708       -0.0288115        0.157014     -0.000309127    -0.000383526
                    -0.000441709    -5.05146e-06        -0.211524         0.96539     -0.000219932    -0.000195439        -0.102493       0.0371075
281728                 -0.152786       0.0647723      -4.0029e-05      0.00036968         0.768572        0.609619     -0.000455621     3.79026e-06
                    -1.61656e-06     0.000334987       -0.0795796      -0.0765512     -0.000309457     0.000352084        -0.210853        0.965312
                        0.768954        0.609528     -0.000307719     0.000203917       -0.0286706        0.157024     -0.000309101    -0.000382997
                    -0.000441484    -4.71457e-06        -0.211082        0.965484     -0.000219878    -0.000194529         -0.10248       0.0371855
281730                 -0.152769       0.0647691     -4.04841e-05      0.00036993         0.768843         0.60928     -0.000454703     4.28009e-06
                    -1.69103e-06     0.000334745       -0.0796046      -0.0765459     -0.000309468     0.000351463        -0.210414        0.965407
                        0.769226        0.609189     -0.000309238     0.000204126       -0.0285297        0.157033     -0.000309064     -0.00038248
                     -0.00044126    -4.37905e-06        -0.210639        0.965578     -0.000219827    -0.000193638        -0.102466       0.0372634
281732                 -0.152753        0.064766     -4.09311e-05     0.000370168         0.769113        0.608941     -0.000453709     4.81667e-06
                    -1.76462e-06     0.000334504       -0.0796296      -0.0765406     -0.000309471     0.000350838        -0.209975        0.965501
                        0.769498        0.608851     -0.000310728     0.000204336       -0.0283889        0.157042     -0.000309016    -0.000381974
                    -0.000441036    -4.04488e-06        -0.210196        0.965672     -0.000219779    -0.000192768        -0.102453       0.0373413
281734                 -0.152736       0.0647628     -4.13699e-05     0.000370394         0.769384        0.608601     -0.000452643     5.39583e-06
                    -1.83731e-06     0.000334264       -0.0796547      -0.0765354     -0.000309468      0.00035021        -0.209536        0.965596
                        0.769769        0.608512     -0.000312189     0.000204545        -0.028248        0.157051      -0.00030896    -0.000381477
                    -0.000440811    -3.71205e-06        -0.209753        0.965765     -0.000219735    -0.000191917         -0.10244       0.0374193
281736                  -0.15272       0.0647597     -4.18003e-05     0.000370608         0.769655        0.608262      -0.00045152     6.00715e-06
                    -1.90912e-06     0.000334024       -0.0796797      -0.0765301     -0.000309459     0.000349581        -0.209097         0.96569
                        0.770041        0.608173      -0.00031362     0.000204754       -0.0281072         0.15706       -0.0003089    -0.000380988
                    -0.000440586    -3.38057e-06         -0.20931        0.965859     -0.000219694    -0.000191085        -0.102427       0.0374972
281738                 -0.152703       0.0647565     -4.22221e-05     0.000370811         0.769925        0.607923      -0.00045037     6.62981e-06
                    -1.98004e-06     0.000333784       -0.0797048      -0.0765248     -0.000309443     0.000348952        -0.208658        0.965784
                        0.770312        0.607833     -0.000315023     0.000204963       -0.0279663        0.157069     -0.000308843    -0.000380501
                    -0.000440361    -3.05042e-06        -0.208867        0.965952     -0.000219655    -0.000190272        -0.102413       0.0375753
281740                 -0.152687       0.0647534     -4.26353e-05     0.000371002         0.770195        0.607583     -0.000449256     7.22592e-06
                    -2.05006e-06     0.000333545       -0.0797298      -0.0765195     -0.000309422     0.000348322        -0.208218        0.965879
                        0.770583        0.607494     -0.000316396     0.000205172       -0.0278255        0.157078     -0.000308799    -0.000380008
                    -0.000440136    -2.72159e-06        -0.208424        0.966045      -0.00021962    -0.000189477          -0.1024       0.0376535
281742                  -0.15267       0.0647503     -4.30396e-05     0.000371182         0.770466        0.607244     -0.000448289     7.73053e-06
                     -2.1192e-06     0.000333307       -0.0797548      -0.0765142     -0.000309395     0.000347693        -0.207778        0.965973
                        0.770854        0.607155      -0.00031774     0.000205381       -0.0276847        0.157087     -0.000308786    -0.000379498
                     -0.00043991    -2.39408e-06        -0.207981        0.966138     -0.000219586      -0.0001887        -0.102387        0.037732
281744                 -0.152654       0.0647471      -4.3435e-05     0.000371351         0.770736        0.606904     -0.000447655     8.03698e-06
                    -2.18745e-06     0.000333069       -0.0797799      -0.0765089     -0.000309363     0.000347065        -0.207336        0.966067
                        0.771125        0.606815     -0.000319055      0.00020559       -0.0275439        0.157095     -0.000308832    -0.000378948
                    -0.000439685    -2.06789e-06        -0.207538         0.96623     -0.000219555    -0.000187941        -0.102373       0.0378109
281746                 -0.152638        0.064744     -4.38212e-05     0.000371508         0.771006        0.606565     -0.000447642     7.97813e-06
                     -2.2548e-06     0.000332832       -0.0798049      -0.0765036     -0.000309326      0.00034644        -0.206894        0.966162
                        0.771395        0.606475     -0.000320341       0.0002058       -0.0274032        0.157104      -0.00030898    -0.000378328
                    -0.000439459    -1.74299e-06        -0.207095        0.966323     -0.000219526    -0.000187199         -0.10236       0.0378903
281748                 -0.152621       0.0647409     -4.41983e-05     0.000371655         0.771275        0.606225     -0.000448645     7.30833e-06
                    -2.32127e-06     0.000332595         -0.07983      -0.0764982     -0.000309285     0.000345817        -0.206448        0.966257
                        0.771666        0.606136     -0.000321598      0.00020601       -0.0272624        0.157112     -0.000309293    -0.000377585
                    -0.000439234    -1.41939e-06        -0.206652        0.966415     -0.000219499    -0.000186473        -0.102346       0.0379708
281750                 -0.152605       0.0647378     -4.45661e-05     0.000371791         0.771545        0.605885     -0.000451101     5.70468e-06
                    -2.38684e-06     0.000332359        -0.079855      -0.0764929     -0.000309238     0.000345197        -0.205998        0.966353
                        0.771936        0.605796     -0.000322826      0.00020622       -0.0271217         0.15712     -0.000309862    -0.000376641
                    -0.000439008    -1.09707e-06        -0.206209        0.966507     -0.000219474    -0.000185764        -0.102332       0.0380531
281752                 -0.152589       0.0647347     -4.49245e-05     0.000371917         0.771815        0.605545     -0.000455293     2.83125e-06
                    -2.45152e-06     0.000332124       -0.0798801      -0.0764876     -0.000309187     0.000344581         -0.20554        0.966454
                        0.772206        0.605456     -0.000324026      0.00020643        -0.026981        0.157129       -0.0003108    -0.000375375
                    -0.000438782     -7.7604e-07        -0.205766        0.966598      -0.00021945    -0.000185071        -0.102319       0.0381396
281754                 -0.152572       0.0647316     -4.52736e-05     0.000372033         0.772084        0.605205     -0.000461044    -1.47899e-06
                    -2.51532e-06     0.000331889       -0.0799052      -0.0764822     -0.000309132      0.00034397        -0.205064        0.966573
                        0.772476        0.605115     -0.000325198     0.000206641       -0.0268403        0.157137     -0.000312226    -0.000373622
                    -0.000438555    -4.56281e-07        -0.205323         0.96669     -0.000219428    -0.000184394        -0.102314       0.0382356
281756                 -0.152556       0.0647285     -4.56132e-05     0.000372138         0.772354        0.604865     -0.000467561    -6.96562e-06
                    -2.57822e-06     0.000331655       -0.0799302      -0.0764768     -0.000309073     0.000343364        -0.204595        0.966781
                        0.772746        0.604775     -0.000326341     0.000206853       -0.0266996        0.157145     -0.000314197    -0.000371184
                    -0.000438329    -1.37789e-07         -0.20488        0.966781     -0.000219407    -0.000183732        -0.102349       0.0383208
281758                  -0.15254       0.0647254     -4.59434e-05     0.000372234         0.772623        0.604524     -0.000473726    -1.28641e-05
                    -2.64023e-06     0.000331421       -0.0799553      -0.0764715     -0.000309009     0.000342763         -0.20435        0.966935
                        0.773015        0.604435     -0.000327456     0.000207065       -0.0265589        0.157152     -0.000316612    -0.000367918
                    -0.000438103     1.79443e-07        -0.204437        0.966873     -0.000219388    -0.000183086        -0.102341       0.0383427
281760                 -0.152524       0.0647223     -4.62641e-05     0.000372321         0.772892        0.604184      -0.00047868     -1.8236e-05
                    -2.70135e-06     0.000331188       -0.0799804      -0.0764661     -0.000308942     0.000342168         -0.20395        0.966917
                        0.773285        0.604094     -0.000328544     0.000207277       -0.0264183         0.15716     -0.000319138    -0.000363897
                    -0.000437876      4.9542e-07        -0.203994        0.966964     -0.000219369    -0.000182455        -0.102305       0.0384107
281762                 -0.152507       0.0647193     -4.65754e-05     0.000372398         0.773161        0.603843     -0.000482141    -2.24456e-05
                    -2.76158e-06     0.000330956       -0.0800055      -0.0764607     -0.000308871      0.00034158        -0.203494        0.966968
                        0.773554        0.603754     -0.000329604      0.00020749       -0.0262776        0.157168     -0.000321322    -0.000359552
