! TOUCHSTONE file generated by CST MICROWAVE STUDIO
! Date and time: Tue Oct 14 07:26:54 2025
! Project name: Teste_Macro_Metasurface_Nanopilar.cst
! Parameters = {H=600; L_x=100; L_y=180; Lambda=1064; Max_L=200; Min_L=70; PathPara=1; Phi=0; Step_L=10; Theta=0; p=520; phaseX=180; phaseY=0}
! Header version: 2018
! Port assignment regex: !\s*Touchstone port\s*([0-9]+)\s*=\s*(CST MWS port|CST DS port)\s*([0-9]+|Zmin|Zmax)\s*\(\"(.*)\"\)(\s*mode\s*([0-9]+))?.*
! Touchstone port assignment:
! Touchstone port 1 = CST MWS port Zmax ("") mode 1
! Touchstone port 2 = CST MWS port Zmax ("") mode 2
! Touchstone port 3 = CST MWS port Zmin ("") mode 1
! Touchstone port 4 = CST MWS port Zmin ("") mode 2
! S-Parameters are not renormalized. Each port impedance will be approximated by the real part at minimum frequency. The values are described via the [Reference] keyword.
! Default impedance is overridden by [Reference]
[Version] 2.0
# GHz S RI R 376.73
[Number of Ports] 4
[Reference]
376.73 376.73 259.814 259.814 
[Number of Frequencies] 51
[Network Data]
281700                 -0.711765       -0.453035     -5.95295e-05    -9.19174e-05         0.499054       0.0316315      3.90808e-05    -0.000348219
                     1.29676e-05    -0.000146058        -0.186581      -0.0946705      -0.00043387     0.000282236        -0.654972       -0.715477
                        0.498744        0.031949     -0.000388336     0.000246707          0.71823       -0.424985     -0.000121809    -0.000435992
                    -1.30752e-05     -0.00027323         -0.65491        -0.71519     -0.000200168    -0.000323624        0.0776837        0.193161
281702                  -0.71231       -0.452647     -5.94648e-05    -9.19222e-05         0.498633       0.0311718      3.87328e-05    -0.000348374
                     1.30209e-05    -0.000145854        -0.186619      -0.0946007     -0.000433752     0.000282561        -0.655332       -0.715146
                        0.498322       0.0314864     -0.000388208     0.000246941         0.717965       -0.425918     -0.000122079    -0.000436327
                    -1.29725e-05    -0.000273177         -0.65527       -0.714859      -0.00020055    -0.000323589        0.0778055        0.193115
281704                 -0.712856       -0.452259     -5.94004e-05    -9.19274e-05          0.49821       0.0307128      3.83849e-05    -0.000348528
                     1.30738e-05     -0.00014565        -0.186658      -0.0945308     -0.000433633     0.000282887        -0.655692       -0.714814
                        0.497899       0.0310244     -0.000388081     0.000247175           0.7177       -0.426851     -0.000122349    -0.000436661
                    -1.28715e-05    -0.000273123         -0.65563       -0.714528     -0.000200932    -0.000323553        0.0779273        0.193069
281706                 -0.713402       -0.451869     -5.93363e-05     -9.1933e-05         0.497786       0.0302544      3.80372e-05    -0.000348681
                     1.31263e-05    -0.000145446        -0.186696      -0.0944609     -0.000433513     0.000283214        -0.656052       -0.714482
                        0.497476       0.0305631     -0.000387954     0.000247409         0.717432       -0.427784      -0.00012262    -0.000436995
                    -1.27722e-05    -0.000273067         -0.65599       -0.714196     -0.000201314    -0.000323517         0.078049        0.193022
281708                 -0.713947       -0.451479     -5.92724e-05    -9.19389e-05         0.497362       0.0297967      3.76896e-05    -0.000348833
                     1.31785e-05    -0.000145243        -0.186735       -0.094391     -0.000433394      0.00028354        -0.656411        -0.71415
                        0.497051       0.0301024     -0.000387826     0.000247643         0.717164       -0.428718     -0.000122891    -0.000437329
                    -1.26746e-05    -0.000273011        -0.656349       -0.713864     -0.000201696    -0.000323481        0.0781707        0.192976
281710                 -0.714493       -0.451088     -5.92088e-05    -9.19453e-05         0.496937       0.0293396       3.7342e-05    -0.000348984
                     1.32302e-05     -0.00014504        -0.186773      -0.0943211     -0.000433273     0.000283867        -0.656771       -0.713818
                        0.496626       0.0296423     -0.000387699     0.000247876         0.716894       -0.429652     -0.000123163    -0.000437663
                    -1.25788e-05    -0.000272954        -0.656709       -0.713532     -0.000202077    -0.000323444        0.0782924         0.19293
281712                 -0.715038       -0.450696     -5.91454e-05     -9.1952e-05         0.496511       0.0288831      3.69946e-05    -0.000349135
                     1.32816e-05    -0.000144837        -0.186812      -0.0942512     -0.000433153     0.000284195         -0.65713       -0.713486
                          0.4962       0.0291829     -0.000387571     0.000248109         0.716623       -0.430585     -0.000123434    -0.000437996
                    -1.24846e-05    -0.000272895        -0.657068         -0.7132     -0.000202459    -0.000323406         0.078414        0.192883
281714                 -0.715583       -0.450303     -5.90823e-05    -9.19591e-05         0.496084       0.0284273      3.66474e-05    -0.000349284
                     1.33327e-05    -0.000144634         -0.18685      -0.0941813     -0.000433032     0.000284523        -0.657489       -0.713154
                        0.495773       0.0287242     -0.000387444     0.000248342          0.71635       -0.431519     -0.000123707    -0.000438328
                    -1.23921e-05    -0.000272836        -0.657427       -0.712868     -0.000202841    -0.000323368        0.0785356        0.192836
281716                 -0.716129       -0.449909     -5.90194e-05    -9.19665e-05         0.495656       0.0279721      3.63002e-05    -0.000349432
                     1.33833e-05    -0.000144432        -0.186889      -0.0941113     -0.000432911     0.000284852        -0.657848       -0.712821
                        0.495345       0.0282661     -0.000387316     0.000248575         0.716076       -0.432453     -0.000123979    -0.000438661
                    -1.23013e-05    -0.000272775        -0.657786       -0.712535     -0.000203222    -0.000323329        0.0786572         0.19279
281718                 -0.716674       -0.449515     -5.89569e-05    -9.19743e-05         0.495227       0.0275176       3.5953e-05    -0.000349579
                     1.34336e-05     -0.00014423        -0.186927      -0.0940413     -0.000432789     0.000285181        -0.658207       -0.712488
                        0.494916       0.0278087     -0.000387189     0.000248807           0.7158       -0.433388     -0.000124253    -0.000438992
                    -1.22121e-05    -0.000272714        -0.658145       -0.712203     -0.000203604    -0.000323291        0.0787788        0.192743
281720                 -0.717219       -0.449119     -5.88946e-05    -9.19825e-05         0.494798       0.0270637      3.56059e-05    -0.000349726
                     1.34836e-05    -0.000144028        -0.186965      -0.0939713     -0.000432667     0.000285511        -0.658566       -0.712155
                        0.494487       0.0273519     -0.000387061     0.000249039         0.715523       -0.434322     -0.000124527    -0.000439324
                    -1.21247e-05    -0.000272651        -0.658503        -0.71187     -0.000203985    -0.000323251        0.0789003        0.192696
281722                 -0.717764       -0.448723     -5.88326e-05     -9.1991e-05         0.494368       0.0266104      3.52588e-05     -0.00034987
                     1.35332e-05    -0.000143827        -0.187003      -0.0939013     -0.000432544     0.000285841        -0.658924       -0.711822
                        0.494056       0.0268958     -0.000386933      0.00024927         0.715245       -0.435257     -0.000124802    -0.000439654
                    -1.20388e-05    -0.000272588        -0.658862       -0.711537     -0.000204367    -0.000323211        0.0790218        0.192649
281724                 -0.718308       -0.448326     -5.87708e-05    -9.19999e-05         0.493936       0.0261579      3.49116e-05    -0.000350013
                     1.35825e-05    -0.000143625        -0.187042      -0.0938313     -0.000432421     0.000286171        -0.659283       -0.711488
                        0.493625       0.0264404     -0.000386806     0.000249502         0.714965       -0.436191     -0.000125079    -0.000439984
                    -1.19546e-05    -0.000272523         -0.65922       -0.711204     -0.000204749    -0.000323171        0.0791433        0.192602
281726                 -0.718853       -0.447928     -5.87094e-05    -9.20091e-05         0.493504       0.0257059      3.45641e-05    -0.000350153
                     1.36314e-05    -0.000143424         -0.18708      -0.0937613     -0.000432296     0.000286502        -0.659641       -0.711155
                        0.493193       0.0259856     -0.000386678     0.000249733         0.714684       -0.437126     -0.000125358    -0.000440312
                    -1.18721e-05    -0.000272458        -0.659578        -0.71087     -0.000205131    -0.000323131        0.0792647        0.192555
281728                 -0.719398        -0.44753     -5.86482e-05    -9.20187e-05         0.493072       0.0252547      3.42168e-05    -0.000350287
                       1.368e-05    -0.000143223        -0.187118      -0.0936912     -0.000432166     0.000286839        -0.659999       -0.710821
                         0.49276       0.0255316      -0.00038655     0.000249963         0.714402       -0.438061     -0.000125643    -0.000440638
                    -1.17912e-05    -0.000272391        -0.659936       -0.710536     -0.000205514    -0.000323095        0.0793862        0.192508
281730                 -0.719942        -0.44713     -5.85873e-05    -9.20286e-05         0.492638       0.0248041      3.38738e-05    -0.000350408
                     1.37283e-05    -0.000143023        -0.187156      -0.0936211     -0.000432063     0.000287169        -0.660357       -0.710487
                        0.492327       0.0250781     -0.000386422     0.000250194         0.714118       -0.438996     -0.000125939    -0.000440953
                    -1.17119e-05    -0.000272323        -0.660294       -0.710203     -0.000205885    -0.000323053        0.0795076         0.19246
281732                 -0.720487        -0.44673     -5.85267e-05    -9.20388e-05         0.492203       0.0243541      3.35842e-05    -0.000350513
                     1.37763e-05    -0.000142823        -0.187194       -0.093551     -0.000431932     0.000287497        -0.660714       -0.710153
                        0.491892       0.0246254     -0.000386294     0.000250424         0.713832       -0.439932     -0.000126256    -0.000441212
                    -1.16342e-05    -0.000272255        -0.660651       -0.709869     -0.000206267    -0.000323007         0.079629        0.192413
281734                 -0.721031       -0.446329     -5.84664e-05    -9.20494e-05         0.491768       0.0239048      3.32757e-05    -0.000350745
                     1.38239e-05    -0.000142623        -0.187232      -0.0934809     -0.000431806      0.00028783        -0.661072       -0.709818
                        0.491457       0.0241733     -0.000386166     0.000250654         0.713545       -0.440867     -0.000126319    -0.000441431
                    -1.15581e-05    -0.000272185        -0.661009       -0.709534     -0.000206648    -0.000322963        0.0797502        0.192365
281736                 -0.721575       -0.445926     -5.84064e-05    -9.20603e-05         0.491332       0.0234562      3.28926e-05    -0.000350903
                     1.38712e-05    -0.000142423        -0.187271      -0.0934108      -0.00043168     0.000288163        -0.661429       -0.709484
                         0.49102       0.0237219     -0.000386038     0.000250884         0.713257       -0.441802     -0.000126587     -0.00044192
                    -1.14836e-05    -0.000272115        -0.661366         -0.7092      -0.00020703     -0.00032292        0.0798715        0.192318
281738                 -0.722119       -0.445524     -5.83466e-05    -9.20715e-05         0.490895       0.0230082      3.25332e-05    -0.000351041
                     1.39183e-05    -0.000142224        -0.187309      -0.0933406     -0.000431555     0.000288496        -0.661786       -0.709149
                        0.490583       0.0232712      -0.00038591     0.000251113         0.712967       -0.442738     -0.000126894    -0.000442277
                    -1.14106e-05    -0.000272043        -0.661723       -0.708866      -0.00020741    -0.000322876        0.0799928         0.19227
281740                 -0.722663        -0.44512     -5.82872e-05    -9.20831e-05         0.490457       0.0225609      3.21823e-05    -0.000351177
                      1.3965e-05    -0.000142025        -0.187347      -0.0932704     -0.000431429      0.00028883        -0.662143       -0.708815
                        0.490145       0.0228211     -0.000385782     0.000251342         0.712676       -0.443674     -0.000127183    -0.000442612
                    -1.13393e-05    -0.000271971         -0.66208       -0.708531     -0.000207791    -0.000322831        0.0801141        0.192222
281742                 -0.723207       -0.444715     -5.82281e-05     -9.2095e-05         0.490018       0.0221143      3.18349e-05    -0.000351314
                     1.40114e-05    -0.000141826        -0.187384      -0.0932002     -0.000431302     0.000289164          -0.6625        -0.70848
                        0.489706       0.0223718     -0.000385654     0.000251571         0.712384        -0.44461     -0.000127466    -0.000442942
                    -1.12695e-05    -0.000271897        -0.662437       -0.708196     -0.000208172    -0.000322787        0.0802353        0.192175
281744                  -0.72375        -0.44431     -5.81692e-05    -9.21071e-05         0.489578       0.0216684      3.14894e-05    -0.000351449
                     1.40576e-05    -0.000141627        -0.187422        -0.09313     -0.000431176     0.000289499        -0.662857       -0.708144
                        0.489267       0.0219231     -0.000385526       0.0002518          0.71209       -0.445546     -0.000127745    -0.000443271
                    -1.12012e-05    -0.000271823        -0.662793       -0.707861     -0.000208552    -0.000322742        0.0803565        0.192127
281746                 -0.724294       -0.443903     -5.81107e-05    -9.21196e-05         0.489138       0.0212231      3.11449e-05    -0.000351585
                     1.41034e-05    -0.000141429         -0.18746      -0.0930598     -0.000431049     0.000289834        -0.663213       -0.707809
                        0.488826       0.0214751     -0.000385398     0.000252028         0.711795       -0.446482     -0.000128022    -0.000443598
                    -1.11345e-05    -0.000271747         -0.66315       -0.707526     -0.000208932    -0.000322696        0.0804777        0.192079
281748                 -0.724838       -0.443496     -5.80524e-05    -9.21324e-05         0.488697       0.0207785      3.08013e-05     -0.00035172
                      1.4149e-05    -0.000141231        -0.187498      -0.0929896     -0.000430921      0.00029017         -0.66357       -0.707473
                        0.488385       0.0210278      -0.00038527     0.000252256         0.711498       -0.447418     -0.000128298    -0.000443924
                    -1.10694e-05    -0.000271671        -0.663506        -0.70719     -0.000209312     -0.00032265        0.0805989        0.192031
281750                 -0.725381       -0.443088     -5.79945e-05    -9.21454e-05         0.488255       0.0203346      3.04583e-05    -0.000351854
                     1.41943e-05    -0.000141033        -0.187536      -0.0929193     -0.000430794     0.000290506        -0.663926       -0.707138
                        0.487943       0.0205812     -0.000385142     0.000252484         0.711199       -0.448354     -0.000128573    -0.000444249
                    -1.10057e-05    -0.000271593        -0.663862       -0.706854     -0.000209692    -0.000322603          0.08072        0.191983
281752                 -0.725924        -0.44268     -5.79369e-05    -9.21588e-05         0.487812       0.0198913      3.01159e-05    -0.000351987
                     1.42393e-05    -0.000140836        -0.187574       -0.092849     -0.000430665     0.000290842        -0.664282       -0.706802
                          0.4875       0.0201353     -0.000385014     0.000252712           0.7109       -0.449291     -0.000128848    -0.000444574
                    -1.09435e-05    -0.000271515        -0.664218       -0.706519     -0.000210072    -0.000322556        0.0808411        0.191934
281754                 -0.726467        -0.44227     -5.78796e-05    -9.21725e-05         0.487368       0.0194488       2.9774e-05     -0.00035212
                     1.42841e-05    -0.000140639        -0.187612      -0.0927787     -0.000430537     0.000291179        -0.664638       -0.706465
                        0.487056       0.0196901     -0.000384885     0.000252939         0.710599       -0.450227     -0.000129122    -0.000444898
                    -1.08828e-05    -0.000271436        -0.664574       -0.706183     -0.000210452    -0.000322509        0.0809621        0.191886
281756                  -0.72701       -0.441859     -5.78226e-05    -9.21864e-05         0.486923       0.0190069      2.94326e-05    -0.000352251
                     1.43287e-05    -0.000140442        -0.187649      -0.0927084     -0.000430408     0.000291516        -0.664994       -0.706129
                        0.486611       0.0192455     -0.000384757     0.000253166         0.710296       -0.451164     -0.000129396    -0.000445222
                    -1.08235e-05    -0.000271355         -0.66493       -0.705846     -0.000210832    -0.000322461        0.0810832        0.191838
281758                 -0.727553       -0.441448     -5.77659e-05    -9.22006e-05         0.486478       0.0185657      2.90917e-05    -0.000352382
                     1.43731e-05    -0.000140245        -0.187687      -0.0926381     -0.000430279     0.000291854        -0.665349       -0.705793
                        0.486166       0.0188017     -0.000384629     0.000253393         0.709992       -0.452101      -0.00012967    -0.000445545
                    -1.07655e-05    -0.000271274        -0.665285        -0.70551     -0.000211212    -0.000322412        0.0812042        0.191789
281760                 -0.728096       -0.441036     -5.77095e-05     -9.2215e-05         0.486032       0.0181252      2.87513e-05    -0.000352512
                     1.44175e-05    -0.000140048        -0.187725      -0.0925678     -0.000430149     0.000292192        -0.665705       -0.705456
                         0.48572       0.0183586     -0.000384501      0.00025362         0.709687       -0.453038     -0.000129944    -0.000445868
                    -1.07083e-05    -0.000271192        -0.665641       -0.705173     -0.000211591    -0.000322363        0.0813251        0.191741
281762                 -0.728638       -0.440623     -5.76535e-05    -9.22298e-05         0.485585       0.0176854      2.84112e-05    -0.000352642
                     1.44625e-05    -0.000139852        -0.187762      -0.0924974     -0.000430019      0.00029253         -0.66606       -0.705119
                        0.485272       0.0179161     -0.000384373     0.000253846          0.70938       -0.453975     -0.000130218    -0.000446189
