! TOUCHSTONE file generated by CST MICROWAVE STUDIO
! Date and time: Tue Oct 14 07:26:34 2025
! Project name: Teste_Macro_Metasurface_Nanopilar.cst
! Parameters = {H=600; L_x=95; L_y=170; Lambda=1064; Max_L=200; Min_L=70; PathPara=1; Phi=0; Step_L=10; Theta=0; p=520; phaseX=180; phaseY=0}
! Header version: 2018
! Port assignment regex: !\s*Touchstone port\s*([0-9]+)\s*=\s*(CST MWS port|CST DS port)\s*([0-9]+|Zmin|Zmax)\s*\(\"(.*)\"\)(\s*mode\s*([0-9]+))?.*
! Touchstone port assignment:
! Touchstone port 1 = CST MWS port Zmax ("") mode 1
! Touchstone port 2 = CST MWS port Zmax ("") mode 2
! Touchstone port 3 = CST MWS port Zmin ("") mode 1
! Touchstone port 4 = CST MWS port Zmin ("") mode 2
! S-Parameters are not renormalized. Each port impedance will be approximated by the real part at minimum frequency. The values are described via the [Reference] keyword.
! Default impedance is overridden by [Reference]
[Version] 2.0
# GHz S RI R 376.73
[Number of Ports] 4
[Reference]
376.73 376.73 259.814 259.814 
[Number of Frequencies] 51
[Network Data]
281700                 -0.131042       -0.264278       1.7966e-05    -0.000406391         0.458164        0.832329       6.9888e-05    -7.69108e-05
                    -5.52631e-05    -0.000388333        -0.054497       -0.137521     -0.000300827     -0.00014025         0.103493       -0.978758
                        0.458046        0.832151     -0.000263106    -0.000145081         0.154807        0.248812      -6.4861e-05    -0.000552751
                     0.000160353    -3.95125e-05         0.103552       -0.978613      -6.5984e-05    -0.000456672       -0.0807206        0.123598
281702                 -0.131144       -0.264286      1.76209e-05    -0.000406547         0.458549        0.832098      6.99633e-05    -7.70268e-05
                    -5.55388e-05    -0.000388345       -0.0545528       -0.137519     -0.000300897    -0.000140348         0.103047       -0.978802
                        0.458432         0.83192     -0.000263197    -0.000145113         0.154996        0.248754     -6.50233e-05    -0.000552731
                     0.000160357    -3.96078e-05         0.103107       -0.978657     -6.59914e-05    -0.000456648       -0.0806623        0.123658
281704                 -0.131245       -0.264293      1.72748e-05    -0.000406703         0.458935        0.831867       7.0039e-05    -7.71431e-05
                    -5.58145e-05    -0.000388357       -0.0546086       -0.137516     -0.000300966    -0.000140445         0.102602       -0.978846
                        0.458817         0.83169     -0.000263289    -0.000145144         0.155185        0.248696     -6.51848e-05     -0.00055271
                      0.00016036    -3.97028e-05         0.102661         -0.9787     -6.59989e-05    -0.000456622       -0.0806039        0.123718
281706                 -0.131347         -0.2643      1.69279e-05    -0.000406858         0.459321        0.831635      7.01148e-05    -7.72598e-05
                    -5.60903e-05    -0.000388368       -0.0546645       -0.137514     -0.000301034    -0.000140542         0.102156        -0.97889
                        0.459203        0.831459     -0.000263382    -0.000145176         0.155374        0.248638     -6.53454e-05     -0.00055269
                     0.000160363    -3.97976e-05         0.102215       -0.978744     -6.60067e-05    -0.000456597       -0.0805455        0.123778
281708                 -0.131448       -0.264307      1.65801e-05    -0.000407013         0.459706        0.831404      7.01909e-05    -7.73767e-05
                    -5.63661e-05     -0.00038838       -0.0547203       -0.137512       -0.0003011    -0.000140638          0.10171       -0.978933
                        0.459589        0.831228     -0.000263476    -0.000145207         0.155563         0.24858     -6.55051e-05    -0.000552669
                     0.000160366    -3.98921e-05         0.101769       -0.978787     -6.60149e-05     -0.00045657       -0.0804871        0.123838
281710                  -0.13155       -0.264314      1.62314e-05    -0.000407167         0.460091        0.831172      7.02673e-05    -7.74939e-05
                     -5.6642e-05     -0.00038839       -0.0547761       -0.137509     -0.000301165    -0.000140734         0.101264       -0.978976
                        0.459974        0.830996      -0.00026357    -0.000145237         0.155752        0.248522     -6.56641e-05    -0.000552647
                     0.000160369    -3.99863e-05         0.101323        -0.97883     -6.60233e-05    -0.000456543       -0.0804286        0.123898
281712                 -0.131652       -0.264321      1.58818e-05    -0.000407321         0.460477         0.83094      7.03439e-05    -7.76114e-05
                     -5.6918e-05    -0.000388401        -0.054832       -0.137507     -0.000301229     -0.00014083         0.100819       -0.979019
                         0.46036        0.830765     -0.000263666    -0.000145268         0.155941        0.248464     -6.58221e-05    -0.000552625
                     0.000160371    -4.00802e-05         0.100877       -0.978873     -6.60318e-05    -0.000456515         -0.08037        0.123957
281714                 -0.131754       -0.264328      1.55313e-05    -0.000407474         0.460862        0.830707      7.04207e-05    -7.77292e-05
                    -5.71939e-05     -0.00038841       -0.0548878       -0.137505     -0.000301291    -0.000140926         0.100373       -0.979062
                        0.460745        0.830533     -0.000263763    -0.000145298          0.15613        0.248406     -6.59794e-05    -0.000552603
                     0.000160374    -4.01739e-05         0.100431       -0.978916     -6.60404e-05    -0.000456486       -0.0803115        0.124017
281716                 -0.131855       -0.264335      1.51799e-05    -0.000407627         0.461247        0.830475      7.04978e-05    -7.78472e-05
                      -5.747e-05     -0.00038842       -0.0549436       -0.137502     -0.000301352    -0.000141023        0.0999268       -0.979105
                         0.46113        0.830301      -0.00026386    -0.000145329         0.156319        0.248347     -6.61358e-05    -0.000552581
                     0.000160376    -4.02673e-05        0.0999853       -0.978958     -6.60488e-05    -0.000456456       -0.0802528        0.124077
281718                 -0.131957       -0.264342      1.48277e-05    -0.000407779         0.461632        0.830242      7.05751e-05    -7.79656e-05
                     -5.7746e-05    -0.000388429       -0.0549995         -0.1375     -0.000301412     -0.00014112        0.0994809       -0.979147
                        0.461515        0.830069     -0.000263959    -0.000145359         0.156508        0.248288     -6.62914e-05    -0.000552558
                     0.000160377    -4.03604e-05        0.0995394          -0.979      -6.6057e-05    -0.000456425       -0.0801942        0.124137
281720                 -0.132059       -0.264349      1.44745e-05    -0.000407931         0.462017        0.830009      7.06526e-05    -7.80842e-05
                    -5.80221e-05    -0.000388437       -0.0550553       -0.137497      -0.00030147    -0.000141217        0.0990349       -0.979189
                          0.4619        0.829837     -0.000264058    -0.000145389         0.156697        0.248229     -6.64462e-05    -0.000552535
                     0.000160379    -4.04532e-05        0.0990933       -0.979042     -6.60648e-05    -0.000456393       -0.0801355        0.124197
281722                 -0.132161       -0.264356      1.41205e-05    -0.000408082         0.462401        0.829776      7.07304e-05    -7.82031e-05
                    -5.82982e-05    -0.000388446       -0.0551112       -0.137495     -0.000301527    -0.000141315         0.098589       -0.979231
                        0.462285        0.829605     -0.000264158    -0.000145419         0.156886         0.24817     -6.66001e-05    -0.000552511
                      0.00016038    -4.05457e-05        0.0986473       -0.979084     -6.60724e-05     -0.00045636       -0.0800767        0.124256
281724                 -0.132263       -0.264363      1.37656e-05    -0.000408233         0.462786        0.829543      7.08084e-05    -7.83223e-05
                    -5.85743e-05    -0.000388453       -0.0551671       -0.137492     -0.000301583    -0.000141413         0.098143       -0.979273
                         0.46267        0.829372     -0.000264259    -0.000145448         0.157075        0.248111     -6.67532e-05    -0.000552487
                     0.000160382    -4.06379e-05        0.0982012       -0.979126     -6.60796e-05    -0.000456326       -0.0800179        0.124316
281726                 -0.132365        -0.26437      1.34098e-05    -0.000408384         0.463171         0.82931      7.08866e-05    -7.84418e-05
                    -5.88505e-05    -0.000388461        -0.055223        -0.13749     -0.000301638    -0.000141511         0.097697       -0.979314
                        0.463055        0.829139     -0.000264361    -0.000145478         0.157264        0.248052     -6.69055e-05    -0.000552463
                     0.000160383    -4.07299e-05        0.0977551       -0.979167     -6.60865e-05    -0.000456291       -0.0799591        0.124376
281728                 -0.132467       -0.264377      1.30531e-05    -0.000408534         0.463555        0.829076      7.09651e-05    -7.85616e-05
                    -5.91266e-05    -0.000388468       -0.0552788       -0.137487     -0.000301692     -0.00014161         0.097251       -0.979356
                        0.463439        0.828906     -0.000264464    -0.000145508         0.157453        0.247993      -6.7057e-05    -0.000552439
                     0.000160383    -4.08215e-05         0.097309       -0.979208     -6.60931e-05    -0.000456255       -0.0799002        0.124435
281730                 -0.132569       -0.264384      1.26956e-05    -0.000408683         0.463939        0.828842      7.10438e-05    -7.86816e-05
                    -5.94028e-05    -0.000388474       -0.0553347       -0.137484     -0.000301745    -0.000141709        0.0968049       -0.979397
                        0.463824        0.828673     -0.000264568    -0.000145538         0.157642        0.247933     -6.72077e-05    -0.000552414
                     0.000160384    -4.09129e-05        0.0968629       -0.979249     -6.60994e-05    -0.000456219       -0.0798413        0.124495
281732                 -0.132671       -0.264391      1.23372e-05    -0.000408832         0.464323        0.828608      7.11227e-05     -7.8802e-05
                    -5.96789e-05     -0.00038848       -0.0553906       -0.137482     -0.000301796    -0.000141808        0.0963588       -0.979438
                        0.464208        0.828439     -0.000264672    -0.000145568         0.157831        0.247874     -6.73576e-05    -0.000552389
                     0.000160384    -4.10039e-05        0.0964167        -0.97929     -6.61054e-05    -0.000456182       -0.0797823        0.124555
281734                 -0.132773       -0.264398      1.19779e-05    -0.000408981         0.464707        0.828374      7.12019e-05    -7.89226e-05
                    -5.99551e-05    -0.000388486       -0.0554465       -0.137479     -0.000301847    -0.000141908        0.0959127       -0.979479
                        0.464592        0.828206     -0.000264777    -0.000145597          0.15802        0.247814     -6.75066e-05    -0.000552363
                     0.000160384    -4.10947e-05        0.0959706       -0.979331     -6.61112e-05    -0.000456144       -0.0797233        0.124614
281736                 -0.132875       -0.264404      1.16178e-05    -0.000409129         0.465091         0.82814      7.12813e-05    -7.90434e-05
                    -6.02312e-05    -0.000388491       -0.0555024       -0.137476     -0.000301896    -0.000142008        0.0954666       -0.979519
                        0.464977        0.827972     -0.000264883    -0.000145627         0.158209        0.247754     -6.76549e-05    -0.000552338
                     0.000160384    -4.11851e-05        0.0955243       -0.979371     -6.61168e-05    -0.000456105       -0.0796643        0.124674
281738                 -0.132977       -0.264411      1.12568e-05    -0.000409277         0.465475        0.827905      7.13609e-05    -7.91646e-05
                    -6.05073e-05    -0.000388496       -0.0555583       -0.137474     -0.000301944    -0.000142108        0.0950205        -0.97956
                        0.465361        0.827738      -0.00026499    -0.000145657         0.158398        0.247694     -6.78023e-05    -0.000552312
                     0.000160384    -4.12753e-05        0.0950781       -0.979412     -6.61223e-05    -0.000456066       -0.0796052        0.124733
281740                 -0.133079       -0.264418       1.0895e-05    -0.000409424         0.465859         0.82767      7.14407e-05    -7.92859e-05
                    -6.07834e-05      -0.0003885       -0.0556142       -0.137471     -0.000301991    -0.000142209        0.0945743         -0.9796
                        0.465744        0.827504     -0.000265098    -0.000145686         0.158587        0.247634     -6.79489e-05    -0.000552285
                     0.000160383    -4.13651e-05        0.0946319       -0.979452     -6.61275e-05    -0.000456025       -0.0795461        0.124793
281742                 -0.133181       -0.264425      1.05324e-05    -0.000409571         0.466243        0.827435      7.15207e-05    -7.94075e-05
                    -6.10594e-05    -0.000388505       -0.0556701       -0.137468     -0.000302036     -0.00014231        0.0941281        -0.97964
                        0.466128        0.827269     -0.000265206    -0.000145716         0.158776        0.247574     -6.80946e-05    -0.000552259
                     0.000160382    -4.14547e-05        0.0941856       -0.979491     -6.61326e-05    -0.000455984       -0.0794869        0.124852
281744                 -0.133283       -0.264431      1.01689e-05    -0.000409717         0.466626          0.8272      7.16009e-05    -7.95293e-05
                    -6.13353e-05    -0.000388508       -0.0557261       -0.137465     -0.000302081    -0.000142411        0.0936819       -0.979679
                        0.466512        0.827035     -0.000265316    -0.000145745         0.158965        0.247513     -6.82394e-05    -0.000552232
                     0.000160381    -4.15439e-05        0.0937393       -0.979531     -6.61375e-05    -0.000455942       -0.0794277        0.124912
281746                 -0.133385       -0.264438      9.80472e-06    -0.000409862          0.46701        0.826965      7.16814e-05    -7.96512e-05
                     -6.1611e-05    -0.000388511        -0.055782       -0.137463     -0.000302124    -0.000142512        0.0932356       -0.979719
                        0.466896          0.8268     -0.000265426    -0.000145774         0.159154        0.247453     -6.83831e-05    -0.000552205
                      0.00016038    -4.16328e-05         0.093293       -0.979571     -6.61424e-05      -0.0004559       -0.0793684        0.124971
281748                 -0.133487       -0.264445      9.43975e-06    -0.000410007         0.467393        0.826729       7.1762e-05    -7.97728e-05
                    -6.18866e-05    -0.000388514       -0.0558379        -0.13746     -0.000302166    -0.000142614        0.0927894       -0.979758
                        0.467279        0.826565     -0.000265538    -0.000145803         0.159343        0.247392     -6.85255e-05    -0.000552177
                     0.000160379    -4.17214e-05        0.0928466        -0.97961     -6.61471e-05    -0.000455856       -0.0793091         0.12503
281750                  -0.13359       -0.264451      9.07412e-06    -0.000410151         0.467776        0.826493      7.18428e-05    -7.98929e-05
                    -6.21621e-05    -0.000388516       -0.0558939       -0.137457     -0.000302207    -0.000142715        0.0923431       -0.979797
                        0.467662         0.82633     -0.000265651    -0.000145831         0.159532        0.247331     -6.86656e-05    -0.000552149
                     0.000160376    -4.18094e-05        0.0924003       -0.979649     -6.61518e-05    -0.000455811       -0.0792497         0.12509
281752                 -0.133692       -0.264458      8.70795e-06    -0.000410294         0.468159        0.826257      7.19131e-05    -7.99773e-05
                    -6.24381e-05    -0.000388517       -0.0559498       -0.137454     -0.000302246    -0.000142817        0.0918967       -0.979836
                        0.468046        0.826094     -0.000265766    -0.000145857         0.159721         0.24727     -6.87971e-05    -0.000552119
                     0.000160384    -4.18907e-05        0.0919539       -0.979688     -6.61564e-05    -0.000455766       -0.0791903        0.125149
281754                 -0.133794       -0.264465      8.34154e-06    -0.000410435         0.468542        0.826021      7.20051e-05    -8.01546e-05
                    -6.27146e-05    -0.000388518       -0.0560058       -0.137451     -0.000302284    -0.000142919        0.0914505       -0.979875
                        0.468429        0.825859     -0.000265884     -0.00014588          0.15991        0.247209     -6.90089e-05    -0.000552085
                     0.000160376    -4.19854e-05        0.0915075       -0.979726     -6.61609e-05    -0.000455719       -0.0791309        0.125208
281756                 -0.133896       -0.264471      7.97565e-06    -0.000410574         0.468925        0.825785      7.20869e-05    -8.02739e-05
                    -6.29913e-05    -0.000388519       -0.0560617       -0.137448     -0.000302321     -0.00014302        0.0910041       -0.979913
                        0.468812        0.825623     -0.000266008    -0.000145897         0.160099        0.247148     -6.91093e-05    -0.000552065
                     0.000160373    -4.20728e-05        0.0910611       -0.979765     -6.61654e-05    -0.000455672       -0.0790714        0.125268
281758                 -0.133999       -0.264478      7.61324e-06    -0.000410704         0.469308        0.825548      7.21686e-05    -8.03967e-05
                    -6.32677e-05     -0.00038852       -0.0561177       -0.137445     -0.000302356    -0.000143122        0.0905577       -0.979952
                        0.469195        0.825387     -0.000266147    -0.000145894         0.160288        0.247087     -6.92444e-05    -0.000552037
                      0.00016037    -4.21599e-05        0.0906147       -0.979803     -6.61699e-05    -0.000455624       -0.0790119        0.125327
281760                 -0.134101       -0.264484      7.28278e-06    -0.000410793          0.46969        0.825312      7.22506e-05    -8.05205e-05
                    -6.35439e-05    -0.000388521       -0.0561737       -0.137442      -0.00030239    -0.000143224        0.0901113        -0.97999
                        0.469578        0.825151     -0.000266361     -0.00014576         0.160477        0.247025     -6.93818e-05    -0.000552008
                     0.000160368    -4.22466e-05        0.0901684       -0.979841     -6.61744e-05    -0.000455574       -0.0789523        0.125386
281762                 -0.134204       -0.264491      6.84546e-06    -0.000411185         0.470073        0.825075      7.23327e-05    -8.06449e-05
                    -6.38199e-05    -0.000388521       -0.0562296       -0.137439     -0.000302423    -0.000143326        0.0896649       -0.980028
                         0.46996        0.824915     -0.000265964    -0.000146298         0.160667        0.246964     -6.95193e-05    -0.000551978
