! TOUCHSTONE file generated by CST MICROWAVE STUDIO
! Date and time: Tue Oct 14 07:30:01 2025
! Project name: Teste_Macro_Metasurface_Nanopilar.cst
! Parameters = {H=600; L_x=150; L_y=165; Lambda=1064; Max_L=200; Min_L=70; PathPara=1; Phi=0; Step_L=10; Theta=0; p=520; phaseX=180; phaseY=0}
! Header version: 2018
! Port assignment regex: !\s*Touchstone port\s*([0-9]+)\s*=\s*(CST MWS port|CST DS port)\s*([0-9]+|Zmin|Zmax)\s*\(\"(.*)\"\)(\s*mode\s*([0-9]+))?.*
! Touchstone port assignment:
! Touchstone port 1 = CST MWS port Zmax ("") mode 1
! Touchstone port 2 = CST MWS port Zmax ("") mode 2
! Touchstone port 3 = CST MWS port Zmin ("") mode 1
! Touchstone port 4 = CST MWS port Zmin ("") mode 2
! S-Parameters are not renormalized. Each port impedance will be approximated by the real part at minimum frequency. The values are described via the [Reference] keyword.
! Default impedance is overridden by [Reference]
[Version] 2.0
# GHz S RI R 376.73
[Number of Ports] 4
[Reference]
376.73 376.73 259.814 259.814 
[Number of Frequencies] 51
[Network Data]
281700                 -0.168253       0.0144401     -8.27616e-05    -9.56267e-05         0.698393        0.689885     -2.46096e-05    -9.09972e-06
                    -8.13605e-05    -0.000108148        -0.188191       0.0679482     -9.87575e-05     5.21663e-05         0.516992        0.824571
                        0.697572        0.689503     -0.000272531     0.000129216       -0.0124684        0.163638      0.000284969     0.000126024
                    -0.000208071     0.000130525         0.516556        0.824732      0.000170552     0.000119459        -0.140689        0.131307
281702                 -0.168248       0.0144569      -8.2943e-05     -9.5857e-05         0.698688        0.689587     -2.44308e-05    -9.15708e-06
                    -8.14431e-05    -0.000108205        -0.188149       0.0679435     -9.86616e-05     5.20952e-05         0.517385        0.824336
                        0.697868        0.689206     -0.000272361     0.000129125       -0.0123437        0.163645      0.000285311     0.000126231
                    -0.000208014     0.000130495         0.516949        0.824498      0.000170774      0.00011953        -0.140541        0.131409
281704                 -0.168244       0.0144737     -8.31249e-05     -9.6087e-05         0.698984        0.689288     -2.42519e-05    -9.21432e-06
                    -8.15261e-05    -0.000108261        -0.188107       0.0679389     -9.85662e-05     5.20249e-05         0.517778        0.824102
                        0.698163        0.688908     -0.000272191     0.000129034        -0.012219        0.163652      0.000285653     0.000126437
                    -0.000207957     0.000130464         0.517343        0.824264      0.000170996     0.000119601        -0.140393         0.13151
281706                 -0.168239       0.0144905     -8.33073e-05    -9.63167e-05         0.699279         0.68899      -2.4073e-05    -9.27142e-06
                    -8.16098e-05    -0.000108316        -0.188065       0.0679343     -9.84713e-05     5.19553e-05         0.518172        0.823868
                        0.698458        0.688611     -0.000272022     0.000128944       -0.0120943        0.163659      0.000285996     0.000126643
                    -0.000207899     0.000130432         0.517736        0.824029      0.000171217     0.000119672        -0.140245        0.131612
281708                 -0.168234       0.0145073     -8.34902e-05     -9.6546e-05         0.699575        0.688692     -2.38941e-05    -9.32839e-06
                     -8.1694e-05    -0.000108372        -0.188023       0.0679297     -9.83768e-05     5.18866e-05         0.518565        0.823633
                        0.698754        0.688313     -0.000271852     0.000128854       -0.0119696        0.163666      0.000286339      0.00012685
                    -0.000207841       0.0001304          0.51813        0.823795      0.000171437     0.000119743        -0.140097        0.131714
281710                 -0.168229       0.0145241     -8.36736e-05    -9.67751e-05          0.69987        0.688393     -2.37152e-05    -9.38524e-06
                    -8.17787e-05    -0.000108428        -0.187981       0.0679251     -9.82828e-05     5.18188e-05         0.518957        0.823398
                        0.699049        0.688016     -0.000271684     0.000128764       -0.0118449        0.163673      0.000286683     0.000127056
                    -0.000207783     0.000130368         0.518523         0.82356      0.000171657     0.000119814        -0.139949        0.131815
281712                 -0.168225       0.0145409     -8.38574e-05    -9.70039e-05         0.700165        0.688095     -2.35363e-05    -9.44195e-06
                     -8.1864e-05    -0.000108484        -0.187939       0.0679205     -9.81893e-05     5.17517e-05          0.51935        0.823163
                        0.699344        0.687718     -0.000271515     0.000128674       -0.0117202         0.16368      0.000287027     0.000127262
                    -0.000207724     0.000130334         0.518916        0.823325      0.000171875     0.000119884        -0.139801        0.131916
281714                  -0.16822       0.0145577     -8.40417e-05    -9.72323e-05          0.70046        0.687796     -2.33574e-05    -9.49854e-06
                    -8.19499e-05     -0.00010854        -0.187897       0.0679159     -9.80963e-05     5.16855e-05         0.519742        0.822928
                        0.699638         0.68742     -0.000271347     0.000128584       -0.0115955        0.163687      0.000287371     0.000127469
                    -0.000207664       0.0001303         0.519308         0.82309      0.000172092     0.000119955        -0.139653        0.132018
281716                 -0.168215       0.0145746     -8.42265e-05    -9.74605e-05         0.700755        0.687497     -2.31785e-05    -9.55499e-06
                    -8.20363e-05    -0.000108595        -0.187855       0.0679114     -9.80039e-05     5.16202e-05         0.520135        0.822692
                        0.699933        0.687122     -0.000271179     0.000128495       -0.0114708        0.163693      0.000287716     0.000127675
                    -0.000207605     0.000130266         0.519701        0.822855      0.000172308     0.000120025        -0.139505        0.132119
281718                  -0.16821       0.0145914     -8.44118e-05    -9.76883e-05         0.701049        0.687198     -2.29997e-05    -9.61132e-06
                    -8.21232e-05    -0.000108651        -0.187813       0.0679068      -9.7912e-05     5.15558e-05         0.520527        0.822457
                        0.700228        0.686824     -0.000271011     0.000128406       -0.0113462          0.1637      0.000288061     0.000127881
                    -0.000207544     0.000130231         0.520094        0.822619      0.000172522     0.000120095        -0.139356         0.13222
281720                 -0.168206       0.0146083     -8.45976e-05    -9.79158e-05         0.701344        0.686899     -2.28208e-05    -9.66752e-06
                    -8.22108e-05    -0.000108707        -0.187771       0.0679023     -9.78207e-05     5.14922e-05         0.520919        0.822221
                        0.700522        0.686526     -0.000270844     0.000128317       -0.0112215        0.163707      0.000288407     0.000128088
                    -0.000207484     0.000130195         0.520486        0.822384      0.000172736     0.000120165        -0.139208         0.13232
281722                 -0.168201       0.0146251     -8.47839e-05     -9.8143e-05         0.701638          0.6866     -2.26419e-05    -9.72359e-06
                    -8.22989e-05    -0.000108762         -0.18773       0.0678978       -9.773e-05     5.14296e-05         0.521311        0.821985
                        0.700816        0.686227     -0.000270677     0.000128228       -0.0110969        0.163713      0.000288753     0.000128294
                    -0.000207423     0.000130158         0.520878        0.822148      0.000172948     0.000120235         -0.13906        0.132421
281724                 -0.168196        0.014642     -8.49707e-05    -9.83698e-05         0.701932        0.686301      -2.2463e-05    -9.77953e-06
                    -8.23875e-05    -0.000108817        -0.187688       0.0678933     -9.76398e-05     5.13678e-05         0.521703        0.821749
                         0.70111        0.685929      -0.00027051      0.00012814       -0.0109723        0.163719      0.000289099       0.0001285
                    -0.000207362     0.000130121          0.52127        0.821912      0.000173159     0.000120304        -0.138912        0.132521
281726                 -0.168192       0.0146589     -8.51579e-05    -9.85964e-05         0.702226        0.686001     -2.22842e-05    -9.83535e-06
                    -8.24767e-05    -0.000108873        -0.187646       0.0678888     -9.75503e-05      5.1307e-05         0.522094        0.821513
                        0.701404         0.68563     -0.000270344     0.000128052       -0.0108477        0.163726      0.000289446     0.000128707
                      -0.0002073     0.000130084         0.521662        0.821676      0.000173369     0.000120373        -0.138764        0.132622
281728                 -0.168187       0.0146758     -8.53457e-05    -9.88225e-05          0.70252        0.685702     -2.21053e-05    -9.89104e-06
                    -8.25665e-05    -0.000108928        -0.187605       0.0678844     -9.74614e-05     5.12471e-05         0.522486        0.821276
                        0.701698        0.685332     -0.000270178     0.000127964       -0.0107231        0.163732      0.000289793     0.000128913
                    -0.000207238     0.000130045         0.522054         0.82144      0.000173577     0.000120442        -0.138616        0.132722
281730                 -0.168182       0.0146927     -8.55339e-05    -9.90484e-05         0.702814        0.685402     -2.19265e-05     -9.9466e-06
                    -8.26568e-05    -0.000108983        -0.187563       0.0678799     -9.73732e-05     5.11881e-05         0.522877         0.82104
                        0.701992        0.685033     -0.000270012     0.000127877       -0.0105985        0.163738      0.000290141     0.000129119
                    -0.000207176     0.000130006         0.522445        0.821203      0.000173783     0.000120511        -0.138467        0.132822
281732                 -0.168178       0.0147096     -8.57227e-05    -9.92739e-05         0.703108        0.685102     -2.17476e-05     -1.0002e-05
                    -8.27477e-05    -0.000109038        -0.187522       0.0678755     -9.72857e-05     5.11301e-05         0.523268        0.820803
                        0.702285        0.684734     -0.000269847     0.000127789       -0.0104739        0.163744      0.000290489     0.000129326
                    -0.000207113     0.000129967         0.522837        0.820967      0.000173988     0.000120579        -0.138319        0.132921
281734                 -0.168173       0.0147265     -8.59119e-05    -9.94991e-05         0.703401        0.684802     -2.15688e-05    -1.00573e-05
                    -8.28392e-05    -0.000109093         -0.18748       0.0678711     -9.71988e-05      5.1073e-05         0.523659        0.820566
                        0.702579        0.684435     -0.000269681     0.000127702       -0.0103493         0.16375      0.000290837     0.000129532
                     -0.00020705     0.000129926         0.523228         0.82073      0.000174192     0.000120648        -0.138171        0.133021
281736                 -0.168169       0.0147434     -8.61017e-05     -9.9724e-05         0.703695        0.684502       -2.139e-05    -1.01125e-05
                    -8.29312e-05    -0.000109148        -0.187439       0.0678667     -9.71126e-05      5.1017e-05          0.52405        0.820329
                        0.702872        0.684136     -0.000269517     0.000127615       -0.0102247        0.163756      0.000291186     0.000129738
                    -0.000206987     0.000129885         0.523619        0.820493      0.000174394     0.000120715        -0.138023        0.133121
281738                 -0.168164       0.0147603      -8.6292e-05    -9.99485e-05         0.703988        0.684202     -2.12112e-05    -1.01676e-05
                    -8.30238e-05    -0.000109203        -0.187398       0.0678623     -9.70272e-05     5.09618e-05         0.524441        0.820091
                        0.703165        0.683836     -0.000269352     0.000127528       -0.0101002        0.163761      0.000291536     0.000129945
                    -0.000206923     0.000129844          0.52401        0.820256      0.000174594     0.000120783        -0.137874         0.13322
281740                 -0.168159       0.0147773     -8.64827e-05    -0.000100173         0.704281        0.683902     -2.10324e-05    -1.02225e-05
                     -8.3117e-05    -0.000109258        -0.187356       0.0678579     -9.69425e-05     5.09077e-05         0.524831        0.819854
                        0.703458        0.683537     -0.000269188     0.000127442      -0.00997562        0.163767      0.000291885     0.000130151
                    -0.000206859     0.000129802         0.524401        0.820018      0.000174792      0.00012085        -0.137726        0.133319
281742                 -0.168155       0.0147942      -8.6674e-05    -0.000100396         0.704574        0.683602     -2.08536e-05    -1.02773e-05
                    -8.32107e-05    -0.000109313        -0.187315       0.0678536     -9.68585e-05     5.08546e-05         0.525221        0.819616
                        0.703751        0.683237     -0.000269025     0.000127356      -0.00985109        0.163772      0.000292236     0.000130357
                    -0.000206795     0.000129759         0.524791        0.819781      0.000174989     0.000120917        -0.137578        0.133419
281744                  -0.16815       0.0148112     -8.68657e-05     -0.00010062         0.704867        0.683301     -2.06749e-05     -1.0332e-05
                     -8.3305e-05    -0.000109367        -0.187274       0.0678492     -9.67753e-05     5.08025e-05         0.525612        0.819378
                        0.704044        0.682938     -0.000268861      0.00012727      -0.00972656        0.163778      0.000292586     0.000130563
                     -0.00020673     0.000129715         0.525182        0.819543      0.000175183     0.000120984         -0.13743        0.133517
281746                 -0.168146       0.0148281      -8.7058e-05    -0.000100843         0.705159        0.683001     -2.04962e-05    -1.03865e-05
                    -8.33999e-05    -0.000109422        -0.187233       0.0678449     -9.66929e-05     5.07514e-05         0.526002         0.81914
                        0.704336        0.682638     -0.000268698     0.000127184      -0.00960204        0.163783      0.000292937      0.00013077
                    -0.000206665     0.000129671         0.525572        0.819305      0.000175376      0.00012105        -0.137281        0.133616
281748                 -0.168141       0.0148451     -8.72508e-05    -0.000101066         0.705452          0.6827     -2.03175e-05    -1.04409e-05
                    -8.34954e-05    -0.000109476        -0.187191       0.0678406     -9.66113e-05     5.07013e-05         0.526392        0.818902
                        0.704629        0.682338     -0.000268535     0.000127099      -0.00947754        0.163789      0.000293288     0.000130976
                      -0.0002066     0.000129626         0.525962        0.819067      0.000175567     0.000121116        -0.137133        0.133715
281750                 -0.168137       0.0148621     -8.74441e-05    -0.000101288         0.705744        0.682399     -2.01388e-05    -1.04952e-05
                    -8.35914e-05     -0.00010953         -0.18715       0.0678363     -9.65305e-05     5.06522e-05         0.526781        0.818664
                        0.704921        0.682038     -0.000268373     0.000127014      -0.00935304        0.163794       0.00029364     0.000131182
                    -0.000206534      0.00012958         0.526352        0.818829      0.000175756     0.000121181        -0.136984        0.133814
281752                 -0.168132        0.014879     -8.76379e-05     -0.00010151         0.706037        0.682098     -1.99601e-05    -1.05494e-05
                     -8.3688e-05    -0.000109584        -0.187109        0.067832     -9.64505e-05     5.06042e-05         0.527171        0.818425
                        0.705213        0.681738     -0.000268211     0.000126929      -0.00922856        0.163799      0.000293992     0.000131389
                    -0.000206468     0.000129534         0.526742        0.818591      0.000175943     0.000121246        -0.136836        0.133912
281754                 -0.168127        0.014896     -8.78322e-05    -0.000101732         0.706329        0.681797     -1.97815e-05    -1.06034e-05
                    -8.37851e-05    -0.000109638        -0.187068       0.0678278     -9.63714e-05     5.05572e-05          0.52756        0.818187
                        0.705505        0.681438     -0.000268049     0.000126844      -0.00910409        0.163804      0.000294345     0.000131595
                    -0.000206402     0.000129487         0.527132        0.818352      0.000176128     0.000121311        -0.136688         0.13401
281756                 -0.168123        0.014913      -8.8027e-05    -0.000101953         0.706621        0.681496     -1.96029e-05    -1.06573e-05
                    -8.38829e-05    -0.000109692        -0.187027       0.0678235      -9.6293e-05     5.05112e-05          0.52795        0.817948
                        0.705797        0.681137     -0.000267887     0.000126759      -0.00897962        0.163809      0.000294698     0.000131801
                    -0.000206336     0.000129439         0.527521        0.818114       0.00017631     0.000121375        -0.136539        0.134108
281758                 -0.168118         0.01493     -8.82223e-05    -0.000102174         0.706913        0.681194     -1.94243e-05     -1.0711e-05
                    -8.39812e-05    -0.000109746        -0.186986       0.0678193     -9.62156e-05     5.04662e-05         0.528339        0.817709
                        0.706089        0.680837     -0.000267726     0.000126675      -0.00885517        0.163814      0.000295051     0.000132007
                    -0.000206269     0.000129391         0.527911        0.817875      0.000176491     0.000121439        -0.136391        0.134206
281760                 -0.168114       0.0149471     -8.84181e-05    -0.000102395         0.707204        0.680893     -1.92458e-05    -1.07647e-05
                    -8.40801e-05      -0.0001098        -0.186946       0.0678151     -9.61389e-05     5.04224e-05         0.528728         0.81747
                        0.706381        0.680536     -0.000267566     0.000126591      -0.00873073        0.163819      0.000295405     0.000132213
                    -0.000206202     0.000129342           0.5283        0.817636       0.00017667     0.000121502        -0.136242        0.134304
281762                 -0.168109       0.0149641     -8.86144e-05    -0.000102615         0.707496        0.680591     -1.90673e-05    -1.08181e-05
                    -8.41796e-05    -0.000109853        -0.186905       0.0678109     -9.60631e-05     5.03795e-05         0.529116         0.81723
                        0.706672        0.680235     -0.000267405     0.000126507       -0.0086063        0.163824      0.000295759      0.00013242
