! TOUCHSTONE file generated by CST MICROWAVE STUDIO
! Date and time: Tue Oct 14 07:29:53 2025
! Project name: Teste_Macro_Metasurface_Nanopilar.cst
! Parameters = {H=600; L_x=150; L_y=110; Lambda=1064; Max_L=200; Min_L=70; PathPara=1; Phi=0; Step_L=10; Theta=0; p=520; phaseX=180; phaseY=0}
! Header version: 2018
! Port assignment regex: !\s*Touchstone port\s*([0-9]+)\s*=\s*(CST MWS port|CST DS port)\s*([0-9]+|Zmin|Zmax)\s*\(\"(.*)\"\)(\s*mode\s*([0-9]+))?.*
! Touchstone port assignment:
! Touchstone port 1 = CST MWS port Zmax ("") mode 1
! Touchstone port 2 = CST MWS port Zmax ("") mode 2
! Touchstone port 3 = CST MWS port Zmin ("") mode 1
! Touchstone port 4 = CST MWS port Zmin ("") mode 2
! S-Parameters are not renormalized. Each port impedance will be approximated by the real part at minimum frequency. The values are described via the [Reference] keyword.
! Default impedance is overridden by [Reference]
[Version] 2.0
# GHz S RI R 376.73
[Number of Ports] 4
[Reference]
376.73 376.73 259.814 259.814 
[Number of Frequencies] 51
[Network Data]
281700                 -0.143381       0.0296463     -0.000118956     0.000246497        -0.965007       -0.169128      5.66199e-05    -0.000536487
                    -0.000138978     0.000179757       -0.0935448       -0.171361     -0.000467757     0.000127305         0.196584        0.955782
                       -0.964849       -0.168573     -0.000536576     6.07255e-05         0.122415       0.0773524     -2.35655e-05    -5.23483e-05
                     0.000106967    -0.000600879         0.197107        0.956066     -0.000105249    -3.34384e-05       -0.0170309        0.193696
281702                 -0.143351       0.0296928     -0.000118915     0.000246711        -0.965099        -0.16862      5.63399e-05    -0.000536544
                    -0.000138919      0.00017985       -0.0936061       -0.171355     -0.000467564      0.00012751         0.197012        0.955689
                        -0.96494       -0.168064     -0.000536553     6.07844e-05         0.122453       0.0772564      -2.3586e-05    -5.23209e-05
                     0.000106605    -0.000600927         0.197536        0.955973     -0.000105208    -3.34627e-05       -0.0169153         0.19373
281704                 -0.143322       0.0297393     -0.000118873     0.000246923         -0.96519       -0.168111      5.60601e-05    -0.000536601
                     -0.00013886     0.000179944       -0.0936675       -0.171348     -0.000467372     0.000127714         0.197441        0.955596
                       -0.965031       -0.167556     -0.000536531     6.08437e-05          0.12249       0.0771604     -2.36063e-05    -5.22937e-05
                     0.000106242    -0.000600975         0.197965         0.95588     -0.000105168    -3.34865e-05       -0.0167998        0.193763
281706                 -0.143293       0.0297858     -0.000118831     0.000247134        -0.965282       -0.167603      5.57802e-05    -0.000536657
                    -0.000138801     0.000180037       -0.0937289       -0.171342      -0.00046718     0.000127917          0.19787        0.955502
                       -0.965122       -0.167047     -0.000536509     6.09035e-05         0.122528       0.0770644     -2.36266e-05    -5.22667e-05
                     0.000105879    -0.000601023         0.198394        0.955787     -0.000105126    -3.35098e-05       -0.0166842        0.193797
281708                 -0.143263       0.0298323     -0.000118789     0.000247344        -0.965373       -0.167094      5.55005e-05    -0.000536714
                    -0.000138742      0.00018013       -0.0937902       -0.171335     -0.000466989     0.000128119         0.198298        0.955409
                       -0.965213       -0.166538     -0.000536487     6.09637e-05         0.122565       0.0769684     -2.36469e-05    -5.22398e-05
                     0.000105517    -0.000601071         0.198823        0.955694     -0.000105085    -3.35325e-05       -0.0165685         0.19383
281710                 -0.143234       0.0298787     -0.000118747     0.000247554        -0.965464       -0.166586      5.52207e-05     -0.00053677
                    -0.000138683     0.000180224       -0.0938516       -0.171328     -0.000466799     0.000128321         0.198727        0.955315
                       -0.965303       -0.166029     -0.000536466     6.10244e-05         0.122602       0.0768723      -2.3667e-05     -5.2213e-05
                     0.000105155    -0.000601119         0.199251          0.9556     -0.000105044    -3.35547e-05       -0.0164528        0.193863
281712                 -0.143205       0.0299251     -0.000118704     0.000247762        -0.965555       -0.166077      5.49411e-05    -0.000536825
                    -0.000138623     0.000180317        -0.093913       -0.171322     -0.000466609     0.000128522         0.199155        0.955221
                       -0.965393        -0.16552     -0.000536445     6.10856e-05         0.122639       0.0767762     -2.36871e-05    -5.21864e-05
                     0.000104792    -0.000601166          0.19968        0.955507     -0.000105002    -3.35764e-05       -0.0163371        0.193896
281714                 -0.143175       0.0299715     -0.000118661     0.000247969        -0.965645       -0.165569      5.46614e-05    -0.000536881
                    -0.000138564     0.000180411       -0.0939744       -0.171315     -0.000466419     0.000128722         0.199584        0.955127
                       -0.965483       -0.165011     -0.000536424     6.11472e-05         0.122676       0.0766802     -2.37071e-05      -5.216e-05
                      0.00010443    -0.000601214         0.200109        0.955413      -0.00010496    -3.35976e-05       -0.0162213         0.19393
281716                 -0.143146       0.0300179     -0.000118618     0.000248176        -0.965736        -0.16506      5.43818e-05    -0.000536936
                    -0.000138505     0.000180505       -0.0940358       -0.171308      -0.00046623     0.000128922         0.200012        0.955033
                       -0.965572       -0.164502     -0.000536404     6.12094e-05         0.122713       0.0765841      -2.3727e-05    -5.21337e-05
                     0.000104068    -0.000601261         0.200538        0.955319     -0.000104917    -3.36183e-05       -0.0161056        0.193963
281718                 -0.143117       0.0300642     -0.000118575     0.000248381        -0.965826       -0.164551      5.41023e-05    -0.000536991
                    -0.000138446     0.000180598       -0.0940972       -0.171301     -0.000466042     0.000129121         0.200441        0.954939
                       -0.965662       -0.163993     -0.000536384      6.1272e-05          0.12275       0.0764879     -2.37468e-05    -5.21075e-05
                     0.000103706    -0.000601308         0.200966        0.955224     -0.000104875    -3.36385e-05       -0.0159897        0.193996
281720                 -0.143087       0.0301105     -0.000118531     0.000248585        -0.965915       -0.164042      5.38228e-05    -0.000537046
                    -0.000138386     0.000180692       -0.0941586       -0.171295     -0.000465854     0.000129319         0.200869        0.954844
                       -0.965751       -0.163484     -0.000536364     6.13352e-05         0.122787       0.0763918     -2.37666e-05    -5.20814e-05
                     0.000103345    -0.000601355         0.201395         0.95513     -0.000104832    -3.36581e-05       -0.0158739        0.194029
281722                 -0.143058       0.0301568     -0.000118487     0.000248789        -0.966005       -0.163534      5.35434e-05      -0.0005371
                    -0.000138327     0.000180787         -0.09422       -0.171288     -0.000465666     0.000129517         0.201297        0.954749
                       -0.965839       -0.162975     -0.000536345     6.13988e-05         0.122824       0.0762956     -2.37862e-05    -5.20555e-05
                     0.000102983    -0.000601402         0.201823        0.955035     -0.000104788    -3.36772e-05        -0.015758        0.194061
281724                 -0.143028       0.0302031     -0.000118443     0.000248991        -0.966094       -0.163025       5.3264e-05    -0.000537154
                    -0.000138268     0.000180881       -0.0942814       -0.171281      -0.00046548     0.000129713         0.201725        0.954654
                       -0.965928       -0.162466     -0.000536326      6.1463e-05          0.12286       0.0761994     -2.38058e-05    -5.20298e-05
                     0.000102621    -0.000601449         0.202252         0.95494     -0.000104745    -3.36958e-05        -0.015642        0.194094
281726                 -0.142999       0.0302494     -0.000118399     0.000249192        -0.966183       -0.162516      5.29847e-05    -0.000537208
                    -0.000138209     0.000180975       -0.0943428       -0.171274     -0.000465293      0.00012991         0.202154        0.954559
                       -0.966016       -0.161956     -0.000536307     6.15277e-05         0.122897       0.0761032     -2.38254e-05    -5.20042e-05
                      0.00010226    -0.000601496          0.20268        0.954845     -0.000104701    -3.37139e-05       -0.0155261        0.194127
281728                 -0.142969       0.0302956     -0.000118354     0.000249392        -0.966271       -0.162007      5.27054e-05    -0.000537262
                    -0.000138149      0.00018107       -0.0944042       -0.171267     -0.000465108     0.000130105         0.202582        0.954463
                       -0.966104       -0.161447     -0.000536289      6.1593e-05         0.122934        0.076007     -2.38448e-05    -5.19787e-05
                     0.000101898    -0.000601543         0.203109         0.95475     -0.000104657    -3.37315e-05         -0.01541         0.19416
281730                  -0.14294       0.0303418      -0.00011831     0.000249592        -0.966359       -0.161498      5.24262e-05    -0.000537316
                     -0.00013809     0.000181165       -0.0944656       -0.171261     -0.000464923       0.0001303          0.20301        0.954368
                       -0.966192       -0.160938      -0.00053627     6.16588e-05          0.12297       0.0759108     -2.38642e-05    -5.19533e-05
                     0.000101537    -0.000601589         0.203537        0.954655     -0.000104613    -3.37485e-05        -0.015294        0.194192
281732                  -0.14291        0.030388     -0.000118265      0.00024979        -0.966448       -0.160989       5.2147e-05    -0.000537369
                    -0.000138031     0.000181259        -0.094527       -0.171254     -0.000464739     0.000130494         0.203438        0.954272
                       -0.966279       -0.160428     -0.000536252     6.17251e-05         0.123006       0.0758145     -2.38835e-05    -5.19281e-05
                     0.000101176    -0.000601636         0.203965        0.954559     -0.000104569    -3.37651e-05       -0.0151779        0.194225
281734                 -0.142881       0.0304342      -0.00011822     0.000249987        -0.966535        -0.16048      5.18679e-05    -0.000537422
                    -0.000137971     0.000181354       -0.0945885       -0.171247     -0.000464555     0.000130687         0.203866        0.954176
                       -0.966366       -0.159919     -0.000536235      6.1792e-05         0.123043       0.0757182     -2.39027e-05     -5.1903e-05
                     0.000100814    -0.000601682         0.204394        0.954463     -0.000104524    -3.37811e-05       -0.0150618        0.194257
281736                 -0.142851       0.0304803     -0.000118174     0.000250183        -0.966623        -0.15997      5.15888e-05    -0.000537475
                    -0.000137912      0.00018145       -0.0946499        -0.17124     -0.000464372      0.00013088         0.204294         0.95408
                       -0.966453       -0.159409     -0.000536217     6.18595e-05         0.123079       0.0756219     -2.39218e-05     -5.1878e-05
                     0.000100453    -0.000601728         0.204822        0.954367     -0.000104479    -3.37966e-05       -0.0149457         0.19429
281738                 -0.142821       0.0305265     -0.000118129     0.000250378         -0.96671       -0.159461      5.13098e-05    -0.000537527
                    -0.000137853     0.000181545       -0.0947113       -0.171233     -0.000464189     0.000131072         0.204722        0.953983
                        -0.96654         -0.1589       -0.0005362     6.19276e-05         0.123115       0.0755256     -2.39409e-05    -5.18532e-05
                     0.000100092    -0.000601775          0.20525        0.954271     -0.000104434    -3.38116e-05       -0.0148295        0.194322
281740                 -0.142792       0.0305726     -0.000118083     0.000250572        -0.966797       -0.158952      5.10308e-05     -0.00053758
                    -0.000137793     0.000181641       -0.0947728       -0.171226     -0.000464007     0.000131263          0.20515        0.953887
                       -0.966626        -0.15839     -0.000536183     6.19962e-05         0.123151       0.0754292     -2.39598e-05    -5.18285e-05
                      9.9731e-05    -0.000601821         0.205678        0.954174     -0.000104389     -3.3826e-05       -0.0147133        0.194354
281742                 -0.142762       0.0306187     -0.000118038     0.000250765        -0.966884       -0.158443      5.07519e-05    -0.000537632
                    -0.000137734     0.000181736       -0.0948342       -0.171219     -0.000463826     0.000131453         0.205578         0.95379
                       -0.966712        -0.15788     -0.000536167     6.20655e-05         0.123187       0.0753329     -2.39787e-05    -5.18039e-05
                       9.937e-05    -0.000601867         0.206106        0.954078     -0.000104343      -3.384e-05        -0.014597        0.194386
281744                 -0.142732       0.0306647     -0.000117992     0.000250956         -0.96697       -0.157933      5.04731e-05    -0.000537684
                    -0.000137674     0.000181832       -0.0948957       -0.171212     -0.000463646     0.000131643         0.206005        0.953693
                       -0.966798       -0.157371      -0.00053615     6.21353e-05         0.123223       0.0752365     -2.39975e-05    -5.17795e-05
                     9.90091e-05    -0.000601912         0.206534        0.953981     -0.000104297    -3.38534e-05       -0.0144807        0.194419
281746                 -0.142703       0.0307108     -0.000117946     0.000251147        -0.967056       -0.157424      5.01943e-05    -0.000537735
                    -0.000137615     0.000181929       -0.0949571       -0.171205     -0.000463466     0.000131832         0.206433        0.953596
                       -0.966883       -0.156861     -0.000536134     6.22057e-05         0.123259       0.0751401     -2.40163e-05    -5.17551e-05
                     9.86483e-05    -0.000601958         0.206962        0.953884     -0.000104251    -3.38663e-05       -0.0143644        0.194451
281748                 -0.142673       0.0307568       -0.0001179     0.000251337        -0.967142       -0.156914      4.99155e-05    -0.000537787
                    -0.000137555     0.000182025       -0.0950186       -0.171198     -0.000463287      0.00013202         0.206861        0.953499
                       -0.966968       -0.156351     -0.000536118     6.22768e-05         0.123295       0.0750437     -2.40349e-05    -5.17309e-05
                     9.82875e-05    -0.000602004          0.20739        0.953787     -0.000104204    -3.38788e-05        -0.014248        0.194483
281750                 -0.142643       0.0308028     -0.000117854     0.000251525        -0.967228       -0.156405      4.96369e-05    -0.000537838
                    -0.000137495     0.000182122         -0.09508       -0.171191     -0.000463109     0.000132208         0.207288        0.953401
                       -0.967053       -0.155841     -0.000536103     6.23484e-05          0.12333       0.0749473     -2.40535e-05    -5.17069e-05
                     9.79267e-05    -0.000602049         0.207818         0.95369     -0.000104158    -3.38907e-05       -0.0141316        0.194515
281752                 -0.142614       0.0308488     -0.000117808     0.000251713        -0.967313       -0.155895      4.93582e-05    -0.000537889
                    -0.000137436     0.000182219       -0.0951415       -0.171184     -0.000462931     0.000132394         0.207716        0.953303
                       -0.967138       -0.155331     -0.000536087     6.24207e-05         0.123366       0.0748508     -2.40719e-05    -5.16829e-05
                     9.75661e-05    -0.000602095         0.208246        0.953592     -0.000104111     -3.3902e-05       -0.0140152        0.194547
281754                 -0.142584       0.0308947     -0.000117761     0.000251899        -0.967399       -0.155386      4.90797e-05    -0.000537939
                    -0.000137376     0.000182316       -0.0952029       -0.171177     -0.000462754      0.00013258         0.208144        0.953205
                       -0.967223       -0.154822     -0.000536072     6.24937e-05         0.123401       0.0747543     -2.40903e-05     -5.1659e-05
                     9.72054e-05     -0.00060214         0.208674        0.953494     -0.000104063    -3.39129e-05       -0.0138987        0.194578
281756                 -0.142554       0.0309406     -0.000117715     0.000252084        -0.967483       -0.154876      4.88012e-05     -0.00053799
                    -0.000137316     0.000182413       -0.0952644        -0.17117     -0.000462578     0.000132765         0.208571        0.953107
                       -0.967307       -0.154312     -0.000536057     6.25672e-05         0.123437       0.0746578     -2.41087e-05    -5.16353e-05
                     9.68448e-05    -0.000602185         0.209102        0.953396     -0.000104016    -3.39232e-05       -0.0137822         0.19461
281758                 -0.142524       0.0309866     -0.000117668     0.000252268        -0.967568       -0.154366      4.85228e-05     -0.00053804
                    -0.000137256     0.000182511       -0.0953259       -0.171163     -0.000462403      0.00013295         0.208999        0.953009
                       -0.967391       -0.153802     -0.000536042     6.26414e-05         0.123472       0.0745613     -2.41269e-05    -5.16117e-05
                     9.64842e-05     -0.00060223         0.209529        0.953298     -0.000103968    -3.39331e-05       -0.0136657        0.194642
281760                 -0.142495       0.0310324     -0.000117622     0.000252451        -0.967652       -0.153857      4.82445e-05     -0.00053809
                    -0.000137196     0.000182609       -0.0953874       -0.171156     -0.000462228     0.000133133         0.209426        0.952911
                       -0.967474       -0.153291     -0.000536028     6.27162e-05         0.123507       0.0744648      -2.4145e-05    -5.15882e-05
                     9.61237e-05    -0.000602275         0.209957          0.9532      -0.00010392    -3.39424e-05       -0.0135491        0.194673
281762                 -0.142465       0.0310783     -0.000117575     0.000252633        -0.967736       -0.153347      4.79663e-05     -0.00053814
                    -0.000137136     0.000182707       -0.0954488       -0.171149     -0.000462054     0.000133316         0.209853        0.952812
                       -0.967558       -0.152781     -0.000536013     6.27917e-05         0.123543       0.0743683      -2.4163e-05    -5.15648e-05
