! TOUCHSTONE file generated by CST MICROWAVE STUDIO
! Date and time: Tue Oct 14 07:24:58 2025
! Project name: Teste_Macro_Metasurface_Nanopilar.cst
! Parameters = {H=600; L_x=70; L_y=160; Lambda=1064; Max_L=200; Min_L=70; PathPara=1; Phi=0; Step_L=10; Theta=0; p=520; phaseX=180; phaseY=0}
! Header version: 2018
! Port assignment regex: !\s*Touchstone port\s*([0-9]+)\s*=\s*(CST MWS port|CST DS port)\s*([0-9]+|Zmin|Zmax)\s*\(\"(.*)\"\)(\s*mode\s*([0-9]+))?.*
! Touchstone port assignment:
! Touchstone port 1 = CST MWS port Zmax ("") mode 1
! Touchstone port 2 = CST MWS port Zmax ("") mode 2
! Touchstone port 3 = CST MWS port Zmin ("") mode 1
! Touchstone port 4 = CST MWS port Zmin ("") mode 2
! S-Parameters are not renormalized. Each port impedance will be approximated by the real part at minimum frequency. The values are described via the [Reference] keyword.
! Default impedance is overridden by [Reference]
[Version] 2.0
# GHz S RI R 376.73
[Number of Ports] 4
[Reference]
376.73 376.73 259.814 259.814 
[Number of Frequencies] 51
[Network Data]
281700                 0.0647706        0.100045      0.000499326    -7.40961e-06        -0.965588        0.187552     -6.10319e-05    -0.000234726
                     0.000454278     8.50085e-05       -0.0184833        0.106199      4.27346e-05     4.61249e-05         0.991939      -0.0547453
                       -0.965777        0.187701      6.57029e-07      0.00013359       -0.0253762        0.118371       0.00043249    -1.95232e-05
                     4.38906e-06    -2.71695e-05         0.992158      -0.0542923      0.000560901    -0.000188121         0.029942        0.103666
281702                 0.0648223       0.0999844      0.000499285    -7.86326e-06        -0.965493        0.188054     -6.12678e-05    -0.000234756
                     0.000454473     8.47414e-05        -0.018445        0.106202       4.2399e-05      4.6228e-05          0.99192      -0.0551078
                       -0.965682        0.188203      8.10145e-07     0.000133508       -0.0253248         0.11836      0.000432556    -1.96025e-05
                      4.3651e-06    -2.71215e-05         0.992138      -0.0546548      0.000560839    -0.000188248        0.0299799        0.103651
281704                 0.0648739       0.0999235      0.000499243    -8.31672e-06        -0.965398        0.188556     -6.15043e-05    -0.000234786
                     0.000454667      8.4474e-05       -0.0184066        0.106205      4.20631e-05     4.63297e-05         0.991901      -0.0554702
                       -0.965587        0.188704      9.63156e-07     0.000133427       -0.0252734        0.118348      0.000432622    -1.96815e-05
                     4.34123e-06    -2.70734e-05         0.992118      -0.0550172      0.000560776    -0.000188374        0.0300179        0.103637
281706                 0.0649256       0.0998625      0.000499201    -8.76998e-06        -0.965302        0.189058     -6.17414e-05    -0.000234815
                     0.000454861     8.42064e-05       -0.0183683        0.106208      4.17266e-05     4.64294e-05         0.991882      -0.0558326
                       -0.965492        0.189206      1.11606e-06     0.000133345       -0.0252221        0.118336      0.000432688    -1.97603e-05
                     4.31743e-06    -2.70254e-05         0.992098      -0.0553797      0.000560713    -0.000188501        0.0300558        0.103622
281708                 0.0649772       0.0998015      0.000499159    -9.22304e-06        -0.965206         0.18956     -6.19791e-05    -0.000234845
                     0.000455055     8.39385e-05         -0.01833        0.106211      4.13894e-05      4.6526e-05         0.991863       -0.056195
                       -0.965397        0.189707      1.26886e-06     0.000133263       -0.0251707        0.118324      0.000432754    -1.98389e-05
                     4.29371e-06    -2.69773e-05         0.992078      -0.0557422       0.00056065    -0.000188627        0.0300937        0.103607
281710                 0.0650287       0.0997405      0.000499116    -9.67591e-06         -0.96511        0.190062     -6.22175e-05    -0.000234875
                     0.000455249     8.36703e-05       -0.0182917        0.106214      4.10531e-05     4.66175e-05         0.991843      -0.0565574
                       -0.965301        0.190209      1.42155e-06     0.000133182       -0.0251194        0.118312       0.00043282    -1.99171e-05
                     4.27008e-06    -2.69292e-05         0.992058      -0.0561046      0.000560587    -0.000188753        0.0301316        0.103592
281712                 0.0650802       0.0996794      0.000499072    -1.01286e-05        -0.965014        0.190563     -6.24565e-05    -0.000234904
                     0.000455443     8.34018e-05       -0.0182534        0.106216      4.07219e-05     4.67038e-05         0.991824      -0.0569198
                       -0.965205         0.19071      1.57413e-06       0.0001331       -0.0250682        0.118301      0.000432887    -1.99952e-05
                     4.24653e-06    -2.68812e-05         0.992038       -0.056467      0.000560524    -0.000188878        0.0301695        0.103577
281714                 0.0651317       0.0996183      0.000499027    -1.05811e-05        -0.964917        0.191065     -6.26961e-05    -0.000234934
                     0.000455637     8.31331e-05       -0.0182151        0.106219      4.03993e-05     4.67906e-05         0.991804      -0.0572822
                       -0.965109        0.191211       1.7266e-06     0.000133019       -0.0250169        0.118289      0.000432953     -2.0073e-05
                     4.22306e-06    -2.68331e-05         0.992018      -0.0568295       0.00056046    -0.000189003        0.0302074        0.103562
281716                 0.0651832       0.0995572      0.000498982    -1.10334e-05         -0.96482        0.191566     -6.29364e-05    -0.000234963
                      0.00045583     8.28641e-05       -0.0181767        0.106222      4.00802e-05     4.68841e-05         0.991784      -0.0576446
                       -0.965012        0.191712      1.87895e-06     0.000132937       -0.0249657        0.118277       0.00043302    -2.01505e-05
                     4.19969e-06    -2.67849e-05         0.991997      -0.0571919      0.000560396    -0.000189128        0.0302453        0.103548
281718                 0.0652346       0.0994961      0.000498937    -1.14854e-05        -0.964723        0.192068     -6.31773e-05    -0.000234992
                     0.000456024     8.25948e-05       -0.0181384        0.106225      3.97586e-05     4.69817e-05         0.991764       -0.058007
                       -0.964915        0.192214      2.03119e-06     0.000132856       -0.0249145        0.118265      0.000433087    -2.02278e-05
                     4.17641e-06    -2.67368e-05         0.991976      -0.0575543      0.000560332    -0.000189253        0.0302831        0.103533
281720                 0.0652859        0.099435      0.000498891    -1.19373e-05        -0.964626        0.192569     -6.34189e-05    -0.000235021
                     0.000456218     8.23253e-05       -0.0181001        0.106228      3.94341e-05     4.70797e-05         0.991744      -0.0583694
                       -0.964818        0.192715      2.18331e-06     0.000132774       -0.0248633        0.118253      0.000433153    -2.03049e-05
                     4.15323e-06    -2.66887e-05         0.991956      -0.0579167      0.000560267    -0.000189378         0.030321        0.103518
281722                 0.0653372       0.0993738      0.000498844     -1.2389e-05        -0.964528        0.193071     -6.36612e-05     -0.00023505
                     0.000456411     8.20554e-05       -0.0180618         0.10623       3.9108e-05     4.71765e-05         0.991723      -0.0587318
                       -0.964721        0.193216      2.33532e-06     0.000132693       -0.0248122        0.118241       0.00043322    -2.03818e-05
                     4.13013e-06    -2.66406e-05         0.991935      -0.0582791      0.000560202    -0.000189502        0.0303588        0.103503
281724                 0.0653885       0.0993126      0.000498797    -1.28405e-05         -0.96443        0.193572     -6.39042e-05    -0.000235079
                     0.000456604     8.17853e-05       -0.0180235        0.106233      3.87813e-05     4.72718e-05         0.991703      -0.0590941
                       -0.964623        0.193717       2.4872e-06     0.000132611       -0.0247611        0.118229      0.000433288    -2.04584e-05
                     4.10714e-06    -2.65924e-05         0.991914      -0.0586415      0.000560137    -0.000189626        0.0303967        0.103488
281726                 0.0654398       0.0992513      0.000498749    -1.32918e-05        -0.964332        0.194073     -6.41478e-05    -0.000235108
                     0.000456797      8.1515e-05       -0.0179852        0.106236      3.84545e-05     4.73659e-05         0.991682      -0.0594565
                       -0.964526        0.194218      2.63897e-06      0.00013253         -0.02471        0.118217      0.000433355    -2.05349e-05
                     4.08425e-06    -2.65443e-05         0.991892      -0.0590039      0.000560071     -0.00018975        0.0304345        0.103473
281728                  0.065491       0.0991901      0.000498701    -1.37429e-05        -0.964233        0.194575     -6.43921e-05    -0.000235136
                      0.00045699     8.12443e-05       -0.0179468        0.106239      3.81279e-05     4.74588e-05         0.991662      -0.0598188
                       -0.964428        0.194719      2.79062e-06     0.000132449       -0.0246589        0.118205      0.000433422    -2.06111e-05
                     4.06145e-06    -2.64962e-05         0.991871      -0.0593663      0.000560004    -0.000189874        0.0304724        0.103458
281730                 0.0655421       0.0991288      0.000498652    -1.41938e-05        -0.964135        0.195076     -6.46371e-05    -0.000235164
                     0.000457183     8.09734e-05       -0.0179085        0.106241      3.78016e-05     4.75507e-05         0.991641      -0.0601812
                       -0.964329        0.195219      2.94215e-06     0.000132368       -0.0246079        0.118193       0.00043349    -2.06871e-05
                     4.03876e-06     -2.6448e-05          0.99185      -0.0597286      0.000559937    -0.000189998        0.0305102        0.103443
281732                 0.0655933       0.0990675      0.000498602    -1.46444e-05        -0.964036        0.195577     -6.48828e-05    -0.000235192
                     0.000457376     8.07022e-05       -0.0178702        0.106244      3.74757e-05     4.76417e-05          0.99162      -0.0605435
                       -0.964231         0.19572      3.09356e-06     0.000132286       -0.0245569        0.118181      0.000433558     -2.0763e-05
                     4.01617e-06    -2.63999e-05         0.991828       -0.060091       0.00055987    -0.000190122         0.030548        0.103428
281734                 0.0656444       0.0990061      0.000498552    -1.50949e-05        -0.963936        0.196078     -6.51293e-05     -0.00023522
                     0.000457569     8.04308e-05       -0.0178319        0.106247      3.71502e-05     4.77319e-05         0.991599      -0.0609059
                       -0.964132        0.196221      3.24486e-06     0.000132205       -0.0245059        0.118169      0.000433626    -2.08386e-05
                     3.99369e-06    -2.63517e-05         0.991806      -0.0604534      0.000559802    -0.000190246        0.0305858        0.103413
281736                 0.0656954       0.0989447      0.000498501    -1.55452e-05        -0.963837        0.196579     -6.53764e-05    -0.000235247
                     0.000457761     8.01591e-05       -0.0177936         0.10625      3.68252e-05     4.78214e-05         0.991578      -0.0612682
                       -0.964033        0.196722      3.39606e-06     0.000132124       -0.0244549        0.118157      0.000433694    -2.09141e-05
                     3.97131e-06    -2.63036e-05         0.991784      -0.0608157      0.000559734     -0.00019037        0.0306236        0.103398
281738                 0.0657464       0.0988833       0.00049845    -1.59952e-05        -0.963737         0.19708     -6.56243e-05    -0.000235275
                     0.000457954     7.98871e-05       -0.0177553        0.106252      3.65007e-05     4.79101e-05         0.991556      -0.0616305
                       -0.963933        0.197222      3.54718e-06     0.000132043        -0.024404        0.118145      0.000433762    -2.09895e-05
                     3.94904e-06    -2.62555e-05         0.991763       -0.061178      0.000559665    -0.000190494        0.0306614        0.103383
281740                 0.0657974       0.0988219      0.000498398     -1.6445e-05        -0.963637        0.197581     -6.58729e-05    -0.000235301
                     0.000458146     7.96148e-05       -0.0177169        0.106255      3.61766e-05     4.79983e-05         0.991535      -0.0619928
                       -0.963834        0.197723      3.69823e-06     0.000131962       -0.0243531        0.118132      0.000433831    -2.10647e-05
                     3.92688e-06    -2.62073e-05          0.99174      -0.0615404      0.000559597    -0.000190617        0.0306992        0.103368
281742                 0.0658483       0.0987605      0.000498346    -1.68945e-05        -0.963537        0.198082     -6.61222e-05    -0.000235328
                     0.000458338     7.93423e-05       -0.0176786        0.106258       3.5853e-05     4.80859e-05         0.991513      -0.0623552
                       -0.963734        0.198223      3.84932e-06     0.000131881       -0.0243022         0.11812      0.000433899    -2.11399e-05
                     3.90482e-06    -2.61592e-05         0.991718      -0.0619027      0.000559527    -0.000190741         0.030737        0.103353
281744                 0.0658992        0.098699      0.000498293    -1.73438e-05        -0.963436        0.198583     -6.63724e-05    -0.000235354
                     0.000458531     7.90695e-05       -0.0176403         0.10626      3.55299e-05     4.81729e-05         0.991492      -0.0627175
                       -0.963634        0.198724      4.00066e-06     0.000131799       -0.0242513        0.118108      0.000433968     -2.1215e-05
                     3.88288e-06    -2.61111e-05         0.991696       -0.062265      0.000559458    -0.000190864        0.0307748        0.103338
281746                 0.0659501       0.0986375      0.000498242    -1.77923e-05        -0.963336        0.199084     -6.66235e-05    -0.000235379
                     0.000458723     7.87965e-05        -0.017602        0.106263      3.52072e-05     4.82595e-05          0.99147      -0.0630798
                       -0.963533        0.199224       4.1533e-06     0.000131716       -0.0242005        0.118096      0.000434037    -2.12903e-05
                     3.86103e-06     -2.6063e-05         0.991673      -0.0626273      0.000559388    -0.000190988        0.0308125        0.103323
281748                 0.0660009        0.098576      0.000498255    -1.82243e-05        -0.963235        0.199584     -6.68756e-05    -0.000235403
                     0.000458914     7.85232e-05       -0.0175637        0.106265      3.48851e-05     4.83456e-05         0.991448      -0.0634421
                       -0.963433        0.199725      4.31106e-06     0.000131567       -0.0241497        0.118084      0.000434107     -2.1366e-05
                      3.8393e-06    -2.60149e-05         0.991651      -0.0629898      0.000559318    -0.000191111        0.0308503        0.103307
281750                 0.0660516       0.0985144      0.000498123    -1.86937e-05        -0.963133        0.200085     -6.71298e-05    -0.000235424
                     0.000459106     7.82496e-05       -0.0175253        0.106268      3.45633e-05     4.84313e-05         0.991426      -0.0638044
                       -0.963332        0.200225      4.44254e-06     0.000131564       -0.0240989        0.118071      0.000434178    -2.14433e-05
                     3.81766e-06    -2.59668e-05         0.991628      -0.0633519      0.000559247    -0.000191234        0.0308881        0.103292
281752                 0.0661024       0.0984528       0.00049807    -1.91414e-05        -0.963032        0.200586     -6.73948e-05     -0.00023543
                     0.000459298     7.79757e-05        -0.017487        0.106271       3.4242e-05     4.85166e-05         0.991403      -0.0641667
                        -0.96323        0.200725      4.59577e-06     0.000131481       -0.0240482        0.118059      0.000434256    -2.15288e-05
                     3.79611e-06    -2.59186e-05         0.991605      -0.0637142      0.000559177    -0.000191358        0.0309258        0.103277
281754                 0.0661531       0.0983912      0.000498015    -1.95895e-05         -0.96293        0.201086     -6.76345e-05    -0.000235539
                     0.000459489     7.77015e-05       -0.0174487        0.106273      3.39212e-05     4.86016e-05         0.991381      -0.0645288
                       -0.963129        0.201225      4.74657e-06     0.000131399       -0.0239974        0.118047      0.000434324    -2.15545e-05
                     3.77463e-06    -2.58705e-05         0.991582      -0.0640765      0.000559106    -0.000191481        0.0309635        0.103262
281756                 0.0662037       0.0983296      0.000497959    -2.00376e-05        -0.962828        0.201587     -6.78833e-05    -0.000235528
                     0.000459681      7.7427e-05       -0.0174104        0.106276      3.36008e-05     4.86863e-05         0.991358      -0.0648911
                       -0.963027        0.201726      4.89669e-06     0.000131319       -0.0239467        0.118035      0.000434384    -2.16464e-05
                     3.75315e-06    -2.58222e-05         0.991559      -0.0644387      0.000559034    -0.000191604        0.0310013        0.103247
281758                 0.0662544       0.0982679      0.000497901    -2.04855e-05        -0.962726        0.202087      -6.8139e-05    -0.000235547
                     0.000459872     7.71522e-05       -0.0173721        0.106278      3.32809e-05     4.87707e-05         0.991336      -0.0652534
                       -0.962925        0.202226      5.04645e-06     0.000131238       -0.0238961        0.118022      0.000434454    -2.17239e-05
                     3.73152e-06    -2.57738e-05         0.991535       -0.064801      0.000558963    -0.000191726         0.031039        0.103232
281760                 0.0663049       0.0982062      0.000497844    -2.09333e-05        -0.962623        0.202587     -6.83951e-05    -0.000235568
                     0.000460064     7.68767e-05       -0.0173337        0.106281      3.29614e-05     4.88549e-05         0.991313      -0.0656157
                       -0.962823        0.202726      5.19596e-06     0.000131157       -0.0238454         0.11801      0.000434525     -2.1799e-05
                     3.70885e-06    -2.57249e-05         0.991512      -0.0651632      0.000558891    -0.000191849        0.0310767        0.103217
281762                 0.0663555       0.0981445      0.000497785    -2.13809e-05         -0.96252        0.203088     -6.86519e-05    -0.000235591
                     0.000460256     7.65981e-05       -0.0172954        0.106283      3.26424e-05     4.89389e-05          0.99129      -0.0659779
                       -0.962721        0.203226      5.34525e-06     0.000131077       -0.0237948        0.117998      0.000434595    -2.18732e-05
