! TOUCHSTONE file generated by CST MICROWAVE STUDIO
! Date and time: Tue Oct 14 07:32:47 2025
! Project name: Teste_Macro_Metasurface_Nanopilar.cst
! Parameters = {H=600; L_x=195; L_y=140; Lambda=1064; Max_L=200; Min_L=70; PathPara=1; Phi=0; Step_L=10; Theta=0; p=520; phaseX=180; phaseY=0}
! Header version: 2018
! Port assignment regex: !\s*Touchstone port\s*([0-9]+)\s*=\s*(CST MWS port|CST DS port)\s*([0-9]+|Zmin|Zmax)\s*\(\"(.*)\"\)(\s*mode\s*([0-9]+))?.*
! Touchstone port assignment:
! Touchstone port 1 = CST MWS port Zmax ("") mode 1
! Touchstone port 2 = CST MWS port Zmax ("") mode 2
! Touchstone port 3 = CST MWS port Zmin ("") mode 1
! Touchstone port 4 = CST MWS port Zmin ("") mode 2
! S-Parameters are not renormalized. Each port impedance will be approximated by the real part at minimum frequency. The values are described via the [Reference] keyword.
! Default impedance is overridden by [Reference]
[Version] 2.0
# GHz S RI R 376.73
[Number of Ports] 4
[Reference]
376.73 376.73 259.814 259.814 
[Number of Frequencies] 51
[Network Data]
281700                 -0.189646       0.0330706     -8.01671e-05     0.000345851          0.51118        0.831018      0.000258512     -8.6181e-05
                    -0.000121231     0.000339639        -0.208878       -0.067503        2.102e-05    -0.000392505         0.914911         0.32848
                        0.510965        0.830895      5.05436e-05    -0.000402133         -0.11299        0.146828     -0.000313604      0.00024228
                     0.000389569    -8.23005e-05         0.914816        0.328209     -0.000277458     6.70872e-05         0.202346       0.0774217
281702                 -0.189617       0.0330757     -7.98867e-05     0.000345976         0.511569        0.830786      0.000257661    -8.70878e-05
                    -0.000121014     0.000339853        -0.208912      -0.0674625      2.09347e-05    -0.000392414         0.915044        0.328098
                        0.511355        0.830664       5.0395e-05    -0.000401985        -0.112844         0.14691     -0.000313556     0.000241286
                     0.000389455    -8.24388e-05         0.914948        0.327827     -0.000277556     6.70657e-05         0.202412       0.0773059
281704                 -0.189587       0.0330808     -7.96064e-05     0.000346102         0.511959        0.830554      0.000256813    -8.79943e-05
                    -0.000180595     0.000363459        -0.208946       -0.067422      2.08482e-05    -0.000392319         0.915176        0.327716
                        0.511746        0.830433      5.02465e-05    -0.000401838        -0.112697        0.146993     -0.000313509     0.000240297
                     0.000389673    -8.07494e-05         0.915081        0.327445     -0.000277654     6.70449e-05         0.202478         0.07719
281706                 -0.189557       0.0330859     -7.93263e-05     0.000346228         0.512348        0.830323      0.000255968    -8.89003e-05
                    -5.83211e-05     0.000265478         -0.20898      -0.0673815       2.0761e-05    -0.000392221         0.915309        0.327334
                        0.512137        0.830202      5.00983e-05    -0.000401691        -0.112551        0.147074     -0.000313462     0.000239313
                     0.000389123    -7.44297e-05         0.915213        0.327063     -0.000277753     6.70248e-05         0.202544       0.0770742
281708                 -0.189526       0.0330909     -7.90463e-05     0.000346353         0.512738         0.83009      0.000255126    -8.98058e-05
                    -7.49113e-05     0.000297413        -0.209014      -0.0673409      2.06732e-05    -0.000392119         0.915441        0.326952
                        0.512529        0.829972      4.99503e-05    -0.000401543        -0.112404        0.147156     -0.000313416     0.000238334
                     0.000367727     -6.3356e-05         0.915345        0.326681     -0.000277852     6.70054e-05          0.20261       0.0769583
281710                 -0.189492       0.0330955     -7.87665e-05     0.000346479         0.513127        0.829858      0.000254287     -9.0711e-05
                    -7.90774e-05     0.000303866        -0.209048      -0.0673004      2.05851e-05    -0.000392014         0.915573        0.326569
                        0.512923        0.829742      4.98024e-05    -0.000401396        -0.112257        0.147238      -0.00031337      0.00023736
                     0.000364232    -9.27135e-05         0.915477        0.326299     -0.000277951     6.69867e-05         0.202675       0.0768423
281712                 -0.189456       0.0330988     -7.84868e-05     0.000346605         0.513516        0.829626       0.00025345    -9.16159e-05
                    -8.06148e-05     0.000306474        -0.209082      -0.0672598       2.0497e-05    -0.000391905         0.915705        0.326187
                        0.513323        0.829515      4.96548e-05    -0.000401248        -0.112111        0.147319     -0.000313325      0.00023639
                     0.000373334       -9.54e-05         0.915609        0.325917     -0.000278051     6.69687e-05         0.202741       0.0767263
281714                 -0.189413       0.0330972     -7.82072e-05     0.000346731         0.513905        0.829393      0.000252616    -9.25203e-05
                    -8.12569e-05     0.000307857        -0.209116      -0.0672192      2.04089e-05    -0.000391794         0.915836        0.325805
                        0.513734        0.829292      4.95073e-05    -0.000401101        -0.111964        0.147401     -0.000313281     0.000235425
                     0.000376505    -9.50976e-05          0.91574        0.325535     -0.000278151     6.69514e-05         0.202807       0.0766102
281716                  -0.18936       0.0330726     -7.79278e-05     0.000346856         0.514293         0.82916      0.000251784    -9.34244e-05
                    -8.15128e-05     0.000308719         -0.20915      -0.0671786      2.03212e-05    -0.000391679         0.915968        0.325423
                        0.514205        0.829095        4.936e-05    -0.000400953        -0.111818        0.147482     -0.000313237     0.000234464
                     0.000377876    -9.47943e-05         0.915872        0.325153     -0.000278251     6.69348e-05         0.202872       0.0764942
281718                 -0.189368       0.0330009     -7.76485e-05     0.000346982         0.514682        0.828927      0.000250954    -9.43281e-05
                    -8.15772e-05     0.000309319        -0.209184       -0.067138      2.02338e-05    -0.000391562         0.916099         0.32504
                        0.513746         0.82843      4.92128e-05    -0.000400805        -0.111671        0.147563     -0.000313194     0.000233507
                     0.000378556    -9.46239e-05         0.916003        0.324771     -0.000278351      6.6919e-05         0.202938        0.076378
281720                 -0.189415       0.0330403     -7.73693e-05     0.000347107          0.51507        0.828694      0.000250126    -9.52315e-05
                     -8.1538e-05     0.000309773        -0.209218      -0.0670974      2.01469e-05    -0.000391443          0.91623        0.324658
                        0.514723        0.828514      4.90658e-05    -0.000400658        -0.111525        0.147644     -0.000313152     0.000232554
                     0.000378911    -9.45506e-05         0.916134        0.324388     -0.000278452     6.69037e-05         0.203003       0.0762619
281722                 -0.189389       0.0330812     -7.70902e-05     0.000347232         0.515459        0.828461      0.000249301    -9.61345e-05
                    -8.14388e-05     0.000310139        -0.209252      -0.0670567      2.00605e-05    -0.000391322         0.916361        0.324276
                        0.515159        0.828303       4.8919e-05     -0.00040051        -0.111378        0.147725     -0.000313111     0.000231605
                     0.000379094    -9.45409e-05         0.916265        0.324006     -0.000278552     6.68892e-05         0.203069       0.0761456
281724                 -0.189355       0.0331011     -7.68113e-05     0.000347356         0.515847        0.828228      0.000248477    -9.70372e-05
                    -8.13035e-05     0.000310451        -0.209285       -0.067016      1.99748e-05    -0.000391198         0.916492        0.323893
                        0.515564        0.828078      4.87724e-05    -0.000400362        -0.111231        0.147805     -0.000313071      0.00023066
                     0.000379177    -9.45732e-05         0.916396        0.323624     -0.000278653     6.68753e-05         0.203134       0.0760294
281726                 -0.189323       0.0331134     -7.65324e-05     0.000347481         0.516235        0.827994      0.000247654    -9.79396e-05
                    -8.11455e-05     0.000310725        -0.209319      -0.0669753      1.98898e-05    -0.000391073         0.916623         0.32351
                        0.515961        0.827849      4.86258e-05    -0.000400215        -0.111085        0.147886     -0.000313031     0.000229718
                     0.000379197    -9.46338e-05         0.916526        0.323241     -0.000278753     6.68621e-05         0.203199       0.0759131
281728                 -0.189291       0.0331225     -7.62536e-05     0.000347605         0.516623         0.82776      0.000246834    -9.88416e-05
                     -8.0973e-05     0.000310975        -0.209353      -0.0669346      1.98056e-05    -0.000390946         0.916753        0.323128
                        0.516354        0.827618      4.84795e-05    -0.000400067        -0.110938        0.147966     -0.000312993      0.00022878
                     0.000379177     -9.4714e-05         0.916657        0.322859     -0.000278854     6.68495e-05         0.203265       0.0757967
281730                 -0.189261       0.0331301     -7.59749e-05     0.000347729          0.51701        0.827526      0.000246014    -9.97433e-05
                     -8.0791e-05     0.000311207        -0.209387      -0.0668939      1.97221e-05    -0.000390817         0.916884        0.322745
                        0.516744        0.827386      4.83333e-05    -0.000399919        -0.110792        0.148047     -0.000312955     0.000227845
                     0.000379129    -9.48082e-05         0.916787        0.322476     -0.000278955     6.68375e-05          0.20333       0.0756803
281732                 -0.189231        0.033137     -7.56962e-05     0.000347852         0.517398        0.827292      0.000245197    -0.000100645
                    -8.06028e-05     0.000311426        -0.209421      -0.0668532      1.96394e-05    -0.000390687         0.917014        0.322362
                        0.517134        0.827153      4.81872e-05    -0.000399772        -0.110645        0.148127     -0.000312918     0.000226914
                     0.000379062    -9.49124e-05         0.916917        0.322093     -0.000279055     6.68261e-05         0.203395       0.0755639
281734                 -0.189202       0.0331433     -7.54176e-05     0.000347975         0.517785        0.827058       0.00024438    -0.000101546
                    -8.04104e-05     0.000311636        -0.209455      -0.0668124      1.95576e-05    -0.000390556         0.917144         0.32198
                        0.517523         0.82692      4.80413e-05    -0.000399624        -0.110499        0.148207     -0.000312882     0.000225985
                     0.000378982     -9.5024e-05         0.917047        0.321711     -0.000279156     6.68153e-05          0.20346       0.0754474
281736                 -0.189173       0.0331494     -7.51391e-05     0.000348098         0.518173        0.826823      0.000243565    -0.000102447
                    -8.02153e-05     0.000311839        -0.209489      -0.0667716      1.94767e-05    -0.000390423         0.917274        0.321597
                        0.517911        0.826686      4.78955e-05    -0.000399476        -0.110352        0.148287     -0.000312847     0.000225059
                     0.000378892    -9.51411e-05         0.917177        0.321328     -0.000279256     6.68051e-05         0.203525       0.0753309
281738                 -0.189144       0.0331553     -7.48606e-05     0.000348221          0.51856        0.826589       0.00024275    -0.000103347
                    -8.00184e-05     0.000312037        -0.209522      -0.0667308      1.93968e-05     -0.00039029         0.917403        0.321214
                        0.518299        0.826452      4.77499e-05    -0.000399329        -0.110205        0.148366     -0.000312813     0.000224136
                     0.000378794    -9.52625e-05         0.917307        0.320945     -0.000279356     6.67954e-05          0.20359       0.0752143
281740                 -0.189115        0.033161     -7.45821e-05     0.000348343         0.518947        0.826354      0.000241937    -0.000104247
                    -7.98203e-05      0.00031223        -0.209556        -0.06669      1.93179e-05    -0.000390156         0.917533        0.320831
                        0.518687        0.826218      4.76045e-05    -0.000399181        -0.110059        0.148446      -0.00031278     0.000223216
                     0.000378691    -9.53871e-05         0.917436        0.320563     -0.000279456     6.67863e-05         0.203654       0.0750977
281742                 -0.189087       0.0331667     -7.43037e-05     0.000348464         0.519334        0.826119      0.000241124    -0.000105147
                    -7.96214e-05     0.000312421         -0.20959      -0.0666492      1.92403e-05    -0.000390021         0.917662        0.320448
                        0.519074        0.825984      4.74592e-05    -0.000399034        -0.109912        0.148525     -0.000312747     0.000222298
                     0.000378584    -9.55142e-05         0.917566         0.32018     -0.000279556     6.67778e-05         0.203719       0.0749811
281744                 -0.189058       0.0331723     -7.40253e-05     0.000348585          0.51972        0.825884      0.000240312    -0.000106047
                    -7.94221e-05     0.000312608        -0.209624      -0.0666083      1.91642e-05    -0.000389887         0.917791        0.320065
                        0.519461        0.825749       4.7314e-05    -0.000398886        -0.109765        0.148605     -0.000312715     0.000221382
                     0.000378474    -9.56432e-05         0.917695        0.319797     -0.000279655     6.67699e-05         0.203784       0.0748644
281746                  -0.18903       0.0331779     -7.37469e-05     0.000348706         0.520107        0.825649      0.000239501    -0.000106946
                    -7.92226e-05     0.000312794        -0.209658      -0.0665674      1.90904e-05    -0.000389752          0.91792        0.319682
                        0.519848        0.825515       4.7169e-05    -0.000398739        -0.109619        0.148684     -0.000312684     0.000220469
                     0.000378362    -9.57738e-05         0.917824        0.319414     -0.000279754     6.67626e-05         0.203848       0.0747476
281748                 -0.189002       0.0331835     -7.34685e-05     0.000348826         0.520493        0.825413       0.00023869    -0.000107845
                    -7.90229e-05     0.000312978        -0.209692      -0.0665266      1.90206e-05    -0.000389617         0.918049        0.319298
                        0.520235         0.82528      4.70241e-05    -0.000398592        -0.109472        0.148763     -0.000312654     0.000219558
                     0.000378248    -9.59056e-05         0.917953        0.319031     -0.000279853     6.67561e-05         0.203913       0.0746309
281750                 -0.188973       0.0331891     -7.31901e-05     0.000348946         0.520879        0.825178      0.000237879    -0.000108743
                    -7.88233e-05     0.000313161        -0.209725      -0.0664857      1.89587e-05    -0.000389481         0.918178        0.318915
                        0.520621        0.825045      4.68794e-05    -0.000398444        -0.109326        0.148842     -0.000312624     0.000218648
                     0.000378132    -9.60383e-05         0.918081        0.318648     -0.000279951     6.67508e-05         0.203977        0.074514
281752                 -0.188945       0.0331947     -7.29118e-05     0.000349066         0.521265        0.824942      0.000237069    -0.000109641
                    -7.86237e-05     0.000313343        -0.209759      -0.0664447      1.89079e-05    -0.000389331         0.918306        0.318532
                        0.521007        0.824809      4.67349e-05    -0.000398297        -0.109179         0.14892     -0.000312595      0.00021774
                     0.000378015    -9.61718e-05          0.91821        0.318265      -0.00028005     6.67469e-05         0.204042       0.0743972
281754                 -0.188917       0.0332003     -7.26334e-05     0.000349185         0.521651        0.824706      0.000236259    -0.000110539
                    -7.84242e-05     0.000313524        -0.209793      -0.0664038      1.88417e-05    -0.000389154         0.918435        0.318148
                        0.521393        0.824574      4.65904e-05     -0.00039815        -0.109032        0.148999     -0.000312567     0.000216834
                     0.000377897    -9.63059e-05         0.918338        0.317882      -0.00028015     6.67447e-05         0.204106       0.0742803
281756                 -0.188889       0.0332059     -7.23551e-05     0.000349303         0.522037         0.82447      0.000235448    -0.000111436
                    -7.82247e-05     0.000313704        -0.209827      -0.0663628      1.87442e-05    -0.000388992         0.918563        0.317765
                        0.521779        0.824338      4.64462e-05    -0.000398003        -0.108886        0.149078     -0.000312539     0.000215929
                     0.000377779    -9.64404e-05         0.918466        0.317498     -0.000280253     6.67422e-05          0.20417       0.0741633
281758                 -0.188861       0.0332115     -7.20767e-05     0.000349421         0.522423        0.824234      0.000234638    -0.000112333
                    -7.80254e-05     0.000313883        -0.209861      -0.0663219      1.86529e-05     -0.00038885         0.918691        0.317382
                        0.522165        0.824102       4.6302e-05    -0.000397856        -0.108739        0.149156     -0.000312512     0.000215025
                      0.00037766    -9.65753e-05         0.918594        0.317115     -0.000280357     6.67361e-05         0.204234       0.0740463
281760                 -0.188833       0.0332172     -7.17984e-05     0.000349539         0.522808        0.823997      0.000233827     -0.00011323
                    -7.78262e-05     0.000314063        -0.209894      -0.0662809      1.85715e-05    -0.000388712         0.918819        0.316998
                        0.522551        0.823866       4.6158e-05    -0.000397709        -0.108593        0.149234     -0.000312486     0.000214122
                     0.000377541    -9.67105e-05         0.918722        0.316732     -0.000280459     6.67279e-05         0.204299       0.0739293
281762                 -0.188805       0.0332228     -7.15201e-05     0.000349656         0.523194        0.823761      0.000233016    -0.000114126
                     -7.7627e-05     0.000314241        -0.209928      -0.0662399      1.84952e-05    -0.000388573         0.918947        0.316615
                        0.522936         0.82363      4.60142e-05    -0.000397562        -0.108446        0.149312      -0.00031246      0.00021322
