! TOUCHSTONE file generated by CST MICROWAVE STUDIO
! Date and time: Tue Oct 14 07:26:37 2025
! Project name: Teste_Macro_Metasurface_Nanopilar.cst
! Parameters = {H=600; L_x=95; L_y=190; Lambda=1064; Max_L=200; Min_L=70; PathPara=1; Phi=0; Step_L=10; Theta=0; p=520; phaseX=180; phaseY=0}
! Header version: 2018
! Port assignment regex: !\s*Touchstone port\s*([0-9]+)\s*=\s*(CST MWS port|CST DS port)\s*([0-9]+|Zmin|Zmax)\s*\(\"(.*)\"\)(\s*mode\s*([0-9]+))?.*
! Touchstone port assignment:
! Touchstone port 1 = CST MWS port Zmax ("") mode 1
! Touchstone port 2 = CST MWS port Zmax ("") mode 2
! Touchstone port 3 = CST MWS port Zmin ("") mode 1
! Touchstone port 4 = CST MWS port Zmin ("") mode 2
! S-Parameters are not renormalized. Each port impedance will be approximated by the real part at minimum frequency. The values are described via the [Reference] keyword.
! Default impedance is overridden by [Reference]
[Version] 2.0
# GHz S RI R 376.73
[Number of Ports] 4
[Reference]
376.73 376.73 259.814 259.814 
[Number of Frequencies] 51
[Network Data]
281700                 -0.974675      -0.0664882     -0.000843047    -0.000338403      -0.00656181        0.032873      0.000643615     0.000752913
                    -0.000384946    -0.000525198        -0.108761       -0.157668      0.000347281    -0.000575224        -0.236671       -0.945842
                     -0.00656152       0.0328343      0.000200243    -0.000431936         0.296469       -0.921043      0.000205769     0.000611829
                     0.000745974     0.000480568        -0.236624        -0.94567      0.000160862     0.000535216       -0.0201769         0.18988
281702                 -0.974713      -0.0656855     -0.000843785    -0.000337279      -0.00701422       0.0332121      0.000644062     0.000752555
                    -0.000386825    -0.000525009        -0.108829       -0.157641      0.000346798    -0.000576095         -0.23712       -0.945726
                      -0.0070112       0.0331766      0.000198538    -0.000432314         0.295391        -0.92137      0.000206286     0.000612433
                     0.000746664       0.0004807        -0.237073       -0.945554      0.000161425     0.000535738       -0.0200688        0.189908
281704                 -0.974749      -0.0648829     -0.000844524    -0.000336152      -0.00746598       0.0335522      0.000644514     0.000752195
                    -0.000388727    -0.000524817        -0.108897       -0.157614       0.00034632    -0.000576964        -0.237569       -0.945608
                     -0.00746019       0.0335198      0.000196827     -0.00043269         0.294313       -0.921696      0.000206805     0.000613037
                     0.000747358     0.000480843        -0.237521       -0.945437      0.000161991     0.000536261       -0.0199608        0.189935
281706                 -0.974784      -0.0640801     -0.000845263    -0.000335023      -0.00791707       0.0338933      0.000644968     0.000751835
                    -0.000390651    -0.000524622        -0.108964       -0.157586      0.000345846    -0.000577832        -0.238018       -0.945491
                      -0.0079085        0.033864       0.00019511    -0.000433065         0.293234        -0.92202      0.000207324     0.000613644
                     0.000748056     0.000480997         -0.23797        -0.94532       0.00016256     0.000536784       -0.0198527        0.189963
281708                 -0.974819      -0.0632773     -0.000846003    -0.000333892      -0.00836751       0.0342352      0.000645425     0.000751475
                    -0.000392598    -0.000524422        -0.109032       -0.157559      0.000345378      -0.0005787        -0.238467       -0.945374
                     -0.00835612       0.0342092      0.000193387    -0.000433439         0.292155       -0.922342      0.000207845     0.000614251
                     0.000748758     0.000481162        -0.238419       -0.945203      0.000163132     0.000537307       -0.0197446         0.18999
281710                 -0.974852      -0.0624745     -0.000846744    -0.000332758      -0.00881728       0.0345781      0.000645884     0.000751114
                    -0.000394568    -0.000524217          -0.1091       -0.157532      0.000344913    -0.000579565        -0.238916       -0.945256
                     -0.00880304       0.0345553      0.000191659    -0.000433813         0.291075       -0.922663      0.000208367      0.00061486
                     0.000749465     0.000481337        -0.238868       -0.945085      0.000163708     0.000537831       -0.0196365        0.190018
281712                 -0.974885      -0.0616716     -0.000847485    -0.000331622      -0.00926639       0.0349219      0.000646345     0.000750754
                    -0.000396561    -0.000524004        -0.109168       -0.157505      0.000344454     -0.00058043        -0.239365       -0.945138
                     -0.00924927       0.0349023      0.000189924    -0.000434185         0.289995       -0.922982      0.000208891      0.00061547
                     0.000750177     0.000481524        -0.239316       -0.944968      0.000164286     0.000538356       -0.0195284        0.190045
281714                 -0.974916      -0.0608686     -0.000848228    -0.000330483      -0.00971484       0.0352667      0.000646807     0.000750395
                    -0.000398576    -0.000523784        -0.109236       -0.157478         0.000344    -0.000581293        -0.239814        -0.94502
                     -0.00969481       0.0352503      0.000188184    -0.000434557         0.288914         -0.9233      0.000209415     0.000616081
                     0.000750894     0.000481721        -0.239765        -0.94485      0.000164869     0.000538881       -0.0194202        0.190073
281716                 -0.974946      -0.0600656     -0.000848971    -0.000329343       -0.0101626       0.0356123      0.000647271     0.000750035
                    -0.000400615    -0.000523556        -0.109304        -0.15745       0.00034355    -0.000582155        -0.240263       -0.944901
                      -0.0101396       0.0355992      0.000186437    -0.000434928         0.287833       -0.923616       0.00020994     0.000616694
                     0.000751616     0.000481928        -0.240214       -0.944732      0.000165454     0.000539406        -0.019312          0.1901
281718                 -0.974976      -0.0592626     -0.000849715    -0.000328199       -0.0106097       0.0359589      0.000647735     0.000749676
                    -0.000402676    -0.000523319        -0.109372       -0.157423      0.000343106    -0.000583016        -0.240712       -0.944782
                      -0.0105838       0.0359491      0.000184684    -0.000435298         0.286751       -0.923931      0.000210466     0.000617307
                     0.000752343     0.000482146        -0.240662       -0.944613      0.000166044     0.000539932       -0.0192037        0.190127
281720                 -0.975004      -0.0584595     -0.000850459    -0.000327054       -0.0110562       0.0363065      0.000648201     0.000749318
                     -0.00040476    -0.000523073         -0.10944       -0.157396      0.000342666    -0.000583875        -0.241161       -0.944664
                      -0.0110272       0.0362999      0.000182926    -0.000435667         0.285669       -0.924244      0.000210992     0.000617922
                     0.000753075     0.000482375        -0.241111       -0.944495      0.000166637     0.000540458       -0.0190955        0.190155
281722                 -0.975031      -0.0576564     -0.000851205    -0.000325906       -0.0115019       0.0366549      0.000648668      0.00074896
                    -0.000406868    -0.000522817        -0.109508       -0.157368      0.000342232    -0.000584733        -0.241609       -0.944545
                        -0.01147       0.0366517      0.000181161    -0.000436035         0.284586       -0.924555       0.00021152     0.000618538
                     0.000753813     0.000482613        -0.241559       -0.944376      0.000167234     0.000540985       -0.0189872        0.190182
281724                 -0.975058      -0.0568533     -0.000851951    -0.000324756        -0.011947       0.0370043      0.000649136     0.000748603
                    -0.000408998     -0.00052255        -0.109576       -0.157341      0.000341803     -0.00058559        -0.242058       -0.944425
                      -0.0119121       0.0370044      0.000179391    -0.000436403         0.283503       -0.924865      0.000212047     0.000619155
                     0.000754557     0.000482862        -0.242007       -0.944257      0.000167834     0.000541512       -0.0188789        0.190209
281726                 -0.975083      -0.0560501     -0.000852698    -0.000323603       -0.0123914       0.0373545      0.000649605     0.000748246
                    -0.000411152    -0.000522272        -0.109644       -0.157313      0.000341379    -0.000586445        -0.242507       -0.944306
                      -0.0123535        0.037358      0.000177614    -0.000436769          0.28242       -0.925173      0.000212576     0.000619773
                     0.000755307     0.000483121        -0.242456       -0.944138      0.000168438     0.000542039       -0.0187705        0.190236
281728                 -0.975107      -0.0552469     -0.000853446    -0.000322448       -0.0128351       0.0377057      0.000650075      0.00074789
                    -0.000413329    -0.000521984        -0.109711       -0.157286       0.00034096    -0.000587299        -0.242955       -0.944186
                      -0.0127943       0.0377125      0.000175831    -0.000437135         0.281336       -0.925479      0.000213104     0.000620393
                     0.000756063      0.00048339        -0.242904       -0.944018      0.000169047     0.000542567       -0.0186622        0.190263
281730                 -0.975131      -0.0544437     -0.000854195    -0.000321291       -0.0132782       0.0380579      0.000650546     0.000747535
                    -0.000415529    -0.000521684        -0.109779       -0.157258      0.000340547    -0.000588151        -0.243404       -0.944066
                      -0.0132343       0.0380679      0.000174043      -0.0004375         0.280252       -0.925784      0.000213633     0.000621013
                     0.000756825     0.000483669        -0.243352       -0.943899      0.000169659     0.000543095       -0.0185538         0.19029
281732                 -0.975153      -0.0536404     -0.000854945    -0.000320131       -0.0137205       0.0384109      0.000651017      0.00074718
                    -0.000417752    -0.000521373        -0.109847       -0.157231       0.00034014    -0.000589002        -0.243852       -0.943946
                      -0.0136736       0.0384242      0.000172248    -0.000437864         0.279167       -0.926088      0.000214163     0.000621634
                     0.000757594     0.000483958          -0.2438       -0.943779      0.000170276     0.000543623       -0.0184454        0.190316
281734                 -0.975175      -0.0528371     -0.000855696    -0.000318969       -0.0141622       0.0387649       0.00065149     0.000746825
                    -0.000419999     -0.00052105        -0.109915       -0.157203      0.000339738    -0.000589852        -0.244301       -0.943826
                      -0.0141121       0.0387814      0.000170447    -0.000438228         0.278081       -0.926389      0.000214692     0.000622256
                     0.000758369     0.000484257        -0.244248       -0.943659      0.000170896     0.000544151       -0.0183369        0.190343
281736                 -0.975195      -0.0520338     -0.000856447    -0.000317805       -0.0146032       0.0391197      0.000651963     0.000746471
                    -0.000422268    -0.000520715        -0.109983       -0.157176      0.000339341      -0.0005907        -0.244749       -0.943705
                      -0.0145499       0.0391396      0.000168641    -0.000438591         0.276996        -0.92669      0.000215222      0.00062288
                      0.00075915     0.000484565        -0.244697       -0.943539      0.000171521      0.00054468       -0.0182284         0.19037
281738                 -0.975214      -0.0512304       -0.0008572    -0.000316639       -0.0150435       0.0394755      0.000652438     0.000746118
                    -0.000424561    -0.000520367        -0.110051       -0.157148      0.000338951    -0.000591546        -0.245197       -0.943584
                      -0.0149869       0.0394987      0.000166828    -0.000438953          0.27591       -0.926988      0.000215753     0.000623504
                     0.000759938     0.000484884        -0.245145       -0.943418       0.00017215     0.000545209       -0.0181199        0.190396
281740                 -0.975233      -0.0504271     -0.000857953     -0.00031547       -0.0154831       0.0398322      0.000652913     0.000745765
                    -0.000426878    -0.000520008        -0.110119        -0.15712      0.000338566    -0.000592391        -0.245646       -0.943464
                      -0.0154233       0.0398587      0.000165009    -0.000439314         0.274823       -0.927285      0.000216283     0.000624129
                     0.000760732     0.000485212        -0.245593       -0.943298      0.000172784     0.000545738       -0.0180114        0.190423
281742                  -0.97525      -0.0496237     -0.000858707    -0.000314299        -0.015922       0.0401898       0.00065339     0.000745413
                    -0.000429217    -0.000519637        -0.110186       -0.157093      0.000338187    -0.000593235        -0.246094       -0.943342
                       -0.015859       0.0402196      0.000163185    -0.000439675         0.273736       -0.927581      0.000216814     0.000624755
                     0.000761533     0.000485549         -0.24604       -0.943177      0.000173421     0.000546267       -0.0179028         0.19045
281744                 -0.975266      -0.0488202     -0.000859463    -0.000313125       -0.0163603       0.0405483      0.000653867     0.000745062
                    -0.000431579    -0.000519253        -0.110254       -0.157065      0.000337814    -0.000594077        -0.246542       -0.943221
                      -0.0162939       0.0405815      0.000161354    -0.000440035         0.272649       -0.927875      0.000217345     0.000625382
                     0.000762341     0.000485896        -0.246488       -0.943056      0.000174064     0.000546797       -0.0177943        0.190476
281746                 -0.975282      -0.0480171     -0.000860219    -0.000311949       -0.0167978       0.0409078      0.000654346     0.000744711
                    -0.000433964    -0.000518856        -0.110322       -0.157037      0.000337448    -0.000594918         -0.24699       -0.943099
                      -0.0167281       0.0409443      0.000159517    -0.000440395         0.271561       -0.928167      0.000217876      0.00062601
                     0.000763155     0.000486252        -0.246936       -0.942934      0.000174711     0.000547326       -0.0176857        0.190502
281748                 -0.975296      -0.0472135     -0.000860976    -0.000310771       -0.0172346       0.0412681      0.000654825      0.00074436
                    -0.000436373    -0.000518447         -0.11039       -0.157009      0.000337087    -0.000595757        -0.247438       -0.942978
                      -0.0171616       0.0413079      0.000157674    -0.000440753         0.270472       -0.928457      0.000218408     0.000626639
                     0.000763976     0.000486618        -0.247384       -0.942813      0.000175362     0.000547856        -0.017577        0.190529
281750                 -0.975309      -0.0464101     -0.000861734    -0.000309591       -0.0176707       0.0416293      0.000655306     0.000744011
                    -0.000438803    -0.000518026        -0.110458       -0.156981      0.000336733    -0.000596595        -0.247886       -0.942856
                      -0.0175944       0.0416725      0.000155825    -0.000441112         0.269384       -0.928746      0.000218939     0.000627269
                     0.000764803     0.000486993        -0.247832       -0.942691      0.000176019     0.000548386       -0.0174684        0.190555
281752                 -0.975322      -0.0456066     -0.000862493    -0.000308409       -0.0181062       0.0419915      0.000655787     0.000743661
                    -0.000441257    -0.000517592        -0.110526       -0.156954      0.000336386    -0.000597431        -0.248334       -0.942733
                      -0.0180265        0.042038       0.00015397    -0.000441469         0.268295       -0.929034      0.000219471       0.0006279
                     0.000765638     0.000487377        -0.248279       -0.942569       0.00017668     0.000548916       -0.0173597        0.190581
281754                 -0.975333      -0.0448031     -0.000863253    -0.000307224       -0.0185409       0.0423545       0.00065627     0.000743312
                    -0.000443733    -0.000517146        -0.110593       -0.156926      0.000336045    -0.000598266        -0.248782       -0.942611
                      -0.0184578       0.0424044      0.000152109    -0.000441826         0.267205        -0.92932      0.000220004     0.000628532
                     0.000766478     0.000487771        -0.248727       -0.942447      0.000177345     0.000549446        -0.017251        0.190607
281756                 -0.975343      -0.0439996     -0.000864014    -0.000306037       -0.0189749       0.0427185      0.000656754     0.000742964
                     -0.00044623    -0.000516687        -0.110661       -0.156898       0.00033571      -0.0005991         -0.24923       -0.942488
                      -0.0188885       0.0427717      0.000150242    -0.000442183         0.266115       -0.929604      0.000220536     0.000629165
                     0.000767325     0.000488173        -0.249175       -0.942325      0.000178016     0.000549975       -0.0171422        0.190633
281758                 -0.975353      -0.0431962     -0.000864776    -0.000304848       -0.0194082       0.0430833      0.000657238     0.000742616
                     -0.00044875    -0.000516215        -0.110729        -0.15687      0.000335382    -0.000599932        -0.249678       -0.942365
                      -0.0193184       0.0431399      0.000148369    -0.000442539         0.265025       -0.929887       0.00022107     0.000629799
                     0.000768179     0.000488584        -0.249622       -0.942202      0.000178692     0.000550505       -0.0170335        0.190659
281760                 -0.975361      -0.0423927     -0.000865539    -0.000303656       -0.0198408       0.0434491      0.000657725     0.000742269
                    -0.000451292    -0.000515731        -0.110797       -0.156842      0.000335061    -0.000600762        -0.250126       -0.942242
                      -0.0197475        0.043509       0.00014649    -0.000442894         0.263934       -0.930168      0.000221603     0.000630434
                     0.000769039     0.000489004         -0.25007       -0.942079      0.000179372     0.000551035       -0.0169247        0.190685
281762                 -0.975368      -0.0415892     -0.000866303    -0.000302463       -0.0202727       0.0438157      0.000658212     0.000741922
                    -0.000453855    -0.000515234        -0.110865       -0.156814      0.000334747    -0.000601592        -0.250574       -0.942119
                       -0.020176        0.043879      0.000144604    -0.000443249         0.262843       -0.930447      0.000222137      0.00063107
