! TOUCHSTONE file generated by CST MICROWAVE STUDIO
! Date and time: Tue Oct 14 07:31:24 2025
! Project name: Teste_Macro_Metasurface_Nanopilar.cst
! Parameters = {H=600; L_x=175; L_y=85; Lambda=1064; Max_L=200; Min_L=70; PathPara=1; Phi=0; Step_L=10; Theta=0; p=520; phaseX=180; phaseY=0}
! Header version: 2018
! Port assignment regex: !\s*Touchstone port\s*([0-9]+)\s*=\s*(CST MWS port|CST DS port)\s*([0-9]+|Zmin|Zmax)\s*\(\"(.*)\"\)(\s*mode\s*([0-9]+))?.*
! Touchstone port assignment:
! Touchstone port 1 = CST MWS port Zmax ("") mode 1
! Touchstone port 2 = CST MWS port Zmax ("") mode 2
! Touchstone port 3 = CST MWS port Zmin ("") mode 1
! Touchstone port 4 = CST MWS port Zmin ("") mode 2
! S-Parameters are not renormalized. Each port impedance will be approximated by the real part at minimum frequency. The values are described via the [Reference] keyword.
! Default impedance is overridden by [Reference]
[Version] 2.0
# GHz S RI R 376.73
[Number of Ports] 4
[Reference]
376.73 376.73 259.814 259.814 
[Number of Frequencies] 51
[Network Data]
281700                 0.0386455      -0.0144689      0.000301634    -7.65593e-05         0.761893       -0.643514      0.000141378    -0.000240586
                      0.00024597     -0.00019299       -0.0884851        -0.23036      5.05648e-05    -0.000227419         0.257204        0.928592
                        0.762105       -0.643021      0.000102617    -0.000274342        -0.020535        0.036464      -0.00015685    -0.000305955
                     0.000164621    -0.000320183         0.257325        0.928179     -9.49733e-05    -0.000316263         0.044409        0.241654
281702                 0.0386458      -0.0144955      0.000301548    -7.65978e-05         0.761636       -0.643817       0.00014131    -0.000240733
                     0.000245814    -0.000193073       -0.0885705       -0.230366      5.04529e-05    -0.000227399         0.257635        0.928463
                        0.761848       -0.643325      0.000102522    -0.000274382       -0.0205325       0.0364765     -0.000156985    -0.000305828
                     0.000164487    -0.000320203         0.257755         0.92805     -9.51214e-05    -0.000316173        0.0445648        0.241661
281704                 0.0386462      -0.0145221      0.000301461    -7.66364e-05         0.761379       -0.644121      0.000141241    -0.000240879
                     0.000245658    -0.000193156       -0.0886558       -0.230371       5.0341e-05     -0.00022738         0.258065        0.928334
                        0.761591       -0.643628      0.000102426    -0.000274422         -0.02053        0.036489      -0.00015712    -0.000305701
                     0.000164354    -0.000320224         0.258186        0.927921     -9.52694e-05    -0.000316082        0.0447207        0.241668
281706                 0.0386465      -0.0145487      0.000301375    -7.66749e-05         0.761122       -0.644424      0.000141171    -0.000241026
                     0.000245501    -0.000193239       -0.0887412       -0.230377       5.0229e-05     -0.00022736         0.258496        0.928205
                        0.761334       -0.643932      0.000102331    -0.000274462       -0.0205275       0.0365015     -0.000157255    -0.000305573
                      0.00016422    -0.000320244         0.258616        0.927791     -9.54174e-05    -0.000315991        0.0448765        0.241675
281708                 0.0386468      -0.0145754      0.000301288    -7.67133e-05         0.760864       -0.644727      0.000141102    -0.000241172
                     0.000245345    -0.000193322       -0.0888266       -0.230382       5.0117e-05     -0.00022734         0.258926        0.928075
                        0.761077       -0.644235      0.000102236    -0.000274502        -0.020525        0.036514     -0.000157391    -0.000305446
                     0.000164086    -0.000320263         0.259046        0.927662     -9.55654e-05      -0.0003159        0.0450325        0.241682
281710                 0.0386472       -0.014602      0.000301202    -7.67518e-05         0.760607        -0.64503      0.000141032    -0.000241317
                     0.000245188    -0.000193405        -0.088912       -0.230387       5.0005e-05    -0.000227321         0.259357        0.927946
                         0.76082       -0.644538       0.00010214    -0.000274542       -0.0205224       0.0365265     -0.000157526    -0.000305318
                     0.000163953    -0.000320283         0.259476        0.927532     -9.57134e-05    -0.000315809        0.0451884        0.241688
281712                 0.0386474      -0.0146287      0.000301116    -7.67902e-05         0.760349       -0.645333      0.000140962    -0.000241463
                     0.000245031    -0.000193488       -0.0889974       -0.230392       4.9893e-05    -0.000227301         0.259787        0.927816
                        0.760562       -0.644842      0.000102045    -0.000274582       -0.0205199        0.036539     -0.000157661     -0.00030519
                     0.000163819    -0.000320303         0.259906        0.927402     -9.58613e-05    -0.000315718        0.0453444        0.241695
281714                 0.0386477      -0.0146553      0.000301029    -7.68286e-05         0.760091       -0.645636      0.000140891    -0.000241608
                     0.000244874    -0.000193571       -0.0890829       -0.230398      4.97811e-05    -0.000227282         0.260218        0.927686
                        0.760305       -0.645145      0.000101949    -0.000274622       -0.0205173       0.0365515     -0.000157796    -0.000305063
                     0.000163685    -0.000320322         0.260336        0.927272     -9.60093e-05    -0.000315626        0.0455004        0.241702
281716                  0.038648      -0.0146819      0.000300943    -7.68671e-05         0.759834       -0.645938      0.000140821    -0.000241753
                     0.000244717    -0.000193653       -0.0891683       -0.230403      4.96693e-05    -0.000227262         0.260648        0.927555
                        0.760047       -0.645448      0.000101854    -0.000274662       -0.0205148        0.036564     -0.000157932    -0.000304935
                     0.000163552    -0.000320341         0.260766        0.927142     -9.61572e-05    -0.000315535        0.0456564        0.241708
281718                 0.0386483      -0.0147086      0.000300857    -7.69055e-05         0.759576       -0.646241       0.00014075    -0.000241898
                      0.00024456    -0.000193736       -0.0892538       -0.230408      4.95576e-05    -0.000227242         0.261078        0.927425
                         0.75979       -0.645751      0.000101759    -0.000274702       -0.0205122       0.0365766     -0.000158067    -0.000304807
                     0.000163418    -0.000320361         0.261196        0.927011     -9.63051e-05    -0.000315443        0.0458124        0.241715
281720                 0.0386485      -0.0147352      0.000300771     -7.6944e-05         0.759317       -0.646544      0.000140678    -0.000242043
                     0.000244402    -0.000193819       -0.0893392       -0.230413       4.9446e-05    -0.000227223         0.261508        0.927294
                        0.759532       -0.646053      0.000101663    -0.000274741       -0.0205096       0.0365891     -0.000158203    -0.000304679
                     0.000163284     -0.00032038         0.261626         0.92688     -9.64531e-05    -0.000315351        0.0459685        0.241721
281722                 0.0386487      -0.0147619      0.000300685    -7.69824e-05         0.759059       -0.646846      0.000140607    -0.000242187
                     0.000244244    -0.000193902       -0.0894247       -0.230418      4.93345e-05    -0.000227203         0.261938        0.927163
                        0.759274       -0.646356      0.000101568    -0.000274781       -0.0205071       0.0366016     -0.000158338    -0.000304551
                     0.000163151    -0.000320398         0.262056        0.926749      -9.6601e-05    -0.000315259        0.0461246        0.241727
281724                 0.0386489      -0.0147885      0.000300599    -7.70209e-05         0.758801       -0.647148      0.000140535    -0.000242331
                     0.000244087    -0.000193985       -0.0895102       -0.230424      4.92231e-05    -0.000227183         0.262368        0.927032
                        0.759016       -0.646659      0.000101473    -0.000274821       -0.0205045       0.0366142     -0.000158473    -0.000304422
                     0.000163017    -0.000320417         0.262485        0.926618     -9.67489e-05    -0.000315167        0.0462808        0.241733
281726                 0.0386491      -0.0148152      0.000300513    -7.70595e-05         0.758542       -0.647451      0.000140462    -0.000242475
                     0.000243929    -0.000194067       -0.0895957       -0.230429      4.91117e-05    -0.000227163         0.262798        0.926901
                        0.758758       -0.646961      0.000101378    -0.000274861       -0.0205019       0.0366267     -0.000158609    -0.000304294
                     0.000162883    -0.000320436         0.262915        0.926486     -9.68968e-05    -0.000315075         0.046437        0.241739
281728                 0.0386493      -0.0148418      0.000300427    -7.70981e-05         0.758284       -0.647753       0.00014039    -0.000242619
                     0.000243771     -0.00019415       -0.0896813       -0.230434      4.90005e-05    -0.000227143         0.263228        0.926769
                        0.758499       -0.647264      0.000101283    -0.000274901       -0.0204993       0.0366393     -0.000158745    -0.000304166
                     0.000162749    -0.000320454         0.263345        0.926355     -9.70446e-05    -0.000314983        0.0465932        0.241745
281730                 0.0386495      -0.0148685      0.000300341    -7.71367e-05         0.758025       -0.648055      0.000140317    -0.000242762
                     0.000243613    -0.000194233       -0.0897668       -0.230439      4.88893e-05    -0.000227123         0.263658        0.926638
                        0.758241       -0.647566      0.000101188    -0.000274941       -0.0204967       0.0366518      -0.00015888    -0.000304037
                     0.000162616    -0.000320473         0.263774        0.926223     -9.71925e-05    -0.000314891        0.0467494        0.241751
281732                 0.0386497      -0.0148951      0.000300255    -7.71754e-05         0.757766       -0.648357      0.000140243    -0.000242906
                     0.000243454    -0.000194316       -0.0898523       -0.230444      4.87782e-05    -0.000227103         0.264087        0.926506
                        0.757982       -0.647868      0.000101093    -0.000274981       -0.0204941       0.0366644     -0.000159016    -0.000303909
                     0.000162482    -0.000320491         0.264203        0.926091     -9.73404e-05    -0.000314798        0.0469057        0.241757
281734                 0.0386498      -0.0149218      0.000300169    -7.72142e-05         0.757507       -0.648658       0.00014017    -0.000243049
                     0.000243296    -0.000194398       -0.0899379       -0.230449      4.86672e-05    -0.000227082         0.264517        0.926374
                        0.757723        -0.64817      0.000100998    -0.000275021       -0.0204915        0.036677     -0.000159152     -0.00030378
                     0.000162348    -0.000320509         0.264633        0.925959     -9.74882e-05    -0.000314706         0.047062        0.241762
281736                 0.0386499      -0.0149484      0.000300084     -7.7253e-05         0.757248        -0.64896      0.000140096    -0.000243192
                     0.000243137    -0.000194481       -0.0900235       -0.230454      4.85563e-05    -0.000227062         0.264947        0.926241
                        0.757465       -0.648472      0.000100903    -0.000275062       -0.0204888       0.0366896     -0.000159287    -0.000303652
                     0.000162215    -0.000320527         0.265062        0.925826      -9.7636e-05    -0.000314613        0.0472183        0.241768
281738                 0.0386501      -0.0149751      0.000299998     -7.7292e-05         0.756989       -0.649262      0.000140021    -0.000243335
                     0.000242979    -0.000194564       -0.0901091       -0.230459      4.84455e-05    -0.000227041         0.265376        0.926109
                        0.757206       -0.648774      0.000100809    -0.000275102       -0.0204862       0.0367021     -0.000159423    -0.000303523
                     0.000162081    -0.000320544         0.265491        0.925694     -9.77838e-05    -0.000314521        0.0473746        0.241773
281740                 0.0386502      -0.0150018      0.000299913    -7.73309e-05         0.756729       -0.649563      0.000139947    -0.000243478
                      0.00024282    -0.000194646       -0.0901947       -0.230464      4.83347e-05    -0.000227021         0.265806        0.925976
                        0.756947       -0.649076      0.000100714    -0.000275142       -0.0204835       0.0367147     -0.000159559    -0.000303394
                     0.000161947    -0.000320562         0.265921        0.925561     -9.79316e-05    -0.000314428         0.047531        0.241779
281742                 0.0386502      -0.0150284      0.000299828      -7.737e-05          0.75647       -0.649865      0.000139872    -0.000243621
                     0.000242661    -0.000194729       -0.0902803       -0.230469      4.82239e-05       -0.000227         0.266235        0.925843
                        0.756687       -0.649378      0.000100619    -0.000275183       -0.0204809       0.0367273     -0.000159695    -0.000303266
                     0.000161814     -0.00032058          0.26635        0.925428     -9.80794e-05    -0.000314335        0.0476874        0.241784
281744                 0.0386503      -0.0150551      0.000299743    -7.74091e-05          0.75621       -0.650166      0.000139797    -0.000243763
                     0.000242501    -0.000194812       -0.0903659       -0.230474      4.81133e-05    -0.000226979         0.266664         0.92571
                        0.756428       -0.649679      0.000100524    -0.000275223       -0.0204782       0.0367399     -0.000159831    -0.000303137
                      0.00016168    -0.000320597         0.266779        0.925295     -9.82271e-05    -0.000314242        0.0478439        0.241789
281746                 0.0386504      -0.0150818      0.000299658    -7.74482e-05         0.755951       -0.650467      0.000139721    -0.000243906
                     0.000242342    -0.000194894       -0.0904516       -0.230478      4.80027e-05    -0.000226958         0.267094        0.925577
                        0.756169       -0.649981       0.00010043    -0.000275264       -0.0204756       0.0367525     -0.000159967    -0.000303008
                     0.000161546    -0.000320614         0.267208        0.925161     -9.83748e-05    -0.000314149        0.0480004        0.241794
281748                 0.0386504      -0.0151085      0.000299573    -7.74874e-05         0.755691       -0.650768      0.000139645    -0.000244048
                     0.000242182    -0.000194977       -0.0905372       -0.230483      4.78922e-05    -0.000226937         0.267523        0.925443
                        0.755909       -0.650282      0.000100335    -0.000275305       -0.0204729       0.0367651     -0.000160104    -0.000302879
                     0.000161412    -0.000320631         0.267637        0.925028     -9.85225e-05    -0.000314056        0.0481569        0.241799
281750                 0.0386505      -0.0151351      0.000299488    -7.75267e-05         0.755431       -0.651069      0.000139569     -0.00024419
                     0.000242023     -0.00019506       -0.0906229       -0.230488      4.77817e-05    -0.000226916         0.267952        0.925309
                        0.755649       -0.650583       0.00010024    -0.000275346       -0.0204702       0.0367778      -0.00016024     -0.00030275
                     0.000161279    -0.000320648         0.268065        0.924894     -9.86701e-05    -0.000313964        0.0483134        0.241804
281752                 0.0386505      -0.0151618      0.000299404     -7.7566e-05         0.755171        -0.65137      0.000139492    -0.000244332
                     0.000241863    -0.000195143       -0.0907086       -0.230493      4.76713e-05    -0.000226895         0.268381        0.925176
                        0.755389       -0.650885      0.000100146    -0.000275387       -0.0204675       0.0367904     -0.000160376    -0.000302621
                     0.000161145    -0.000320665         0.268494         0.92476     -9.88176e-05    -0.000313871        0.0484699        0.241809
281754                 0.0386505      -0.0151885       0.00029932    -7.76053e-05         0.754911       -0.651671      0.000139415    -0.000244474
                     0.000241703    -0.000195225       -0.0907943       -0.230498       4.7561e-05    -0.000226874          0.26881        0.925041
                         0.75513       -0.651186      0.000100051    -0.000275428       -0.0204648        0.036803     -0.000160513    -0.000302492
                     0.000161011    -0.000320681         0.268923        0.924626     -9.89652e-05    -0.000313777        0.0486265        0.241813
281756                 0.0386505      -0.0152152      0.000299235    -7.76446e-05          0.75465       -0.651972      0.000139338    -0.000244616
                     0.000241543    -0.000195308         -0.09088       -0.230502      4.74507e-05    -0.000226852         0.269239        0.924907
                        0.754869       -0.651487      9.99563e-05    -0.000275469       -0.0204621       0.0368157     -0.000160649    -0.000302364
                     0.000160877    -0.000320698         0.269352        0.924491     -9.91126e-05    -0.000313684        0.0487832        0.241818
281758                 0.0386505      -0.0152418      0.000299151     -7.7684e-05          0.75439       -0.652272       0.00013926    -0.000244758
                     0.000241382    -0.000195391       -0.0909657       -0.230507      4.73405e-05    -0.000226831         0.269668        0.924772
                        0.754609       -0.651787      9.98617e-05     -0.00027551       -0.0204594       0.0368283     -0.000160786    -0.000302235
                     0.000160744    -0.000320714          0.26978        0.924356       -9.926e-05    -0.000313591        0.0489398        0.241823
281760                 0.0386505      -0.0152685      0.000299067    -7.77234e-05         0.754129       -0.652573      0.000139182      -0.0002449
                     0.000241222    -0.000195473       -0.0910514       -0.230512      4.72304e-05    -0.000226809         0.270097        0.924638
                        0.754349       -0.652088      9.97671e-05    -0.000275551       -0.0204567       0.0368409     -0.000160923    -0.000302106
                      0.00016061     -0.00032073         0.270209        0.924222     -9.94074e-05    -0.000313498        0.0490965        0.241827
281762                 0.0386504      -0.0152952      0.000298983    -7.77628e-05         0.753869       -0.652873      0.000139104    -0.000245042
                     0.000241061    -0.000195556       -0.0911372       -0.230516      4.71203e-05    -0.000226788         0.270525        0.924503
                        0.754089       -0.652389      9.96725e-05    -0.000275593        -0.020454       0.0368536      -0.00016106    -0.000301977
