! TOUCHSTONE file generated by CST MICROWAVE STUDIO
! Date and time: Tue Oct 14 07:27:23 2025
! Project name: Teste_Macro_Metasurface_Nanopilar.cst
! Parameters = {H=600; L_x=110; L_y=120; Lambda=1064; Max_L=200; Min_L=70; PathPara=1; Phi=0; Step_L=10; Theta=0; p=520; phaseX=180; phaseY=0}
! Header version: 2018
! Port assignment regex: !\s*Touchstone port\s*([0-9]+)\s*=\s*(CST MWS port|CST DS port)\s*([0-9]+|Zmin|Zmax)\s*\(\"(.*)\"\)(\s*mode\s*([0-9]+))?.*
! Touchstone port assignment:
! Touchstone port 1 = CST MWS port Zmax ("") mode 1
! Touchstone port 2 = CST MWS port Zmax ("") mode 2
! Touchstone port 3 = CST MWS port Zmin ("") mode 1
! Touchstone port 4 = CST MWS port Zmin ("") mode 2
! S-Parameters are not renormalized. Each port impedance will be approximated by the real part at minimum frequency. The values are described via the [Reference] keyword.
! Default impedance is overridden by [Reference]
[Version] 2.0
# GHz S RI R 376.73
[Number of Ports] 4
[Reference]
376.73 376.73 259.814 259.814 
[Number of Frequencies] 51
[Network Data]
281700                 -0.137645       0.0625362      0.000438647     0.000527305        -0.867509       -0.453275     -0.000685508     0.000295692
                     0.000431245     0.000335824        -0.150228      -0.0649063     -0.000620235      0.00046284        -0.311806       -0.928692
                       -0.867923       -0.453172     -0.000563399     0.000357679        0.0257969        0.148184      0.000108918    -0.000512476
                     -0.00064162     0.000414763         -0.31176       -0.928093     -0.000123513    -0.000496849       -0.0796074        0.142259
281702                 -0.137606       0.0625858      0.000439391     0.000527175        -0.867751       -0.452816      -0.00068566     0.000296173
                     0.000431715     0.000335758        -0.150261      -0.0648541     -0.000620088     0.000463196        -0.312264       -0.928536
                       -0.868165       -0.452713     -0.000563304     0.000357881        0.0258904        0.148152      0.000108573     -0.00051301
                    -0.000641448     0.000415149        -0.312218       -0.927937     -0.000123803    -0.000496981       -0.0795247        0.142316
281704                 -0.137567       0.0626354      0.000440136     0.000527045        -0.867992       -0.452357     -0.000685811     0.000296654
                     0.000432184      0.00033569        -0.150294      -0.0648018     -0.000619941     0.000463552        -0.312722        -0.92838
                       -0.868407       -0.452254     -0.000563208     0.000358082        0.0259839         0.14812      0.000108228    -0.000513543
                    -0.000641275     0.000415535        -0.312677        -0.92778     -0.000124094    -0.000497113       -0.0794419        0.142373
281706                 -0.137527        0.062685       0.00044088     0.000526913        -0.868234       -0.451898     -0.000685962     0.000297135
                     0.000432654     0.000335622        -0.150327      -0.0647495     -0.000619793     0.000463908         -0.31318       -0.928223
                       -0.868648       -0.451794     -0.000563113     0.000358284        0.0260774        0.148088      0.000107883    -0.000514076
                    -0.000641101     0.000415921        -0.313135       -0.927623     -0.000124384    -0.000497245       -0.0793591         0.14243
281708                 -0.137488       0.0627345      0.000441624     0.000526779        -0.868475       -0.451439     -0.000686113     0.000297617
                     0.000433125     0.000335553         -0.15036      -0.0646973     -0.000619645     0.000464264        -0.313637       -0.928067
                       -0.868889       -0.451335     -0.000563018     0.000358485        0.0261708        0.148056      0.000107539    -0.000514609
                    -0.000640928     0.000416307        -0.313593       -0.927466     -0.000124674    -0.000497376       -0.0792762        0.142488
281710                 -0.137448        0.062784      0.000442369     0.000526645        -0.868716       -0.450979     -0.000686263     0.000298099
                     0.000433595     0.000335483        -0.150393       -0.064645     -0.000619496      0.00046462        -0.314095        -0.92791
                        -0.86913       -0.450875     -0.000562923     0.000358687        0.0262642        0.148024      0.000107194    -0.000515141
                    -0.000640753     0.000416692        -0.314051       -0.927309     -0.000124963    -0.000497507       -0.0791933        0.142545
281712                 -0.137409       0.0628335      0.000443113     0.000526509        -0.868957        -0.45052     -0.000686412     0.000298581
                     0.000434066     0.000335413        -0.150426      -0.0645926     -0.000619347     0.000464976        -0.314553       -0.927752
                       -0.869371       -0.450415     -0.000562827     0.000358889        0.0263576        0.147992      0.000106849    -0.000515672
                    -0.000640579     0.000417077        -0.314509       -0.927151     -0.000125253    -0.000497638       -0.0791104        0.142601
281714                 -0.137369        0.062883      0.000443857     0.000526372        -0.869197        -0.45006     -0.000686562     0.000299063
                     0.000434537     0.000335341        -0.150459      -0.0645403     -0.000619197     0.000465332        -0.315011       -0.927595
                       -0.869611       -0.449955     -0.000562732     0.000359091        0.0264509         0.14796      0.000106505    -0.000516203
                    -0.000640404     0.000417462        -0.314967       -0.926993     -0.000125543    -0.000497768       -0.0790274        0.142658
281716                  -0.13733       0.0629325      0.000444602     0.000526234        -0.869438         -0.4496      -0.00068671     0.000299546
                     0.000435008     0.000335269        -0.150491       -0.064488     -0.000619047     0.000465688        -0.315468       -0.927437
                       -0.869852       -0.449495     -0.000562637     0.000359293        0.0265442        0.147927      0.000106161    -0.000516734
                    -0.000640229     0.000417847        -0.315425       -0.926835     -0.000125832    -0.000497898       -0.0789444        0.142715
281718                  -0.13729       0.0629819      0.000445346     0.000526094        -0.869678        -0.44914     -0.000686858     0.000300029
                     0.000435479     0.000335196        -0.150524      -0.0644356     -0.000618896     0.000466043        -0.315926       -0.927279
                       -0.870092       -0.449034     -0.000562542     0.000359495        0.0266375        0.147895      0.000105817    -0.000517264
                    -0.000640053     0.000418231        -0.315883       -0.926677     -0.000126122    -0.000498028       -0.0788613        0.142772
281720                 -0.137251       0.0630313       0.00044609     0.000525953        -0.869918        -0.44868     -0.000687006     0.000300512
                     0.000435951     0.000335122        -0.150557      -0.0643832     -0.000618745     0.000466398        -0.316383       -0.927121
                       -0.870331       -0.448574     -0.000562447     0.000359697        0.0267307        0.147863      0.000105473    -0.000517794
                    -0.000639877     0.000418615        -0.316341       -0.926518     -0.000126411    -0.000498158       -0.0787782        0.142829
281722                 -0.137211       0.0630807      0.000446834     0.000525811        -0.870157        -0.44822     -0.000687153     0.000300996
                     0.000436423     0.000335047         -0.15059      -0.0643308     -0.000618593     0.000466754        -0.316841       -0.926963
                       -0.870571       -0.448113     -0.000562351     0.000359899        0.0268239         0.14783      0.000105129    -0.000518323
                      -0.0006397     0.000418999        -0.316799       -0.926359     -0.000126701    -0.000498287        -0.078695        0.142885
281724                 -0.137171         0.06313      0.000447578     0.000525668        -0.870396       -0.447759       -0.0006873     0.000301479
                     0.000436895     0.000334972        -0.150622      -0.0642783     -0.000618441     0.000467109        -0.317298       -0.926804
                        -0.87081       -0.447653     -0.000562256     0.000360101        0.0269171        0.147798      0.000104785    -0.000518852
                    -0.000639524     0.000419383        -0.317256       -0.926201      -0.00012699    -0.000498415       -0.0786118        0.142942
281726                 -0.137132       0.0631794      0.000448322     0.000525523        -0.870636       -0.447299     -0.000687446     0.000301963
                     0.000437367     0.000334896        -0.150655      -0.0642259     -0.000618288     0.000467464        -0.317755       -0.926645
                       -0.871049       -0.447192     -0.000562161     0.000360304        0.0270102        0.147765      0.000104442     -0.00051938
                    -0.000639347     0.000419767        -0.317714       -0.926041     -0.000127279    -0.000498544       -0.0785286        0.142999
281728                 -0.137092       0.0632287      0.000449066     0.000525378        -0.870874       -0.446838     -0.000687592     0.000302447
                     0.000437839     0.000334819        -0.150688      -0.0641734     -0.000618135     0.000467819        -0.318212       -0.926486
                       -0.871288       -0.446731     -0.000562066     0.000360506        0.0271033        0.147732      0.000104099    -0.000519907
                    -0.000639169      0.00042015        -0.318171       -0.925882     -0.000127568    -0.000498672       -0.0784453        0.143055
281730                 -0.137052        0.063278      0.000449809     0.000525231        -0.871113       -0.446378     -0.000687737     0.000302932
                     0.000438312     0.000334741        -0.150721      -0.0641209     -0.000617981     0.000468174        -0.318669       -0.926327
                       -0.871526        -0.44627     -0.000561971     0.000360709        0.0271964        0.147699      0.000103756    -0.000520435
                    -0.000638991     0.000420533        -0.318629       -0.925722     -0.000127857      -0.0004988        -0.078362        0.143112
281732                 -0.137013       0.0633272      0.000450553     0.000525082        -0.871351       -0.445917     -0.000687882     0.000303416
                     0.000438785     0.000334663        -0.150753      -0.0640684     -0.000617827     0.000468529        -0.319127       -0.926167
                       -0.871765       -0.445809     -0.000561876     0.000360912        0.0272895        0.147667      0.000103413    -0.000520961
                    -0.000638813     0.000420916        -0.319086       -0.925562     -0.000128146    -0.000498927       -0.0782786        0.143168
281734                 -0.136973       0.0633765      0.000451297     0.000524933        -0.871589       -0.445456     -0.000688027     0.000303901
                     0.000439258     0.000334583        -0.150786      -0.0640159     -0.000617672     0.000468883        -0.319584       -0.926008
                       -0.872003       -0.445347     -0.000561781     0.000361115        0.0273825        0.147634      0.000103071    -0.000521487
                    -0.000638634     0.000421298        -0.319544       -0.925402     -0.000128435    -0.000499055       -0.0781952        0.143225
281736                 -0.136933       0.0634257       0.00045204     0.000524782        -0.871827       -0.444994      -0.00068817     0.000304386
                     0.000439731     0.000334503        -0.150819      -0.0639633     -0.000617517     0.000469238         -0.32004       -0.925848
                        -0.87224       -0.444886     -0.000561686     0.000361318        0.0274755        0.147601      0.000102728    -0.000522013
                    -0.000638455      0.00042168        -0.320001       -0.925242     -0.000128724    -0.000499182       -0.0781117        0.143281
281738                 -0.136893       0.0634749      0.000452783      0.00052463        -0.872065       -0.444533     -0.000688314     0.000304871
                     0.000440204     0.000334422        -0.150851      -0.0639107     -0.000617361     0.000469592        -0.320497       -0.925688
                       -0.872478       -0.444424     -0.000561591     0.000361521        0.0275684        0.147568      0.000102386    -0.000522538
                    -0.000638276     0.000422062        -0.320458       -0.925081     -0.000129012    -0.000499308       -0.0780282        0.143337
281740                 -0.136853        0.063524      0.000453527     0.000524476        -0.872302       -0.444072     -0.000688457     0.000305357
                     0.000440678      0.00033434        -0.150884      -0.0638582     -0.000617205     0.000469947        -0.320954       -0.925527
                       -0.872715       -0.443962     -0.000561496     0.000361724        0.0276613        0.147535      0.000102045    -0.000523062
                    -0.000638096     0.000422444        -0.320915        -0.92492     -0.000129301    -0.000499435       -0.0779447        0.143393
281742                 -0.136814       0.0635732       0.00045427     0.000524322         -0.87254        -0.44361     -0.000688599     0.000305843
                     0.000441152     0.000334258        -0.150916      -0.0638055     -0.000617048     0.000470301        -0.321411       -0.925366
                       -0.872952         -0.4435     -0.000561401     0.000361927        0.0277542        0.147502      0.000101703    -0.000523586
                    -0.000637916     0.000422826        -0.321372       -0.924759      -0.00012959    -0.000499561       -0.0778611         0.14345
281744                 -0.136774       0.0636223      0.000455013     0.000524166        -0.872776       -0.443149     -0.000688741     0.000306328
                     0.000441626     0.000334175        -0.150949      -0.0637529     -0.000616891     0.000470655        -0.321867       -0.925206
                       -0.873189       -0.443038     -0.000561306     0.000362131        0.0278471        0.147468      0.000101362     -0.00052411
                    -0.000637735     0.000423207        -0.321829       -0.924598     -0.000129878    -0.000499686       -0.0777775        0.143506
281746                 -0.136734       0.0636714      0.000455756     0.000524009        -0.873013       -0.442687     -0.000688882     0.000306814
                       0.0004421     0.000334091        -0.150981      -0.0637003     -0.000616733     0.000471009        -0.322324       -0.925044
                       -0.873426       -0.442576     -0.000561211     0.000362335        0.0279399        0.147435      0.000101021    -0.000524633
                    -0.000637554     0.000423589        -0.322286       -0.924437     -0.000130166    -0.000499812       -0.0776938        0.143562
281748                 -0.136694       0.0637205      0.000456498     0.000523851         -0.87325       -0.442225     -0.000689023     0.000307301
                     0.000442574     0.000334007        -0.151014      -0.0636476     -0.000616574     0.000471363         -0.32278       -0.924883
                       -0.873662       -0.442114     -0.000561115     0.000362539        0.0280327        0.147402       0.00010068    -0.000525155
                    -0.000637373      0.00042397        -0.322743       -0.924275     -0.000130455    -0.000499937       -0.0776101        0.143618
281750                 -0.136654       0.0637695       0.00045724     0.000523692        -0.873486       -0.441763     -0.000689163     0.000307787
                     0.000443049     0.000333922        -0.151046      -0.0635949     -0.000616416     0.000471716        -0.323237       -0.924722
                       -0.873898       -0.441652     -0.000561018     0.000362746        0.0281255        0.147368      0.000100339    -0.000525677
                    -0.000637192     0.000424351        -0.323199       -0.924113     -0.000130743    -0.000500062       -0.0775264        0.143674
281752                 -0.136614       0.0638185      0.000457976     0.000523535        -0.873722       -0.441301     -0.000689303     0.000308274
                     0.000443524     0.000333841        -0.151079      -0.0635422     -0.000616256     0.000472067        -0.323693        -0.92456
                       -0.874134       -0.441189     -0.000560909     0.000362968        0.0282182        0.147335      9.99986e-05    -0.000526198
                    -0.000637011     0.000424734        -0.323656       -0.923951      -0.00013103    -0.000500186       -0.0774426         0.14373
281754                 -0.136574       0.0638676      0.000458735     0.000523366        -0.873957       -0.440838     -0.000689441     0.000308761
                      0.00044399     0.000333691        -0.151111      -0.0634895     -0.000616078     0.000472432         -0.32415       -0.924398
                       -0.874369       -0.440726     -0.000560848      0.00036313        0.0283109        0.147301      9.96582e-05    -0.000526717
                    -0.000636818     0.000425081        -0.324113       -0.923788     -0.000131319    -0.000500311       -0.0773588        0.143786
281756                 -0.136534       0.0639165      0.000459473     0.000523204        -0.874193       -0.440376     -0.000689579     0.000309245
                     0.000444472     0.000333648        -0.151144      -0.0634368     -0.000615933     0.000472784        -0.324606       -0.924236
                       -0.874605       -0.440264     -0.000560746     0.000363343        0.0284036        0.147268      9.93211e-05    -0.000527236
                    -0.000636643     0.000425485        -0.324569       -0.923626     -0.000131607    -0.000500435       -0.0772749        0.143841
281758                 -0.136494       0.0639655      0.000460215     0.000523039        -0.874428       -0.439913     -0.000689719     0.000309732
                     0.000444947     0.000333562        -0.151176       -0.063384     -0.000615773     0.000473136        -0.325062       -0.924073
                        -0.87484       -0.439801     -0.000560649     0.000363549        0.0284962        0.147234      9.89824e-05    -0.000527757
                     -0.00063646     0.000425866        -0.325026       -0.923463     -0.000131895    -0.000500558        -0.077191        0.143897
281760                 -0.136454       0.0640144      0.000460957     0.000522873        -0.874663       -0.439451     -0.000689857     0.000310219
                     0.000445423     0.000333474        -0.151209      -0.0633312     -0.000615612     0.000473489        -0.325518        -0.92391
                       -0.875075       -0.439338     -0.000560554     0.000363753        0.0285888          0.1472      9.86436e-05    -0.000528276
                    -0.000636277     0.000426246        -0.325482         -0.9233     -0.000132183    -0.000500681        -0.077107        0.143953
281762                 -0.136414       0.0640633      0.000461699     0.000522706        -0.874898       -0.438988     -0.000689994     0.000310706
                     0.000445899     0.000333383        -0.151241      -0.0632784      -0.00061545     0.000473842        -0.325974       -0.923747
                       -0.875309       -0.438874     -0.000560459     0.000363958        0.0286814        0.147167      9.83052e-05    -0.000528795
