! TOUCHSTONE file generated by CST MICROWAVE STUDIO
! Date and time: Tue Oct 14 07:25:36 2025
! Project name: Teste_Macro_Metasurface_Nanopilar.cst
! Parameters = {H=600; L_x=80; L_y=160; Lambda=1064; Max_L=200; Min_L=70; PathPara=1; Phi=0; Step_L=10; Theta=0; p=520; phaseX=180; phaseY=0}
! Header version: 2018
! Port assignment regex: !\s*Touchstone port\s*([0-9]+)\s*=\s*(CST MWS port|CST DS port)\s*([0-9]+|Zmin|Zmax)\s*\(\"(.*)\"\)(\s*mode\s*([0-9]+))?.*
! Touchstone port assignment:
! Touchstone port 1 = CST MWS port Zmax ("") mode 1
! Touchstone port 2 = CST MWS port Zmax ("") mode 2
! Touchstone port 3 = CST MWS port Zmin ("") mode 1
! Touchstone port 4 = CST MWS port Zmin ("") mode 2
! S-Parameters are not renormalized. Each port impedance will be approximated by the real part at minimum frequency. The values are described via the [Reference] keyword.
! Default impedance is overridden by [Reference]
[Version] 2.0
# GHz S RI R 376.73
[Number of Ports] 4
[Reference]
376.73 376.73 259.814 259.814 
[Number of Frequencies] 51
[Network Data]
281700                 0.0356239      -0.0900583      0.000559237    -7.47676e-05        -0.540781        0.826612       4.4309e-05     0.000132196
                     0.000538654    -4.77042e-05        0.0132136       0.0573181     -0.000107453    -6.74156e-05         0.937949       -0.338611
                       -0.540775        0.826617     -8.73459e-05      -7.741e-05       -0.0682254        0.071009      0.000178769    -0.000519626
                     7.65308e-05     0.000242082         0.938289       -0.338695      0.000168283    -0.000423611        0.0263631       0.0529189
281702                 0.0355833      -0.0901015      0.000559168    -7.50359e-05        -0.540375        0.826875      4.43614e-05     0.000132258
                     0.000538643    -4.80301e-05        0.0132388        0.057306     -0.000107537    -6.74132e-05         0.937821       -0.338966
                       -0.540369         0.82688     -8.74783e-05    -7.74343e-05       -0.0682122       0.0710557      0.000178688     -0.00051969
                      7.6592e-05     0.000242049         0.938161       -0.339051      0.000168127    -0.000423779         0.026376       0.0529057
281704                 0.0355428      -0.0901446      0.000559098    -7.53042e-05        -0.539968        0.827138      4.44138e-05     0.000132319
                     0.000538631     -4.8356e-05        0.0132639       0.0572939     -0.000107622    -6.74113e-05         0.937693       -0.339322
                       -0.539963        0.827142     -8.76109e-05    -7.74585e-05        -0.068199       0.0711025      0.000178606    -0.000519753
                     7.66532e-05     0.000242015         0.938033       -0.339406      0.000167971    -0.000423947        0.0263889       0.0528925
281706                 0.0355022      -0.0901876      0.000559028    -7.55725e-05        -0.539561          0.8274      4.44661e-05     0.000132381
                      0.00053862    -4.86819e-05        0.0132891       0.0572818     -0.000107707    -6.74097e-05         0.937565       -0.339677
                       -0.539556        0.827405     -8.77435e-05    -7.74828e-05       -0.0681857       0.0711492      0.000178524    -0.000519816
                     7.67144e-05     0.000241981         0.937905       -0.339761      0.000167816    -0.000424115        0.0264017       0.0528794
281708                 0.0354616      -0.0902307      0.000558958    -7.58409e-05        -0.539155        0.827663      4.45183e-05     0.000132442
                     0.000538608    -4.90078e-05        0.0133142       0.0572697     -0.000107792    -6.74086e-05         0.937436       -0.340032
                        -0.53915        0.827667     -8.78761e-05    -7.75071e-05       -0.0681725        0.071196      0.000178443     -0.00051988
                     7.67757e-05     0.000241947         0.937776       -0.340117      0.000167661    -0.000424284        0.0264146       0.0528662
281710                  0.035421      -0.0902737      0.000558887    -7.61092e-05        -0.538748        0.827925      4.45705e-05     0.000132503
                     0.000538596    -4.93337e-05        0.0133393       0.0572576     -0.000107877    -6.74078e-05         0.937308       -0.340387
                       -0.538743        0.827929     -8.80089e-05    -7.75314e-05       -0.0681591       0.0712427      0.000178361    -0.000519943
                      7.6837e-05     0.000241913         0.937648       -0.340472      0.000167506    -0.000424453        0.0264275        0.052853
281712                 0.0353804      -0.0903168      0.000558816    -7.63777e-05        -0.538341        0.828187      4.46226e-05     0.000132564
                     0.000538584    -4.96595e-05        0.0133645       0.0572455     -0.000107962    -6.74073e-05         0.937179       -0.340742
                       -0.538336        0.828191     -8.81417e-05    -7.75558e-05       -0.0681458       0.0712895      0.000178279    -0.000520006
                     7.68982e-05     0.000241879         0.937519       -0.340827      0.000167351    -0.000424622        0.0264403       0.0528399
281714                 0.0353397      -0.0903598      0.000558745    -7.66461e-05        -0.537934        0.828449      4.46746e-05     0.000132625
                     0.000538571    -4.99853e-05        0.0133896       0.0572334     -0.000108047    -6.74073e-05          0.93705       -0.341098
                        -0.53793        0.828453     -8.82745e-05    -7.75803e-05       -0.0681324       0.0713363      0.000178197    -0.000520069
                     7.69596e-05     0.000241846          0.93739       -0.341182      0.000167197    -0.000424791        0.0264532       0.0528267
281716                  0.035299      -0.0904027      0.000558674    -7.69146e-05        -0.537527        0.828711      4.47266e-05     0.000132685
                     0.000538558    -5.03111e-05        0.0134147       0.0572212     -0.000108132    -6.74075e-05         0.936921       -0.341453
                       -0.537523        0.828714     -8.84074e-05    -7.76048e-05        -0.068119       0.0713831      0.000178115    -0.000520132
                     7.70209e-05     0.000241812         0.937261       -0.341537      0.000167043     -0.00042496         0.026466       0.0528135
281718                 0.0352583      -0.0904457      0.000558602    -7.71831e-05        -0.537119        0.828972      4.47785e-05     0.000132746
                     0.000538545    -5.06369e-05        0.0134398       0.0572091     -0.000108217    -6.74081e-05         0.936792       -0.341808
                       -0.537116        0.828976     -8.85404e-05    -7.76293e-05       -0.0681055       0.0714299      0.000178033    -0.000520195
                     7.70823e-05     0.000241778         0.937132       -0.341892       0.00016689     -0.00042513        0.0264788       0.0528004
281720                 0.0352176      -0.0904886       0.00055853    -7.74517e-05        -0.536712        0.829234      4.48304e-05     0.000132806
                     0.000538532    -5.09626e-05        0.0134649       0.0571969     -0.000108302     -6.7409e-05         0.936663       -0.342163
                       -0.536708        0.829237     -8.86735e-05    -7.76539e-05       -0.0680921       0.0714767      0.000177951    -0.000520257
                     7.71436e-05     0.000241744         0.937003       -0.342247      0.000166737    -0.000425299        0.0264916       0.0527872
281722                 0.0351768      -0.0905316      0.000558457    -7.77203e-05        -0.536304        0.829495      4.48821e-05     0.000132867
                     0.000538519    -5.12883e-05          0.01349       0.0571847     -0.000108387    -6.74102e-05         0.936533       -0.342517
                       -0.536301        0.829498     -8.88066e-05    -7.76785e-05       -0.0680785       0.0715236      0.000177869     -0.00052032
                      7.7205e-05      0.00024171         0.936873       -0.342602      0.000166584    -0.000425469        0.0265044        0.052774
281724                  0.035136      -0.0905745      0.000558385    -7.79889e-05        -0.535897        0.829755      4.49338e-05     0.000132927
                     0.000538505     -5.1614e-05        0.0135151       0.0571725     -0.000108472    -6.74117e-05         0.936404       -0.342872
                       -0.535894        0.829758     -8.89397e-05    -7.77033e-05        -0.068065       0.0715704      0.000177787    -0.000520383
                     7.72665e-05     0.000241676         0.936744       -0.342957      0.000166431    -0.000425639        0.0265173       0.0527608
281726                 0.0350952      -0.0906173      0.000558312    -7.82576e-05        -0.535489        0.830016      4.49854e-05     0.000132987
                     0.000538491    -5.19396e-05        0.0135402       0.0571603     -0.000108557    -6.74134e-05         0.936274       -0.343227
                       -0.535486        0.830019     -8.90729e-05     -7.7728e-05       -0.0680514       0.0716173      0.000177705    -0.000520445
                     7.73279e-05     0.000241642         0.936614       -0.343312      0.000166279    -0.000425808        0.0265301       0.0527477
281728                 0.0350543      -0.0906602      0.000558238    -7.85263e-05        -0.535081        0.830277      4.50369e-05     0.000133048
                     0.000538477    -5.22652e-05        0.0135653       0.0571481     -0.000108641    -6.74154e-05         0.936144       -0.343582
                       -0.535078        0.830279     -8.92062e-05    -7.77528e-05       -0.0680378       0.0716641      0.000177623    -0.000520507
                     7.73894e-05     0.000241608         0.936484       -0.343667      0.000166127    -0.000425978        0.0265428       0.0527345
281730                 0.0350135       -0.090703      0.000558164     -7.8795e-05        -0.534673        0.830537      4.50884e-05     0.000133108
                     0.000538463    -5.25908e-05        0.0135903       0.0571359     -0.000108726    -6.74175e-05         0.936014       -0.343937
                       -0.534671        0.830539     -8.93395e-05    -7.77777e-05       -0.0680241        0.071711      0.000177541     -0.00052057
                     7.74509e-05     0.000241574         0.936355       -0.344022      0.000165975    -0.000426147        0.0265556       0.0527213
281732                 0.0349726      -0.0907459       0.00055809    -7.90638e-05        -0.534265        0.830797      4.51397e-05     0.000133167
                     0.000538448    -5.29164e-05        0.0136154       0.0571237     -0.000108811    -6.74197e-05         0.935884       -0.344291
                       -0.534263        0.830799     -8.94728e-05    -7.78027e-05       -0.0680105       0.0717579      0.000177458    -0.000520632
                     7.75124e-05      0.00024154         0.936224       -0.344376      0.000165823    -0.000426317        0.0265684       0.0527081
281734                 0.0349317      -0.0907887      0.000558016    -7.93326e-05        -0.533856        0.831057      4.51909e-05     0.000133227
                     0.000538434    -5.32419e-05        0.0136405       0.0571115     -0.000108895    -6.74219e-05         0.935754       -0.344646
                       -0.533855        0.831059     -8.96062e-05    -7.78277e-05       -0.0679967       0.0718048      0.000177376    -0.000520694
                      7.7574e-05     0.000241506         0.936094       -0.344731      0.000165672    -0.000426485        0.0265812       0.0526949
281736                 0.0348907      -0.0908314      0.000557941    -7.96015e-05        -0.533448        0.831316       4.5242e-05     0.000133287
                     0.000538419    -5.35674e-05        0.0136655       0.0570992     -0.000108979    -6.74239e-05         0.935624       -0.345001
                       -0.533446        0.831318     -8.97396e-05    -7.78528e-05        -0.067983       0.0718517      0.000177293    -0.000520756
                     7.76356e-05     0.000241472         0.935964       -0.345086       0.00016552    -0.000426654        0.0265939       0.0526818
281738                 0.0348498      -0.0908742      0.000557866    -7.98704e-05        -0.533039        0.831576      4.52929e-05     0.000133346
                     0.000538403    -5.38928e-05        0.0136906       0.0570869     -0.000109063    -6.74255e-05         0.935493       -0.345355
                       -0.533038        0.831577     -8.98731e-05     -7.7878e-05       -0.0679692       0.0718986      0.000177211    -0.000520818
                     7.76972e-05     0.000241438         0.935833        -0.34544      0.000165368    -0.000426821        0.0266067       0.0526686
281740                 0.0348088      -0.0909169      0.000557791    -8.01393e-05        -0.532631        0.831835      4.53437e-05     0.000133406
                     0.000538388    -5.42182e-05        0.0137156       0.0570747     -0.000109147    -6.74259e-05         0.935362        -0.34571
                        -0.53263        0.831836     -9.00066e-05    -7.79032e-05       -0.0679554       0.0719455      0.000177128    -0.000520879
                     7.77588e-05     0.000241404         0.935703       -0.345795      0.000165215    -0.000426986        0.0266195       0.0526554
281742                 0.0347678      -0.0909597      0.000557715    -8.04082e-05        -0.532222        0.832094      4.53942e-05     0.000133465
                     0.000538372    -5.45436e-05        0.0137406       0.0570624     -0.000109229    -6.74237e-05         0.935232       -0.346064
                       -0.532221        0.832095     -9.01401e-05    -7.79286e-05       -0.0679415       0.0719924      0.000177045    -0.000520941
                     7.78205e-05      0.00024137         0.935572       -0.346149      0.000165059    -0.000427147        0.0266322       0.0526422
281744                 0.0347268      -0.0910023      0.000557639    -8.06772e-05        -0.531813        0.832353      4.54445e-05     0.000133525
                     0.000538356    -5.48689e-05        0.0137657       0.0570501     -0.000109309    -6.74144e-05         0.935101       -0.346418
                       -0.531812        0.832354     -9.02736e-05     -7.7954e-05       -0.0679276       0.0720394      0.000176961    -0.000521002
                     7.78822e-05     0.000241336         0.935441       -0.346504      0.000164895    -0.000427297        0.0266449        0.052629
281746                 0.0346857       -0.091045      0.000557562    -8.09463e-05        -0.531404        0.832611      4.54944e-05     0.000133584
                      0.00053834    -5.51942e-05        0.0137907       0.0570378     -0.000109383    -6.73732e-05          0.93497       -0.346773
                       -0.531404        0.832612     -9.04072e-05    -7.79796e-05       -0.0679137       0.0720863      0.000176877    -0.000521063
                     7.79439e-05     0.000241302          0.93531       -0.346858      0.000164689    -0.000427401        0.0266577       0.0526158
281748                 0.0346446      -0.0910877      0.000557486    -8.12153e-05        -0.530995        0.832871      4.55436e-05     0.000133643
                     0.000538323    -5.55195e-05        0.0138157       0.0570255     -0.000110101    -6.78329e-05         0.934839       -0.347127
                       -0.530995         0.83287     -9.05408e-05    -7.80052e-05          -0.0679       0.0721338      0.000176792    -0.000521124
                     7.80057e-05     0.000241268         0.935179       -0.347212      0.000164716    -0.000428508        0.0266704       0.0526026
281750                 0.0346035      -0.0911303      0.000557408    -8.14845e-05        -0.530586        0.833128      4.55917e-05     0.000133702
                     0.000538307    -5.58447e-05        0.0138407       0.0570132     -0.000109607    -6.75426e-05         0.934707       -0.347481
                       -0.530586        0.833128     -9.06743e-05     -7.8031e-05       -0.0678858       0.0721804      0.000176706    -0.000521183
                     7.80675e-05     0.000241233         0.935048       -0.347567      0.000164554    -0.000427978        0.0266831       0.0525894
281752                 0.0345624      -0.0911729      0.000557331    -8.17536e-05        -0.530176        0.833386      4.56372e-05      0.00013376
                      0.00053829    -5.61699e-05        0.0138657       0.0570008     -0.000109676    -6.75161e-05         0.934576       -0.347835
                       -0.530177        0.833386     -9.08078e-05     -7.8057e-05       -0.0678718       0.0722274      0.000176617    -0.000521242
                     7.81293e-05     0.000241199         0.934916       -0.347921      0.000164382    -0.000428099        0.0266958       0.0525762
281754                 0.0345212      -0.0912155      0.000557253    -8.20228e-05        -0.529767        0.833644      4.56737e-05     0.000133819
                     0.000538273    -5.64951e-05        0.0138907       0.0569885     -0.000109755    -6.75106e-05         0.934444        -0.34819
                       -0.529767        0.833644     -9.09411e-05    -7.80833e-05       -0.0678577       0.0722743      0.000176516    -0.000521294
                     7.81911e-05     0.000241165         0.934785       -0.348275      0.000164225    -0.000428252        0.0267085       0.0525631
281756                   0.03448      -0.0912581      0.000557174    -8.22922e-05        -0.529357        0.833901       4.5559e-05     0.000133865
                     0.000538256    -5.68203e-05        0.0139157       0.0569761     -0.000109836    -6.75112e-05         0.934312       -0.348544
                       -0.529358        0.833901     -9.10738e-05    -7.81104e-05       -0.0678436       0.0723213      0.000176278    -0.000521226
                     7.82534e-05      0.00024113         0.934653       -0.348629      0.000164074    -0.000428414        0.0267213       0.0525498
281758                 0.0344388      -0.0913007      0.000557092    -8.25627e-05        -0.528947        0.834159      4.58514e-05     0.000133937
                     0.000538239    -5.71458e-05        0.0139407       0.0569638     -0.000109919    -6.75144e-05         0.934181       -0.348898
                       -0.528948        0.834158     -9.12024e-05    -7.81417e-05       -0.0678295       0.0723684      0.000176457    -0.000521454
                     7.83176e-05     0.000241098         0.934521       -0.348983      0.000163925     -0.00042858        0.0267339       0.0525367
281760                 0.0343976      -0.0913432      0.000557027    -8.28335e-05        -0.528538        0.834416      4.58768e-05     0.000133995
                     0.000538219    -5.74687e-05        0.0139657       0.0569514     -0.000110002     -6.7519e-05         0.934049       -0.349252
                       -0.528539        0.834415      -9.1352e-05    -7.81482e-05       -0.0678153       0.0724154      0.000176337    -0.000521505
                     7.83781e-05     0.000241064         0.934389       -0.349337      0.000163777    -0.000428747        0.0267466       0.0525235
281762                 0.0343563      -0.0913857      0.000556942    -8.30998e-05        -0.528128        0.834673      4.59199e-05     0.000134054
                     0.000538201    -5.77946e-05        0.0139907        0.056939     -0.000110085    -6.75245e-05         0.933917       -0.349606
                       -0.528129        0.834672     -9.14806e-05    -7.81822e-05       -0.0678011       0.0724624      0.000176244    -0.000521563
