! TOUCHSTONE file generated by CST MICROWAVE STUDIO
! Date and time: Tue Oct 14 07:31:22 2025
! Project name: Teste_Macro_Metasurface_Nanopilar.cst
! Parameters = {H=600; L_x=175; L_y=70; Lambda=1064; Max_L=200; Min_L=70; PathPara=1; Phi=0; Step_L=10; Theta=0; p=520; phaseX=180; phaseY=0}
! Header version: 2018
! Port assignment regex: !\s*Touchstone port\s*([0-9]+)\s*=\s*(CST MWS port|CST DS port)\s*([0-9]+|Zmin|Zmax)\s*\(\"(.*)\"\)(\s*mode\s*([0-9]+))?.*
! Touchstone port assignment:
! Touchstone port 1 = CST MWS port Zmax ("") mode 1
! Touchstone port 2 = CST MWS port Zmax ("") mode 2
! Touchstone port 3 = CST MWS port Zmin ("") mode 1
! Touchstone port 4 = CST MWS port Zmin ("") mode 2
! S-Parameters are not renormalized. Each port impedance will be approximated by the real part at minimum frequency. The values are described via the [Reference] keyword.
! Default impedance is overridden by [Reference]
[Version] 2.0
# GHz S RI R 376.73
[Number of Ports] 4
[Reference]
376.73 376.73 259.814 259.814 
[Number of Frequencies] 51
[Network Data]
281700               -0.00902346       0.0992464      3.88227e-05    -0.000112104         0.988377       -0.109689     -0.000290621     0.000146869
                    -4.89347e-05     0.000142138        0.0668238      -0.0905932      -0.00021789     0.000143655        -0.568482        0.805149
                        0.988323       -0.109504     -0.000134241     0.000162949        0.0305045       0.0950373     -0.000139983    -8.71692e-05
                    -0.000168588     0.000129292        -0.568558        0.805206     -6.46763e-05    -5.01593e-05       -0.0630759       0.0956688
281702               -0.00898678       0.0992454      3.85682e-05    -0.000112089         0.988337       -0.110052     -0.000290694     0.000146989
                    -4.88787e-05      0.00014218        0.0667837      -0.0906502     -0.000217799     0.000143773        -0.568084        0.805428
                        0.988283       -0.109867     -0.000134271     0.000162998        0.0305382        0.095022     -0.000140034    -8.71588e-05
                    -0.000168561     0.000129364        -0.568159        0.805485     -6.46994e-05    -5.01175e-05       -0.0630493       0.0957121
281704               -0.00895011       0.0992444       3.8314e-05    -0.000112073         0.988297       -0.110415     -0.000290766      0.00014711
                    -4.88226e-05     0.000142222        0.0667436      -0.0907072     -0.000217707     0.000143892        -0.567685        0.805707
                        0.988243       -0.110229     -0.000134301     0.000163046        0.0305719       0.0950067     -0.000140086    -8.71483e-05
                    -0.000168535     0.000129436         -0.56776        0.805763     -6.47224e-05    -5.00758e-05       -0.0630226       0.0957553
281706               -0.00891343       0.0992434      3.80602e-05    -0.000112058         0.988257       -0.110778     -0.000290838     0.000147231
                    -4.87665e-05     0.000142264        0.0667035      -0.0907642     -0.000217615      0.00014401        -0.567286        0.805985
                        0.988203       -0.110592      -0.00013433     0.000163095        0.0306056       0.0949914     -0.000140137    -8.71377e-05
                    -0.000168508     0.000129508        -0.567361        0.806042     -6.47454e-05     -5.0034e-05       -0.0629959       0.0957986
281708               -0.00887676       0.0992424      3.78067e-05    -0.000112042         0.988217       -0.111141     -0.000290911     0.000147352
                    -4.87104e-05     0.000142306        0.0666633      -0.0908212     -0.000217523     0.000144128        -0.566887        0.806264
                        0.988163       -0.110955      -0.00013436     0.000163144        0.0306393        0.094976     -0.000140188     -8.7127e-05
                    -0.000168482      0.00012958        -0.566962         0.80632     -6.47685e-05    -4.99922e-05       -0.0629692       0.0958418
281710               -0.00884008       0.0992413      3.75537e-05    -0.000112026         0.988176       -0.111504     -0.000290983     0.000147473
                    -4.86542e-05     0.000142348        0.0666231      -0.0908782     -0.000217431     0.000144247        -0.566488        0.806542
                        0.988122       -0.111318      -0.00013439     0.000163192        0.0306729       0.0949607     -0.000140239    -8.71163e-05
                    -0.000168455     0.000129652        -0.566562        0.806598     -6.47916e-05    -4.99504e-05       -0.0629424       0.0958851
281712               -0.00880341       0.0992403       3.7301e-05    -0.000112009         0.988135       -0.111866     -0.000291055     0.000147594
                     -4.8598e-05      0.00014239        0.0665828      -0.0909351     -0.000217339     0.000144364        -0.566089         0.80682
                        0.988082       -0.111681      -0.00013442     0.000163241        0.0307066       0.0949453     -0.000140291    -8.71055e-05
                    -0.000168428     0.000129723        -0.566162        0.806875     -6.48146e-05    -4.99085e-05       -0.0629156       0.0959284
281714               -0.00876674       0.0992392      3.70487e-05    -0.000111993         0.988095       -0.112229     -0.000291127     0.000147715
                    -4.85417e-05     0.000142432        0.0665425      -0.0909921     -0.000217247     0.000144482        -0.565689        0.807097
                        0.988041       -0.112044      -0.00013445      0.00016329        0.0307403         0.09493     -0.000140342    -8.70946e-05
                    -0.000168402     0.000129795        -0.565763        0.807153     -6.48377e-05    -4.98667e-05       -0.0628888       0.0959716
281716               -0.00873007       0.0992381      3.67968e-05    -0.000111976         0.988054       -0.112592       -0.0002912     0.000147837
                    -4.84854e-05     0.000142473        0.0665022       -0.091049     -0.000217154       0.0001446         -0.56529        0.807375
                           0.988       -0.112407      -0.00013448     0.000163339        0.0307739       0.0949146     -0.000140393    -8.70837e-05
                    -0.000168375     0.000129867        -0.565363         0.80743     -6.48608e-05    -4.98248e-05        -0.062862       0.0960149
281718               -0.00869341       0.0992371      3.65452e-05     -0.00011196         0.988012       -0.112955     -0.000291272     0.000147958
                    -4.84291e-05     0.000142515        0.0664619      -0.0911059     -0.000217062     0.000144717         -0.56489        0.807652
                         0.98796       -0.112769      -0.00013451     0.000163388        0.0308076       0.0948992     -0.000140444    -8.70726e-05
                    -0.000168348     0.000129939        -0.564963        0.807707     -6.48839e-05    -4.97829e-05       -0.0628351       0.0960582
281720               -0.00865674        0.099236       3.6294e-05    -0.000111943         0.987971       -0.113318     -0.000291344      0.00014808
                    -4.83727e-05     0.000142557        0.0664215      -0.0911627     -0.000216969     0.000144835         -0.56449        0.807929
                        0.987919       -0.113132      -0.00013454     0.000163437        0.0308412       0.0948838     -0.000140495    -8.70615e-05
                    -0.000168322     0.000130011        -0.564563        0.807984      -6.4907e-05     -4.9741e-05       -0.0628082       0.0961015
281722               -0.00862008       0.0992348      3.60431e-05    -0.000111926          0.98793       -0.113681     -0.000291416     0.000148201
                    -4.83163e-05     0.000142599        0.0663811      -0.0912196     -0.000216877     0.000144952         -0.56409        0.808206
                        0.987877       -0.113495      -0.00013457     0.000163486        0.0308749       0.0948684     -0.000140547    -8.70502e-05
                    -0.000168295     0.000130083        -0.564162        0.808261     -6.49301e-05    -4.96991e-05       -0.0627812       0.0961447
281724               -0.00858342       0.0992337      3.57926e-05    -0.000111909         0.987888       -0.114043     -0.000291488     0.000148323
                    -4.82598e-05     0.000142641        0.0663407      -0.0912764     -0.000216784     0.000145069         -0.56369        0.808482
                        0.987836       -0.113858       -0.0001346     0.000163535        0.0309085       0.0948529     -0.000140598    -8.70389e-05
                    -0.000168268     0.000130155        -0.563762        0.808537     -6.49532e-05    -4.96571e-05       -0.0627542        0.096188
281726               -0.00854675       0.0992326      3.55425e-05    -0.000111892         0.987847       -0.114406     -0.000291561     0.000148444
                    -4.82033e-05     0.000142683        0.0663002      -0.0913332     -0.000216691     0.000145186         -0.56329        0.808759
                        0.987795       -0.114221      -0.00013463     0.000163584        0.0309421       0.0948375     -0.000140649    -8.70274e-05
                    -0.000168242     0.000130227        -0.563361        0.808813     -6.49764e-05    -4.96152e-05       -0.0627272       0.0962313
281728                -0.0085101       0.0992314      3.52928e-05    -0.000111874         0.987805       -0.114769     -0.000291633     0.000148566
                    -4.81467e-05     0.000142725        0.0662597        -0.09139     -0.000216598     0.000145303        -0.562889        0.809035
                        0.987753       -0.114583      -0.00013466     0.000163633        0.0309757        0.094822       -0.0001407    -8.70159e-05
                    -0.000168215     0.000130299        -0.562961        0.809089     -6.49995e-05    -4.95732e-05       -0.0627002       0.0962746
281730               -0.00847344       0.0992302      3.50435e-05    -0.000111856         0.987763       -0.115131     -0.000291705     0.000148688
                    -4.80901e-05     0.000142767        0.0662192      -0.0914468     -0.000216504      0.00014542        -0.562489        0.809311
                        0.987711       -0.114946      -0.00013469     0.000163683        0.0310094       0.0948066     -0.000140751    -8.70042e-05
                    -0.000168188     0.000130371         -0.56256        0.809365     -6.50227e-05    -4.95312e-05       -0.0626731       0.0963179
281732               -0.00843678       0.0992291      3.47938e-05    -0.000111838         0.987721       -0.115494     -0.000291777     0.000148809
                    -4.80334e-05     0.000142809        0.0661786      -0.0915035     -0.000216411     0.000145536        -0.562088        0.809587
                        0.987669       -0.115309      -0.00013472     0.000163732         0.031043       0.0947911     -0.000140803    -8.69924e-05
                    -0.000168161     0.000130443        -0.562159        0.809641     -6.50458e-05    -4.94892e-05        -0.062646       0.0963612
281734               -0.00840013       0.0992279      3.45431e-05     -0.00011182         0.987679       -0.115857     -0.000291849     0.000148931
                    -4.79768e-05     0.000142851         0.066138      -0.0915603     -0.000216318     0.000145653        -0.561688        0.809863
                        0.987627       -0.115671      -0.00013475     0.000163782        0.0310765       0.0947756     -0.000140854    -8.69805e-05
                    -0.000168135     0.000130515        -0.561758        0.809916      -6.5069e-05    -4.94472e-05       -0.0626189       0.0964045
281736               -0.00836347       0.0992266       3.4294e-05    -0.000111803         0.987637        -0.11622     -0.000291921     0.000149053
                      -4.792e-05     0.000142893        0.0660974       -0.091617     -0.000216224     0.000145769        -0.561287        0.810138
                        0.987585       -0.116034      -0.00013478     0.000163831        0.0311101       0.0947601     -0.000140905    -8.69685e-05
                    -0.000168108     0.000130588        -0.561357        0.810192     -6.50922e-05    -4.94052e-05       -0.0625917       0.0964479
281738               -0.00832682       0.0992254      3.40458e-05    -0.000111786         0.987594       -0.116582     -0.000291993     0.000149174
                    -4.78632e-05     0.000142934        0.0660568      -0.0916737      -0.00021613     0.000145885        -0.560886        0.810413
                        0.987543       -0.116397      -0.00013481     0.000163881        0.0311437       0.0947446     -0.000140957    -8.69563e-05
                    -0.000168081      0.00013066        -0.560955        0.810467     -6.51154e-05    -4.93632e-05       -0.0625645       0.0964912
281740               -0.00829017       0.0992242       3.3798e-05    -0.000111768         0.987552       -0.116945     -0.000292064     0.000149296
                    -4.78064e-05     0.000142976        0.0660161      -0.0917303     -0.000216037     0.000146001        -0.560484        0.810688
                        0.987501       -0.116759      -0.00013484      0.00016393        0.0311773       0.0947291     -0.000141008     -8.6944e-05
                    -0.000168054     0.000130732        -0.560554        0.810741     -6.51386e-05    -4.93212e-05       -0.0625373       0.0965345
281742               -0.00825352       0.0992229      3.35503e-05     -0.00011175         0.987509       -0.117308     -0.000292136     0.000149417
                    -4.77495e-05     0.000143018        0.0659754       -0.091787     -0.000215943     0.000146117        -0.560083        0.810963
                        0.987458       -0.117122      -0.00013487      0.00016398        0.0312108       0.0947135      -0.00014106    -8.69316e-05
                    -0.000168027     0.000130804        -0.560152        0.811016     -6.51618e-05    -4.92792e-05         -0.06251       0.0965778
281744               -0.00821688       0.0992217      3.33029e-05    -0.000111731         0.987466        -0.11767     -0.000292208     0.000149538
                    -4.76926e-05      0.00014306        0.0659346      -0.0918436     -0.000215849     0.000146232        -0.559682        0.811238
                        0.987415       -0.117485     -0.000134901      0.00016403        0.0312444        0.094698     -0.000141112    -8.69191e-05
                    -0.000168001     0.000130876        -0.559751         0.81129     -6.51851e-05    -4.92372e-05       -0.0624828       0.0966212
281746               -0.00818023       0.0992204      3.30558e-05    -0.000111713         0.987423       -0.118033      -0.00029228      0.00014966
                    -4.76356e-05     0.000143102        0.0658939      -0.0919002     -0.000215755     0.000146347         -0.55928        0.811512
                        0.987373       -0.117847     -0.000134931      0.00016408        0.0312779       0.0946824     -0.000141164    -8.69064e-05
                    -0.000167974     0.000130948        -0.559349        0.811565     -6.52083e-05    -4.91955e-05       -0.0624554       0.0966645
281748               -0.00814359       0.0992191       3.2809e-05    -0.000111694          0.98738       -0.118395     -0.000292352     0.000149781
                    -4.75786e-05     0.000143144         0.065853      -0.0919568     -0.000215662      0.00014646        -0.558879        0.811786
                         0.98733        -0.11821     -0.000134961      0.00016413        0.0313115       0.0946668     -0.000141216    -8.68937e-05
                    -0.000167947      0.00013102        -0.558947        0.811839     -6.52317e-05    -4.91551e-05       -0.0624281       0.0967078
281750               -0.00810695       0.0992178      3.25624e-05    -0.000111676         0.987337       -0.118758     -0.000292424     0.000149903
                    -4.75215e-05     0.000143186        0.0658122      -0.0920134     -0.000215564     0.000146582        -0.558477         0.81206
                        0.987287       -0.118572     -0.000134991      0.00016418         0.031345       0.0946513     -0.000141269     -8.6881e-05
                     -0.00016792     0.000131093        -0.558545        0.812113     -6.52539e-05    -4.91072e-05       -0.0624007       0.0967512
281752               -0.00807031       0.0992165      3.23161e-05    -0.000111657         0.987294        -0.11912     -0.000292496     0.000150025
                    -4.74644e-05     0.000143228        0.0657713        -0.09207      -0.00021547     0.000146695        -0.558075        0.812334
                        0.987244       -0.118935     -0.000135021      0.00016423        0.0313785       0.0946357     -0.000141322    -8.68681e-05
                    -0.000167893     0.000131165        -0.558143        0.812386     -6.52778e-05    -4.90671e-05       -0.0623733       0.0967945
281754               -0.00803367       0.0992152        3.207e-05    -0.000111638          0.98725       -0.119483     -0.000292569     0.000150148
                    -4.74073e-05      0.00014327        0.0657305      -0.0921265     -0.000215376      0.00014681        -0.557673        0.812608
                          0.9872       -0.119298     -0.000135051      0.00016428         0.031412       0.0946201     -0.000141375    -8.68553e-05
                    -0.000167866     0.000131237         -0.55774         0.81266     -6.53011e-05    -4.90253e-05       -0.0623458       0.0968379
281756               -0.00799703       0.0992138      3.18242e-05    -0.000111618         0.987207       -0.119846     -0.000292641     0.000150271
                    -4.73482e-05     0.000143311        0.0656895       -0.092183     -0.000215281     0.000146924        -0.557271        0.812881
                        0.987157        -0.11966     -0.000135082      0.00016433        0.0314456       0.0946044     -0.000141429    -8.68425e-05
                    -0.000167838      0.00013131        -0.557338        0.812933     -6.53244e-05    -4.89833e-05       -0.0623184       0.0968812
281758               -0.00796039       0.0992125      3.15787e-05    -0.000111599         0.987163       -0.120208     -0.000292713     0.000150396
                    -4.72923e-05     0.000143353        0.0656486      -0.0922395     -0.000215186     0.000147039        -0.556868        0.813154
                        0.987113       -0.120023     -0.000135112      0.00016438        0.0314791       0.0945888     -0.000141484    -8.68297e-05
                    -0.000167812     0.000131382        -0.556935        0.813206     -6.53477e-05    -4.89412e-05       -0.0622909       0.0969246
281760               -0.00792376       0.0992111      3.13334e-05    -0.000111579         0.987119       -0.120571     -0.000292786     0.000150521
                    -4.72351e-05     0.000143395        0.0656076       -0.092296     -0.000215091     0.000147153        -0.556466        0.813427
                        0.987069       -0.120385     -0.000135142      0.00016443        0.0315125       0.0945732      -0.00014154     -8.6817e-05
                    -0.000167785     0.000131454        -0.556532        0.813479      -6.5371e-05    -4.88991e-05       -0.0622633       0.0969679
281762               -0.00788713       0.0992097      3.10884e-05     -0.00011156         0.987075       -0.120933     -0.000292859     0.000150647
                    -4.71777e-05     0.000143437        0.0655666      -0.0923525     -0.000214996     0.000147268        -0.556063          0.8137
                        0.987026       -0.120748     -0.000135172     0.000164481         0.031546       0.0945575     -0.000141596    -8.68043e-05
