! TOUCHSTONE file generated by CST MICROWAVE STUDIO
! Date and time: Tue Oct 14 07:33:10 2025
! Project name: Teste_Macro_Metasurface_Nanopilar.cst
! Parameters = {H=600; L_x=200; L_y=170; Lambda=1064; Max_L=200; Min_L=70; PathPara=1; Phi=0; Step_L=10; Theta=0; p=520; phaseX=180; phaseY=0}
! Header version: 2018
! Port assignment regex: !\s*Touchstone port\s*([0-9]+)\s*=\s*(CST MWS port|CST DS port)\s*([0-9]+|Zmin|Zmax)\s*\(\"(.*)\"\)(\s*mode\s*([0-9]+))?.*
! Touchstone port assignment:
! Touchstone port 1 = CST MWS port Zmax ("") mode 1
! Touchstone port 2 = CST MWS port Zmax ("") mode 2
! Touchstone port 3 = CST MWS port Zmin ("") mode 1
! Touchstone port 4 = CST MWS port Zmin ("") mode 2
! S-Parameters are not renormalized. Each port impedance will be approximated by the real part at minimum frequency. The values are described via the [Reference] keyword.
! Default impedance is overridden by [Reference]
[Version] 2.0
# GHz S RI R 376.73
[Number of Ports] 4
[Reference]
376.73 376.73 259.814 259.814 
[Number of Frequencies] 51
[Network Data]
281700                 -0.263813       -0.135047     -0.000295303     -0.00029782         0.898035        0.316348     -7.70233e-05    -0.000448657
                      -0.0003509    -0.000272285        -0.262168      -0.0917318      -3.0668e-05     -0.00050496         0.951776       -0.090366
                        0.897787        0.316378      2.97094e-05     -0.00049621          0.28897       0.0589503      0.000275372    -0.000519719
                     -7.9231e-05    -0.000510919         0.951761      -0.0908453       0.00032042     -0.00040994         0.238514       -0.137826
281702                 -0.263861       -0.134976     -0.000297905    -0.000300069         0.898159        0.315986     -7.73832e-05     -0.00044886
                    -0.000351028    -0.000272172        -0.262186      -0.0916543     -3.08274e-05    -0.000504954         0.951738      -0.0907815
                        0.897912        0.316017      2.90153e-05    -0.000499755         0.289009       0.0588033      0.000275574    -0.000520547
                    -7.95269e-05    -0.000511051         0.951718      -0.0912627      0.000320361    -0.000410212         0.238426       -0.137961
281704                 -0.263908       -0.134904      -0.00030029    -0.000301345         0.898284        0.315624     -7.75468e-05    -0.000448958
                    -0.000351159     -0.00027206        -0.262204      -0.0915767     -3.09855e-05    -0.000504948           0.9517      -0.0911971
                        0.898036        0.315655      2.78098e-05    -0.000502791         0.289049       0.0586562      0.000275826    -0.000521245
                    -7.98202e-05    -0.000511183         0.951676      -0.0916797      0.000320302    -0.000410484         0.238338       -0.138097
281706                 -0.263955       -0.134832      -0.00030237    -0.000302004         0.898408        0.315262     -7.76169e-05    -0.000448922
                    -0.000351292    -0.000271949        -0.262222      -0.0914992     -3.11419e-05    -0.000504941         0.951661      -0.0916127
                         0.89816        0.315293      2.62735e-05    -0.000505306         0.289088       0.0585091      0.000276086    -0.000521811
                    -8.01105e-05    -0.000511315         0.951633      -0.0920966      0.000320241    -0.000410755          0.23825       -0.138232
281708                 -0.264002       -0.134761     -0.000304154    -0.000302272         0.898532          0.3149     -7.76605e-05    -0.000448771
                    -0.000351427     -0.00027184         -0.26224      -0.0914216     -3.12958e-05    -0.000504931         0.951623      -0.0920283
                        0.898284        0.314931      2.45503e-05     -0.00050733         0.289128        0.058362      0.000276317    -0.000522258
                    -8.03974e-05    -0.000511446         0.951591      -0.0925132      0.000320179    -0.000411025         0.238163       -0.138367
281710                  -0.26405       -0.134689     -0.000305682    -0.000302291         0.898656        0.314538     -7.77101e-05    -0.000448538
                    -0.000351564    -0.000271732        -0.262257      -0.0913443     -3.14461e-05    -0.000504918         0.951584       -0.092444
                        0.898407        0.314569      2.27463e-05    -0.000508916         0.289167       0.0582148      0.000276496    -0.000522607
                    -8.06802e-05    -0.000511576         0.951548      -0.0929297      0.000320117    -0.000411294         0.238075       -0.138502
281712                 -0.264097       -0.134617     -0.000306997     -0.00030215          0.89878        0.314176     -7.77784e-05    -0.000448248
                    -0.000351704    -0.000271625        -0.262274      -0.0912672      -3.1591e-05    -0.000504899         0.951545      -0.0928598
                        0.898531        0.314207      2.09352e-05    -0.000510124         0.289207       0.0580677      0.000276606    -0.000522886
                    -8.09584e-05    -0.000511704         0.951506      -0.0933459      0.000320053    -0.000411563         0.237986       -0.138637
281714                 -0.264144       -0.134546     -0.000308137    -0.000301904         0.898903        0.313814      -7.7868e-05     -0.00044792
                    -0.000351847    -0.000271521        -0.262291      -0.0911907     -3.17293e-05    -0.000504863         0.951506      -0.0932755
                        0.898654        0.313845       1.9165e-05    -0.000511015         0.289246       0.0579205      0.000276645    -0.000523117
                    -8.12318e-05    -0.000511828         0.951464       -0.093762      0.000319988    -0.000411832         0.237898       -0.138772
281716                 -0.264191       -0.134474     -0.000309133    -0.000301589         0.899027        0.313452     -7.79778e-05    -0.000447566
                    -0.000351992    -0.000271418        -0.262307      -0.0911148     -3.18689e-05    -0.000504789         0.951467      -0.0936913
                        0.898778        0.313483      1.74652e-05    -0.000511642         0.289285       0.0577732      0.000276615    -0.000523321
                       -8.15e-05    -0.000511948         0.951421       -0.094178      0.000319922    -0.000412099          0.23781       -0.138907
281718                 -0.264238       -0.134402     -0.000310012    -0.000301228          0.89915         0.31309     -7.81053e-05    -0.000447195
                     -0.00035214    -0.000271318        -0.262324      -0.0910393     -3.20804e-05     -0.00050465         0.951428      -0.0941072
                        0.898901         0.31312      1.58521e-05    -0.000512053         0.289324        0.057626      0.000276521    -0.000523513
                    -8.17633e-05    -0.000512061         0.951379      -0.0945938      0.000319855    -0.000412366         0.237722       -0.139042
281720                 -0.264285        -0.13433     -0.000310794    -0.000300837         0.899273        0.312727     -7.82477e-05    -0.000446812
                    -0.000352292     -0.00027122        -0.262342       -0.090964     -3.24468e-05    -0.000504622         0.951389       -0.094523
                        0.899024        0.312758      1.43334e-05    -0.000512289         0.289363       0.0574787      0.000276373    -0.000523705
                    -8.20226e-05    -0.000512166         0.951337      -0.0950096      0.000319787    -0.000412632         0.237633       -0.139177
281722                 -0.264332       -0.134258     -0.000311494    -0.000300427         0.899396        0.312365     -7.84026e-05    -0.000446422
                    -0.000352447    -0.000271127        -0.262359      -0.0908888     -3.26891e-05    -0.000504752         0.951349      -0.0949389
                        0.899147        0.312396       1.2911e-05    -0.000512383         0.289402       0.0573314      0.000276178    -0.000523903
                    -8.22796e-05    -0.000512259         0.951295      -0.0954252      0.000319718    -0.000412897         0.237545       -0.139312
281724                 -0.264379       -0.134187     -0.000312126    -0.000300005         0.899519        0.312003     -7.85679e-05    -0.000446026
                    -0.000352606    -0.000271037        -0.262377      -0.0908135     -3.28365e-05    -0.000504827         0.951309      -0.0953548
                        0.899269        0.312034      1.15835e-05    -0.000512363         0.289441       0.0571841      0.000275944    -0.000524111
                    -8.25371e-05     -0.00051234         0.951252      -0.0958407      0.000319648    -0.000413162         0.237456       -0.139447
281726                 -0.264426       -0.134115     -0.000312701    -0.000299577         0.899642         0.31164     -7.87419e-05    -0.000445626
                    -0.000352769    -0.000270954        -0.262396       -0.090738     -3.29768e-05    -0.000504859         0.951269      -0.0957707
                        0.899392        0.311672      1.03472e-05     -0.00051225         0.289479       0.0570368      0.000275678    -0.000524333
                    -8.27989e-05    -0.000512408          0.95121      -0.0962562      0.000319577    -0.000413426         0.237367       -0.139582
281728                 -0.264473       -0.134043     -0.000313225    -0.000299147         0.899764        0.311278      -7.8923e-05    -0.000445223
                    -0.000352936    -0.000270878        -0.262414      -0.0906624      -3.3123e-05    -0.000504873         0.951229      -0.0961867
                        0.899514        0.311309      9.19776e-06    -0.000512065         0.289518       0.0568894      0.000275386    -0.000524569
                    -8.30693e-05    -0.000512462         0.951168      -0.0966716      0.000319505    -0.000413689         0.237278       -0.139717
281730                  -0.26452       -0.133971     -0.000313707     -0.00029872         0.899886        0.310915     -7.91102e-05    -0.000444819
                    -0.000353107    -0.000270811        -0.262433      -0.0905866     -3.32747e-05     -0.00050488         0.951189      -0.0966026
                        0.899637        0.310947      8.13044e-06    -0.000511823         0.289557        0.056742      0.000275072    -0.000524819
                    -8.33528e-05    -0.000512506         0.951125       -0.097087      0.000319431    -0.000413951         0.237189       -0.139852
281732                 -0.264567       -0.133899     -0.000314151    -0.000298297         0.900009        0.310553     -7.93024e-05    -0.000444413
                    -0.000353281    -0.000270759        -0.262451      -0.0905106     -3.34307e-05    -0.000504882         0.951149      -0.0970185
                        0.899759        0.310584      7.14074e-06    -0.000511537         0.289595       0.0565946      0.000274741    -0.000525083
                    -8.36525e-05    -0.000512544         0.951083      -0.0975023      0.000319357    -0.000414213           0.2371       -0.139986
281734                 -0.264614       -0.133827     -0.000314562    -0.000297883         0.900131         0.31019     -7.94991e-05    -0.000444006
                    -0.000353455    -0.000270724         -0.26247      -0.0904345     -3.35896e-05    -0.000504883         0.951108      -0.0974345
                        0.899881        0.310222      6.22476e-06    -0.000511219         0.289634       0.0564472      0.000274395     -0.00052536
                    -8.39697e-05    -0.000512581         0.951041      -0.0979176      0.000319281    -0.000414474         0.237011       -0.140121
281736                 -0.264661       -0.133756     -0.000314942    -0.000297482         0.900253        0.309827     -7.96994e-05    -0.000443598
                    -0.000353623    -0.000270711        -0.262488      -0.0903582     -3.37511e-05    -0.000504883         0.951067      -0.0978504
                        0.900003         0.30986      5.37961e-06    -0.000510879         0.289672       0.0562997      0.000274037    -0.000525649
                    -8.43034e-05    -0.000512622         0.950998      -0.0983329      0.000319205    -0.000414734         0.236922       -0.140255
281738                 -0.264708       -0.133684     -0.000315294    -0.000297097         0.900374        0.309465     -7.99031e-05    -0.000443189
                    -0.000353773    -0.000270725        -0.262506      -0.0902819     -3.39148e-05    -0.000504883         0.951026      -0.0982663
                        0.900124        0.309497      4.60383e-06    -0.000510526          0.28971       0.0561523      0.000273669     -0.00052595
                    -8.46506e-05    -0.000512672         0.950956      -0.0987483      0.000319127    -0.000414993         0.236832        -0.14039
281740                 -0.264754       -0.133612     -0.000315618    -0.000296736         0.900496        0.309102     -8.01098e-05    -0.000442779
                    -0.000353888    -0.000270762        -0.262525      -0.0902055     -3.40806e-05    -0.000504884         0.950985      -0.0986822
                        0.900246        0.309135      3.89807e-06    -0.000510172         0.289749       0.0560048      0.000273294    -0.000526261
                    -8.50077e-05    -0.000512734         0.950913      -0.0991637      0.000319049    -0.000415251         0.236743       -0.140524
281742                 -0.264801        -0.13354     -0.000315914    -0.000296408         0.900618        0.308739     -8.03192e-05    -0.000442369
                    -0.000353951    -0.000270803        -0.262543      -0.0901291      -3.4249e-05    -0.000504886         0.950944      -0.0990981
                        0.900367        0.308772      3.26628e-06    -0.000509829         0.289787       0.0558572       0.00027291    -0.000526581
                    -8.53704e-05    -0.000512808         0.950871      -0.0995791       0.00031897    -0.000415508         0.236653       -0.140659
281744                 -0.264848       -0.133468     -0.000316176    -0.000296127         0.900739        0.308376     -8.05313e-05    -0.000441957
                    -0.000353958    -0.000270816        -0.262561      -0.0900526     -3.44205e-05     -0.00050489         0.950903       -0.099514
                        0.900489         0.30841      2.71802e-06    -0.000509511         0.289825       0.0557097      0.000272521    -0.000526909
                    -8.57352e-05    -0.000512895         0.950829      -0.0999947      0.000318891    -0.000415764         0.236564       -0.140793
281746                 -0.264895       -0.133396     -0.000316396    -0.000295918          0.90086        0.308013     -8.07461e-05    -0.000441544
                    -0.000353932     -0.00027077        -0.262579      -0.0899761     -3.45967e-05    -0.000504899         0.950861      -0.0999298
                         0.90061        0.308047      2.27323e-06    -0.000509241         0.289863       0.0555621      0.000272126    -0.000527245
                    -8.60992e-05    -0.000512993         0.950787        -0.10041      0.000318812    -0.000416019         0.236474       -0.140928
281748                 -0.264941       -0.133324     -0.000316549    -0.000295827         0.900981         0.30765     -8.09639e-05     -0.00044113
                    -0.000353915    -0.000270659        -0.262597      -0.0898995     -3.47804e-05    -0.000504917         0.950819       -0.100346
                        0.900731        0.307685       1.9736e-06    -0.000509056         0.289901       0.0554145      0.000271726    -0.000527588
                    -8.64603e-05    -0.000513101         0.950746       -0.100826      0.000318733    -0.000416272         0.236384       -0.141062
281750                 -0.264989       -0.133252     -0.000316574    -0.000295941         0.901102        0.307287      -8.1185e-05    -0.000440714
                    -0.000353933    -0.000270506        -0.262615       -0.089823     -3.49782e-05    -0.000504953         0.950777       -0.100761
                        0.900851        0.307322       1.9135e-06     -0.00050902         0.289938       0.0552669      0.000271321    -0.000527936
                    -8.68169e-05    -0.000513217         0.950706        -0.10124      0.000318657    -0.000416522         0.236294       -0.141196
281752                 -0.265035        -0.13318     -0.000316271    -0.000296464         0.901223        0.306924     -8.14101e-05    -0.000440295
                    -0.000353992    -0.000270337        -0.262633      -0.0897464     -3.52077e-05    -0.000505043         0.950735       -0.101177
                        0.900972         0.30696       2.3433e-06    -0.000509268         0.289976       0.0551192      0.000270911     -0.00052829
                     -8.7168e-05    -0.000513341         0.950666       -0.101652      0.000318587    -0.000416768         0.236205        -0.14133
281754                 -0.265082       -0.133108     -0.000314765    -0.000297858         0.901343        0.306561     -8.16407e-05    -0.000439873
                    -0.000354086     -0.00027017        -0.262651      -0.0896698     -3.55026e-05    -0.000505414         0.950693       -0.101593
                        0.901091        0.306597      4.14506e-06    -0.000510064         0.290014       0.0549715      0.000270496    -0.000528648
                    -8.75126e-05     -0.00051347         0.950622       -0.102061      0.000318537    -0.000417007         0.236114       -0.141464
281756                 -0.265129       -0.133036     -0.000306666    -0.000298028         0.901464        0.306198     -8.18786e-05    -0.000439446
                    -0.000354202    -0.000270014        -0.262668      -0.0895932     -3.38479e-05      -0.0005051          0.95065       -0.102009
                        0.901211        0.306233      1.23598e-05    -0.000510368         0.290052       0.0548238      0.000270075     -0.00052901
                    -8.78501e-05    -0.000513603         0.950575       -0.102473      0.000318582    -0.000417235         0.236024       -0.141598
281758                 -0.265175       -0.132964     -0.000310332    -0.000283024         0.901584        0.305835     -8.21277e-05    -0.000439012
                    -0.000354333     -0.00026987        -0.262686      -0.0895166     -3.50692e-05    -0.000504579         0.950607       -0.102425
                        0.901331         0.30587      6.53876e-06    -0.000482587         0.290089       0.0546762      0.000269646    -0.000529376
                    -8.81796e-05    -0.000513739         0.950528       -0.102888       0.00031824    -0.000418326         0.235934       -0.141732
281760                 -0.265222       -0.132892     -0.000316674    -0.000285259         0.901704        0.305472     -8.23947e-05    -0.000438569
                    -0.000354472    -0.000269738        -0.262703        -0.08944     -3.54239e-05    -0.000504633         0.950564        -0.10284
                        0.901451        0.305506     -5.54893e-06    -0.000494466         0.290127       0.0545284      0.000269209    -0.000529744
                    -8.85003e-05    -0.000513877         0.950482       -0.103303      0.000318024    -0.000417955         0.235844       -0.141866
281762                 -0.265269        -0.13282     -0.000318063    -0.000286635         0.901824        0.305108      -8.2693e-05    -0.000438114
                    -0.000354616    -0.000269617        -0.262721      -0.0893634     -3.56579e-05     -0.00050466          0.95052       -0.103256
                        0.901571        0.305143     -5.79113e-06     -0.00049796         0.290164       0.0543807      0.000268758    -0.000530115
