! TOUCHSTONE file generated by CST MICROWAVE STUDIO
! Date and time: Tue Oct 14 07:27:13 2025
! Project name: Teste_Macro_Metasurface_Nanopilar.cst
! Parameters = {H=600; L_x=105; L_y=180; Lambda=1064; Max_L=200; Min_L=70; PathPara=1; Phi=0; Step_L=10; Theta=0; p=520; phaseX=180; phaseY=0}
! Header version: 2018
! Port assignment regex: !\s*Touchstone port\s*([0-9]+)\s*=\s*(CST MWS port|CST DS port)\s*([0-9]+|Zmin|Zmax)\s*\(\"(.*)\"\)(\s*mode\s*([0-9]+))?.*
! Touchstone port assignment:
! Touchstone port 1 = CST MWS port Zmax ("") mode 1
! Touchstone port 2 = CST MWS port Zmax ("") mode 2
! Touchstone port 3 = CST MWS port Zmin ("") mode 1
! Touchstone port 4 = CST MWS port Zmin ("") mode 2
! S-Parameters are not renormalized. Each port impedance will be approximated by the real part at minimum frequency. The values are described via the [Reference] keyword.
! Default impedance is overridden by [Reference]
[Version] 2.0
# GHz S RI R 376.73
[Number of Ports] 4
[Reference]
376.73 376.73 259.814 259.814 
[Number of Frequencies] 51
[Network Data]
281700                 -0.878518         0.20497      0.000272122     0.000113928        -0.176722        0.317146      6.50605e-05      0.00015746
                     0.000197386      0.00028677        -0.168025      0.00596714      -0.00034582     0.000654129        -0.974465      -0.0821558
                       -0.177334        0.317485      0.000182591     0.000622529        -0.124433          -0.881     -0.000298203    -0.000157985
                     8.42769e-05     0.000251226        -0.973504      -0.0814519     -0.000640972    -7.62728e-05          0.16259       0.0350164
281702                 -0.878089        0.205697      0.000272438     0.000113174        -0.176742        0.317876      6.50748e-05     0.000157769
                     0.000197705     0.000286491        -0.168005      0.00602485     -0.000345244     0.000654787        -0.974511      -0.0816489
                       -0.177353        0.318217       0.00018396     0.000622347        -0.125559       -0.880587     -0.000298442    -0.000157978
                     8.46575e-05     0.000251271        -0.973549      -0.0809458     -0.000640735    -7.58553e-05         0.162596       0.0349005
281704                 -0.877659        0.206423      0.000272753      0.00011242        -0.176761        0.318607      6.50925e-05     0.000158077
                     0.000198023     0.000286212        -0.167985      0.00608255     -0.000344663     0.000655442        -0.974557       -0.081142
                        -0.17737        0.318949      0.000185328     0.000622163        -0.126684       -0.880172     -0.000298677    -0.000157967
                     8.50379e-05     0.000251316        -0.973594      -0.0804396     -0.000640498    -7.54374e-05         0.162603       0.0347847
281706                 -0.877229        0.207148      0.000273066     0.000111666        -0.176778        0.319337      6.51137e-05     0.000158383
                      0.00019834     0.000285933        -0.167965      0.00614022     -0.000344078     0.000656094        -0.974602      -0.0806351
                       -0.177386        0.319681      0.000186695     0.000621977        -0.127807       -0.879755     -0.000298909    -0.000157952
                     8.54182e-05     0.000251361        -0.973639      -0.0799334     -0.000640261     -7.5019e-05         0.162609       0.0346688
281708                 -0.876797        0.207872      0.000273378     0.000110913        -0.176793        0.320068      6.51384e-05     0.000158689
                     0.000198657     0.000285653        -0.167945      0.00619788     -0.000343489     0.000656744        -0.974647      -0.0801282
                       -0.177401        0.320413       0.00018806     0.000621789         -0.12893       -0.879337     -0.000299138    -0.000157934
                     8.57985e-05     0.000251405        -0.973684      -0.0794272     -0.000640026    -7.46003e-05         0.162616        0.034553
281710                 -0.876365        0.208595      0.000273688     0.000110161        -0.176807        0.320798      6.51666e-05     0.000158994
                     0.000198974     0.000285373        -0.167925      0.00625552     -0.000342897     0.000657391        -0.974692      -0.0796213
                       -0.177413        0.321145      0.000189423     0.000621598        -0.130051       -0.878916     -0.000299364    -0.000157911
                     8.61786e-05      0.00025145        -0.973728       -0.078921     -0.000639791     -7.4181e-05         0.162622       0.0344371
281712                 -0.875932        0.209317      0.000273997     0.000109409        -0.176819        0.321528      6.51983e-05     0.000159298
                     0.000199289     0.000285092        -0.167905      0.00631314       -0.0003423     0.000658036        -0.974736      -0.0791143
                       -0.177425        0.321877      0.000190785     0.000621406        -0.131171       -0.878495     -0.000299587    -0.000157885
                     8.65587e-05     0.000251494        -0.973773      -0.0784148     -0.000639556    -7.37614e-05         0.162628       0.0343213
281714                 -0.875498        0.210039      0.000274304     0.000108657         -0.17683        0.322259      6.52336e-05     0.000159601
                     0.000199605     0.000284812        -0.167885      0.00637074     -0.000341699     0.000658678         -0.97478      -0.0786073
                       -0.177434        0.322608      0.000192145     0.000621212         -0.13229       -0.878071     -0.000299806    -0.000157856
                     8.69386e-05     0.000251539        -0.973816      -0.0779085     -0.000639322    -7.33414e-05         0.162634       0.0342054
281716                 -0.875063        0.210759      0.000274609     0.000107906        -0.176839        0.322989      6.52724e-05     0.000159902
                      0.00019992      0.00028453        -0.167865      0.00642832     -0.000341094     0.000659318        -0.974824      -0.0781003
                       -0.177442         0.32334      0.000193504     0.000621016        -0.133408       -0.877646     -0.000300022    -0.000157822
                     8.73184e-05     0.000251583         -0.97386      -0.0774023     -0.000639089    -7.29209e-05          0.16264       0.0340896
281718                 -0.874627        0.211478      0.000274913     0.000107155        -0.176847        0.323719      6.53147e-05     0.000160203
                     0.000200234     0.000284249        -0.167845      0.00648589     -0.000340485     0.000659956        -0.974868      -0.0775933
                       -0.177449        0.324072      0.000194861     0.000620818        -0.134524       -0.877219     -0.000300235    -0.000157785
                     8.76981e-05     0.000251628        -0.973903       -0.076896     -0.000638856    -7.25001e-05         0.162646       0.0339738
281720                 -0.874191        0.212196      0.000275216     0.000106404        -0.176853         0.32445      6.53606e-05     0.000160503
                     0.000200548     0.000283967        -0.167825      0.00654343     -0.000339872     0.000660591        -0.974911      -0.0770862
                       -0.177454        0.324804      0.000196216     0.000620617        -0.135639        -0.87679     -0.000300444    -0.000157744
                     8.80777e-05     0.000251672        -0.973946      -0.0763896     -0.000638625    -7.20788e-05         0.162652       0.0338579
281722                 -0.873754        0.212914      0.000275517     0.000105655        -0.176857         0.32518      6.54101e-05     0.000160801
                     0.000200862     0.000283685        -0.167805      0.00660095     -0.000339255     0.000661224        -0.974954      -0.0765791
                       -0.177458        0.325535       0.00019757     0.000620415        -0.136753        -0.87636      -0.00030065    -0.000157699
                     8.84571e-05     0.000251716        -0.973989      -0.0758833     -0.000638393    -7.16571e-05         0.162658       0.0337421
281724                 -0.873315         0.21363      0.000275816     0.000104905         -0.17686         0.32591      6.54631e-05     0.000161099
                     0.000201175     0.000283403        -0.167785      0.00665846     -0.000338634     0.000661855        -0.974997       -0.076072
                        -0.17746        0.326267      0.000198922     0.000620211        -0.137866       -0.875928     -0.000300853     -0.00015765
                     8.88365e-05      0.00025176        -0.974032      -0.0753769     -0.000638163     -7.1235e-05         0.162663       0.0336263
281726                 -0.872877        0.214345      0.000276114     0.000104157        -0.176862         0.32664      6.55197e-05     0.000161396
                     0.000201487      0.00028312        -0.167765      0.00671594     -0.000338008     0.000662483         -0.97504      -0.0755649
                        -0.17746        0.326999      0.000200273     0.000620005        -0.138978       -0.875494     -0.000301053    -0.000157598
                     8.92156e-05     0.000251804        -0.974074      -0.0748706     -0.000637933    -7.08126e-05         0.162669       0.0335104
281728                 -0.872437         0.21506       0.00027641     0.000103409        -0.176862         0.32737      6.55799e-05     0.000161692
                     0.000201799     0.000282837        -0.167744      0.00677341     -0.000337379     0.000663109        -0.975082      -0.0750578
                       -0.177459         0.32773      0.000201622     0.000619798        -0.140088       -0.875059     -0.000301249    -0.000157541
                     8.95947e-05     0.000251848        -0.974116      -0.0743641     -0.000637704    -7.03897e-05         0.162674       0.0333946
281730                 -0.871996        0.215773      0.000276705     0.000102661         -0.17686          0.3281      6.56437e-05     0.000161986
                     0.000202111     0.000282553        -0.167724      0.00683086     -0.000336746     0.000663732        -0.975124      -0.0745506
                       -0.177456        0.328461       0.00020297     0.000619588        -0.141197       -0.874622     -0.000301442    -0.000157481
                     8.99736e-05     0.000251891        -0.974158      -0.0738577     -0.000637475    -6.99665e-05          0.16268       0.0332788
281732                 -0.871555        0.216485      0.000276999     0.000101914        -0.176857         0.32883      6.57111e-05      0.00016228
                     0.000202422     0.000282269        -0.167704      0.00688829     -0.000336109     0.000664353        -0.975166      -0.0740434
                       -0.177452        0.329193      0.000204316     0.000619376        -0.142305       -0.874183     -0.000301631    -0.000157417
                     9.03523e-05     0.000251935        -0.974199      -0.0733513     -0.000637248    -6.95429e-05         0.162685        0.033163
281734                 -0.871113        0.217197      0.000277291     0.000101168        -0.176852         0.32956       6.5782e-05     0.000162573
                     0.000202732     0.000281985        -0.167684       0.0069457     -0.000335467     0.000664972        -0.975208      -0.0735362
                       -0.177446        0.329924       0.00020566     0.000619163        -0.143412       -0.873743     -0.000301817    -0.000157349
                      9.0731e-05     0.000251978         -0.97424      -0.0728448     -0.000637021    -6.91189e-05          0.16269       0.0330472
281736                  -0.87067        0.217907      0.000277581     0.000100422        -0.176846        0.330289      6.58566e-05     0.000162865
                     0.000203042     0.000281701        -0.167663      0.00700309     -0.000334822     0.000665589        -0.975249       -0.073029
                       -0.177439        0.330655      0.000207002     0.000618948        -0.144517       -0.873301        -0.000302    -0.000157277
                     9.11094e-05     0.000252021        -0.974281      -0.0723383     -0.000636795    -6.86945e-05         0.162695       0.0329314
281738                 -0.870226        0.218616       0.00027787     9.96768e-05        -0.176838        0.331019      6.59348e-05     0.000163155
                     0.000203351     0.000281416        -0.167643      0.00706046     -0.000334173     0.000666203         -0.97529      -0.0725217
                        -0.17743        0.331386      0.000208343     0.000618731        -0.145622       -0.872857      -0.00030218    -0.000157201
                     9.14877e-05     0.000252065        -0.974322      -0.0718318     -0.000636569    -6.82697e-05           0.1627       0.0328156
281740                 -0.869781        0.219325      0.000278158     9.89324e-05        -0.176829        0.331749      6.60166e-05     0.000163445
                      0.00020366     0.000281131        -0.167623      0.00711781     -0.000333519     0.000666815        -0.975331      -0.0720145
                        -0.17742        0.332117      0.000209682     0.000618512        -0.146725       -0.872412     -0.000302356    -0.000157122
                     9.18659e-05     0.000252107        -0.974363      -0.0713253     -0.000636344    -6.78446e-05         0.162705       0.0326998
281742                 -0.869336        0.220032      0.000278444     9.81886e-05        -0.176818        0.332478       6.6102e-05     0.000163734
                     0.000203968     0.000280845        -0.167602      0.00717514     -0.000332862     0.000667424        -0.975371      -0.0715072
                       -0.177408        0.332848       0.00021102     0.000618291        -0.147826       -0.871965     -0.000302528    -0.000157038
                     9.22439e-05      0.00025215        -0.974403      -0.0708188      -0.00063612    -6.74191e-05          0.16271        0.032584
281744                  -0.86889        0.220739      0.000278728     9.74456e-05        -0.176805        0.333208       6.6191e-05     0.000164022
                     0.000204276     0.000280559        -0.167582      0.00723246     -0.000332202     0.000668031        -0.975411      -0.0709999
                       -0.177395        0.333579      0.000212356     0.000618068        -0.148927       -0.871516     -0.000302698    -0.000156951
                     9.26217e-05     0.000252193        -0.974443      -0.0703122     -0.000635896    -6.69931e-05         0.162715       0.0324682
281746                 -0.868443        0.221444      0.000279012     9.67033e-05        -0.176791        0.333937      6.62836e-05     0.000164308
                     0.000204583     0.000280273        -0.167561      0.00728975     -0.000331537     0.000668636        -0.975451      -0.0704926
                        -0.17738         0.33431       0.00021369     0.000617844        -0.150026       -0.871066     -0.000302864     -0.00015686
                     9.29993e-05     0.000252235        -0.974482      -0.0698056     -0.000635673    -6.65668e-05          0.16272       0.0323524
281748                 -0.867995        0.222149      0.000279294     9.59617e-05        -0.176776        0.334666      6.63797e-05     0.000164594
                      0.00020489     0.000279987        -0.167541      0.00734702     -0.000330869     0.000669238        -0.975491      -0.0699852
                       -0.177363        0.335041      0.000215022     0.000617618        -0.151124       -0.870614     -0.000303026    -0.000156764
                     9.33768e-05     0.000252278        -0.974522       -0.069299     -0.000635451    -6.61399e-05         0.162724       0.0322366
281750                 -0.867546        0.222852      0.000279574     9.52208e-05        -0.176759        0.335395      6.64794e-05     0.000164879
                     0.000205196       0.0002797        -0.167521      0.00740428     -0.000330197     0.000669837         -0.97553      -0.0694779
                       -0.177345        0.335771      0.000216353      0.00061739        -0.152221        -0.87016     -0.000303185    -0.000156666
                     9.37541e-05      0.00025232        -0.974561      -0.0687924     -0.000635228    -6.57125e-05         0.162729       0.0321208
281752                 -0.867097        0.223554      0.000279853     9.44808e-05         -0.17674        0.336124      6.65825e-05     0.000165163
                     0.000205502     0.000279413          -0.1675      0.00746152     -0.000329523     0.000670434         -0.97557      -0.0689705
                       -0.177326        0.336502      0.000217682      0.00061716        -0.153316       -0.869705     -0.000303341    -0.000156563
                     9.41312e-05     0.000252362          -0.9746      -0.0682858     -0.000635005    -6.52842e-05         0.162733       0.0320051
281754                 -0.866647        0.224256       0.00028013     9.37416e-05         -0.17672        0.336853       6.6689e-05     0.000165446
                     0.000205807     0.000279125         -0.16748      0.00751873     -0.000328846     0.000671026        -0.975609      -0.0684631
                       -0.177305        0.337232      0.000219009     0.000616929        -0.154411       -0.869248     -0.000303493    -0.000156457
                     9.45081e-05     0.000252404        -0.974638      -0.0677792     -0.000634782    -6.48544e-05         0.162738       0.0318893
281756                 -0.866196        0.224956      0.000280407     9.30031e-05        -0.176699        0.337582      6.67987e-05     0.000165728
                     0.000206111     0.000278837        -0.167459      0.00757593     -0.000328169     0.000671612        -0.975647      -0.0679556
                       -0.177282        0.337962      0.000220334     0.000616696        -0.155504        -0.86879     -0.000303643    -0.000156348
                     9.48849e-05     0.000252445        -0.974676      -0.0672725     -0.000634555    -6.44206e-05         0.162742       0.0317735
281758                 -0.865744        0.225656      0.000280681     9.22656e-05        -0.176676        0.338311      6.69113e-05     0.000166009
                     0.000206415     0.000278549        -0.167438      0.00763311     -0.000327497     0.000672189        -0.975686      -0.0674482
                       -0.177258        0.338692      0.000221658     0.000616462        -0.156595        -0.86833     -0.000303788    -0.000156236
                     9.52614e-05     0.000252487        -0.974714      -0.0667658     -0.000634321    -6.39711e-05         0.162746       0.0316578
281760                 -0.865291        0.226354      0.000280955      9.1529e-05        -0.176649        0.339041      6.70262e-05     0.000166289
                     0.000206718      0.00027826        -0.167418      0.00769026     -0.000326856     0.000672734        -0.975724      -0.0669407
                       -0.177233        0.339422       0.00022298     0.000616225        -0.157686       -0.867868     -0.000303931    -0.000156122
                     9.56377e-05     0.000252529        -0.974752      -0.0662591     -0.000634137    -6.34594e-05          0.16275        0.031542
281762                 -0.864838        0.227052      0.000281227     9.07934e-05        -0.176624        0.339769      6.71424e-05     0.000166571
                     0.000207021     0.000277971        -0.167397       0.0077474     -0.000327507     0.000673155        -0.975762      -0.0664333
                       -0.177206        0.340152      0.000224299     0.000615987        -0.158775       -0.867405      -0.00030407    -0.000156009
