! TOUCHSTONE file generated by CST MICROWAVE STUDIO
! Date and time: Tue Oct 14 07:31:38 2025
! Project name: Teste_Macro_Metasurface_Nanopilar.cst
! Parameters = {H=600; L_x=175; L_y=185; Lambda=1064; Max_L=200; Min_L=70; PathPara=1; Phi=0; Step_L=10; Theta=0; p=520; phaseX=180; phaseY=0}
! Header version: 2018
! Port assignment regex: !\s*Touchstone port\s*([0-9]+)\s*=\s*(CST MWS port|CST DS port)\s*([0-9]+|Zmin|Zmax)\s*\(\"(.*)\"\)(\s*mode\s*([0-9]+))?.*
! Touchstone port assignment:
! Touchstone port 1 = CST MWS port Zmax ("") mode 1
! Touchstone port 2 = CST MWS port Zmax ("") mode 2
! Touchstone port 3 = CST MWS port Zmin ("") mode 1
! Touchstone port 4 = CST MWS port Zmin ("") mode 2
! S-Parameters are not renormalized. Each port impedance will be approximated by the real part at minimum frequency. The values are described via the [Reference] keyword.
! Default impedance is overridden by [Reference]
[Version] 2.0
# GHz S RI R 376.73
[Number of Ports] 4
[Reference]
376.73 376.73 259.814 259.814 
[Number of Frequencies] 51
[Network Data]
281700                 -0.196817      -0.0722668     -8.47382e-06    -0.000770522         0.964358        0.130995     -0.000258197     5.84229e-05
                     0.000380453       -0.001078        -0.134245       -0.774054      -0.00108691    -0.000121934         0.251221        0.316326
                        0.964044        0.131063     -0.000702684    -0.000256845         0.207122      -0.0154435      0.000103548     0.000228759
                    -0.000588913    -0.000403737         0.251059        0.316548      0.000250906     0.000535406         0.382333        0.692324
281702                 -0.196819      -0.0722082     -1.08513e-05    -0.000768456         0.964422        0.130574     -0.000238967     7.28872e-05
                     0.000371016     -0.00107411        -0.136529        -0.77306       -0.0010849    -0.000112509         0.252607        0.318006
                        0.964102         0.13064     -0.000700011    -0.000253723         0.207096      -0.0155659       0.00010462     0.000224296
                    -0.000579195    -0.000390315         0.252451        0.318218      0.000251735     0.000530389          0.38415        0.690607
281704                 -0.196822      -0.0721496      -1.3184e-05     -0.00076637         0.964485        0.130154     -0.000176639     0.000128662
                     0.000361766     -0.00107013        -0.138799       -0.772057      -0.00108226    -0.000103692         0.254001        0.319671
                        0.964161        0.130218     -0.000697353    -0.000250669         0.207069      -0.0156882      0.000105745     0.000219925
                    -0.000570331    -0.000377054         0.253849        0.319873      0.000252423     0.000524956         0.385952        0.688887
281706                 -0.196825      -0.0720911     -1.54708e-05    -0.000764265         0.964548        0.129734      -0.00082018    -0.000320262
                     0.000352702     -0.00106607        -0.141057       -0.771045      -0.00107892    -9.55027e-05         0.255401        0.321321
                         0.96422        0.129797     -0.000694712    -0.000247685         0.207043      -0.0158106      0.000106916     0.000215645
                     -0.00056256    -0.000363903         0.255253        0.321514      0.000252975     0.000519076         0.387739        0.687163
281708                 -0.196828      -0.0720327     -1.77106e-05    -0.000762139         0.964611        0.129313     -0.000365197    -4.17644e-05
                     0.000343828     -0.00106193        -0.143301       -0.770024      -0.00107482    -8.79673e-05         0.256809        0.322955
                        0.964279        0.129376     -0.000692087     -0.00024477         0.207017      -0.0159328      0.000108128     0.000211454
                    -0.000556247    -0.000350909         0.256665         0.32314      0.000253392      0.00051271         0.389512        0.685436
281710                 -0.196831      -0.0719745     -1.99022e-05    -0.000759993         0.964672        0.128892     -0.000327106    -1.38275e-05
                     0.000335145     -0.00105773        -0.145532       -0.768994      -0.00106985    -8.11206e-05         0.258222        0.324574
                        0.964338        0.128956     -0.000689479    -0.000241927          0.20699      -0.0160551      0.000109376     0.000207353
                    -0.000551906    -0.000338349         0.258083        0.324751      0.000253675     0.000505803         0.391269        0.683706
281712                 -0.196833      -0.0719163     -2.20441e-05    -0.000757827         0.964733        0.128471     -0.000312087    -4.03154e-06
                     0.000326655     -0.00105345        -0.147749       -0.767955      -0.00106388    -7.50167e-05         0.259642        0.326178
                        0.964396        0.128536     -0.000686888    -0.000239155         0.206963      -0.0161773      0.000110653      0.00020334
                    -0.000550107    -0.000326976         0.259507        0.326348      0.000253823     0.000498279         0.393011        0.681973
281714                 -0.196836      -0.0718583      -2.4135e-05     -0.00075564         0.964793         0.12805      -0.00030352     5.48094e-07
                     0.000318363     -0.00104911        -0.149954       -0.766908      -0.00105669    -6.97476e-05         0.261068        0.327767
                        0.964454        0.128117     -0.000684314    -0.000236458         0.206936      -0.0162995      0.000111953     0.000199414
                    -0.000551039    -0.000318311         0.260937         0.32793      0.000253825     0.000490027         0.394739        0.680237
281716                 -0.196839      -0.0718004     -2.61732e-05    -0.000753433         0.964852        0.127628      -0.00029764     2.93992e-06
                     0.000310273      -0.0010447        -0.152145       -0.765852      -0.00104795    -6.54825e-05           0.2625         0.32934
                        0.964511        0.127698     -0.000681758    -0.000233836         0.206909      -0.0164216       0.00011327     0.000195575
                     -0.00055352    -0.000314429         0.262374        0.329498      0.000253658     0.000480873         0.396452        0.678498
281718                 -0.196842      -0.0717426     -2.81569e-05    -0.000751205          0.96491        0.127206     -0.000293125      4.2249e-06
                     0.000302392     -0.00104024        -0.154323       -0.764789      -0.00103712    -6.25578e-05         0.263938        0.330898
                        0.964567        0.127279     -0.000679217    -0.000231292         0.206882      -0.0165437      0.000114598     0.000191821
                    -0.000554298    -0.000316284         0.263816        0.331051      0.000253262     0.000470535         0.398149        0.676757
281720                 -0.196844      -0.0716849     -3.00842e-05    -0.000748957         0.964966        0.126783      -0.00028939     4.88439e-06
                     0.000294729     -0.00103571        -0.156487       -0.763718      -0.00102328    -6.17082e-05         0.265381        0.332442
                        0.964623        0.126859     -0.000676693    -0.000228827         0.206855      -0.0166657      0.000115928     0.000188149
                    -0.000549913    -0.000321611         0.265263         0.33259      0.000252493     0.000458517         0.399833        0.675014
281722                 -0.196847      -0.0716273      -3.1953e-05    -0.000746686         0.965019        0.126359     -0.000286136     5.16469e-06
                     0.000287296     -0.00103111        -0.158638       -0.762639      -0.00100472    -6.47557e-05          0.26683         0.33397
                        0.964679         0.12644     -0.000674185    -0.000226446         0.206828      -0.0167877      0.000117254     0.000184558
                    -0.000540014     -0.00032625         0.266716        0.334114       0.00025098     0.000443868         0.401501        0.673268
281724                 -0.196849      -0.0715697     -3.37609e-05    -0.000744394         0.965068        0.125935     -0.000283196     5.20443e-06
                     0.000280109     -0.00102645        -0.160776       -0.761552     -0.000978258    -7.70961e-05         0.268284        0.335483
                        0.964735         0.12602     -0.000671691     -0.00022415           0.2068      -0.0169094      0.000118569     0.000181043
                    -0.000527073    -0.000327747         0.268174        0.335624        0.0002476     0.000424557         0.403155         0.67152
281726                 -0.196851      -0.0715122     -3.55054e-05     -0.00074208         0.965108         0.12551      -0.00028047     5.08723e-06
                     0.000273191     -0.00102171        -0.162901       -0.760458      -0.00094131    -0.000118805         0.269743        0.336982
                         0.96479          0.1256      -0.00066921    -0.000221944         0.206773      -0.0170308      0.000119867     0.000177601
                    -0.000513583      -0.0003261         0.269637         0.33712      0.000238043     0.000395661         0.404794        0.669771
281728                 -0.196853      -0.0714547     -3.71837e-05    -0.000739742         0.965131        0.125087     -0.000277892     4.86615e-06
                     0.000266573     -0.00101687        -0.165012       -0.759357     -0.000957934    -0.000253192         0.271207        0.338466
                        0.964845         0.12518     -0.000666741    -0.000219832         0.206745      -0.0171513      0.000121139     0.000174226
                    -0.000500827    -0.000322295         0.271104        0.338601       0.00019793     0.000346776         0.406418        0.668019
281730                 -0.196855      -0.0713972     -3.87925e-05    -0.000737382         0.965106        0.124688     -0.000275419     4.57621e-06
                       0.0002603     -0.00101191         -0.16711       -0.758249      -0.00116996    -0.000218007         0.272676        0.339935
                          0.9649         0.12476     -0.000664279    -0.000217819         0.206721      -0.0172711      0.000122383     0.000170912
                    -0.000489186    -0.000317266         0.272577        0.340068      3.29437e-05     0.000402491         0.408028        0.666265
281732                 -0.196857      -0.0713396     -4.03283e-05    -0.000734997         0.965069        0.124517     -0.000273021     4.24119e-06
                     0.000254434     -0.00100676        -0.169194       -0.757134      -0.00115464    -9.05933e-05         0.274149         0.34139
                        0.964955         0.12434     -0.000661822    -0.000215909         0.206696      -0.0173974      0.000123591     0.000167653
                    -0.000478634    -0.000311642         0.274054         0.34152      0.000158125     0.000535612         0.409624         0.66451
281734                 -0.196859      -0.0712821     -4.17871e-05    -0.000732587         0.965488        0.124132     -0.000270678     3.87757e-06
                     0.000249066     -0.00100133        -0.171266       -0.756013      -0.00111299    -5.17091e-05         0.275627         0.34283
                         0.96501         0.12392     -0.000659366    -0.000214108         0.206667      -0.0175216      0.000124762      0.00016444
                    -0.000469023    -0.000305792         0.275535        0.342959      0.000215055     0.000498565         0.411205        0.662753
281736                 -0.196861      -0.0712245     -4.31646e-05    -0.000730152         0.965574        0.123569     -0.000268374     3.49693e-06
                     0.000244318    -0.000995424        -0.173324       -0.754885      -0.00108354    -3.68474e-05          0.27711        0.344256
                        0.965065        0.123499     -0.000656903    -0.000212423         0.206637      -0.0176438      0.000125893     0.000161267
                    -0.000460192    -0.000299922          0.27702        0.344383      0.000230874     0.000470703         0.412771        0.660995
281738                 -0.196863      -0.0711669     -4.44557e-05     -0.00072769         0.965616        0.123096     -0.000266098     3.10747e-06
                     0.000240337    -0.000988646        -0.175368       -0.753751      -0.00106135    -2.93048e-05         0.278596        0.345668
                        0.965119        0.123078     -0.000654428     -0.00021086         0.206609      -0.0177657      0.000126984     0.000158127
                    -0.000452005    -0.000294143          0.27851        0.345794      0.000237119     0.000450459         0.414324        0.659235
281740                 -0.196865      -0.0711092     -4.56549e-05      -0.0007252         0.965661        0.122652     -0.000263843     2.71498e-06
                     0.000237177    -0.000980169          -0.1774        -0.75261      -0.00104304    -2.46251e-05         0.280086        0.347066
                        0.965174        0.122658     -0.000651931    -0.000209425          0.20658      -0.0178876      0.000128035     0.000155013
                     -0.00044435    -0.000288511         0.280003         0.34719      0.000240158     0.000434009         0.415862        0.657474
281742                 -0.196867      -0.0710515     -4.67556e-05    -0.000722682          0.96571        0.122218       -0.0002616     2.32353e-06
                     0.000234192    -0.000968293        -0.179418       -0.751464      -0.00102691    -2.12844e-05          0.28158         0.34845
                        0.965228        0.122237       -0.0006494    -0.000208125         0.206552      -0.0180094      0.000129048     0.000151919
                    -0.000437143    -0.000283053         0.281499        0.348572      0.000241839     0.000419586         0.417385        0.655713
281744                 -0.196869      -0.0709938     -4.77507e-05    -0.000720132         0.965761        0.121788     -0.000259367     1.93589e-06
                     0.000227688    -0.000950787        -0.181423       -0.750312      -0.00101203    -1.86485e-05         0.283078        0.349821
                        0.965283        0.121816     -0.000646822    -0.000206965         0.206523      -0.0181312      0.000130025      0.00014884
                    -0.000430318     -0.00027778            0.283         0.34994      0.000242861     0.000406333         0.418895         0.65395
281746                 -0.196871       -0.070936     -4.86317e-05    -0.000717551         0.965814        0.121362      -0.00025714     1.55391e-06
                      0.00020888    -0.000932234        -0.183415       -0.749155     -0.000997921    -1.64099e-05         0.284578        0.351177
                        0.965337        0.121395     -0.000644179     -0.00020595         0.206495      -0.0182531      0.000130969     0.000145772
                    -0.000423824    -0.000272692         0.284503        0.351295      0.000243537     0.000393805          0.42039        0.652186
281748                 -0.196873      -0.0708782     -4.93891e-05    -0.000714937         0.965867        0.120936     -0.000254915      1.1787e-06
                     0.000182776    -0.000929143        -0.185393       -0.747991     -0.000984287    -1.44007e-05         0.286081         0.35252
                        0.965392        0.120975     -0.000641454    -0.000205081         0.206466      -0.0183748      0.000131884     0.000142714
                    -0.000417622    -0.000267787          0.28601        0.352635      0.000244025     0.000381751         0.421872        0.650422
281750                 -0.196875      -0.0708203     -5.00116e-05    -0.000712288         0.965921        0.120511     -0.000252692     8.10854e-07
                      0.00016768    -0.000936271        -0.187359       -0.746823     -0.000970956    -1.25196e-05         0.287587         0.35385
                        0.965446        0.120554     -0.000638624    -0.000204355         0.206437      -0.0184966      0.000132771     0.000139662
                    -0.000411678    -0.000263059         0.287519        0.353962      0.000244414     0.000370023         0.423339        0.648657
281752                 -0.196876      -0.0707624     -5.04863e-05    -0.000709601         0.965975        0.120087     -0.000250469     4.50551e-07
                     0.000161164      -0.0009409        -0.189311        -0.74565     -0.000957825    -1.07008e-05         0.289095        0.355166
                          0.9655        0.120133     -0.000635667    -0.000203766         0.206409      -0.0186184      0.000133634     0.000136617
                     -0.00040597    -0.000258501         0.289032        0.355275      0.000244758     0.000358536         0.424793        0.646891
281754                 -0.196878      -0.0707045     -5.07977e-05    -0.000706875         0.966029        0.119664     -0.000248246     9.76609e-08
                     0.000157255    -0.000941803        -0.191251       -0.744471     -0.000944832    -8.89941e-06         0.290606        0.356468
                        0.965554        0.119712      -0.00063256    -0.000203298          0.20638      -0.0187401      0.000134476     0.000133578
                    -0.000400475    -0.000254105         0.290547        0.356574      0.000245089     0.000347234         0.426233        0.645125
281756                  -0.19688      -0.0706465     -5.09277e-05    -0.000704109         0.966084         0.11924     -0.000246021    -2.48173e-07
                     0.000153864    -0.000940399        -0.193177       -0.743288     -0.000931944    -7.08356e-06         0.292118        0.357756
                        0.965608         0.11929     -0.000629285    -0.000202927         0.206351      -0.0188618      0.000135299     0.000130545
                    -0.000395178    -0.000249863         0.292064        0.357859      0.000245429     0.000336088         0.427658        0.643358
281758                 -0.196882      -0.0705885     -5.08543e-05    -0.000701299         0.966138        0.118817     -0.000243795    -5.87476e-07
                     0.000150516     -0.00093767         -0.19509         -0.7421     -0.000919143    -5.23065e-06         0.293633         0.35903
                        0.965661        0.118869     -0.000625836    -0.000202619         0.206322      -0.0189835      0.000136103     0.000127519
                    -0.000390065     -0.00024577         0.293584        0.359131      0.000245789     0.000325079          0.42907        0.641592
281760                 -0.196884      -0.0705305     -5.05508e-05    -0.000698444         0.966192        0.118394     -0.000241567    -9.20894e-07
                     0.000147195    -0.000934121        -0.196991       -0.740908     -0.000906423    -3.32473e-06         0.295149         0.36029
                        0.965715        0.118448     -0.000622223    -0.000202329         0.206293      -0.0191052       0.00013689     0.000124501
                    -0.000385125    -0.000241819         0.295105         0.36039       0.00024618     0.000314198         0.430469        0.639825
281762                 -0.196886      -0.0704724     -4.99843e-05    -0.000695542         0.966246        0.117971     -0.000239339    -1.24915e-06
                     0.000144022    -0.000929955        -0.198879       -0.739711     -0.000893788    -1.35492e-06         0.296667        0.361537
                        0.965768        0.118027     -0.000618488    -0.000202007         0.206263      -0.0192269      0.000137662     0.000121492
