! TOUCHSTONE file generated by CST MICROWAVE STUDIO
! Date and time: Tue Oct 14 07:31:32 2025
! Project name: Teste_Macro_Metasurface_Nanopilar.cst
! Parameters = {H=600; L_x=175; L_y=140; Lambda=1064; Max_L=200; Min_L=70; PathPara=1; Phi=0; Step_L=10; Theta=0; p=520; phaseX=180; phaseY=0}
! Header version: 2018
! Port assignment regex: !\s*Touchstone port\s*([0-9]+)\s*=\s*(CST MWS port|CST DS port)\s*([0-9]+|Zmin|Zmax)\s*\(\"(.*)\"\)(\s*mode\s*([0-9]+))?.*
! Touchstone port assignment:
! Touchstone port 1 = CST MWS port Zmax ("") mode 1
! Touchstone port 2 = CST MWS port Zmax ("") mode 2
! Touchstone port 3 = CST MWS port Zmin ("") mode 1
! Touchstone port 4 = CST MWS port Zmin ("") mode 2
! S-Parameters are not renormalized. Each port impedance will be approximated by the real part at minimum frequency. The values are described via the [Reference] keyword.
! Default impedance is overridden by [Reference]
[Version] 2.0
# GHz S RI R 376.73
[Number of Ports] 4
[Reference]
376.73 376.73 259.814 259.814 
[Number of Frequencies] 51
[Network Data]
281700                 -0.526755        0.255753      0.000369596    -0.000169889       -0.0602272        0.763263      0.000354231    -1.29079e-05
                     0.000537501    -0.000166851        -0.168157       0.0100932      0.000112292     5.88988e-05         0.745309         0.63861
                      -0.0600862        0.763175      7.93572e-05     6.89943e-06        -0.396918       -0.395531      0.000541972    -5.32087e-05
                     0.000443914       7.733e-05          0.74532        0.638646      0.000367576    -8.08092e-05        0.0154551        0.163285
281702                 -0.525954        0.255906      0.000369405    -0.000170234       -0.0593498        0.763918      0.000353803    -1.24887e-05
                     0.000537355    -0.000167269        -0.168155       0.0101123      0.000112476     5.86622e-05         0.745579        0.638295
                      -0.0592092         0.76383      7.93958e-05     6.78468e-06        -0.397217       -0.394335      0.000540766    -5.34412e-05
                     0.000443828     7.68203e-05          0.74559        0.638331      0.000367729    -8.11381e-05        0.0155756        0.163274
281704                 -0.525155        0.256058      0.000369212    -0.000170578       -0.0584719         0.76457      0.000353377    -1.20742e-05
                     0.000537208    -0.000167688        -0.168153       0.0101313       0.00011266     5.84255e-05          0.74585         0.63798
                      -0.0583317        0.764482      7.94342e-05     6.66991e-06        -0.397512       -0.393142      0.000539565    -5.36738e-05
                     0.000443741     7.63114e-05          0.74586        0.638016       0.00036788    -8.14668e-05        0.0156961        0.163263
281706                 -0.524357        0.256207       0.00036902    -0.000170921       -0.0575935        0.765219      0.000352953    -1.16645e-05
                      0.00053706    -0.000168106        -0.168151       0.0101504      0.000112842     5.81886e-05         0.746121        0.637665
                      -0.0574537        0.765131      7.94723e-05     6.55511e-06        -0.397804        -0.39195      0.000538371    -5.39066e-05
                     0.000443653     7.58034e-05          0.74613          0.6377      0.000368031    -8.17952e-05        0.0158165        0.163252
281708                  -0.52356        0.256355      0.000368827    -0.000171264       -0.0567147        0.765865      0.000352531    -1.12594e-05
                     0.000536911    -0.000168524        -0.168149       0.0101694      0.000113024     5.79515e-05         0.746391        0.637349
                      -0.0565753        0.765777      7.95101e-05      6.4403e-06        -0.398092        -0.39076      0.000537182    -5.41397e-05
                     0.000443565     7.52962e-05           0.7464        0.637385       0.00036818    -8.21234e-05         0.015937         0.16324
281710                 -0.522765          0.2565      0.000368633    -0.000171607       -0.0558353        0.766508      0.000352112    -1.08589e-05
                     0.000536761    -0.000168941        -0.168147       0.0101885      0.000113204     5.77143e-05         0.746661        0.637034
                      -0.0556963         0.76642      7.95478e-05     6.32548e-06        -0.398378       -0.389572         0.000536    -5.43729e-05
                     0.000443476     7.47899e-05         0.746669        0.637069      0.000368329    -8.24512e-05        0.0160574        0.163229
281712                 -0.521972        0.256644      0.000368439     -0.00017195       -0.0549556        0.767148      0.000351694     -1.0463e-05
                     0.000536611    -0.000169359        -0.168145       0.0102076      0.000113384      5.7477e-05         0.746931        0.636718
                      -0.0548169         0.76706      7.95851e-05     6.21065e-06         -0.39866       -0.388385      0.000534823    -5.46064e-05
                     0.000443386     7.42844e-05         0.746939        0.636754      0.000368476    -8.27787e-05        0.0161778        0.163217
281714                  -0.52118        0.256787      0.000368245    -0.000172292       -0.0540753        0.767785      0.000351278    -1.00717e-05
                      0.00053646    -0.000169775        -0.168143       0.0102266      0.000113563     5.72395e-05         0.747201        0.636402
                      -0.0539371        0.767697      7.96222e-05     6.09583e-06         -0.39894         -0.3872      0.000533652      -5.484e-05
                     0.000443296     7.37798e-05         0.747209        0.636438      0.000368622    -8.31059e-05        0.0162982        0.163205
281716                  -0.52039        0.256927       0.00036805    -0.000172633       -0.0531946        0.768419      0.000350864    -9.68479e-06
                     0.000536308    -0.000170192        -0.168141       0.0102457      0.000113742     5.70019e-05         0.747471        0.636087
                      -0.0530568        0.768331      7.96591e-05     5.98101e-06        -0.399216       -0.386017      0.000532487    -5.50738e-05
                     0.000443205      7.3276e-05         0.747478        0.636122      0.000368767    -8.34328e-05        0.0164186        0.163194
281718                 -0.519601        0.257066      0.000367854    -0.000172974       -0.0523135         0.76905      0.000350453    -9.30234e-06
                     0.000536155    -0.000170608         -0.16814       0.0102648      0.000113919     5.67642e-05         0.747741        0.635771
                      -0.0521761        0.768962      7.96957e-05     5.86621e-06        -0.399489       -0.384836      0.000531327    -5.53078e-05
                     0.000443114     7.27732e-05         0.747747        0.635806      0.000368911    -8.37594e-05        0.0165389        0.163182
281720                 -0.518813        0.257203      0.000367659    -0.000173315        -0.051432        0.769679      0.000350043    -8.92427e-06
                     0.000536002    -0.000171024        -0.168138       0.0102839      0.000114096     5.65263e-05         0.748011        0.635455
                       -0.051295         0.76959      7.97321e-05     5.75143e-06        -0.399759       -0.383656      0.000530173     -5.5542e-05
                     0.000443022     7.22711e-05         0.748016         0.63549      0.000369054    -8.40856e-05        0.0166593         0.16317
281722                 -0.518027        0.257338      0.000367463    -0.000173655       -0.0505501        0.770304      0.000349635    -8.55055e-06
                     0.000535847     -0.00017144        -0.168136        0.010303      0.000114271     5.62884e-05          0.74828        0.635139
                      -0.0504134        0.770215      7.97682e-05     5.63668e-06        -0.400026       -0.382478      0.000529025    -5.57763e-05
                     0.000442929       7.177e-05         0.748285        0.635174      0.000369196    -8.44115e-05        0.0167796        0.163158
281724                 -0.517243        0.257471      0.000367266    -0.000173995       -0.0496678        0.770926      0.000349229    -8.18113e-06
                     0.000535692    -0.000171855        -0.168134       0.0103221      0.000114446     5.60504e-05         0.748549        0.634822
                      -0.0495315        0.770837      7.98041e-05     5.52196e-06         -0.40029       -0.381302      0.000527882    -5.60108e-05
                     0.000442835     7.12697e-05         0.748554        0.634858      0.000369336    -8.47371e-05        0.0168999        0.163146
281726                  -0.51646        0.257603      0.000367069    -0.000174335        -0.048785        0.771546      0.000348825    -7.81597e-06
                     0.000535536     -0.00017227        -0.168132       0.0103412      0.000114621     5.58123e-05         0.748819        0.634506
                      -0.0486491        0.771457      7.98398e-05     5.40728e-06        -0.400551       -0.380128      0.000526745    -5.62455e-05
                     0.000442741     7.07703e-05         0.748822        0.634541      0.000369476    -8.50623e-05        0.0170202        0.163134
281728                 -0.515679        0.257733      0.000366872    -0.000174674       -0.0479019        0.772162      0.000348423    -7.45503e-06
                      0.00053538    -0.000172684         -0.16813       0.0103604      0.000114794     5.55742e-05         0.749088        0.634189
                      -0.0477664        0.772073      7.98751e-05     5.29266e-06        -0.400809       -0.378955      0.000525614    -5.64803e-05
                     0.000442646     7.02718e-05         0.749091        0.634225      0.000369614    -8.53871e-05        0.0171404        0.163122
281730                 -0.514899        0.257861      0.000366674    -0.000175013       -0.0470184        0.772776      0.000348023    -7.09826e-06
                     0.000535222    -0.000173098        -0.168128       0.0103795      0.000114966     5.53359e-05         0.749356        0.633873
                      -0.0468833        0.772687      7.99103e-05     5.17809e-06        -0.401063       -0.377785      0.000524487    -5.67153e-05
                     0.000442551     6.97742e-05         0.749359        0.633908      0.000369752    -8.57116e-05        0.0172607        0.163109
281732                  -0.51412        0.257988      0.000366476    -0.000175351       -0.0461346        0.773386      0.000347625    -6.74562e-06
                     0.000535064    -0.000173512        -0.168126       0.0103986      0.000115138     5.50976e-05         0.749625        0.633556
                      -0.0459998        0.773297      7.99452e-05     5.06358e-06        -0.401315       -0.376616      0.000523367    -5.69505e-05
                     0.000442455     6.92774e-05         0.749627        0.633592      0.000369888    -8.60357e-05        0.0173809        0.163097
281734                 -0.513343        0.258113      0.000366277    -0.000175688       -0.0452504        0.773994      0.000347229    -6.39708e-06
                     0.000534905    -0.000173925        -0.168125       0.0104178      0.000115309     5.48593e-05         0.749894        0.633239
                       -0.045116        0.773905      7.99798e-05     4.94915e-06        -0.401564       -0.375448      0.000522251    -5.71858e-05
                     0.000442358     6.87815e-05         0.749895        0.633275      0.000370024    -8.63594e-05        0.0175011        0.163084
281736                 -0.512568        0.258236      0.000366078    -0.000176026       -0.0443659        0.774599      0.000346835    -6.05258e-06
                     0.000534745    -0.000174339        -0.168123       0.0104369      0.000115479     5.46209e-05         0.750162        0.632922
                      -0.0442318         0.77451      8.00142e-05      4.8348e-06         -0.40181       -0.374283      0.000521141    -5.74212e-05
                     0.000442261     6.82865e-05         0.750163        0.632958      0.000370158    -8.66827e-05        0.0176213        0.163072
281738                 -0.511794        0.258358      0.000365879    -0.000176363        -0.043481        0.775201      0.000346442     -5.7121e-06
                     0.000534584    -0.000174751        -0.168121       0.0104561      0.000115649     5.43825e-05          0.75043        0.632605
                      -0.0433473        0.775112      8.00484e-05     4.72055e-06        -0.402053       -0.373119      0.000520037    -5.76568e-05
                     0.000442163     6.77924e-05         0.750431        0.632641      0.000370292    -8.70056e-05        0.0177415        0.163059
281740                 -0.511022        0.258478      0.000365679    -0.000176699       -0.0425958          0.7758      0.000346052     -5.3756e-06
                     0.000534423    -0.000175164        -0.168119       0.0104752      0.000115817      5.4144e-05         0.750699        0.632288
                      -0.0424625        0.775711      8.00823e-05      4.6064e-06        -0.402293       -0.371957      0.000518937    -5.78926e-05
                     0.000442064     6.72992e-05         0.750698        0.632324      0.000370424    -8.73281e-05        0.0178617        0.163047
281742                 -0.510251        0.258596      0.000365479    -0.000177035       -0.0417103        0.776397      0.000345663    -5.04302e-06
                     0.000534261    -0.000175576        -0.168117       0.0104944      0.000115985     5.39055e-05         0.750967        0.631971
                      -0.0415774        0.776307      8.01159e-05     4.49236e-06         -0.40253       -0.370797      0.000517843    -5.81285e-05
                     0.000441965     6.68068e-05         0.750966        0.632006      0.000370555    -8.76503e-05        0.0179818        0.163034
281744                 -0.509482        0.258713      0.000365279    -0.000177371       -0.0408244         0.77699      0.000345276    -4.71435e-06
                     0.000534097    -0.000175987        -0.168116       0.0105136      0.000116152      5.3667e-05         0.751235        0.631654
                      -0.0406919          0.7769      8.01493e-05     4.37846e-06        -0.402764       -0.369638      0.000516754    -5.83645e-05
                     0.000441865     6.63154e-05         0.751233        0.631689      0.000370685     -8.7972e-05         0.018102        0.163021
281746                 -0.508714        0.258828      0.000365078    -0.000177706       -0.0399383        0.777581      0.000344891    -4.38954e-06
                     0.000533934    -0.000176398        -0.168114       0.0105327      0.000116319     5.34285e-05         0.751502        0.631336
                      -0.0398061        0.777491      8.01825e-05     4.26469e-06        -0.402995       -0.368482       0.00051567    -5.86006e-05
                     0.000441764     6.58248e-05           0.7515        0.631372      0.000370815    -8.82933e-05        0.0182221        0.163008
281748                 -0.507947        0.258941      0.000364877     -0.00017804       -0.0390519        0.778168      0.000344508    -4.06855e-06
                     0.000533769    -0.000176809        -0.168112       0.0105519      0.000116484       5.319e-05          0.75177        0.631019
                      -0.0389201        0.778079      8.02154e-05     4.15109e-06        -0.403224       -0.367327      0.000514591    -5.88369e-05
                     0.000441663     6.53351e-05         0.751768        0.631054      0.000370943    -8.86141e-05        0.0183422        0.162995
281750                 -0.507183        0.259053      0.000364676    -0.000178374       -0.0381652        0.778753      0.000344127    -3.75135e-06
                     0.000533604     -0.00017722         -0.16811       0.0105711      0.000116649     5.29515e-05         0.752037        0.630701
                      -0.0380338        0.778664       8.0248e-05     4.03766e-06        -0.403449       -0.366174      0.000513518    -5.90734e-05
                     0.000441561     6.48463e-05         0.752034        0.630736       0.00037107    -8.89346e-05        0.0184623        0.162982
281752                 -0.506419        0.259163      0.000364474    -0.000178708       -0.0372782        0.779335      0.000343748     -3.4379e-06
                     0.000533438     -0.00017763        -0.168108       0.0105903      0.000116813      5.2713e-05         0.752305        0.630383
                      -0.0371471        0.779246      8.02804e-05     3.92444e-06        -0.403672       -0.365023      0.000512449    -5.93099e-05
                     0.000441459     6.43584e-05         0.752301        0.630419      0.000371197    -8.92546e-05        0.0185823        0.162969
281754                 -0.505657        0.259271      0.000364272    -0.000179041       -0.0363909        0.779914       0.00034337    -3.12817e-06
                     0.000533272     -0.00017804        -0.168107       0.0106095      0.000116977     5.24745e-05         0.752572        0.630065
                      -0.0362603        0.779825      8.03125e-05     3.81145e-06        -0.403892       -0.363873      0.000511385    -5.95466e-05
                     0.000441356     6.38714e-05         0.752568        0.630101      0.000371322    -8.95741e-05        0.0187024        0.162956
281756                 -0.504897        0.259378      0.000364069    -0.000179374       -0.0355034        0.780491      0.000342994    -2.82214e-06
                     0.000533105    -0.000178449        -0.168105       0.0106287      0.000117139      5.2236e-05         0.752839        0.629747
                      -0.0353731        0.780401      8.03444e-05     3.69873e-06        -0.404109       -0.362725      0.000510327    -5.97834e-05
                     0.000441252     6.33852e-05         0.752834        0.629783      0.000371447    -8.98932e-05        0.0188224        0.162942
281758                 -0.504138        0.259484      0.000363867    -0.000179706       -0.0346156        0.781065       0.00034262    -2.51976e-06
                     0.000532939    -0.000178858        -0.168103       0.0106479      0.000117301     5.19976e-05         0.753106        0.629429
                      -0.0344857        0.780975       8.0376e-05     3.58633e-06        -0.404323        -0.36158      0.000509273    -6.00203e-05
                     0.000441148     6.28999e-05         0.753101        0.629465       0.00037157    -9.02119e-05        0.0189424        0.162929
281760                 -0.503381        0.259588      0.000363664    -0.000180038       -0.0337276        0.781635      0.000342248    -2.22101e-06
                     0.000532775    -0.000179266        -0.168101       0.0106671      0.000117462     5.17592e-05         0.753372        0.629111
                      -0.0335981        0.781545      8.04074e-05     3.47435e-06        -0.404534       -0.360436      0.000508224    -6.02573e-05
                     0.000441044     6.24155e-05         0.753367        0.629146      0.000371693    -9.05301e-05        0.0190624        0.162915
281762                 -0.502625         0.25969       0.00036346     -0.00018037       -0.0328394        0.782203      0.000341877    -1.92588e-06
                     0.000532615    -0.000179674        -0.168099       0.0106864      0.000117623     5.15208e-05         0.753639        0.628792
                      -0.0327102        0.782113      8.04385e-05     3.36291e-06        -0.404743       -0.359293      0.000507181    -6.04943e-05
