! TOUCHSTONE file generated by CST MICROWAVE STUDIO
! Date and time: Tue Oct 14 07:30:58 2025
! Project name: Teste_Macro_Metasurface_Nanopilar.cst
! Parameters = {H=600; L_x=165; L_y=165; Lambda=1064; Max_L=200; Min_L=70; PathPara=1; Phi=0; Step_L=10; Theta=0; p=520; phaseX=180; phaseY=0}
! Header version: 2018
! Port assignment regex: !\s*Touchstone port\s*([0-9]+)\s*=\s*(CST MWS port|CST DS port)\s*([0-9]+|Zmin|Zmax)\s*\(\"(.*)\"\)(\s*mode\s*([0-9]+))?.*
! Touchstone port assignment:
! Touchstone port 1 = CST MWS port Zmax ("") mode 1
! Touchstone port 2 = CST MWS port Zmax ("") mode 2
! Touchstone port 3 = CST MWS port Zmin ("") mode 1
! Touchstone port 4 = CST MWS port Zmin ("") mode 2
! S-Parameters are not renormalized. Each port impedance will be approximated by the real part at minimum frequency. The values are described via the [Reference] keyword.
! Default impedance is overridden by [Reference]
[Version] 2.0
# GHz S RI R 376.73
[Number of Ports] 4
[Reference]
376.73 376.73 259.814 259.814 
[Number of Frequencies] 51
[Network Data]
281700                 -0.176713      -0.0325716     -0.000160122     0.000226515         0.794762        0.574067      2.23588e-05    -0.000240084
                    -8.87151e-05     0.000241014        -0.177226       -0.031622      0.000218129    -0.000205133         0.795371        0.572697
                        0.794304        0.574209      0.000148299    -0.000220527        0.0856103        0.154501     -7.72036e-05     4.03412e-05
                     4.99587e-05    -0.000269139         0.795449         0.57223     -6.85533e-05     5.95915e-05         0.085513        0.154969
281702                 -0.176725      -0.0325397     -0.000160057     0.000226679         0.794999        0.573738      2.23644e-05    -0.000239955
                    -8.85519e-05     0.000241204        -0.177238      -0.0315897      0.000217989    -0.000205231         0.795606        0.572368
                        0.794541         0.57388      0.000148137    -0.000220605        0.0857127        0.154452     -7.71015e-05     4.05122e-05
                     4.97948e-05    -0.000268898         0.795685        0.571901     -6.86038e-05     5.95921e-05        0.0856154         0.15492
281704                 -0.176738      -0.0325077     -0.000159992     0.000226842         0.795235        0.573408      2.23699e-05    -0.000239825
                    -8.83893e-05     0.000241395         -0.17725      -0.0315574      0.000217848    -0.000205329         0.795842        0.572039
                        0.794777        0.573552      0.000147974    -0.000220683         0.085815        0.154403     -7.69997e-05     4.06845e-05
                     4.96296e-05    -0.000268655         0.795921        0.571571     -6.86538e-05     5.95928e-05        0.0857177        0.154872
281706                  -0.17675      -0.0324757     -0.000159927     0.000227004         0.795472        0.573079      2.23752e-05    -0.000239695
                    -8.82273e-05     0.000241586        -0.177262      -0.0315252      0.000217706    -0.000205426         0.796077         0.57171
                        0.795013        0.573223      0.000147812    -0.000220761        0.0859173        0.154354      -7.6898e-05     4.08583e-05
                     4.94633e-05    -0.000268412         0.796156        0.571241     -6.87035e-05     5.95935e-05          0.08582        0.154823
281708                 -0.176763      -0.0324437     -0.000159861     0.000227166         0.795708        0.572749      2.23803e-05    -0.000239565
                    -8.80659e-05     0.000241779        -0.177274      -0.0314929      0.000217565    -0.000205523         0.796312        0.571381
                        0.795249        0.572894       0.00014765     -0.00022084        0.0860195        0.154306     -7.67964e-05     4.10335e-05
                     4.92957e-05    -0.000268167         0.796392        0.570911     -6.87527e-05     5.95941e-05        0.0859222        0.154774
281710                 -0.176775      -0.0324117     -0.000159796     0.000227327         0.795944        0.572419      2.23853e-05    -0.000239435
                    -8.79051e-05     0.000241972        -0.177286      -0.0314606      0.000217423     -0.00020562         0.796547        0.571052
                        0.795485        0.572566      0.000147488    -0.000220919        0.0861217        0.154257     -7.66951e-05     4.12101e-05
                     4.91269e-05    -0.000267922         0.796627         0.57058     -6.88012e-05     5.95946e-05        0.0860244        0.154725
281712                 -0.176788      -0.0323797      -0.00015973     0.000227487          0.79618         0.57209      2.23902e-05    -0.000239305
                     -8.7745e-05     0.000242165        -0.177298      -0.0314283      0.000217282    -0.000205716         0.796782        0.570723
                        0.795721        0.572237      0.000147325    -0.000220998        0.0862239        0.154208      -7.6594e-05     4.13881e-05
                     4.89569e-05    -0.000267676         0.796862         0.57025     -6.88491e-05     5.95946e-05        0.0861266        0.154676
281714                 -0.176801      -0.0323477     -0.000159663     0.000227647         0.796415         0.57176       2.2395e-05    -0.000239174
                    -8.75855e-05      0.00024236         -0.17731      -0.0313959       0.00021714    -0.000205812         0.797017        0.570394
                        0.795956        0.571908      0.000147163    -0.000221078        0.0863261        0.154159      -7.6493e-05     4.15675e-05
                     4.87857e-05    -0.000267429         0.797097         0.56992     -6.88965e-05      5.9594e-05        0.0862287        0.154627
281716                 -0.176813      -0.0323157     -0.000159597     0.000227807         0.796651         0.57143      2.23996e-05    -0.000239043
                    -8.74266e-05     0.000242555        -0.177323      -0.0313636      0.000216998    -0.000205908         0.797252        0.570064
                        0.796192        0.571578      0.000147001    -0.000221157        0.0864282         0.15411     -7.63923e-05     4.17482e-05
                     4.86133e-05    -0.000267182         0.797332        0.569589     -6.89437e-05     5.95923e-05        0.0863308        0.154577
281718                 -0.176826      -0.0322837      -0.00015953     0.000227965         0.796886          0.5711      2.24042e-05    -0.000238912
                    -8.72683e-05     0.000242751        -0.177335      -0.0313313      0.000216856    -0.000206004         0.797486        0.569735
                        0.796427        0.571249      0.000146839    -0.000221237        0.0865303         0.15406     -7.62918e-05     4.19303e-05
                     4.84397e-05    -0.000266933         0.797567        0.569259     -6.89915e-05     5.95895e-05        0.0864329        0.154528
281720                 -0.176838      -0.0322516     -0.000159463     0.000228124         0.797122        0.570769      2.24086e-05     -0.00023878
                    -8.71107e-05     0.000242947        -0.177347       -0.031299      0.000216714    -0.000206099          0.79772        0.569405
                        0.796662         0.57092      0.000146677    -0.000221317        0.0866323        0.154011     -7.61914e-05     4.21137e-05
                      4.8265e-05    -0.000266684         0.797801        0.568928     -6.90405e-05     5.95862e-05         0.086535        0.154479
281722                 -0.176851      -0.0322196     -0.000159395     0.000228281         0.797357        0.570439      2.24129e-05    -0.000238648
                    -8.69538e-05     0.000243144        -0.177359      -0.0312666      0.000216572    -0.000206194         0.797954        0.569076
                        0.796897         0.57059      0.000146516    -0.000221397        0.0867343        0.153962     -7.60914e-05     4.22985e-05
                     4.80891e-05    -0.000266434         0.798036        0.568597     -6.90907e-05     5.95833e-05         0.086637         0.15443
281724                 -0.176863      -0.0321875     -0.000159327     0.000228439         0.797592        0.570109      2.24171e-05    -0.000238516
                    -8.67975e-05     0.000243342        -0.177371      -0.0312342      0.000216429     -0.00020629         0.798189        0.568746
                        0.797132        0.570261      0.000146354    -0.000221477        0.0868363        0.153913     -7.59915e-05     4.24846e-05
                      4.7912e-05    -0.000266184          0.79827        0.568267     -6.91416e-05     5.95814e-05         0.086739         0.15438
281726                 -0.176876      -0.0321555     -0.000159258     0.000228595         0.797827        0.569778      2.24213e-05    -0.000238384
                    -8.66419e-05      0.00024354        -0.177383      -0.0312019      0.000216287    -0.000206385         0.798422        0.568416
                        0.797367        0.569931      0.000146192    -0.000221557        0.0869383        0.153863     -7.58918e-05      4.2672e-05
                     4.77338e-05    -0.000265933         0.798504        0.567936     -6.91925e-05     5.95805e-05        0.0868409        0.154331
281728                 -0.176888      -0.0321234     -0.000159189     0.000228752         0.798062        0.569448      2.24253e-05    -0.000238251
                    -8.64869e-05     0.000243739        -0.177395      -0.0311695      0.000216145     -0.00020648         0.798656        0.568086
                        0.797601        0.569602      0.000146031    -0.000221637        0.0870402        0.153814     -7.57924e-05     4.28607e-05
                     4.75545e-05    -0.000265681         0.798738        0.567605     -6.92431e-05     5.95803e-05        0.0869428        0.154281
281730                 -0.176901      -0.0320913      -0.00015912     0.000228908         0.798296        0.569117      2.24293e-05    -0.000238118
                    -8.63326e-05     0.000243938        -0.177407      -0.0311371      0.000216003    -0.000206575          0.79889        0.567756
                        0.797836        0.569272      0.000145869    -0.000221718        0.0871421        0.153764     -7.56933e-05     4.30507e-05
                     4.73741e-05    -0.000265428         0.798972        0.567274     -6.92933e-05     5.95807e-05        0.0870447        0.154231
281732                 -0.176913      -0.0320592      -0.00015905     0.000229063         0.798531        0.568786      2.24332e-05    -0.000237985
                     -8.6179e-05     0.000244138        -0.177419      -0.0311047      0.000215862    -0.000206671         0.799123        0.567426
                         0.79807        0.568942      0.000145708    -0.000221798        0.0872439        0.153715     -7.55943e-05      4.3242e-05
                     4.71926e-05    -0.000265175         0.799205        0.566942     -6.93432e-05     5.95814e-05        0.0871465        0.154182
281734                 -0.176926      -0.0320271      -0.00015898     0.000229218         0.798765        0.568455      2.24371e-05    -0.000237852
                    -8.60261e-05     0.000244338        -0.177431      -0.0310723       0.00021572    -0.000206766         0.799357        0.567096
                        0.798304        0.568612      0.000145547    -0.000221878        0.0873458        0.153665     -7.54956e-05     4.34346e-05
                     4.70101e-05    -0.000264922         0.799439        0.566611     -6.93926e-05     5.95824e-05        0.0872484        0.154132
281736                 -0.176938       -0.031995     -0.000158909     0.000229372         0.798999        0.568124      2.24408e-05    -0.000237718
                    -8.58739e-05     0.000244539        -0.177443      -0.0310399      0.000215579    -0.000206861          0.79959        0.566765
                        0.798538        0.568282      0.000145385    -0.000221959        0.0874476        0.153615     -7.53971e-05     4.36284e-05
                     4.68264e-05    -0.000264667         0.799672         0.56628     -6.94418e-05     5.95835e-05        0.0873501        0.154082
281738                 -0.176951      -0.0319629     -0.000158838     0.000229526         0.799233        0.567793      2.24445e-05    -0.000237584
                    -8.57223e-05      0.00024474        -0.177455      -0.0310075      0.000215438    -0.000206956         0.799823        0.566435
                        0.798772        0.567952      0.000145224    -0.000222039        0.0875493        0.153565     -7.52989e-05     4.38235e-05
                     4.66417e-05    -0.000264413         0.799906        0.565948     -6.94907e-05     5.95847e-05        0.0874519        0.154032
281740                 -0.176963      -0.0319308     -0.000158766      0.00022968         0.799467        0.567462      2.24481e-05     -0.00023745
                    -8.55715e-05     0.000244942        -0.177467      -0.0309751      0.000215297    -0.000207052         0.800056        0.566104
                        0.799006        0.567621      0.000145063     -0.00022212         0.087651        0.153516     -7.52009e-05     4.40198e-05
                      4.6456e-05    -0.000264158         0.800139        0.565617     -6.95394e-05     5.95861e-05        0.0875536        0.153982
281742                 -0.176976      -0.0318987     -0.000158693     0.000229833         0.799701        0.567131      2.24517e-05    -0.000237315
                    -8.54213e-05     0.000245144        -0.177479      -0.0309427      0.000215157    -0.000207147         0.800289        0.565774
                         0.79924        0.567291      0.000144902      -0.0002222        0.0877527        0.153466     -7.51031e-05     4.42174e-05
                     4.62693e-05    -0.000263902         0.800372        0.565285      -6.9588e-05     5.95876e-05        0.0876553        0.153932
281744                 -0.176988      -0.0318665     -0.000158621     0.000229986         0.799935        0.566799       2.2455e-05    -0.000237181
                    -8.52719e-05     0.000245347        -0.177491      -0.0309102      0.000215017    -0.000207243         0.800521        0.565443
                        0.799473        0.566961      0.000144741    -0.000222281        0.0878544        0.153416     -7.50056e-05     4.44161e-05
                     4.60817e-05    -0.000263646         0.800605        0.564953     -6.96364e-05     5.95892e-05        0.0877569        0.153882
281746                 -0.177001      -0.0318344     -0.000158547     0.000230138         0.800168        0.566468       2.2458e-05    -0.000237045
                    -8.51233e-05     0.000245549        -0.177503      -0.0308778      0.000214877    -0.000207338         0.800754        0.565112
                        0.799707         0.56663       0.00014458    -0.000222361         0.087956        0.153366     -7.49083e-05      4.4616e-05
                     4.58932e-05     -0.00026339         0.800838        0.564621     -6.96846e-05     5.95909e-05        0.0878585        0.153832
281748                 -0.177013      -0.0318022     -0.000158473     0.000230289         0.800402        0.566137      2.24601e-05     -0.00023691
                    -8.49754e-05     0.000245752        -0.177515      -0.0308453      0.000214738    -0.000207434         0.800986        0.564782
                         0.79994        0.566299      0.000144419    -0.000222442        0.0880576        0.153316     -7.48112e-05     4.48168e-05
                     4.57039e-05    -0.000263133          0.80107        0.564289     -6.97328e-05     5.95928e-05        0.0879601        0.153782
281750                 -0.177026      -0.0317701     -0.000158399     0.000230439         0.800635        0.565805      2.24546e-05    -0.000236773
                    -8.48283e-05     0.000245954        -0.177527      -0.0308129      0.000214598     -0.00020753         0.801218        0.564451
                        0.800173        0.565969      0.000144259    -0.000222523        0.0881591        0.153265     -7.47148e-05     4.50186e-05
                     4.55142e-05    -0.000262877         0.801303        0.563957     -6.97809e-05     5.95947e-05        0.0880617        0.153732
281752                 -0.177038      -0.0317379     -0.000158325     0.000230587         0.800868        0.565473      2.24806e-05    -0.000236641
                    -8.46823e-05     0.000246155        -0.177539      -0.0307804      0.000214459    -0.000207626         0.801451        0.564119
                        0.800406        0.565638      0.000144098    -0.000222605        0.0882607        0.153215     -7.46194e-05     4.52223e-05
                     4.53245e-05    -0.000262621         0.801535        0.563625     -6.98289e-05     5.95968e-05        0.0881632        0.153682
281754                 -0.177051      -0.0317057     -0.000158254     0.000230732         0.801101        0.565141      2.24784e-05    -0.000236504
                    -8.45379e-05     0.000246352        -0.177551      -0.0307479      0.000214321    -0.000207721         0.801683        0.563788
                        0.800639        0.565307      0.000143937     -0.00022269        0.0883622        0.153165     -7.45234e-05     4.54277e-05
                     4.51371e-05    -0.000262367         0.801767        0.563293     -6.98769e-05      5.9599e-05        0.0882647        0.153631
281756                 -0.177063      -0.0316735     -0.000158203     0.000230883         0.801334         0.56481      2.24808e-05    -0.000236367
                    -8.43982e-05     0.000246528        -0.177563      -0.0307155      0.000214182    -0.000207817         0.801914        0.563457
                        0.800871        0.564976      0.000143769    -0.000222781        0.0884636        0.153115     -7.44274e-05     4.56339e-05
                     4.49695e-05    -0.000262127         0.801999        0.562961     -6.99248e-05     5.96013e-05        0.0883661        0.153581
281758                 -0.177076      -0.0316413     -0.000158122     0.000231065         0.801566        0.564478      2.24839e-05    -0.000236231
                     -8.4193e-05     0.000246997        -0.177575       -0.030683      0.000214044    -0.000207913         0.802146        0.563126
                        0.801104        0.564645      0.000143587    -0.000222841         0.088565        0.153064     -7.43317e-05     4.58412e-05
                     4.46883e-05    -0.000261778         0.802231        0.562628     -6.99727e-05     5.96038e-05        0.0884675         0.15353
281760                 -0.177088      -0.0316091     -0.000158032     0.000231217         0.801799        0.564145      2.24873e-05    -0.000236094
                    -8.40914e-05     0.000247029        -0.177587      -0.0306505      0.000213906    -0.000208009         0.802378        0.562794
                        0.801336        0.564314       0.00014344    -0.000222912        0.0886664        0.153014     -7.42362e-05     4.60495e-05
                     4.45224e-05    -0.000261561         0.802463        0.562296     -7.00206e-05     5.96064e-05        0.0885689         0.15348
281762                 -0.177101      -0.0315769      -0.00015795     0.000231365         0.802031        0.563813      2.24908e-05    -0.000235957
                    -8.39515e-05      0.00024722        -0.177599      -0.0306179      0.000213768    -0.000208105         0.802609        0.562463
                        0.801568        0.563982      0.000143284    -0.000222992        0.0887678        0.152963      -7.4141e-05     4.62589e-05
