! TOUCHSTONE file generated by CST MICROWAVE STUDIO
! Date and time: Tue Oct 14 07:33:08 2025
! Project name: Teste_Macro_Metasurface_Nanopilar.cst
! Parameters = {H=600; L_x=200; L_y=155; Lambda=1064; Max_L=200; Min_L=70; PathPara=1; Phi=0; Step_L=10; Theta=0; p=520; phaseX=180; phaseY=0}
! Header version: 2018
! Port assignment regex: !\s*Touchstone port\s*([0-9]+)\s*=\s*(CST MWS port|CST DS port)\s*([0-9]+|Zmin|Zmax)\s*\(\"(.*)\"\)(\s*mode\s*([0-9]+))?.*
! Touchstone port assignment:
! Touchstone port 1 = CST MWS port Zmax ("") mode 1
! Touchstone port 2 = CST MWS port Zmax ("") mode 2
! Touchstone port 3 = CST MWS port Zmin ("") mode 1
! Touchstone port 4 = CST MWS port Zmin ("") mode 2
! S-Parameters are not renormalized. Each port impedance will be approximated by the real part at minimum frequency. The values are described via the [Reference] keyword.
! Default impedance is overridden by [Reference]
[Version] 2.0
# GHz S RI R 376.73
[Number of Ports] 4
[Reference]
376.73 376.73 259.814 259.814 
[Number of Frequencies] 51
[Network Data]
281700                 -0.218259        -0.11756      7.64741e-05     5.47663e-06         0.782323        0.565095      0.000262963    -0.000719769
                    -8.76876e-05    -0.000183454        -0.271831       -0.107482      0.000353753    -0.000738136         0.948341       0.0898354
                        0.781738        0.565278      0.000247662    -0.000779265         0.179091        0.169427     -0.000114999    -0.000354929
                     0.000233305    -0.000903272         0.948368       0.0897365      0.000180023    -0.000492421         0.284814      -0.0563352
281702                 -0.218294       -0.117493      7.72066e-05     5.65401e-06          0.78256        0.564769      0.000262148    -0.000719824
                    -8.77793e-05    -0.000183435        -0.271879       -0.107413      0.000353853    -0.000738307         0.948373        0.089443
                        0.781975        0.564953      0.000247439    -0.000779875          0.17918         0.16933     -0.000115562    -0.000354709
                     0.000232885    -0.000903352           0.9484       0.0893447      0.000179779    -0.000492701         0.284802      -0.0564934
281704                 -0.218329       -0.117426      7.79643e-05     5.78421e-06         0.782796        0.564442      0.000261334    -0.000719877
                    -8.78701e-05    -0.000183415        -0.271926       -0.107343      0.000353954    -0.000738477         0.948405       0.0890506
                        0.782213        0.564628      0.000247192    -0.000780479         0.179269        0.169233     -0.000116124    -0.000354488
                     0.000232466    -0.000903431         0.948431       0.0889529      0.000179535    -0.000492981         0.284789      -0.0566516
281706                 -0.218363       -0.117359      7.87406e-05     5.86054e-06         0.783032        0.564116       0.00026052    -0.000719928
                    -8.79601e-05    -0.000183394        -0.271974       -0.107273      0.000354054    -0.000738647         0.948436       0.0886583
                        0.782451        0.564303      0.000246921    -0.000781075         0.179359        0.169136     -0.000116685    -0.000354265
                     0.000232049    -0.000903509         0.948463        0.088561       0.00017929    -0.000493261         0.284777      -0.0568098
281708                 -0.218398       -0.117292      7.95266e-05     5.87735e-06         0.783268        0.563789      0.000259707    -0.000719978
                    -8.80491e-05    -0.000183372        -0.272022       -0.107203      0.000354154    -0.000738817         0.948467        0.088266
                        0.782688        0.563978      0.000246625    -0.000781658         0.179448        0.169039     -0.000117246    -0.000354042
                     0.000231634    -0.000903586         0.948494       0.0881692      0.000179044    -0.000493541         0.284765      -0.0569679
281710                 -0.218433       -0.117225      8.03119e-05      5.8307e-06         0.783504        0.563463      0.000258894    -0.000720027
                    -8.81373e-05    -0.000183349         -0.27207       -0.107133      0.000354255    -0.000738986         0.948498       0.0878738
                        0.782925        0.563653      0.000246304    -0.000782226         0.179537        0.168943     -0.000117807    -0.000353816
                      0.00023122    -0.000903662         0.948525       0.0877773      0.000178798     -0.00049382         0.284753      -0.0571261
281712                 -0.218468       -0.117158      8.10844e-05     5.71897e-06          0.78374        0.563136      0.000258082    -0.000720074
                    -8.82246e-05    -0.000183326        -0.272117       -0.107064      0.000354355    -0.000739155         0.948529       0.0874816
                        0.783162        0.563328       0.00024596    -0.000782774         0.179626        0.168846     -0.000118368     -0.00035359
                     0.000230807    -0.000903738         0.948556       0.0873855      0.000178551    -0.000494099          0.28474      -0.0572843
281714                 -0.218502       -0.117091      8.18315e-05     5.54334e-06         0.783975        0.562809       0.00025727    -0.000720119
                    -8.83111e-05    -0.000183302        -0.272165       -0.106994      0.000354456    -0.000739323          0.94856       0.0870895
                        0.783399        0.563003      0.000245593    -0.000783298         0.179716        0.168749     -0.000118929    -0.000353362
                     0.000230395    -0.000903812         0.948586       0.0869936      0.000178304    -0.000494378         0.284728      -0.0574425
281716                 -0.218537       -0.117024      8.25402e-05     5.30815e-06          0.78421        0.562482       0.00025646    -0.000720163
                    -8.83966e-05    -0.000183276        -0.272212       -0.106924      0.000354557     -0.00073949          0.94859       0.0866974
                        0.783636        0.562677      0.000245206    -0.000783794         0.179805        0.168652     -0.000119489    -0.000353133
                     0.000229985    -0.000903885         0.948617       0.0866017      0.000178056    -0.000494657         0.284715      -0.0576006
281718                 -0.218572       -0.116958       8.3199e-05      5.0208e-06         0.784445        0.562155      0.000255649    -0.000720206
                    -8.84813e-05     -0.00018325         -0.27226       -0.106854      0.000354657    -0.000739656         0.948621       0.0863053
                        0.783872        0.562352      0.000244802    -0.000784259         0.179894        0.168555      -0.00012005    -0.000352904
                     0.000229576    -0.000903958         0.948647       0.0862098      0.000177807    -0.000494935         0.284702      -0.0577588
281720                 -0.218607       -0.116891      8.37976e-05     4.69149e-06          0.78468        0.561828       0.00025484    -0.000720248
                    -8.85652e-05    -0.000183224        -0.272308       -0.106784      0.000354758    -0.000739821         0.948651       0.0859132
                        0.784109        0.562026      0.000244386    -0.000784687         0.179983        0.168458     -0.000120612    -0.000352673
                     0.000229169    -0.000904029         0.948677       0.0858179      0.000177558    -0.000495213         0.284689       -0.057917
281722                 -0.218641       -0.116824      8.43286e-05     4.33254e-06         0.784915        0.561501      0.000254031    -0.000720288
                    -8.86481e-05    -0.000183196        -0.272355       -0.106714      0.000354858    -0.000739986         0.948681       0.0855212
                        0.784345          0.5617      0.000243961    -0.000785076         0.180072        0.168361     -0.000121175    -0.000352442
                     0.000228762      -0.0009041         0.948707        0.085426      0.000177308     -0.00049549         0.284676      -0.0580752
281724                 -0.218676       -0.116757      8.47874e-05     3.95759e-06          0.78515        0.561174      0.000253224    -0.000720327
                    -8.87302e-05    -0.000183168        -0.272403       -0.106644      0.000354959    -0.000740149         0.948711       0.0851292
                        0.784581        0.561375      0.000243536    -0.000785423         0.180161        0.168264     -0.000121739     -0.00035221
                     0.000228357    -0.000904169         0.948737       0.0850341      0.000177057    -0.000495767         0.284663      -0.0582333
281726                 -0.218711        -0.11669      8.51723e-05     3.58069e-06         0.785384        0.560847      0.000252418    -0.000720366
                    -8.88115e-05    -0.000183138         -0.27245       -0.106574      0.000355058     -0.00074031         0.948741       0.0847371
                        0.784817        0.561049      0.000243116    -0.000785726          0.18025        0.168167     -0.000122305    -0.000351978
                     0.000227954    -0.000904238         0.948766       0.0846422      0.000176805    -0.000496044          0.28465      -0.0583915
281728                 -0.218745       -0.116623      8.54844e-05     3.21547e-06         0.785618        0.560519      0.000251613    -0.000720403
                    -8.88919e-05    -0.000183108        -0.272498       -0.106504      0.000355158    -0.000740471          0.94877       0.0843451
                        0.785053        0.560723      0.000242709    -0.000785985         0.180339        0.168069     -0.000122873    -0.000351746
                     0.000227551    -0.000904305         0.948796       0.0842503      0.000176553    -0.000496319         0.284637      -0.0585497
281730                  -0.21878       -0.116556      8.57268e-05      2.8746e-06         0.785853        0.560192       0.00025081    -0.000720441
                    -8.89714e-05    -0.000183078        -0.272545       -0.106434      0.000355256    -0.000740629           0.9488       0.0839531
                        0.785289        0.560397      0.000242324    -0.000786199         0.180428        0.167972     -0.000123446    -0.000351514
                      0.00022715    -0.000904372         0.948825       0.0838583      0.000176299    -0.000496594         0.284624      -0.0587078
281732                 -0.218814       -0.116489      8.59037e-05     2.56943e-06         0.786086        0.559865       0.00025001    -0.000720479
                    -8.90501e-05    -0.000183046        -0.272593       -0.106364      0.000355354    -0.000740786         0.948829       0.0835611
                        0.785525        0.560071       0.00024197    -0.000786369         0.180517        0.167875     -0.000124025    -0.000351282
                      0.00022675    -0.000904438         0.948854       0.0834663      0.000176045    -0.000496868          0.28461       -0.058866
281734                 -0.218849       -0.116422      8.60197e-05     2.31008e-06          0.78632        0.559537      0.000249213    -0.000720519
                    -8.91279e-05    -0.000183014         -0.27264       -0.106294       0.00035545    -0.000740941         0.948858       0.0831691
                         0.78576        0.559745      0.000241657    -0.000786498         0.180606        0.167778     -0.000124612    -0.000351051
                     0.000226351    -0.000904503         0.948883       0.0830744      0.000175789     -0.00049714         0.284597      -0.0590241
281736                 -0.218884       -0.116355      8.60781e-05     2.10583e-06         0.786554         0.55921      0.000248421    -0.000720562
                    -8.92049e-05    -0.000182981        -0.272687       -0.106224      0.000355545    -0.000741094         0.948887       0.0827771
                        0.785995        0.559419      0.000241396    -0.000786586         0.180695        0.167681      -0.00012521    -0.000350821
                     0.000225954    -0.000904567         0.948912       0.0826824      0.000175533     -0.00049741         0.284583      -0.0591823
281738                 -0.218918       -0.116289      8.60794e-05     1.96591e-06         0.786787        0.558882      0.000247637    -0.000720611
                    -8.92811e-05    -0.000182947        -0.272735       -0.106154      0.000355637    -0.000741245         0.948916       0.0823851
                         0.78623        0.559092      0.000241201    -0.000786636         0.180783        0.167583     -0.000125826    -0.000350589
                     0.000225558     -0.00090463          0.94894       0.0822903      0.000175276    -0.000497677         0.284569      -0.0593405
281740                 -0.218953       -0.116222      8.60185e-05     1.90083e-06          0.78702        0.558554      0.000246867    -0.000720672
                    -8.93564e-05    -0.000182912        -0.272782       -0.106084      0.000355727    -0.000741394         0.948944        0.081993
                        0.786465        0.558766      0.000241087    -0.000786644         0.180872        0.167486     -0.000126467    -0.000350353
                     0.000225163    -0.000904692         0.948969       0.0818983      0.000175019    -0.000497941         0.284556      -0.0594986
281742                 -0.218987       -0.116155       8.5879e-05     1.92409e-06         0.787254        0.558226      0.000246126     -0.00072076
                    -8.94308e-05    -0.000182877         -0.27283       -0.106013      0.000355813    -0.000741541         0.948973       0.0816009
                          0.7867        0.558439      0.000241082    -0.000786599         0.180961        0.167389     -0.000127143    -0.000350103
                     0.000224769    -0.000904754         0.948997       0.0815062      0.000174762      -0.0004982         0.284542      -0.0596568
281744                 -0.219022       -0.116088      8.56208e-05      2.0539e-06         0.787486        0.557898      0.000245457    -0.000720918
                    -8.95044e-05    -0.000182841        -0.272877       -0.105943      0.000355896    -0.000741686         0.949001       0.0812088
                        0.786935        0.558113      0.000241221    -0.000786468         0.181049        0.167291     -0.000127868    -0.000349819
                     0.000224376    -0.000904814         0.949025       0.0811141      0.000174508    -0.000498452         0.284528      -0.0598149
281746                 -0.219056       -0.116021      8.51474e-05     2.30952e-06         0.787719         0.55757        0.0002451    -0.000721359
                    -8.95772e-05    -0.000182804        -0.272924       -0.105873      0.000355974    -0.000741829         0.949029       0.0808167
                         0.78717        0.557786      0.000241563    -0.000786161         0.181138        0.167194     -0.000128643    -0.000349461
                     0.000223985    -0.000904874         0.949053        0.080722      0.000174262    -0.000498698         0.284514      -0.0599731
281748                 -0.219091       -0.115954      8.42146e-05     2.66579e-06         0.787952        0.557242      0.000248168     -0.00070083
                    -8.96492e-05    -0.000182766        -0.272972       -0.105803      0.000356048    -0.000741973         0.949057       0.0804245
                        0.787404        0.557459       0.00024215    -0.000785404         0.181227        0.167096      -0.00012943    -0.000348971
                     0.000223594    -0.000904932         0.949081       0.0803297      0.000174028    -0.000498942           0.2845      -0.0601312
281750                 -0.219125       -0.115887      8.22237e-05     2.70131e-06         0.788184        0.556914      0.000241855    -0.000719597
                    -8.97202e-05    -0.000182728        -0.273019       -0.105733      0.000356116    -0.000742116         0.949085       0.0800323
                        0.787638        0.557132      0.000242582    -0.000783487         0.181315        0.166999     -0.000130121    -0.000348338
                     0.000223205     -0.00090499         0.949107       0.0799372      0.000173809    -0.000499192         0.284486      -0.0602894
281752                  -0.21916       -0.115821      7.92694e-05    -8.68467e-08         0.788416        0.556586      0.000241386    -0.000720038
                    -8.97905e-05    -0.000182689        -0.273066       -0.105662       0.00035618     -0.00074226         0.949113       0.0796401
                        0.787872        0.556806       0.00024044    -0.000780702         0.181404        0.166901     -0.000130626    -0.000347684
                     0.000222817    -0.000905047         0.949133       0.0795474      0.000173595     -0.00049946         0.284471      -0.0604476
281754                 -0.219194       -0.115754      8.16411e-05    -4.90611e-06         0.788648        0.556258      0.000240684    -0.000720171
                    -8.98599e-05    -0.000182649        -0.273113       -0.105592       0.00035624    -0.000742406          0.94914       0.0792478
                        0.788106        0.556479      0.000236899     -0.00078168         0.181492        0.166804     -0.000131024    -0.000347163
                     0.000222431    -0.000905103         0.949163       0.0791555       0.00017337    -0.000499744         0.284457      -0.0606057
281756                 -0.219228       -0.115687      8.51383e-05    -4.63195e-06          0.78888         0.55593      0.000239911    -0.000720214
                    -8.99284e-05    -0.000182609        -0.273161       -0.105522      0.000356298    -0.000742553         0.949168       0.0788555
                         0.78834        0.556151      0.000236166    -0.000783768         0.181581        0.166706     -0.000131464    -0.000346803
                     0.000222045    -0.000905159          0.94919       0.0787628      0.000173126     -0.00050003         0.284442      -0.0607639
281758                 -0.219263        -0.11562      8.64412e-05    -3.43899e-06         0.789112        0.555601       0.00023909    -0.000720197
                     -8.9996e-05    -0.000182568        -0.273208       -0.105451      0.000356358    -0.000742702         0.949195       0.0784631
                        0.788574        0.555824      0.000236403    -0.000784939         0.181669        0.166609     -0.000132026    -0.000346582
                     0.000221661    -0.000905214         0.949217       0.0783704      0.000172862    -0.000500311         0.284428       -0.060922
281760                 -0.219297       -0.115553      8.69369e-05    -2.56236e-06         0.789343        0.555272      0.000238197    -0.000720089
                    -9.00627e-05    -0.000182526        -0.273255       -0.105381      0.000356426    -0.000742849         0.949222       0.0780707
                        0.788807        0.555497      0.000236741    -0.000785585         0.181758        0.166512     -0.000132687    -0.000346536
                     0.000221279    -0.000905268         0.949244       0.0779781      0.000172577    -0.000500584         0.284413      -0.0610802
281762                 -0.219332       -0.115486      8.71736e-05    -1.93741e-06         0.789574        0.554943      0.000237042    -0.000719631
                    -9.01283e-05    -0.000182484        -0.273302       -0.105311       0.00035651    -0.000742989         0.949249       0.0776782
                        0.789041         0.55517      0.000237044    -0.000785997         0.181845        0.166414     -0.000133275    -0.000346704
