! TOUCHSTONE file generated by CST MICROWAVE STUDIO
! Date and time: Tue Oct 14 07:25:48 2025
! Project name: Teste_Macro_Metasurface_Nanopilar.cst
! Parameters = {H=600; L_x=85; L_y=110; Lambda=1064; Max_L=200; Min_L=70; PathPara=1; Phi=0; Step_L=10; Theta=0; p=520; phaseX=180; phaseY=0}
! Header version: 2018
! Port assignment regex: !\s*Touchstone port\s*([0-9]+)\s*=\s*(CST MWS port|CST DS port)\s*([0-9]+|Zmin|Zmax)\s*\(\"(.*)\"\)(\s*mode\s*([0-9]+))?.*
! Touchstone port assignment:
! Touchstone port 1 = CST MWS port Zmax ("") mode 1
! Touchstone port 2 = CST MWS port Zmax ("") mode 2
! Touchstone port 3 = CST MWS port Zmin ("") mode 1
! Touchstone port 4 = CST MWS port Zmin ("") mode 2
! S-Parameters are not renormalized. Each port impedance will be approximated by the real part at minimum frequency. The values are described via the [Reference] keyword.
! Default impedance is overridden by [Reference]
[Version] 2.0
# GHz S RI R 376.73
[Number of Ports] 4
[Reference]
376.73 376.73 259.814 259.814 
[Number of Frequencies] 51
[Network Data]
281700                -0.0190356      -0.0198443     -0.000502717     6.98469e-05         0.738069       -0.670619      1.34047e-05     0.000176943
                     -0.00060347     4.29374e-05      -0.00823053       0.0828286      9.21613e-05     9.84975e-05         0.981635       -0.167496
                         0.73754       -0.670348      0.000174307     0.000170497       -0.0181698      -0.0199744      0.000400314    -0.000331346
                    -0.000129484     5.39258e-05         0.981645       -0.166979      0.000330618    -0.000345538        0.0351081       0.0756382
281702                -0.0190407      -0.0198514     -0.000502587     6.99762e-05         0.737795       -0.670919      1.34839e-05     0.000176937
                    -0.000603496     4.33162e-05      -0.00819891        0.082826      9.22484e-05     9.84808e-05         0.981573       -0.167862
                        0.737266       -0.670648      0.000174254     0.000170356        -0.018193      -0.0199654      0.000400241    -0.000331661
                    -0.000129445     5.40963e-05         0.981583       -0.167344      0.000330582     -0.00034568        0.0351336       0.0756201
281704                -0.0190458      -0.0198585     -0.000502456     7.01056e-05         0.737522       -0.671219      1.35611e-05     0.000176932
                    -0.000603523     4.36949e-05      -0.00816728       0.0828235      9.23355e-05     9.84637e-05         0.981511       -0.168227
                        0.736993       -0.670947      0.000174201     0.000170215       -0.0182162      -0.0199564      0.000400165    -0.000331976
                    -0.000129405     5.42667e-05         0.981521        -0.16771      0.000330546    -0.000345821        0.0351591        0.075602
281706                 -0.019051      -0.0198656     -0.000502326     7.02349e-05         0.737248       -0.671519      1.36371e-05     0.000176927
                    -0.000603549     4.40736e-05      -0.00813566       0.0828209      9.24227e-05     9.84461e-05         0.981449       -0.168592
                        0.736719       -0.671247      0.000174148     0.000170074       -0.0182393      -0.0199474      0.000400086    -0.000332291
                    -0.000129364      5.4437e-05         0.981459       -0.168075       0.00033051    -0.000345963        0.0351846       0.0755839
281708                -0.0190561      -0.0198727     -0.000502195     7.03641e-05         0.736974       -0.671819      1.37122e-05     0.000176922
                    -0.000603575     4.44522e-05      -0.00810404       0.0828183      9.25098e-05     9.84281e-05         0.981387       -0.168957
                        0.736446       -0.671546      0.000174094     0.000169932       -0.0182625      -0.0199383      0.000400005    -0.000332605
                    -0.000129324      5.4607e-05         0.981396        -0.16844      0.000330474    -0.000346106          0.03521       0.0755658
281710                -0.0190613      -0.0198799     -0.000502064     7.04934e-05           0.7367       -0.672119      1.37868e-05     0.000176918
                      -0.0006036     4.48308e-05      -0.00807242       0.0828157      9.25969e-05     9.84096e-05         0.981324       -0.169322
                        0.736172       -0.671845       0.00017404     0.000169791       -0.0182856      -0.0199293      0.000399922    -0.000332918
                    -0.000129283     5.47769e-05         0.981334       -0.168805      0.000330437    -0.000346248        0.0352355       0.0755477
281712                -0.0190665       -0.019887     -0.000501932     7.06226e-05         0.736426       -0.672418      1.38609e-05     0.000176914
                    -0.000603626     4.52093e-05       -0.0080408       0.0828131      9.26839e-05     9.83906e-05         0.981261       -0.169687
                        0.735898       -0.672144      0.000173986     0.000169649       -0.0183088      -0.0199202      0.000399837     -0.00033323
                    -0.000129242     5.49467e-05         0.981271        -0.16917      0.000330401     -0.00034639         0.035261       0.0755296
281714                -0.0190716      -0.0198941       -0.0005018     7.07518e-05         0.736152       -0.672717      1.39346e-05      0.00017691
                    -0.000603651     4.55878e-05      -0.00800919       0.0828104      9.27707e-05     9.83713e-05         0.981199       -0.170052
                        0.735624       -0.672443      0.000173932     0.000169508       -0.0183319      -0.0199111      0.000399752    -0.000333542
                    -0.000129201     5.51162e-05         0.981208       -0.169535      0.000330364    -0.000346532        0.0352864       0.0755115
281716                -0.0190768      -0.0199012     -0.000501669      7.0881e-05         0.735878       -0.673017      1.40082e-05     0.000176905
                    -0.000603676     4.59663e-05      -0.00797758       0.0828078      9.28573e-05     9.83516e-05         0.981136       -0.170418
                        0.735349       -0.672742      0.000173877     0.000169366        -0.018355       -0.019902      0.000399666    -0.000333852
                     -0.00012916     5.52856e-05         0.981145       -0.169901      0.000330328    -0.000346675        0.0353119       0.0754933
281718                 -0.019082      -0.0199083     -0.000501536     7.10102e-05         0.735603       -0.673316      1.40815e-05     0.000176901
                      -0.0006037     4.63447e-05      -0.00794597       0.0828052      9.29437e-05     9.83316e-05         0.981073       -0.170783
                        0.735075        -0.67304      0.000173822     0.000169224       -0.0183782      -0.0198928      0.000399579    -0.000334162
                    -0.000129118     5.54548e-05         0.981082       -0.170266      0.000330291    -0.000346818        0.0353373       0.0754752
281720                -0.0190872      -0.0199154     -0.000501404     7.11394e-05         0.735329       -0.673615      1.41546e-05     0.000176897
                    -0.000603724     4.67231e-05      -0.00791436       0.0828025      9.30299e-05     9.83113e-05          0.98101       -0.171148
                        0.734801       -0.673339      0.000173767     0.000169082       -0.0184013      -0.0198837      0.000399492    -0.000334472
                    -0.000129077     5.56238e-05         0.981019       -0.170631      0.000330253     -0.00034696        0.0353627       0.0754571
281722                -0.0190924      -0.0199225     -0.000501271     7.12686e-05         0.735054       -0.673914      1.42277e-05     0.000176893
                    -0.000603748     4.71014e-05      -0.00788275       0.0827998      9.31158e-05     9.82908e-05         0.980946       -0.171513
                        0.734526       -0.673637      0.000173712      0.00016894       -0.0184244      -0.0198745      0.000399405    -0.000334781
                    -0.000129035     5.57927e-05         0.980955       -0.170996      0.000330216    -0.000347103        0.0353881       0.0754389
281724                -0.0190976      -0.0199296     -0.000501139     7.13978e-05         0.734779       -0.674213      1.43006e-05     0.000176888
                    -0.000603772     4.74797e-05      -0.00785115       0.0827971      9.32014e-05     9.82702e-05         0.980883       -0.171878
                        0.734251       -0.673936      0.000173657     0.000168797       -0.0184475      -0.0198653      0.000399318    -0.000335089
                    -0.000128992     5.59614e-05         0.980892       -0.171361      0.000330178    -0.000347246        0.0354135       0.0754208
281726                -0.0191028      -0.0199368     -0.000501005     7.15271e-05         0.734505       -0.674512      1.43734e-05     0.000176884
                    -0.000603795     4.78579e-05      -0.00781955       0.0827944      9.32868e-05     9.82494e-05         0.980819       -0.172243
                        0.733976       -0.674234      0.000173601     0.000168655       -0.0184707      -0.0198561      0.000399231    -0.000335398
                     -0.00012895     5.61299e-05         0.980828       -0.171726       0.00033014     -0.00034739        0.0354389       0.0754026
281728                 -0.019108      -0.0199439     -0.000500872     7.16564e-05          0.73423        -0.67481       1.4446e-05     0.000176879
                    -0.000603818     4.82361e-05      -0.00778795       0.0827917      9.33719e-05     9.82285e-05         0.980756       -0.172607
                        0.733702       -0.674532      0.000173545     0.000168512       -0.0184938      -0.0198469      0.000399144    -0.000335706
                    -0.000128907     5.62983e-05         0.980764       -0.172091      0.000330102    -0.000347533        0.0354643       0.0753844
281730                -0.0191133       -0.019951     -0.000500738     7.17857e-05         0.733954       -0.675109      1.45186e-05     0.000176874
                    -0.000603841     4.86143e-05      -0.00775635        0.082789      9.34568e-05     9.82075e-05         0.980692       -0.172972
                        0.733426        -0.67483      0.000173489      0.00016837       -0.0185169      -0.0198377      0.000399057    -0.000336015
                    -0.000128864     5.64665e-05           0.9807       -0.172456      0.000330063    -0.000347676        0.0354897       0.0753662
281732                -0.0191185      -0.0199581     -0.000500604     7.19151e-05         0.733679       -0.675407      1.45911e-05     0.000176869
                    -0.000603864     4.89924e-05      -0.00772476       0.0827863      9.35415e-05     9.81864e-05         0.980628       -0.173337
                        0.733151       -0.675128      0.000173433     0.000168227         -0.01854      -0.0198284       0.00039897    -0.000336323
                    -0.000128821     5.66345e-05         0.980636       -0.172821      0.000330023    -0.000347819        0.0355151       0.0753481
281734                -0.0191237      -0.0199652      -0.00050047     7.20445e-05         0.733404       -0.675705      1.46635e-05     0.000176864
                    -0.000603886     4.93704e-05      -0.00769316       0.0827835       9.3626e-05     9.81654e-05         0.980564       -0.173702
                        0.732876       -0.675426      0.000173377     0.000168084       -0.0185631      -0.0198191      0.000398884    -0.000336631
                    -0.000128778     5.68023e-05         0.980572       -0.173186      0.000329983    -0.000347962        0.0355404       0.0753299
281736                 -0.019129      -0.0199723     -0.000500336      7.2174e-05         0.733128       -0.676004      1.47359e-05     0.000176859
                    -0.000603908     4.97484e-05      -0.00766157       0.0827808      9.37103e-05     9.81443e-05           0.9805       -0.174067
                          0.7326       -0.675723      0.000173321     0.000167941       -0.0185862      -0.0198099      0.000398798     -0.00033694
                    -0.000128734       5.697e-05         0.980508        -0.17355      0.000329942    -0.000348104        0.0355658       0.0753116
281738                -0.0191343      -0.0199794     -0.000500201     7.23036e-05         0.732852       -0.676302      1.48081e-05     0.000176853
                     -0.00060393     5.01264e-05      -0.00762998        0.082778      9.37945e-05     9.81233e-05         0.980435       -0.174432
                        0.732325       -0.676021      0.000173264     0.000167797       -0.0186093      -0.0198005      0.000398712    -0.000337248
                     -0.00012869     5.71375e-05         0.980443       -0.173915      0.000329902    -0.000348245        0.0355911       0.0752934
281740                -0.0191395      -0.0199865     -0.000500066     7.24333e-05         0.732577         -0.6766      1.48802e-05     0.000176847
                    -0.000603951     5.05043e-05       -0.0075984       0.0827752      9.38785e-05     9.81023e-05         0.980371       -0.174797
                        0.732049       -0.676318      0.000173208     0.000167654       -0.0186324      -0.0197912      0.000398626    -0.000337557
                    -0.000128646     5.73048e-05         0.980379        -0.17428      0.000329861    -0.000348385        0.0356164       0.0752752
281742                -0.0191448      -0.0199936      -0.00049993     7.25631e-05         0.732301       -0.676898      1.49523e-05     0.000176841
                    -0.000603972     5.08822e-05      -0.00756681       0.0827724      9.39623e-05     9.80813e-05         0.980306       -0.175161
                        0.731773       -0.676616      0.000173151      0.00016751       -0.0186555      -0.0197819      0.000398541    -0.000337866
                    -0.000128602      5.7472e-05         0.980314       -0.174645       0.00032982    -0.000348525        0.0356418        0.075257
281744                -0.0191501      -0.0200007     -0.000499795     7.26929e-05         0.732025       -0.677195      1.50242e-05     0.000176835
                    -0.000603993       5.126e-05      -0.00753523       0.0827696       9.4046e-05     9.80603e-05         0.980241       -0.175526
                        0.731497       -0.676913      0.000173094     0.000167367       -0.0186785      -0.0197725      0.000398456    -0.000338175
                    -0.000128558      5.7639e-05         0.980249        -0.17501      0.000329781    -0.000348664        0.0356671       0.0752387
281746                -0.0191553      -0.0200078     -0.000499659     7.28229e-05         0.731748       -0.677493      1.50961e-05     0.000176828
                    -0.000604014     5.16378e-05      -0.00750365       0.0827668      9.41295e-05     9.80395e-05         0.980176       -0.175891
                        0.731221        -0.67721      0.000173038     0.000167223       -0.0187016      -0.0197631      0.000398371    -0.000338485
                    -0.000128513     5.78058e-05         0.980184       -0.175375      0.000329742    -0.000348803        0.0356924       0.0752205
281748                -0.0191606      -0.0200149     -0.000499522     7.29531e-05         0.731472       -0.677791      1.51679e-05     0.000176822
                    -0.000604034     5.20156e-05      -0.00747207        0.082764      9.42129e-05     9.80188e-05         0.980111       -0.176256
                        0.730945       -0.677507      0.000172981     0.000167079       -0.0187247      -0.0197537      0.000398287    -0.000338794
                    -0.000128468     5.79725e-05         0.980119       -0.175739      0.000329704    -0.000348942        0.0357177       0.0752022
281750                -0.0191659       -0.020022     -0.000499386     7.30834e-05         0.731196       -0.678088      1.52395e-05     0.000176815
                    -0.000604054     5.23932e-05       -0.0074405       0.0827612      9.42961e-05     9.79983e-05         0.980046        -0.17662
                        0.730669       -0.677804      0.000172924     0.000166935       -0.0187478      -0.0197443      0.000398202    -0.000339104
                    -0.000128423     5.81389e-05         0.980053       -0.176104      0.000329666    -0.000349081        0.0357429        0.075184
281752                -0.0191712      -0.0200291     -0.000499249     7.32139e-05         0.730919       -0.678385      1.53111e-05     0.000176808
                    -0.000604074     5.27709e-05      -0.00740893       0.0827583      9.43791e-05      9.7978e-05         0.979981       -0.176985
                        0.730392       -0.678101      0.000172867     0.000166791       -0.0187708      -0.0197349      0.000398118    -0.000339414
                    -0.000128377     5.83052e-05         0.979988       -0.176469      0.000329629    -0.000349222        0.0357682       0.0751657
281754                -0.0191766      -0.0200362     -0.000499112     7.33445e-05         0.730642       -0.678682      1.53825e-05     0.000176801
                    -0.000604094     5.31485e-05      -0.00737735       0.0827555       9.4462e-05     9.79583e-05         0.979915        -0.17735
                        0.730116       -0.678398       0.00017281     0.000166647       -0.0187939      -0.0197254      0.000398035    -0.000339724
                    -0.000128332     5.84714e-05         0.979922       -0.176833      0.000329592    -0.000349362        0.0357935       0.0751474
281756                -0.0191819      -0.0200433     -0.000498974     7.34754e-05         0.730365       -0.678979      1.54539e-05     0.000176793
                    -0.000604113      5.3526e-05      -0.00734579       0.0827526      9.45447e-05     9.79394e-05          0.97985       -0.177714
                        0.729839       -0.678694      0.000172753     0.000166503        -0.018817      -0.0197162      0.000397951    -0.000340035
                    -0.000128286     5.86373e-05         0.979857       -0.177198      0.000329555    -0.000349504        0.0358187       0.0751292
281758                -0.0191872      -0.0200504     -0.000498836     7.36065e-05         0.730089       -0.679277      1.55251e-05     0.000176785
                    -0.000604132     5.39035e-05      -0.00731422       0.0827497      9.46278e-05     9.79217e-05         0.979784       -0.178079
                        0.729562       -0.678991      0.000172696     0.000166358         -0.01884      -0.0197065      0.000397868    -0.000340345
                     -0.00012824     5.88031e-05         0.979791       -0.177563      0.000329518    -0.000349645         0.035844       0.0751109
281760                -0.0191925      -0.0200575     -0.000498698     7.37378e-05         0.729812       -0.679574      1.55962e-05     0.000176778
                    -0.000604151      5.4281e-05      -0.00728266       0.0827468      9.47123e-05     9.79057e-05         0.979718       -0.178443
                        0.729285       -0.679287      0.000172639     0.000166214        -0.018863       -0.019697      0.000397785    -0.000340656
                    -0.000128194     5.89688e-05         0.979725       -0.177927       0.00032948    -0.000349787        0.0358692       0.0750926
281762                -0.0191979      -0.0200646      -0.00049856     7.38695e-05         0.729535        -0.67987      1.56672e-05      0.00017677
                    -0.000604169     5.46584e-05      -0.00725109       0.0827439      9.48004e-05     9.78906e-05         0.979652       -0.178808
                        0.729008       -0.679583      0.000172583      0.00016607       -0.0188861      -0.0196875      0.000397702    -0.000340967
