! TOUCHSTONE file generated by CST MICROWAVE STUDIO
! Date and time: Tue Oct 14 07:31:41 2025
! Project name: Teste_Macro_Metasurface_Nanopilar.cst
! Parameters = {H=600; L_x=180; L_y=70; Lambda=1064; Max_L=200; Min_L=70; PathPara=1; Phi=0; Step_L=10; Theta=0; p=520; phaseX=180; phaseY=0}
! Header version: 2018
! Port assignment regex: !\s*Touchstone port\s*([0-9]+)\s*=\s*(CST MWS port|CST DS port)\s*([0-9]+|Zmin|Zmax)\s*\(\"(.*)\"\)(\s*mode\s*([0-9]+))?.*
! Touchstone port assignment:
! Touchstone port 1 = CST MWS port Zmax ("") mode 1
! Touchstone port 2 = CST MWS port Zmax ("") mode 2
! Touchstone port 3 = CST MWS port Zmin ("") mode 1
! Touchstone port 4 = CST MWS port Zmin ("") mode 2
! S-Parameters are not renormalized. Each port impedance will be approximated by the real part at minimum frequency. The values are described via the [Reference] keyword.
! Default impedance is overridden by [Reference]
[Version] 2.0
# GHz S RI R 376.73
[Number of Ports] 4
[Reference]
376.73 376.73 259.814 259.814 
[Number of Frequencies] 51
[Network Data]
281700               -0.00839649       0.0954444      0.000423408     0.000646109         0.986519        -0.12699     -0.000271852     0.000100803
                     0.000190067     0.000588888        0.0458238       -0.132366     -0.000180648     0.000327742        -0.405863        0.895022
                        0.987058       -0.126519     -0.000121927     0.000483495        0.0322438       0.0903686     -0.000453994    -0.000508674
                    -0.000314956     0.000142422        -0.405763        0.895024     -0.000456316    -0.000441621       -0.0685031        0.123584
281702               -0.00836082       0.0954434      0.000423476     0.000645994         0.986471       -0.127353     -0.000271809     0.000100958
                     0.000190371     0.000588784        0.0457698       -0.132414     -0.000180411     0.000327896        -0.405426        0.895217
                        0.987012       -0.126881     -0.000121815     0.000483455        0.0322754       0.0903531     -0.000454239    -0.000508499
                     -0.00031475      0.00014257        -0.405325        0.895218     -0.000456821     -0.00044163       -0.0684544        0.123641
281704               -0.00832516       0.0954424      0.000423544      0.00064588         0.986423       -0.127717     -0.000271765     0.000101113
                     0.000190675     0.000588679        0.0457159       -0.132462     -0.000180174     0.000328051        -0.404988        0.895411
                        0.986966       -0.127243     -0.000121704     0.000483414         0.032307       0.0903375     -0.000454484    -0.000508324
                    -0.000314544     0.000142717        -0.404887        0.895412     -0.000457327     -0.00044164       -0.0684058        0.123699
281706                -0.0082895       0.0954414      0.000423611     0.000645766         0.986375        -0.12808     -0.000271722     0.000101268
                     0.000190978     0.000588573        0.0456619        -0.13251     -0.000179937     0.000328206         -0.40455        0.895605
                        0.986919       -0.127605     -0.000121593     0.000483372        0.0323386        0.090322      -0.00045473    -0.000508149
                    -0.000314337     0.000142863        -0.404449        0.895606     -0.000457833     -0.00044165       -0.0683571        0.123757
281708               -0.00825384       0.0954403      0.000423677     0.000645652         0.986326       -0.128443     -0.000271679     0.000101423
                     0.000191282     0.000588466        0.0456079       -0.132557     -0.000179701      0.00032836        -0.404112        0.895799
                        0.986872       -0.127967     -0.000121482     0.000483329        0.0323701       0.0903064     -0.000454977    -0.000507973
                     -0.00031413     0.000143008        -0.404011          0.8958     -0.000458339     -0.00044166       -0.0683084        0.123814
281710               -0.00821818       0.0954393      0.000423742     0.000645538         0.986278       -0.128806     -0.000271635     0.000101579
                     0.000191586     0.000588357        0.0455539       -0.132605     -0.000179465     0.000328515        -0.403674        0.895992
                        0.986825       -0.128329     -0.000121372     0.000483286        0.0324017       0.0902908     -0.000455224    -0.000507796
                    -0.000313921     0.000143152        -0.403573        0.895993     -0.000458846     -0.00044167       -0.0682596        0.123872
281712               -0.00818252       0.0954383      0.000423806     0.000645425         0.986229       -0.129169     -0.000271592     0.000101734
                      0.00019189     0.000588247        0.0454999       -0.132652     -0.000179229      0.00032867        -0.403235        0.896185
                        0.986778       -0.128691     -0.000121262     0.000483242        0.0324332       0.0902752     -0.000455472     -0.00050762
                    -0.000313712     0.000143294        -0.403135        0.896186     -0.000459353     -0.00044168       -0.0682107        0.123929
281714               -0.00814687       0.0954372       0.00042387     0.000645311         0.986181       -0.129532     -0.000271549      0.00010189
                     0.000192195     0.000588136        0.0454458         -0.1327     -0.000178994     0.000328825        -0.402797        0.896379
                        0.986731       -0.129053     -0.000121152     0.000483196        0.0324647       0.0902596      -0.00045572    -0.000507443
                    -0.000313503     0.000143435        -0.402696        0.896379     -0.000459861    -0.000441691       -0.0681619        0.123987
281716               -0.00811121       0.0954361      0.000423932     0.000645197         0.986132       -0.129895     -0.000271507     0.000102047
                     0.000192499     0.000588024        0.0453917       -0.132748     -0.000178759      0.00032898        -0.402359        0.896571
                        0.986684       -0.129415     -0.000121042     0.000483151        0.0324963        0.090244     -0.000455969    -0.000507265
                    -0.000313292     0.000143575        -0.402258        0.896572     -0.000460369    -0.000441702       -0.0681129        0.124045
281718               -0.00807556        0.095435      0.000423994     0.000645084         0.986083       -0.130258     -0.000271464     0.000102206
                     0.000192803     0.000587911        0.0453376       -0.132795     -0.000178524     0.000329135         -0.40192        0.896764
                        0.986636       -0.129777     -0.000120933     0.000483104        0.0325278       0.0902283     -0.000456219    -0.000507088
                    -0.000313081     0.000143714        -0.401819        0.896764     -0.000460878    -0.000441713        -0.068064        0.124102
281720               -0.00803991       0.0954339      0.000424055     0.000644971         0.986033       -0.130621     -0.000271419     0.000102366
                     0.000193108     0.000587796        0.0452834       -0.132843     -0.000178289      0.00032929        -0.401482        0.896957
                        0.986589       -0.130139     -0.000120824     0.000483056        0.0325593       0.0902127     -0.000456469    -0.000506911
                     -0.00031287     0.000143852         -0.40138        0.896957     -0.000461386    -0.000441724       -0.0680149         0.12416
281722               -0.00800426       0.0954328      0.000424114     0.000644857         0.985984       -0.130984     -0.000271373     0.000102527
                     0.000193412      0.00058768        0.0452293        -0.13289     -0.000178055     0.000329446        -0.401043        0.897149
                        0.986541       -0.130501     -0.000120715     0.000483008        0.0325908        0.090197     -0.000456719    -0.000506734
                    -0.000312657     0.000143989        -0.400942        0.897149     -0.000461895    -0.000441736       -0.0679659        0.124217
281724               -0.00796861       0.0954317      0.000424174     0.000644744         0.985935       -0.131347     -0.000271324     0.000102687
                     0.000193717     0.000587564        0.0451751       -0.132938     -0.000177821     0.000329601        -0.400604        0.897341
                        0.986493       -0.130862     -0.000120607     0.000482959        0.0326223       0.0901814     -0.000456969    -0.000506556
                    -0.000312445     0.000144124        -0.400503        0.897341     -0.000462405    -0.000441747       -0.0679168        0.124275
281726               -0.00793296       0.0954305      0.000424232     0.000644631         0.985885        -0.13171     -0.000271272     0.000102846
                     0.000194021     0.000587445        0.0451209       -0.132985     -0.000177587     0.000329757        -0.400165        0.897533
                        0.986445       -0.131224     -0.000120499     0.000482909        0.0326538       0.0901657      -0.00045722    -0.000506379
                    -0.000312231     0.000144259        -0.400064        0.897532     -0.000462914    -0.000441759       -0.0678676        0.124332
281728               -0.00789731       0.0954294      0.000424289     0.000644518         0.985836       -0.132073      -0.00027122     0.000103003
                     0.000194326     0.000587326        0.0450666       -0.133033     -0.000177354     0.000329912        -0.399726        0.897724
                        0.986397       -0.131586     -0.000120391     0.000482858        0.0326853         0.09015     -0.000457471    -0.000506202
                    -0.000312017     0.000144392        -0.399625        0.897724     -0.000463424    -0.000441771       -0.0678184         0.12439
281730               -0.00786167       0.0954282      0.000424345     0.000644406         0.985786       -0.132436     -0.000271169     0.000103157
                     0.000194631     0.000587206        0.0450123        -0.13308     -0.000177121     0.000330068        -0.399287        0.897915
                        0.986349       -0.131948     -0.000120284     0.000482807        0.0327168       0.0901343     -0.000457723    -0.000506024
                    -0.000311802     0.000144525        -0.399186        0.897915     -0.000463935    -0.000441782       -0.0677692        0.124447
281732               -0.00782602        0.095427      0.000424401     0.000644293         0.985736       -0.132799     -0.000271118      0.00010331
                     0.000194936     0.000587084         0.044958       -0.133127     -0.000176888     0.000330224        -0.398848        0.898107
                          0.9863        -0.13231     -0.000120177     0.000482755        0.0327482       0.0901186     -0.000457974    -0.000505847
                    -0.000311586     0.000144656        -0.398746        0.898106     -0.000464445    -0.000441794       -0.0677199        0.124505
281734               -0.00779038       0.0954258      0.000424456      0.00064418         0.985686       -0.133162     -0.000271068     0.000103463
                     0.000195241     0.000586961        0.0449037       -0.133175     -0.000176655      0.00033038        -0.398409        0.898298
                        0.986252       -0.132672      -0.00012007     0.000482701        0.0327797       0.0901029     -0.000458226     -0.00050567
                     -0.00031137     0.000144786        -0.398307        0.898297     -0.000464956    -0.000441806       -0.0676705        0.124562
281736               -0.00775474       0.0954246       0.00042451     0.000644068         0.985636       -0.133524     -0.000271019     0.000103616
                     0.000195546     0.000586837        0.0448494       -0.133222     -0.000176423     0.000330536         -0.39797        0.898488
                        0.986203       -0.133033     -0.000119963     0.000482647        0.0328112       0.0900871     -0.000458478    -0.000505493
                    -0.000311154     0.000144916        -0.397868        0.898487     -0.000465466    -0.000441818       -0.0676211         0.12462
281738                -0.0077191       0.0954234      0.000424563     0.000643955         0.985585       -0.133887      -0.00027097     0.000103769
                     0.000195851     0.000586712         0.044795       -0.133269     -0.000176192     0.000330692         -0.39753        0.898679
                        0.986155       -0.133395     -0.000119857     0.000482592        0.0328426       0.0900714      -0.00045873    -0.000505316
                    -0.000310937     0.000145044        -0.397428        0.898678     -0.000465978    -0.000441831       -0.0675717        0.124677
281740               -0.00768347       0.0954222      0.000424615     0.000643843         0.985535        -0.13425     -0.000270921     0.000103922
                     0.000196157     0.000586586        0.0447406       -0.133317      -0.00017596     0.000330848        -0.397091        0.898869
                        0.986106       -0.133757     -0.000119751     0.000482537         0.032874       0.0900556     -0.000458981    -0.000505139
                    -0.000310719     0.000145171        -0.396989        0.898868     -0.000466489    -0.000441843       -0.0675222        0.124735
281742               -0.00764783       0.0954209      0.000424666     0.000643731         0.985484       -0.134613     -0.000270873     0.000104075
                     0.000196462     0.000586458        0.0446862       -0.133364     -0.000175729     0.000331005        -0.396651        0.899059
                        0.986057       -0.134119     -0.000119645      0.00048248        0.0329055       0.0900399     -0.000459233    -0.000504962
                      -0.0003105     0.000145297        -0.396549        0.899058        -0.000467    -0.000441855       -0.0674727        0.124792
281744                -0.0076122       0.0954197      0.000424716     0.000643619         0.985434       -0.134976     -0.000270824     0.000104228
                     0.000196767      0.00058633        0.0446317       -0.133411     -0.000175499     0.000331161        -0.396212        0.899249
                        0.986007        -0.13448      -0.00011954     0.000482423        0.0329369       0.0900241     -0.000459485    -0.000504785
                    -0.000310282     0.000145422        -0.396109        0.899247     -0.000467512    -0.000441867       -0.0674231         0.12485
281746               -0.00757656       0.0954184      0.000424766     0.000643507         0.985383       -0.135339     -0.000270776     0.000104382
                     0.000197073       0.0005862        0.0445772       -0.133459     -0.000175268     0.000331318        -0.395772        0.899439
                        0.985958       -0.134842     -0.000119435     0.000482365        0.0329683       0.0900083     -0.000459737    -0.000504608
                    -0.000310062     0.000145546        -0.395669        0.899437     -0.000468024     -0.00044188       -0.0673735        0.124907
281748               -0.00754093       0.0954171      0.000424814     0.000643395         0.985332       -0.135702     -0.000270727     0.000104535
                     0.000197379     0.000586069        0.0445227       -0.133506     -0.000175039     0.000331474        -0.395332        0.899628
                        0.985909       -0.135204     -0.000119331     0.000482306        0.0329997       0.0899925     -0.000459989    -0.000504431
                    -0.000309842      0.00014567        -0.395229        0.899626     -0.000468536    -0.000441892       -0.0673239        0.124964
281750                -0.0075053       0.0954158      0.000424862     0.000643283         0.985281       -0.136064     -0.000270678     0.000104689
                     0.000197684     0.000585937        0.0444682       -0.133553     -0.000174809     0.000331631        -0.394892        0.899817
                        0.985859       -0.135565     -0.000119226     0.000482246        0.0330311       0.0899767      -0.00046024    -0.000504255
                    -0.000309622     0.000145792        -0.394789        0.899815     -0.000469048    -0.000441904       -0.0672741        0.125022
281752               -0.00746967       0.0954145      0.000424909     0.000643172          0.98523       -0.136427     -0.000270629     0.000104842
                      0.00019799     0.000585804        0.0444137         -0.1336      -0.00017458     0.000331788        -0.394452        0.900006
                        0.985809       -0.135927     -0.000119122     0.000482185        0.0330625       0.0899609     -0.000460492    -0.000504078
                    -0.000309401     0.000145913        -0.394349        0.900004      -0.00046956    -0.000441916       -0.0672244        0.125079
281754               -0.00743405       0.0954132      0.000424955      0.00064306         0.985179        -0.13679      -0.00027058     0.000104996
                     0.000198296     0.000585669        0.0443591       -0.133647     -0.000174351     0.000331945        -0.394012        0.900195
                         0.98576       -0.136289     -0.000119019     0.000482124        0.0330939        0.089945     -0.000460743    -0.000503901
                    -0.000309179     0.000146034        -0.393909        0.900192     -0.000470072    -0.000441928       -0.0671746        0.125137
281756               -0.00739842       0.0954118         0.000425     0.000642949         0.985127       -0.137153     -0.000270531     0.000105149
                     0.000198602     0.000585534        0.0443045       -0.133694     -0.000174123     0.000332102        -0.393572        0.900383
                         0.98571        -0.13665     -0.000118915     0.000482062        0.0331253       0.0899292     -0.000460995    -0.000503724
                    -0.000308958     0.000146153        -0.393469        0.900381     -0.000470584     -0.00044194       -0.0671247        0.125194
281758                -0.0073628       0.0954105      0.000425044     0.000642837         0.985076       -0.137515     -0.000270481     0.000105303
                     0.000198908     0.000585397        0.0442499       -0.133742     -0.000173895     0.000332259        -0.393132        0.900572
                         0.98566       -0.137012     -0.000118812     0.000481998        0.0331567       0.0899133     -0.000461246    -0.000503547
                    -0.000308736     0.000146272        -0.393028        0.900569     -0.000471097    -0.000441952       -0.0670748        0.125251
281760               -0.00732718       0.0954091      0.000425087     0.000642726         0.985024       -0.137878     -0.000270432     0.000105456
                     0.000199214      0.00058526        0.0441952       -0.133789     -0.000173668     0.000332416        -0.392691         0.90076
                        0.985609       -0.137373      -0.00011871     0.000481934        0.0331881       0.0898975     -0.000461497     -0.00050337
                    -0.000308514      0.00014639        -0.392588        0.900757     -0.000471609    -0.000441964       -0.0670249        0.125309
281762               -0.00729156       0.0954077      0.000425129     0.000642615         0.984972       -0.138241     -0.000270382      0.00010561
                     0.000199521     0.000585121        0.0441405       -0.133836     -0.000173441     0.000332573        -0.392251        0.900948
                        0.985559       -0.137735     -0.000118607      0.00048187        0.0332194       0.0898816     -0.000461748    -0.000503192
