! TOUCHSTONE file generated by CST MICROWAVE STUDIO
! Date and time: Tue Oct 14 07:32:49 2025
! Project name: Teste_Macro_Metasurface_Nanopilar.cst
! Parameters = {H=600; L_x=195; L_y=155; Lambda=1064; Max_L=200; Min_L=70; PathPara=1; Phi=0; Step_L=10; Theta=0; p=520; phaseX=180; phaseY=0}
! Header version: 2018
! Port assignment regex: !\s*Touchstone port\s*([0-9]+)\s*=\s*(CST MWS port|CST DS port)\s*([0-9]+|Zmin|Zmax)\s*\(\"(.*)\"\)(\s*mode\s*([0-9]+))?.*
! Touchstone port assignment:
! Touchstone port 1 = CST MWS port Zmax ("") mode 1
! Touchstone port 2 = CST MWS port Zmax ("") mode 2
! Touchstone port 3 = CST MWS port Zmin ("") mode 1
! Touchstone port 4 = CST MWS port Zmin ("") mode 2
! S-Parameters are not renormalized. Each port impedance will be approximated by the real part at minimum frequency. The values are described via the [Reference] keyword.
! Default impedance is overridden by [Reference]
[Version] 2.0
# GHz S RI R 376.73
[Number of Ports] 4
[Reference]
376.73 376.73 259.814 259.814 
[Number of Frequencies] 51
[Network Data]
281700                 0.0676402       -0.600004     -0.000229455     0.000412378         0.267159        0.440425       0.00111262     -0.00227237
                    -0.000718024     7.70808e-06        -0.242759      -0.0967251      9.02776e-05     0.000187654         0.944205        0.184555
                        0.266077        0.441033      0.000282883    -0.000326874        0.0907096        0.647371      -0.00190347    -0.000308184
                     1.57708e-05    -0.000777039         0.944755        0.184194     -0.000396322     0.000368272         0.259289      2.7467e-05
281702                 0.0636489       -0.599669     -0.000230825     0.000414457         0.268331        0.443617       0.00110192     -0.00226946
                    -0.000716861     1.17801e-05        -0.242801      -0.0966655      9.36388e-05     0.000186578          0.94428        0.184167
                         0.26726        0.444231      0.000286527    -0.000323953        0.0937962         0.64586      -0.00190133    -0.000302094
                      1.3342e-05    -0.000774459         0.944828        0.183807      -0.00039322     0.000369285         0.259306    -0.000115655
281704                 0.0596884       -0.599293     -0.000232167      0.00041652         0.269534        0.446773       0.00109147     -0.00226686
                    -0.000715661     1.58129e-05        -0.242843      -0.0966059      9.69743e-05     0.000185482         0.944355        0.183779
                        0.268474        0.447394      0.000290139    -0.000321042        0.0968462        0.644327      -0.00189961    -0.000296371
                     1.09583e-05    -0.000771873         0.944901         0.18342     -0.000390128     0.000370257         0.259323    -0.000258827
281706                 0.0557591       -0.598876      -0.00023348     0.000418566         0.270769        0.449895       0.00108121     -0.00226456
                    -0.000714422     1.98061e-05        -0.242885      -0.0965463      0.000100284     0.000184365          0.94443        0.183391
                        0.269718        0.450521      0.000293717    -0.000318142        0.0998595        0.642773      -0.00189826    -0.000290969
                     8.61938e-06    -0.000769281         0.944974        0.183034     -0.000387045     0.000371188         0.259339    -0.000402047
281708                 0.0518613        -0.59842     -0.000234764     0.000420591         0.272033        0.452981       0.00107108     -0.00226253
                    -0.000713148     2.37597e-05        -0.242927      -0.0964866      0.000103568     0.000183229         0.944505        0.183003
                        0.270993        0.453614      0.000297256    -0.000315255         0.102836        0.641197      -0.00189725    -0.000285838
                      6.3248e-06    -0.000766683         0.945047        0.182647     -0.000383974     0.000372079         0.259356    -0.000545312
281710                 0.0479953       -0.597926     -0.000236021     0.000422594         0.273326        0.456033       0.00106102     -0.00226074
                    -0.000711839     2.76735e-05        -0.242969      -0.0964269      0.000106827     0.000182074         0.944579        0.182615
                        0.272296        0.456671      0.000300755    -0.000312382         0.105776        0.639601      -0.00189654    -0.000280928
                     4.07421e-06    -0.000764081         0.945119         0.18226     -0.000380914     0.000372931         0.259372    -0.000688621
281712                 0.0441614       -0.597394      -0.00023725     0.000424572         0.274647        0.459049       0.00105097     -0.00225915
                    -0.000710495     3.15473e-05        -0.243011      -0.0963673      0.000110061     0.000180901         0.944653        0.182227
                        0.273627        0.459693      0.000304209    -0.000309524          0.10868        0.637986      -0.00189606    -0.000276189
                     1.86719e-06    -0.000761475         0.945192        0.181874     -0.000377866     0.000373745         0.259388     -0.00083197
281714                 0.0403599       -0.596825     -0.000238452     0.000426522         0.275995        0.462029       0.00104086     -0.00225772
                    -0.000709118      3.5381e-05        -0.243053      -0.0963076      0.000113269     0.000179711         0.944727         0.18184
                        0.274986        0.462679      0.000307616    -0.000306683         0.111547        0.636352      -0.00189575     -0.00027157
                    -2.96651e-07    -0.000758867         0.945264        0.181488     -0.000374831     0.000374521         0.259405    -0.000975357
281716                 0.0365908       -0.596221     -0.000239627     0.000428443          0.27737        0.464975       0.00103064     -0.00225639
                    -0.000707709     3.91745e-05        -0.243095      -0.0962478      0.000116452     0.000178504         0.944801        0.181452
                        0.276371         0.46563      0.000310972    -0.000303858         0.114378        0.634701      -0.00189553    -0.000267017
                    -2.41774e-06    -0.000756255         0.945335        0.181101     -0.000371809      0.00037526         0.259421     -0.00111878
281718                 0.0328545       -0.595582     -0.000240778     0.000430332          0.27877        0.467885       0.00102023     -0.00225511
                    -0.000706269     4.29278e-05        -0.243136      -0.0961881      0.000119611     0.000177281         0.944874        0.181065
                        0.277781        0.468545      0.000314276    -0.000301052         0.117173        0.633032      -0.00189532    -0.000262481
                     -4.4965e-06    -0.000753643         0.945407        0.180715       -0.0003688     0.000375962         0.259437     -0.00126224
281720                 0.0291512       -0.594909     -0.000241903     0.000432187         0.280195        0.470759       0.00100956     -0.00225379
                    -0.000704799     4.66409e-05        -0.243178      -0.0961283      0.000122744     0.000176043         0.944947        0.180678
                        0.279216        0.471425      0.000317524    -0.000298263         0.119932        0.631347      -0.00189502    -0.000257909
                    -6.53337e-06    -0.000751029         0.945478        0.180329     -0.000365805     0.000376628         0.259453     -0.00140573
281722                 0.0254809       -0.594203     -0.000243006     0.000434007         0.281643        0.473599      0.000998562     -0.00225236
                      -0.0007033     5.03136e-05         -0.24322      -0.0960686      0.000125853     0.000174791         0.945021        0.180292
                        0.280675        0.474269      0.000320713    -0.000295494         0.122655        0.629647      -0.00189454    -0.000253252
                    -8.52878e-06    -0.000748415         0.945549        0.179943     -0.000362825     0.000377258         0.259469     -0.00154925
281724                 0.0218439       -0.593465     -0.000244086     0.000435788         0.283115        0.476402       0.00098718     -0.00225074
                    -0.000701772      5.3946e-05        -0.243262      -0.0960088      0.000128938     0.000173524         0.945094        0.179905
                        0.282157        0.477077      0.000323841    -0.000292742         0.125342        0.627932      -0.00189377    -0.000248462
                    -1.04832e-05    -0.000745801          0.94562        0.179557     -0.000359859     0.000377855         0.259485     -0.00169279
281726                 0.0182403       -0.592695     -0.000245145     0.000437529         0.284609        0.479171      0.000975346     -0.00224881
                    -0.000700216     5.75381e-05        -0.243304       -0.095949      0.000131998     0.000172244         0.945167        0.179519
                        0.283661         0.47985      0.000326906    -0.000290009         0.127994        0.626202      -0.00189259    -0.000243492
                     -1.2397e-05    -0.000743189         0.945691        0.179172     -0.000356908     0.000378417         0.259501     -0.00183637
281728                   0.01467       -0.591895     -0.000246185     0.000439227         0.286124        0.481904      0.000963003     -0.00224649
                    -0.000698635     6.10899e-05        -0.243345      -0.0958891      0.000135035     0.000170952          0.94524        0.179133
                        0.285187        0.482588      0.000329906    -0.000287295          0.13061        0.624459      -0.00189089      -0.0002383
                    -1.42708e-05    -0.000740577         0.945761        0.178786     -0.000353973     0.000378945         0.259517     -0.00197997
281730                 0.0111334       -0.591066     -0.000247206     0.000440883          0.28766        0.484602      0.000950098     -0.00224366
                    -0.000697027     6.46015e-05        -0.243387      -0.0958293      0.000138048     0.000169647         0.945313        0.178748
                        0.286733         0.48529      0.000332838    -0.000284598         0.133191        0.622704      -0.00188854    -0.000232846
                    -1.61049e-05    -0.000737968         0.945832          0.1784     -0.000351054     0.000379442         0.259533     -0.00212359
281732                0.00763034       -0.590207     -0.000248211     0.000442493         0.289217        0.487264      0.000936587     -0.00224021
                    -0.000695395     6.80729e-05        -0.243429      -0.0957694      0.000141037     0.000168331         0.945386        0.178362
                          0.2883        0.487957        0.0003357     -0.00028192         0.135737        0.620936      -0.00188542    -0.000227095
                    -1.78998e-05    -0.000735362         0.945902        0.178015      -0.00034815     0.000379905         0.259548     -0.00226723
281734                0.00416094        -0.58932     -0.000249201     0.000444056         0.290792        0.489892      0.000922432     -0.00223603
                     -0.00069374     7.15043e-05         -0.24347      -0.0957095      0.000144003     0.000167003         0.945459        0.177977
                        0.289885        0.490589      0.000338493    -0.000279258         0.138248        0.619157      -0.00188141    -0.000221018
                    -1.96561e-05    -0.000732758         0.945971        0.177629     -0.000345263     0.000380338         0.259564      -0.0024109
281736               0.000725246       -0.588407     -0.000250178      0.00044557         0.292386        0.492485      0.000907606     -0.00223102
                    -0.000692061     7.48957e-05        -0.243512      -0.0956496      0.000146946     0.000165666         0.945532        0.177591
                         0.29149        0.493185      0.000341213    -0.000276613         0.140725        0.617367       -0.0018764    -0.000214588
                    -2.13741e-05    -0.000730159         0.946041        0.177244     -0.000342393      0.00038074          0.25958     -0.00255458
281738               -0.00267674       -0.587466     -0.000251143     0.000447036         0.293998        0.495043      0.000892092     -0.00222506
                     -0.00069036     7.82472e-05        -0.243554      -0.0955897      0.000149866     0.000164318         0.945605        0.177206
                        0.293112        0.495747      0.000343859    -0.000273984         0.143167        0.615566      -0.00187028    -0.000207786
                    -2.30544e-05    -0.000727563          0.94611        0.176859      -0.00033954     0.000381111         0.259595     -0.00269827
281740               -0.00604502         -0.5865     -0.000252099      0.00044845         0.295627        0.497566      0.000875883     -0.00221806
                    -0.000688637      8.1559e-05        -0.243595      -0.0955297      0.000152764     0.000162961         0.945679        0.176821
                        0.294751        0.498274      0.000346431    -0.000271371         0.145576        0.613756      -0.00186294    -0.000200599
                    -2.46974e-05    -0.000724973         0.946179        0.176473     -0.000336704     0.000381453         0.259611     -0.00284199
281742               -0.00937959        -0.58551     -0.000253046     0.000449813         0.297272        0.500055      0.000858985     -0.00220993
                    -0.000686895     8.48312e-05        -0.243637      -0.0954697      0.000155639     0.000161596         0.945752        0.176435
                        0.296406        0.500766      0.000348929    -0.000268772          0.14795        0.611937      -0.00185432    -0.000193019
                    -2.63036e-05    -0.000722387         0.946248        0.176088     -0.000333886     0.000381766         0.259626     -0.00298571
281744                -0.0126805       -0.584495     -0.000253988     0.000451124         0.298933        0.502509      0.000841415     -0.00220061
                    -0.000685132     8.80639e-05        -0.243678      -0.0954097      0.000158492     0.000160222         0.945825         0.17605
                        0.298078        0.503223       0.00035135    -0.000266188         0.150291         0.61011      -0.00184433    -0.000185044
                    -2.78736e-05    -0.000719807         0.946317        0.175703     -0.000331085      0.00038205         0.259641     -0.00312945
281746                -0.0159478       -0.583456     -0.000254925     0.000452382         0.300609        0.504929      0.000823199     -0.00219005
                    -0.000683351     9.12574e-05         -0.24372      -0.0953497      0.000161324      0.00015884         0.945897        0.175664
                        0.299764        0.505647      0.000353696    -0.000263617         0.152598        0.608274      -0.00183294    -0.000176678
                    -2.94077e-05    -0.000717233         0.946385        0.175318     -0.000328302     0.000382307         0.259656      -0.0032732
281748                -0.0191815       -0.582395      -0.00025586     0.000453586           0.3023        0.507315      0.000804376     -0.00217819
                    -0.000681551     9.44118e-05        -0.243761      -0.0952897      0.000164134     0.000157451          0.94597        0.175278
                        0.301465        0.508036      0.000355966    -0.000261058         0.154872        0.606432       -0.0018201    -0.000167931
                    -3.09064e-05    -0.000714666         0.946453        0.174933     -0.000325538     0.000382536         0.259671     -0.00341696
281750                -0.0223817       -0.581312     -0.000256795     0.000454737         0.304004        0.509667      0.000784993     -0.00216504
                    -0.000679734     9.75273e-05        -0.243803      -0.0952297      0.000166922     0.000156055         0.946042        0.174891
                        0.303179        0.510391       0.00035816    -0.000258512         0.157114        0.604582      -0.00180582    -0.000158818
                    -3.23703e-05    -0.000712106         0.946521        0.174548     -0.000322791     0.000382739         0.259686     -0.00356073
281752                -0.0255484       -0.580208     -0.000257732     0.000455835         0.305722        0.511985      0.000765107     -0.00215059
                      -0.0006779     0.000100604        -0.243844      -0.0951696       0.00016969     0.000154652         0.946114        0.174505
                        0.304907        0.512712      0.000360279    -0.000255976         0.159323        0.602726       -0.0017901    -0.000149357
                    -3.37998e-05    -0.000709553         0.946589        0.174163     -0.000320063     0.000382915         0.259701     -0.00370451
281754                -0.0286818       -0.579083     -0.000258673     0.000456879         0.307452         0.51427      0.000744779     -0.00213488
                    -0.000676051     0.000103642        -0.243886      -0.0951095      0.000172438     0.000153244         0.946186        0.174117
                        0.306647        0.514999      0.000362323    -0.000253452           0.1615        0.600865      -0.00177298    -0.000139575
                    -3.51954e-05    -0.000707008         0.946656        0.173779     -0.000317353     0.000383066         0.259716     -0.00384828
281756                 -0.031782       -0.577939     -0.000259621     0.000457872         0.309194        0.516522      0.000724079     -0.00211796
                    -0.000674186     0.000106643        -0.243927      -0.0950494      0.000175164     0.000151831         0.946257         0.17373
                        0.308399        0.517254      0.000364293    -0.000250937         0.163645        0.598998      -0.00175452    -0.000129498
                    -3.65576e-05     -0.00070447         0.946723        0.173394     -0.000314662     0.000383193         0.259731     -0.00399207
281758                 -0.034849       -0.576775     -0.000260579     0.000458812         0.310948         0.51874      0.000703078     -0.00209988
                    -0.000672306     0.000109605        -0.243968      -0.0949892      0.000177871     0.000150412         0.946328        0.173341
                        0.310163        0.519475      0.000366191    -0.000248431         0.165758        0.597127      -0.00173479    -0.000119157
                    -3.78868e-05    -0.000701942          0.94679        0.173009      -0.00031199     0.000383295         0.259745     -0.00413585
281760                -0.0378831       -0.575593     -0.000261551     0.000459701         0.312712        0.520926      0.000681852     -0.00208075
                    -0.000670413     0.000112529         -0.24401      -0.0949291      0.000180558     0.000148989         0.946398        0.172953
                        0.311937        0.521663      0.000368018    -0.000245932          0.16784        0.595251      -0.00171387    -0.000108588
                    -3.91835e-05    -0.000699422         0.946857        0.172625     -0.000309337     0.000383373          0.25976     -0.00427963
281762                -0.0408843       -0.574393     -0.000262539     0.000460539         0.314487        0.523079      0.000660476     -0.00206066
                    -0.000668507     0.000115416        -0.244051      -0.0948689      0.000183226     0.000147561         0.946468        0.172564
                        0.313722        0.523818      0.000369775    -0.000243439          0.16989        0.593371      -0.00169189    -9.78259e-05
