! TOUCHSTONE file generated by CST MICROWAVE STUDIO
! Date and time: Tue Oct 14 07:32:45 2025
! Project name: Teste_Macro_Metasurface_Nanopilar.cst
! Parameters = {H=600; L_x=195; L_y=125; Lambda=1064; Max_L=200; Min_L=70; PathPara=1; Phi=0; Step_L=10; Theta=0; p=520; phaseX=180; phaseY=0}
! Header version: 2018
! Port assignment regex: !\s*Touchstone port\s*([0-9]+)\s*=\s*(CST MWS port|CST DS port)\s*([0-9]+|Zmin|Zmax)\s*\(\"(.*)\"\)(\s*mode\s*([0-9]+))?.*
! Touchstone port assignment:
! Touchstone port 1 = CST MWS port Zmax ("") mode 1
! Touchstone port 2 = CST MWS port Zmax ("") mode 2
! Touchstone port 3 = CST MWS port Zmin ("") mode 1
! Touchstone port 4 = CST MWS port Zmin ("") mode 2
! S-Parameters are not renormalized. Each port impedance will be approximated by the real part at minimum frequency. The values are described via the [Reference] keyword.
! Default impedance is overridden by [Reference]
[Version] 2.0
# GHz S RI R 376.73
[Number of Ports] 4
[Reference]
376.73 376.73 259.814 259.814 
[Number of Frequencies] 51
[Network Data]
281700                 -0.111271       -0.159706     -4.56097e-05    -0.000702553          0.31767        0.923296     -0.000347195    -6.77306e-05
                      2.1284e-05    -0.000696016        -0.168497      0.00268028      3.95338e-06     0.000143377         0.830604         0.52258
                        0.317289        0.923376      1.41136e-05     0.000171825        0.0118412        0.192837      0.000535349     0.000290067
                    -0.000252324    -6.65418e-05         0.830594        0.522772      0.000629037     0.000557219        0.0693345        0.148134
281702                 -0.111325       -0.159702     -4.59318e-05    -0.000702645          0.31808         0.92315     -0.000347024    -6.77193e-05
                      2.0915e-05    -0.000696183        -0.168505      0.00269544      4.01964e-06      0.00014343         0.830826        0.522223
                        0.317699        0.923229      1.42639e-05     0.000171725         0.011969        0.192856      0.000535816     0.000289901
                    -0.000252472    -6.66077e-05         0.830817        0.522416      0.000630677     0.000558883        0.0694532        0.148089
281704                 -0.111378       -0.159698      -4.6254e-05    -0.000702736         0.318489        0.923003     -0.000346851    -6.77074e-05
                     2.05456e-05    -0.000696351        -0.168514      0.00271061       4.0855e-06     0.000143484         0.831048        0.521866
                        0.318108        0.923083      1.44139e-05     0.000171626        0.0120968        0.192875      0.000536285     0.000289734
                     -0.00025262    -6.66768e-05         0.831039        0.522059      0.000632326     0.000560555        0.0695719        0.148044
281706                 -0.111432       -0.159694     -4.65763e-05    -0.000702827         0.318898        0.922856     -0.000346677    -6.76948e-05
                     2.01758e-05     -0.00069652        -0.168522      0.00272579      4.15093e-06     0.000143537          0.83127         0.52151
                        0.318517        0.922936      1.45636e-05     0.000171527        0.0122247        0.192894      0.000536757     0.000289568
                    -0.000252767    -6.67493e-05         0.831262        0.521703      0.000633986     0.000562234        0.0696905        0.147999
281708                 -0.111486        -0.15969     -4.68988e-05    -0.000702918         0.319308        0.922708     -0.000346502    -6.76815e-05
                     1.98056e-05    -0.000696691        -0.168531      0.00274099      4.21595e-06     0.000143591         0.831492        0.521153
                        0.318926        0.922789      1.47132e-05     0.000171427        0.0123526        0.192913      0.000537232     0.000289402
                    -0.000252914     -6.6825e-05         0.831484        0.521346      0.000635655      0.00056392        0.0698091        0.147953
281710                  -0.11154       -0.159687     -4.72214e-05    -0.000703009         0.319717        0.922561     -0.000346326    -6.76675e-05
                     1.94349e-05    -0.000696864        -0.168539       0.0027562      4.28054e-06     0.000143646         0.831714        0.520796
                        0.319335        0.922642      1.48624e-05     0.000171328        0.0124806        0.192932      0.000537708     0.000289236
                    -0.000253061    -6.69041e-05         0.831707        0.520989      0.000637335     0.000565612        0.0699277        0.147908
281712                 -0.111594       -0.159683     -4.75441e-05    -0.000703099         0.320126        0.922413     -0.000346149    -6.76529e-05
                      1.9064e-05    -0.000697038        -0.168548      0.00277142       4.3447e-06     0.000143701         0.831936        0.520439
                        0.319743        0.922495      1.50115e-05     0.000171228        0.0126086        0.192951      0.000538187      0.00028907
                    -0.000253206    -6.69866e-05         0.831929        0.520632      0.000639025     0.000567311        0.0700462        0.147863
281714                 -0.111648       -0.159679     -4.78669e-05     -0.00070319         0.320535        0.922265      -0.00034597    -6.76376e-05
                     1.86926e-05    -0.000697214        -0.168556      0.00278665      4.40842e-06     0.000143756         0.832157        0.520082
                        0.320152        0.922348      1.51603e-05     0.000171129        0.0127366         0.19297      0.000538669     0.000288904
                    -0.000253352    -6.70724e-05         0.832151        0.520275      0.000640726     0.000569017        0.0701647        0.147817
281716                 -0.111702       -0.159675     -4.81899e-05     -0.00070328         0.320944        0.922117      -0.00034579    -6.76216e-05
                      1.8321e-05    -0.000697392        -0.168565      0.00280189      4.47171e-06     0.000143812         0.832378        0.519724
                        0.320561          0.9222      1.53088e-05     0.000171029        0.0128647        0.192989      0.000539152     0.000288738
                    -0.000253497    -6.71616e-05         0.832372        0.519918      0.000642438     0.000570729        0.0702832        0.147772
281718                 -0.111756       -0.159671      -4.8513e-05     -0.00070337         0.321353        0.921969     -0.000345609    -6.76051e-05
                     1.79491e-05    -0.000697571        -0.168573      0.00281714      4.53455e-06     0.000143869         0.832599        0.519367
                        0.320969        0.922052      1.54571e-05      0.00017093        0.0129928        0.193008      0.000539638     0.000288571
                    -0.000253641    -6.72542e-05         0.832594        0.519561      0.000644161     0.000572446        0.0704017        0.147726
281720                  -0.11181       -0.159667     -4.88362e-05     -0.00070346         0.321761         0.92182     -0.000345427    -6.75879e-05
                     1.75769e-05    -0.000697752        -0.168582       0.0028324      4.59694e-06     0.000143926          0.83282         0.51901
                        0.321378        0.921904      1.56053e-05      0.00017083        0.0131209        0.193026      0.000540126     0.000288405
                    -0.000253784    -6.73502e-05         0.832815        0.519204      0.000645895      0.00057417        0.0705201         0.14768
281722                 -0.111864       -0.159663     -4.91596e-05    -0.000703549          0.32217        0.921672     -0.000345243      -6.757e-05
                     1.72044e-05    -0.000697935         -0.16859      0.00284768      4.65888e-06     0.000143984         0.833041        0.518652
                        0.321786        0.921756      1.57531e-05     0.000170731        0.0132491        0.193045      0.000540617     0.000288238
                    -0.000253927    -6.74496e-05         0.833037        0.518846      0.000647641       0.0005759        0.0706384        0.147635
281724                 -0.111918       -0.159659     -4.94831e-05    -0.000703639         0.322579        0.921523     -0.000345059    -6.75515e-05
                     1.68317e-05     -0.00069812        -0.168599      0.00286297      4.72037e-06     0.000144042         0.833262        0.518295
                        0.322195        0.921608      1.59008e-05     0.000170631        0.0133773        0.193063       0.00054111     0.000288072
                    -0.000254069    -6.75525e-05         0.833258        0.518489      0.000649398     0.000577636        0.0707567        0.147589
281726                 -0.111972       -0.159655     -4.98067e-05    -0.000703728         0.322988        0.921374     -0.000344873    -6.75324e-05
                     1.64589e-05    -0.000698306        -0.168607      0.00287827       4.7814e-06     0.000144101         0.833482        0.517937
                        0.322603        0.921459      1.60483e-05     0.000170531        0.0135056        0.193082      0.000541605     0.000287905
                     -0.00025421    -6.76588e-05         0.833479        0.518131      0.000651168     0.000579378         0.070875        0.147543
281728                 -0.112026       -0.159651     -5.01305e-05    -0.000703817         0.323396        0.921225     -0.000344686    -6.75127e-05
                     1.60858e-05    -0.000698494        -0.168616      0.00289358      4.84197e-06      0.00014416         0.833703        0.517579
                        0.323011         0.92131      1.61955e-05     0.000170432        0.0136339          0.1931      0.000542102     0.000287738
                    -0.000254351    -6.77685e-05           0.8337        0.517774      0.000652949     0.000581124        0.0709933        0.147497
281730                  -0.11208       -0.159647     -5.04544e-05    -0.000703906         0.323805        0.921076     -0.000344497    -6.74924e-05
                     1.57126e-05    -0.000698685        -0.168624       0.0029089      4.90208e-06      0.00014422         0.833923        0.517221
                         0.32342        0.921161      1.63425e-05     0.000170332        0.0137622        0.193118      0.000542602     0.000287571
                    -0.000254491    -6.78817e-05          0.83392        0.517416      0.000654743     0.000582877        0.0711115        0.147451
281732                 -0.112134       -0.159644     -5.07785e-05    -0.000703995         0.324213        0.920926     -0.000344308    -6.74715e-05
                     1.53394e-05    -0.000698877        -0.168633      0.00292423      4.96174e-06     0.000144281         0.834143        0.516863
                        0.323828        0.921012      1.64894e-05     0.000170232        0.0138906        0.193136      0.000543103     0.000287404
                    -0.000254629    -6.79984e-05         0.834141        0.517058      0.000656549     0.000584634        0.0712297        0.147404
281734                 -0.112188        -0.15964     -5.11027e-05    -0.000704084         0.324622        0.920776     -0.000344117      -6.745e-05
                      1.4966e-05    -0.000699071        -0.168642      0.00293958      5.02093e-06     0.000144342         0.834363        0.516505
                        0.324236        0.920863       1.6636e-05     0.000170132         0.014019        0.193154      0.000543608     0.000287236
                    -0.000254767    -6.81186e-05         0.834361          0.5167      0.000658368     0.000586397        0.0713478        0.147358
281736                 -0.112242       -0.159636      -5.1427e-05    -0.000704173          0.32503        0.920626     -0.000343925    -6.74279e-05
                     1.45926e-05    -0.000699267         -0.16865      0.00295493      5.07965e-06     0.000144404         0.834582        0.516147
                        0.324644        0.920713      1.67825e-05     0.000170033        0.0141474        0.193172      0.000544114     0.000287068
                    -0.000254904    -6.82423e-05         0.834581        0.516342      0.000660199     0.000588164        0.0714659        0.147312
281738                 -0.112296       -0.159632     -5.17515e-05    -0.000704261         0.325438        0.920476     -0.000343732    -6.74052e-05
                     1.42191e-05    -0.000699465        -0.168659       0.0029703      5.13792e-06     0.000144467         0.834802        0.515789
                        0.325052        0.920564      1.69287e-05     0.000169933        0.0142759         0.19319      0.000544622       0.0002869
                     -0.00025504    -6.83694e-05         0.834801        0.515984      0.000662044     0.000589936         0.071584        0.147265
281740                  -0.11235       -0.159628     -5.20762e-05    -0.000704349         0.325846        0.920326     -0.000343538     -6.7382e-05
                     1.38457e-05    -0.000699665        -0.168667      0.00298568      5.19572e-06     0.000144531         0.835021         0.51543
                         0.32546        0.920414      1.70748e-05     0.000169833        0.0144044        0.193208      0.000545133     0.000286732
                    -0.000255175    -6.85001e-05         0.835021        0.515626      0.000663903     0.000591713        0.0717021        0.147219
281742                 -0.112404       -0.159624      -5.2401e-05    -0.000704437         0.326255        0.920175     -0.000343343    -6.73582e-05
                     1.34723e-05    -0.000699867        -0.168676      0.00300107      5.25305e-06     0.000144595         0.835241        0.515072
                        0.325867        0.920264      1.72206e-05     0.000169733         0.014533        0.193226      0.000545646     0.000286563
                    -0.000255309    -6.86344e-05         0.835241        0.515268      0.000665774     0.000593494        0.0718201        0.147172
281744                 -0.112458        -0.15962      -5.2726e-05    -0.000704525         0.326663        0.920025     -0.000343146    -6.73338e-05
                     1.30991e-05    -0.000700071        -0.168685      0.00301647      5.30992e-06      0.00014466          0.83546        0.514713
                        0.326275        0.920114      1.73663e-05     0.000169633        0.0146616        0.193244      0.000546161     0.000286394
                    -0.000255442    -6.87721e-05          0.83546        0.514909       0.00066766      0.00059528         0.071938        0.147126
281746                 -0.112512       -0.159616     -5.30511e-05    -0.000704613         0.327071        0.919874     -0.000342948    -6.73088e-05
                     1.27259e-05    -0.000700277        -0.168693      0.00303188      5.36633e-06     0.000144726         0.835679        0.514355
                        0.326683        0.919963      1.75119e-05     0.000169533        0.0147902        0.193261      0.000546678     0.000286225
                    -0.000255573    -6.89134e-05          0.83568        0.514551      0.000669559      0.00059707         0.072056        0.147079
281748                 -0.112566       -0.159612     -5.33764e-05      -0.0007047         0.327479        0.919723     -0.000342749    -6.72833e-05
                     1.23529e-05    -0.000700486        -0.168702      0.00304731      5.42228e-06     0.000144793         0.835897        0.513996
                         0.32709        0.919812      1.76572e-05     0.000169433        0.0149188        0.193279      0.000547198     0.000286055
                    -0.000255703    -6.90583e-05         0.835899        0.514192      0.000671473     0.000598864        0.0721739        0.147032
281750                  -0.11262       -0.159608     -5.37018e-05    -0.000704788         0.327887        0.919572     -0.000342549    -6.72573e-05
                     1.19801e-05    -0.000700697         -0.16871      0.00306275      5.47777e-06     0.000144861         0.836116        0.513637
                        0.327498        0.919662      1.78024e-05     0.000169333        0.0150476        0.193296      0.000547719     0.000285885
                    -0.000255832    -6.92067e-05         0.836118        0.513834      0.000673401     0.000600662        0.0722917        0.146985
281752                 -0.112674       -0.159604     -5.40274e-05    -0.000704875         0.328295         0.91942     -0.000342348    -6.72307e-05
                     1.16076e-05     -0.00070091        -0.168719      0.00307819      5.53279e-06      0.00014493         0.836334        0.513278
                        0.327905        0.919511      1.79474e-05     0.000169233        0.0151763        0.193314      0.000548243     0.000285715
                     -0.00025596    -6.93587e-05         0.836337        0.513475      0.000675343     0.000602464        0.0724095        0.146938
281754                 -0.112728         -0.1596     -5.43532e-05    -0.000704962         0.328702        0.919269     -0.000342146    -6.72036e-05
                     1.12354e-05    -0.000701125        -0.168728      0.00309365      5.58735e-06     0.000144999         0.836553        0.512919
                        0.328313         0.91936      1.80923e-05     0.000169134        0.0153051        0.193331      0.000548769     0.000285544
                    -0.000256087    -6.95144e-05         0.836556        0.513116        0.0006773      0.00060427        0.0725273        0.146891
281756                 -0.112782       -0.159596     -5.46791e-05    -0.000705049          0.32911        0.919117     -0.000341942    -6.71759e-05
                     1.08635e-05    -0.000701342        -0.168736      0.00310913      5.64144e-06      0.00014507         0.836771         0.51256
                         0.32872        0.919208      1.82369e-05     0.000169034        0.0154339        0.193348      0.000549297     0.000285373
                    -0.000256212    -6.96736e-05         0.836774        0.512758      0.000679272     0.000606079        0.0726451        0.146844
281758                 -0.112837       -0.159592     -5.50053e-05    -0.000705136         0.329518        0.918965     -0.000341738    -6.71477e-05
                      1.0492e-05    -0.000701562        -0.168745      0.00312461      5.69507e-06     0.000145141         0.836989        0.512201
                        0.329127        0.919057      1.83815e-05     0.000168934        0.0155627        0.193365      0.000549827     0.000285202
                    -0.000256335    -6.98365e-05         0.836993        0.512399      0.000681259     0.000607892        0.0727628        0.146797
281760                 -0.112891       -0.159588     -5.53315e-05    -0.000705223         0.329925        0.918813     -0.000341532     -6.7119e-05
                      1.0121e-05    -0.000701785        -0.168754       0.0031401      5.74824e-06     0.000145213         0.837207        0.511842
                        0.329534        0.918905      1.85259e-05     0.000168834        0.0156916        0.193383       0.00055036      0.00028503
                    -0.000256458    -7.00031e-05         0.837211         0.51204       0.00068326     0.000609709        0.0728804        0.146749
281762                 -0.112945       -0.159584      -5.5658e-05    -0.000705309         0.330333         0.91866     -0.000341325    -6.70898e-05
                     9.75048e-06     -0.00070201        -0.168762      0.00315561      5.80093e-06     0.000145287         0.837424        0.511483
                        0.329941        0.918753      1.86701e-05     0.000168734        0.0158206          0.1934      0.000550894     0.000284857
