! TOUCHSTONE file generated by CST MICROWAVE STUDIO
! Date and time: Tue Oct 14 07:27:04 2025
! Project name: Teste_Macro_Metasurface_Nanopilar.cst
! Parameters = {H=600; L_x=105; L_y=120; Lambda=1064; Max_L=200; Min_L=70; PathPara=1; Phi=0; Step_L=10; Theta=0; p=520; phaseX=180; phaseY=0}
! Header version: 2018
! Port assignment regex: !\s*Touchstone port\s*([0-9]+)\s*=\s*(CST MWS port|CST DS port)\s*([0-9]+|Zmin|Zmax)\s*\(\"(.*)\"\)(\s*mode\s*([0-9]+))?.*
! Touchstone port assignment:
! Touchstone port 1 = CST MWS port Zmax ("") mode 1
! Touchstone port 2 = CST MWS port Zmax ("") mode 2
! Touchstone port 3 = CST MWS port Zmin ("") mode 1
! Touchstone port 4 = CST MWS port Zmin ("") mode 2
! S-Parameters are not renormalized. Each port impedance will be approximated by the real part at minimum frequency. The values are described via the [Reference] keyword.
! Default impedance is overridden by [Reference]
[Version] 2.0
# GHz S RI R 376.73
[Number of Ports] 4
[Reference]
376.73 376.73 259.814 259.814 
[Number of Frequencies] 51
[Network Data]
281700                 -0.162589       0.0478124     -0.000260696    -0.000710191        -0.708767       -0.671731     -0.000431455     0.000363997
                    -0.000323396    -0.000791127        -0.072384      -0.0963454     -0.000453733     1.76006e-05         0.208387       -0.965938
                        -0.70932       -0.672148     -0.000454298     0.000193522        -0.039654        0.164078      0.000386716      0.00113616
                    -0.000446416     0.000236597         0.209018       -0.965227      0.000229694     0.000713473        -0.104842       0.0588059
281702                  -0.16256       0.0478762     -0.000261024    -0.000710004        -0.709118       -0.671363     -0.000344644     0.000191932
                    -0.000323722    -0.000790986       -0.0724272      -0.0963335     -0.000453529     1.78134e-05         0.207982       -0.965991
                        -0.70967       -0.671779     -0.000454206     0.000193779       -0.0395484        0.164093      0.000241021     0.000715261
                    -0.000446287     0.000236854         0.208578       -0.965319      0.000229879     0.000713441        -0.104823       0.0588733
281704                 -0.162531       0.0479399     -0.000261352    -0.000709817        -0.709468       -0.670995     -0.000341877     0.000196429
                     -0.00032405    -0.000790838       -0.0724705      -0.0963216     -0.000453325     1.80273e-05         0.207563       -0.966057
                       -0.710021        -0.67141     -0.000454114     0.000194037       -0.0394428        0.164109      0.000275121     0.000722897
                    -0.000446158     0.000237111         0.208138       -0.965411      0.000230066      0.00071341        -0.104804       0.0589406
281706                 -0.162502       0.0480036      -0.00026168    -0.000709629        -0.709819       -0.670626     -0.000341809     0.000196849
                     -0.00032438    -0.000790688       -0.0725137      -0.0963096     -0.000453121     1.82424e-05         0.207129       -0.966141
                       -0.710371       -0.671041     -0.000454022     0.000194295       -0.0393372        0.164124      0.000280337     0.000723716
                    -0.000446027     0.000237369         0.207698       -0.965503      0.000230253     0.000713379        -0.104785       0.0590077
281708                 -0.162473       0.0480674     -0.000262009     -0.00070944        -0.710169       -0.670258     -0.000344339     0.000193661
                    -0.000324712    -0.000790535       -0.0725569      -0.0962976     -0.000452916     1.84587e-05         0.206675       -0.966249
                       -0.710721       -0.670671      -0.00045393     0.000194553       -0.0392316        0.164139      0.000266074     0.000717272
                    -0.000445894     0.000237626         0.207257       -0.965595      0.000230441      0.00071335        -0.104766       0.0590743
281710                 -0.162443        0.048131     -0.000262339    -0.000709251        -0.710519       -0.669889     -0.000429151     0.000365837
                    -0.000325046    -0.000790381       -0.0726002      -0.0962856     -0.000452712     1.86761e-05         0.206184       -0.966396
                       -0.711071       -0.670301     -0.000453838     0.000194811        -0.039126        0.164154      0.000388927      0.00113333
                    -0.000445753     0.000237885         0.206817       -0.965686       0.00023063     0.000713321        -0.104748       0.0591405
281712                 -0.162414       0.0481947     -0.000262669    -0.000709061        -0.710869        -0.66952     -0.000333199     0.000211523
                    -0.000325381    -0.000790226       -0.0726434      -0.0962736     -0.000452507     1.88947e-05         0.205607       -0.966613
                       -0.711421       -0.669932     -0.000453746     0.000195069       -0.0390203        0.164169       0.00034026     0.000756933
                    -0.000445579     0.000238191         0.206377       -0.965778      0.000230821     0.000713294        -0.104731       0.0592057
281714                 -0.162385       0.0482584     -0.000262999     -0.00070887        -0.711219        -0.66915     -0.000335284     0.000207681
                    -0.000325717    -0.000790071       -0.0726867      -0.0962615     -0.000452303     1.91145e-05          0.20473        -0.96694
                        -0.71177       -0.669561     -0.000453653     0.000195327       -0.0389147        0.164183      0.000327401     0.000747014
                    -0.000445567     0.000238432         0.205936       -0.965869      0.000231012     0.000713267        -0.104716       0.0592687
281716                 -0.162355        0.048322      -0.00026333    -0.000708678        -0.711568       -0.668781     -0.000335953     0.000206582
                    -0.000326053    -0.000789916       -0.0727299      -0.0962495     -0.000452099     1.93355e-05         0.202639         -0.9664
                        -0.71212       -0.669191     -0.000453561     0.000195585       -0.0388091        0.164198      0.000323478     0.000743896
                    -0.000445418     0.000238665         0.205496        -0.96596      0.000231204     0.000713241        -0.104705       0.0593257
281718                 -0.162326       0.0483856     -0.000263661    -0.000708486        -0.711918       -0.668411     -0.000336251     0.000206145
                     -0.00032639     -0.00078976       -0.0727732      -0.0962374     -0.000451894     1.95576e-05         0.203911       -0.964472
                       -0.712469       -0.668821     -0.000453468     0.000195843       -0.0387034        0.164213      0.000321837     0.000742369
                    -0.000445281     0.000238917         0.205055       -0.966051      0.000231397     0.000713215        -0.104707       0.0593468
281720                 -0.162297       0.0484492     -0.000263992    -0.000708294        -0.712267       -0.668042     -0.000336402     0.000205961
                    -0.000326728    -0.000789604       -0.0728164      -0.0962253     -0.000451689     1.97809e-05         0.204219       -0.965225
                       -0.712818        -0.66845     -0.000453375     0.000196101       -0.0385978        0.164227      0.000321069     0.000741436
                    -0.000445148     0.000239172         0.204614       -0.966141      0.000231591     0.000713191        -0.104484       0.0594704
281722                 -0.162267       0.0485128     -0.000264324    -0.000708101        -0.712616       -0.667672      -0.00033648     0.000205897
                    -0.000327066    -0.000789447       -0.0728597      -0.0962131     -0.000451485     2.00054e-05         0.203898       -0.965624
                       -0.713167       -0.668079     -0.000453282      0.00019636       -0.0384921        0.164242      0.000320708      0.00074078
                    -0.000445015     0.000239427         0.204174       -0.966232      0.000231786     0.000713167        -0.104574       0.0595725
281724                 -0.162238       0.0485764     -0.000264657    -0.000707908        -0.712965       -0.667301      -0.00033652     0.000205897
                    -0.000327404    -0.000789291       -0.0729029       -0.096201      -0.00045128      2.0231e-05         0.203487       -0.965861
                       -0.713515       -0.667708     -0.000453188     0.000196618       -0.0383864        0.164256      0.000320561     0.000740271
                    -0.000444883     0.000239683         0.203733       -0.966322      0.000231983     0.000713144        -0.104574       0.0596342
281726                 -0.162208       0.0486399      -0.00026499    -0.000707714        -0.713313       -0.666931     -0.000336535     0.000205936
                    -0.000327742    -0.000789134       -0.0729462      -0.0961888     -0.000451075     2.04578e-05         0.203056       -0.966031
                       -0.713864       -0.667337     -0.000453095     0.000196876       -0.0382808        0.164271      0.000320537     0.000739847
                    -0.000444752     0.000239938         0.203292       -0.966412       0.00023218     0.000713123        -0.104562       0.0596983
281728                 -0.162179       0.0487035     -0.000265323     -0.00070752        -0.713662       -0.666561     -0.000336535     0.000205999
                     -0.00032808    -0.000788976       -0.0729894      -0.0961766     -0.000450871     2.06857e-05          0.20262       -0.966168
                       -0.714212       -0.666966     -0.000453002     0.000197135       -0.0381751        0.164285      0.000320585     0.000739475
                     -0.00044462     0.000240194         0.202852       -0.966501      0.000232378     0.000713101        -0.104546       0.0597636
281730                 -0.162149        0.048767     -0.000265657    -0.000707326         -0.71401        -0.66619     -0.000336525     0.000206078
                    -0.000328419    -0.000788819       -0.0730327      -0.0961644     -0.000450666     2.09148e-05         0.202181       -0.966287
                        -0.71456       -0.666594     -0.000452908     0.000197393       -0.0380694        0.164299      0.000320681     0.000739137
                    -0.000444488     0.000240449         0.202411       -0.966591      0.000232577     0.000713081        -0.104529       0.0598296
281732                  -0.16212       0.0488305     -0.000265991    -0.000707131        -0.714358       -0.665819     -0.000336508     0.000206168
                    -0.000328758    -0.000788661       -0.0730759      -0.0961522     -0.000450461     2.11451e-05         0.201742       -0.966396
                       -0.714908       -0.666222     -0.000452814     0.000197652       -0.0379637        0.164314      0.000320806     0.000738822
                    -0.000444356     0.000240705          0.20197        -0.96668      0.000232777     0.000713061        -0.104511       0.0598959
281734                  -0.16209        0.048894     -0.000266325    -0.000706936        -0.714706       -0.665448     -0.000336485     0.000206265
                    -0.000329097    -0.000788503       -0.0731192      -0.0961399     -0.000450256     2.13765e-05         0.201302       -0.966497
                       -0.715255        -0.66585      -0.00045272      0.00019791        -0.037858        0.164328      0.000320952     0.000738523
                    -0.000444224      0.00024096         0.201529        -0.96677      0.000232978     0.000713043        -0.104492       0.0599624
281736                  -0.16206       0.0489575      -0.00026666    -0.000706741        -0.715053       -0.665077     -0.000336459     0.000206368
                    -0.000329436    -0.000788345       -0.0731624      -0.0961277     -0.000450051      2.1609e-05         0.200862       -0.966595
                       -0.715603       -0.665478     -0.000452626     0.000198169       -0.0377523        0.164342      0.000321111     0.000738234
                    -0.000444091     0.000241215         0.201088       -0.966859       0.00023318     0.000713025        -0.104473        0.060029
281738                 -0.162031       0.0490209     -0.000266995    -0.000706545        -0.715401       -0.664705      -0.00033643     0.000206476
                    -0.000329775    -0.000788187       -0.0732057      -0.0961154     -0.000449846     2.18427e-05         0.200422       -0.966689
                        -0.71595       -0.665106     -0.000452532     0.000198427       -0.0376466        0.164356      0.000321279     0.000737954
                    -0.000443958      0.00024147         0.200647       -0.966947      0.000233383     0.000713007        -0.104454       0.0600958
281740                 -0.162001       0.0490843      -0.00026733     -0.00070635        -0.715748       -0.664333     -0.000336398     0.000206586
                    -0.000330114    -0.000788028        -0.073249      -0.0961031     -0.000449641     2.20775e-05         0.199982       -0.966782
                       -0.716297       -0.664733     -0.000452438     0.000198686       -0.0375409        0.164369      0.000321454      0.00073768
                    -0.000443825     0.000241725         0.200206       -0.967036      0.000233587     0.000712991        -0.104434       0.0601626
281742                 -0.161971       0.0491478     -0.000267666    -0.000706154        -0.716095       -0.663962     -0.000336365       0.0002067
                    -0.000330453    -0.000787869       -0.0732922      -0.0960907     -0.000449436     2.23135e-05         0.199542       -0.966873
                       -0.716644        -0.66436     -0.000452343     0.000198945       -0.0374352        0.164383      0.000321634      0.00073741
                    -0.000443692      0.00024198         0.199765       -0.967124      0.000233792     0.000712975        -0.104415       0.0602294
281744                 -0.161942       0.0492112     -0.000268002    -0.000705959        -0.716442        -0.66359      -0.00033633     0.000206815
                    -0.000330792     -0.00078771       -0.0733355      -0.0960784     -0.000449231     2.25506e-05         0.199102       -0.966963
                       -0.716991       -0.663987     -0.000452249     0.000199204       -0.0373295        0.164397      0.000321816     0.000737143
                    -0.000443558     0.000242234         0.199323       -0.967213      0.000233999      0.00071296        -0.104395       0.0602962
281746                 -0.161912       0.0492746     -0.000268338    -0.000705763        -0.716789       -0.663217     -0.000336294     0.000206931
                    -0.000331132     -0.00078755       -0.0733787       -0.096066     -0.000449026     2.27888e-05         0.198661       -0.967052
                       -0.717337       -0.663614     -0.000452154     0.000199463       -0.0372238        0.164411      0.000322001     0.000736879
                    -0.000443424     0.000242489         0.198882       -0.967301      0.000234206     0.000712946        -0.104376       0.0603631
281748                 -0.161882       0.0493379     -0.000268675    -0.000705567        -0.717136       -0.662845     -0.000336256     0.000207049
                    -0.000331472     -0.00078739        -0.073422      -0.0960536     -0.000448821     2.30282e-05         0.198221        -0.96714
                       -0.717684       -0.663241     -0.000452059     0.000199722       -0.0371181        0.164424      0.000322186     0.000736617
                     -0.00044329     0.000242743         0.198441       -0.967389      0.000234414     0.000712933        -0.104356         0.06043
281750                 -0.161852       0.0494013     -0.000269012    -0.000705371        -0.717482       -0.662472     -0.000336219     0.000207168
                    -0.000331811     -0.00078723       -0.0734653      -0.0960412     -0.000448616     2.32687e-05         0.197781       -0.967228
                        -0.71803       -0.662868     -0.000451965     0.000199981       -0.0370123        0.164438      0.000322373     0.000736356
                    -0.000443156     0.000242997            0.198       -0.967476      0.000234623      0.00071292        -0.104336       0.0604968
281752                 -0.161822       0.0494646     -0.000269349    -0.000705175        -0.717828         -0.6621      -0.00033618     0.000207287
                    -0.000332151     -0.00078707       -0.0735085      -0.0960287     -0.000448411     2.35104e-05          0.19734       -0.967316
                       -0.718376       -0.662494      -0.00045187      0.00020024       -0.0369066        0.164451       0.00032256     0.000736097
                    -0.000443021     0.000243251         0.197558       -0.967564      0.000234833     0.000712908        -0.104316       0.0605637
281754                 -0.161792       0.0495279     -0.000269686    -0.000704979        -0.718174       -0.661727     -0.000336141     0.000207408
                    -0.000332491    -0.000786909       -0.0735518      -0.0960163     -0.000448206     2.37531e-05           0.1969       -0.967403
                       -0.718722        -0.66212     -0.000451775     0.000200499       -0.0368009        0.164464      0.000322748     0.000735838
                    -0.000442886     0.000243505         0.197117       -0.967651      0.000235044     0.000712897        -0.104296       0.0606306
281756                 -0.161762       0.0495912     -0.000270024    -0.000704783         -0.71852       -0.661353     -0.000336101     0.000207528
                    -0.000332831    -0.000786748       -0.0735951      -0.0960038        -0.000448      2.3997e-05         0.196459       -0.967491
                       -0.719067       -0.661746     -0.000451679     0.000200759       -0.0366951        0.164478      0.000322935      0.00073558
                    -0.000442751     0.000243759         0.196675       -0.967738      0.000235257     0.000712886        -0.104277       0.0606975
281758                 -0.161732       0.0496545     -0.000270362    -0.000704587        -0.718866        -0.66098     -0.000336061      0.00020765
                    -0.000333172    -0.000786587       -0.0736383      -0.0959913     -0.000447795     2.42421e-05         0.196019       -0.967577
                       -0.719413       -0.661372     -0.000451584     0.000201018       -0.0365894        0.164491      0.000323122     0.000735323
                    -0.000442615     0.000244012         0.196234       -0.967825       0.00023547     0.000712877        -0.104257       0.0607643
281760                 -0.161702       0.0497178       -0.0002707     -0.00070439        -0.719211       -0.660607      -0.00033602     0.000207771
                    -0.000333512    -0.000786425       -0.0736816      -0.0959788      -0.00044759     2.44887e-05         0.195578       -0.967664
                       -0.719758       -0.660997     -0.000451489     0.000201278       -0.0364836        0.164504      0.000323309     0.000735066
                    -0.000442479     0.000244266         0.195792       -0.967911      0.000235684     0.000712868        -0.104237       0.0608312
281762                 -0.161672        0.049781     -0.000271038    -0.000704194        -0.719556       -0.660233     -0.000335979     0.000207893
                    -0.000333853    -0.000786263       -0.0737249      -0.0959662     -0.000447384     2.47358e-05         0.195138       -0.967751
                       -0.720103       -0.660623     -0.000451393     0.000201537       -0.0363779        0.164517      0.000323495      0.00073481
