! TOUCHSTONE file generated by CST MICROWAVE STUDIO
! Date and time: Tue Oct 14 07:29:36 2025
! Project name: Teste_Macro_Metasurface_Nanopilar.cst
! Parameters = {H=600; L_x=145; L_y=125; Lambda=1064; Max_L=200; Min_L=70; PathPara=1; Phi=0; Step_L=10; Theta=0; p=520; phaseX=180; phaseY=0}
! Header version: 2018
! Port assignment regex: !\s*Touchstone port\s*([0-9]+)\s*=\s*(CST MWS port|CST DS port)\s*([0-9]+|Zmin|Zmax)\s*\(\"(.*)\"\)(\s*mode\s*([0-9]+))?.*
! Touchstone port assignment:
! Touchstone port 1 = CST MWS port Zmax ("") mode 1
! Touchstone port 2 = CST MWS port Zmax ("") mode 2
! Touchstone port 3 = CST MWS port Zmin ("") mode 1
! Touchstone port 4 = CST MWS port Zmin ("") mode 2
! S-Parameters are not renormalized. Each port impedance will be approximated by the real part at minimum frequency. The values are described via the [Reference] keyword.
! Default impedance is overridden by [Reference]
[Version] 2.0
# GHz S RI R 376.73
[Number of Ports] 4
[Reference]
376.73 376.73 259.814 259.814 
[Number of Frequencies] 51
[Network Data]
281700                -0.0581704      -0.0831706      0.000845282     0.000166408        -0.299558         0.94215      0.000320539    -6.09875e-06
                     0.000809753     0.000165681        -0.109789       -0.179821      8.18556e-05     0.000181624         0.324619        0.917049
                       -0.300106         0.94255      -1.3908e-05     0.000222129       -0.0942601       0.0355802      0.000715948    -0.000297144
                     0.000302199    -3.06804e-05         0.324699        0.917146       0.00084063     -0.00023849        0.0289821        0.207424
281702                 -0.058202      -0.0831717      0.000844969      0.00016581        -0.299118        0.942288      0.000320621    -6.31554e-06
                     0.000809983     0.000165109        -0.109852       -0.179817      8.18752e-05     0.000181618         0.325029        0.916897
                       -0.299666        0.942689     -1.32954e-05     0.000222233        -0.094254       0.0356508      0.000715915    -0.000297183
                     0.000302335     -3.0765e-05         0.325109        0.916994      0.000840649    -0.000238699        0.0291174        0.207433
281704                -0.0582336      -0.0831728      0.000844656     0.000165215        -0.298679        0.942426      0.000320702    -6.53193e-06
                     0.000810212     0.000164537        -0.109915       -0.179812      8.18944e-05     0.000181611         0.325438        0.916745
                       -0.299226        0.942827     -1.26826e-05     0.000222335       -0.0942477       0.0357215      0.000715883    -0.000297223
                      0.00030247    -3.08494e-05         0.325518        0.916841      0.000840668    -0.000238909        0.0292527        0.207442
281706                -0.0582653      -0.0831739      0.000844341     0.000164622         -0.29824        0.942564      0.000320783    -6.74783e-06
                     0.000810441     0.000163966        -0.109977       -0.179807      8.19131e-05     0.000181604         0.325847        0.916594
                       -0.298786        0.942965     -1.20696e-05     0.000222434       -0.0942415       0.0357922      0.000715851    -0.000297266
                     0.000302605    -3.09336e-05         0.325928        0.916689      0.000840688    -0.000239118        0.0293881        0.207451
281708                -0.0582969       -0.083175      0.000844025     0.000164031          -0.2978        0.942701      0.000320866    -6.96378e-06
                     0.000810671     0.000163395         -0.11004       -0.179802      8.19314e-05     0.000181597         0.326257        0.916441
                       -0.298347        0.943102     -1.14565e-05     0.000222531       -0.0942351       0.0358629      0.000715808    -0.000297311
                      0.00030274    -3.10177e-05         0.326337        0.916536      0.000840707    -0.000239327        0.0295235         0.20746
281710                -0.0583286      -0.0831761      0.000843709     0.000163443         -0.29736        0.942838      0.000320949    -7.18368e-06
                       0.0008109     0.000162826        -0.110103       -0.179797      8.19493e-05      0.00018159         0.326666        0.916289
                       -0.297907         0.94324     -1.08431e-05     0.000222625       -0.0942288       0.0359336      0.000715771    -0.000297336
                     0.000302873    -3.11016e-05         0.326746        0.916384      0.000840727    -0.000239536        0.0296589        0.207469
281712                -0.0583602      -0.0831772      0.000843391     0.000162857        -0.296921        0.942975      0.000321025    -7.40514e-06
                      0.00081113     0.000162258        -0.110165       -0.179792      8.19667e-05     0.000181583         0.327075        0.916137
                       -0.297467        0.943377     -1.02296e-05     0.000222717       -0.0942223       0.0360043      0.000715745    -0.000297369
                     0.000303006    -3.11854e-05         0.327156        0.916231      0.000840747    -0.000239745        0.0297943        0.207478
281714                -0.0583919      -0.0831782      0.000843073     0.000162274        -0.296481        0.943112      0.000321099    -7.62188e-06
                      0.00081136      0.00016169        -0.110228       -0.179787      8.19838e-05     0.000181575         0.327484        0.915984
                       -0.297027        0.943514     -9.61598e-06     0.000222807       -0.0942158        0.036075      0.000715718    -0.000297405
                     0.000303139    -3.12689e-05         0.327565        0.916078      0.000840767    -0.000239954        0.0299298        0.207487
281716                -0.0584236      -0.0831792      0.000842754     0.000161693        -0.296041        0.943249      0.000321175    -7.83739e-06
                     0.000811589     0.000161123        -0.110291       -0.179783      8.20004e-05     0.000181567         0.327893        0.915831
                       -0.296587        0.943651     -9.00224e-06     0.000222894       -0.0942093       0.0361457      0.000715691    -0.000297442
                     0.000303271    -3.13522e-05         0.327974        0.915924      0.000840787    -0.000240164        0.0300653        0.207496
281718                -0.0584552      -0.0831803      0.000842434     0.000161115        -0.295602        0.943385       0.00032125    -8.05273e-06
                     0.000811819     0.000160557        -0.110354       -0.179778      8.20165e-05     0.000181558         0.328302        0.915678
                       -0.296146        0.943788      -8.3884e-06      0.00022298       -0.0942027       0.0362164      0.000715664    -0.000297478
                     0.000303402    -3.14353e-05         0.328383        0.915771      0.000840807    -0.000240373        0.0302008        0.207505
281720                -0.0584869      -0.0831813      0.000842113     0.000160539        -0.295162        0.943521      0.000321326    -8.26801e-06
                      0.00081205     0.000159991        -0.110416       -0.179773      8.20323e-05     0.000181549         0.328711        0.915525
                       -0.295706        0.943924     -7.77448e-06     0.000223062       -0.0941961       0.0362871      0.000715637    -0.000297514
                     0.000303533    -3.15182e-05         0.328792        0.915617      0.000840828    -0.000240582        0.0303364        0.207513
281722                -0.0585186      -0.0831823      0.000841791     0.000159966        -0.294722        0.943657        0.0003214    -8.48321e-06
                      0.00081228     0.000159427        -0.110479       -0.179768      8.20476e-05      0.00018154          0.32912        0.915371
                       -0.295266        0.944061      -7.1605e-06     0.000223143       -0.0941894       0.0363578      0.000715611    -0.000297551
                     0.000303663    -3.16009e-05         0.329201        0.915463      0.000840848     -0.00024079        0.0304719        0.207522
281724                -0.0585503      -0.0831832      0.000841468     0.000159395        -0.294282        0.943793      0.000321474    -8.69829e-06
                      0.00081251     0.000158863        -0.110542       -0.179763      8.20625e-05     0.000181531         0.329528        0.915218
                       -0.294826        0.944197     -6.54648e-06     0.000223221       -0.0941826       0.0364285      0.000715585    -0.000297587
                     0.000303792    -3.16833e-05          0.32961        0.915309      0.000840869    -0.000240999        0.0306075         0.20753
281726                 -0.058582      -0.0831842      0.000841145     0.000158827        -0.293842        0.943928      0.000321548    -8.91323e-06
                     0.000812741       0.0001583        -0.110605       -0.179758      8.20769e-05     0.000181521         0.329937        0.915064
                       -0.294385        0.944332     -5.93243e-06     0.000223296       -0.0941758       0.0364992       0.00071556    -0.000297622
                     0.000303922    -3.17655e-05         0.330019        0.915155      0.000840889    -0.000241208        0.0307432        0.207538
281728                -0.0586137      -0.0831852      0.000840821     0.000158261        -0.293402        0.944064      0.000321621    -9.12801e-06
                     0.000812972     0.000157737        -0.110667       -0.179753      8.20908e-05     0.000181511         0.330346         0.91491
                       -0.293945        0.944468     -5.31837e-06      0.00022337        -0.094169       0.0365699      0.000715536    -0.000297658
                      0.00030405    -3.18475e-05         0.330427           0.915       0.00084091    -0.000241417        0.0308788        0.207547
281730                -0.0586454      -0.0831861      0.000840497     0.000157698        -0.292962        0.944199      0.000321693    -9.34264e-06
                     0.000813203     0.000157176         -0.11073       -0.179748       8.2104e-05     0.000181501         0.330754        0.914756
                       -0.293504        0.944604     -4.70432e-06     0.000223441       -0.0941621       0.0366406      0.000715512    -0.000297693
                     0.000304178    -3.19291e-05         0.330836        0.914846      0.000840931    -0.000241625        0.0310145        0.207555
281732                -0.0586772       -0.083187      0.000840171     0.000157137        -0.292522        0.944334      0.000321765    -9.55709e-06
                     0.000813435     0.000156615        -0.110793       -0.179743      8.21166e-05      0.00018149         0.331162        0.914602
                       -0.293064        0.944739     -4.09029e-06      0.00022351       -0.0941551       0.0367114      0.000715489    -0.000297729
                     0.000304306    -3.20106e-05         0.331245        0.914691      0.000840952    -0.000241833        0.0311503        0.207563
281734                -0.0587089      -0.0831879      0.000839845     0.000156578        -0.292081        0.944468      0.000321836    -9.77136e-06
                     0.000813667     0.000156055        -0.110856       -0.179738      8.21282e-05     0.000181479         0.331571        0.914447
                       -0.292623        0.944874     -3.47631e-06     0.000223576       -0.0941481       0.0367821      0.000715467    -0.000297764
                     0.000304433    -3.20917e-05         0.331653        0.914536      0.000840973    -0.000242042         0.031286        0.207571
281736                -0.0587406      -0.0831888      0.000839519     0.000156023        -0.291641        0.944603      0.000321907    -9.98546e-06
                     0.000813899     0.000155496        -0.110919       -0.179733      8.21384e-05     0.000181468         0.331979        0.914292
                       -0.292183        0.945009     -2.86239e-06      0.00022364       -0.0941411       0.0368528      0.000715446    -0.000297798
                      0.00030456    -3.21726e-05         0.332062        0.914381      0.000840996     -0.00024225        0.0314218        0.207579
281738                -0.0587724      -0.0831897      0.000839191     0.000155469        -0.291201        0.944737      0.000321977    -1.01994e-05
                     0.000814131     0.000154937        -0.110981       -0.179728      8.21464e-05     0.000181456         0.332387        0.914138
                       -0.291742        0.945143     -2.24854e-06     0.000223702        -0.094134       0.0369235      0.000715425    -0.000297833
                     0.000304686    -3.22532e-05          0.33247        0.914225       0.00084102    -0.000242457        0.0315576        0.207587
281740                -0.0588041      -0.0831906      0.000838864     0.000154918         -0.29076        0.944871      0.000322046    -1.04131e-05
                     0.000814363      0.00015438        -0.111044       -0.179723      8.21498e-05     0.000181445         0.332796        0.913982
                       -0.291301        0.945278     -1.63477e-06     0.000223761       -0.0941268       0.0369943      0.000715405    -0.000297868
                     0.000304811    -3.23335e-05         0.332879         0.91407      0.000841048    -0.000242665        0.0316934        0.207595
281742                -0.0588359      -0.0831915      0.000838535      0.00015437         -0.29032        0.945005      0.000322115    -1.06266e-05
                     0.000814595     0.000153824        -0.111107       -0.179718      8.21406e-05     0.000181435         0.333204        0.913827
                        -0.29086        0.945412      -1.0211e-06     0.000223819       -0.0941196        0.037065      0.000715385    -0.000297902
                     0.000304935    -3.24135e-05         0.333287        0.913914      0.000841087    -0.000242878        0.0318293        0.207602
281744                -0.0588676      -0.0831923      0.000838206     0.000153824        -0.289879        0.945139      0.000322183      -1.084e-05
                     0.000814827      0.00015327         -0.11117       -0.179712      8.20675e-05      0.00018146         0.333612        0.913672
                        -0.29042        0.945546     -4.07534e-07     0.000223873       -0.0941123       0.0371358      0.000715366    -0.000297936
                     0.000305059    -3.24931e-05         0.333695        0.913758       0.00084113    -0.000243157        0.0319652         0.20761
281746                -0.0588994      -0.0831931      0.000837877      0.00015328        -0.289439        0.945272       0.00032225    -1.10531e-05
                     0.000815059     0.000152719        -0.111233       -0.179707      8.23676e-05     0.000181522          0.33402        0.913516
                       -0.289979         0.94568       2.0594e-07     0.000223926        -0.094105       0.0372065      0.000715348     -0.00029797
                      0.00030518    -3.25723e-05         0.334103        0.913602      0.000841055    -0.000243348        0.0321011        0.207617
281748                -0.0589312      -0.0831939      0.000837547     0.000152739        -0.288998        0.945406      0.000322317    -1.12661e-05
                     0.000815288     0.000152173        -0.111296       -0.179702      8.22953e-05     0.000181416         0.334428         0.91336
                       -0.289538        0.945813      8.19348e-07     0.000223977       -0.0940977       0.0372773      0.000715331    -0.000298004
                       0.0003053    -3.26509e-05         0.334511        0.913446       0.00084108    -0.000243527         0.032237        0.207625
281750                 -0.058963      -0.0831947      0.000837216     0.000152199        -0.288557        0.945539      0.000322383    -1.14788e-05
                     0.000815513      0.00015164        -0.111359       -0.179697      8.22841e-05     0.000181392         0.334835        0.913204
                       -0.289097        0.945947      1.43278e-06     0.000224026       -0.0940902        0.037348      0.000715315    -0.000298038
                     0.000305412    -3.27282e-05         0.334919        0.913289      0.000841105    -0.000243727         0.032373        0.207632
281752                -0.0589948      -0.0831955      0.000836884      0.00015166        -0.288117        0.945671      0.000322449    -1.16914e-05
                     0.000815721     0.000151156        -0.111421       -0.179692      8.22857e-05     0.000181375         0.335243        0.913048
                       -0.288655         0.94608      2.04653e-06     0.000224073       -0.0940828       0.0374188      0.000715299    -0.000298071
                     0.000305503       -3.28e-05         0.335327        0.913132      0.000841127    -0.000243931         0.032509         0.20764
281754                -0.0590272       -0.083194      0.000836551     0.000151114        -0.287676        0.945804      0.000322514    -1.19037e-05
                     0.000817898     0.000151343        -0.111484       -0.179687      8.22917e-05     0.000181359         0.335651        0.912892
                       -0.288211        0.946214       2.6614e-06     0.000224126       -0.0940752       0.0374895      0.000715283    -0.000298105
                     0.000305384     -3.2266e-05         0.335735        0.912976      0.000841149    -0.000244137         0.032645        0.207647
281756                -0.0590582      -0.0831972      0.000836269     0.000150669        -0.287235        0.945937      0.000322579    -1.21159e-05
                     0.000816341     0.000149767        -0.111547       -0.179682      8.22996e-05     0.000181344         0.336058        0.912735
                       -0.287773        0.946345      3.24079e-06     0.000224134       -0.0940677       0.0375603      0.000715269    -0.000298138
                     0.000305903    -3.29651e-05         0.336143        0.912819      0.000841169    -0.000244344        0.0327811        0.207654
281758                -0.0590901      -0.0831979      0.000835898     0.000150092        -0.286794        0.946069      0.000322642    -1.23278e-05
                     0.000816535     0.000149275         -0.11161       -0.179676      8.23084e-05     0.000181329         0.336466        0.912578
                       -0.287332        0.946478      3.87422e-06     0.000224182         -0.09406        0.037631      0.000715255    -0.000298171
                     0.000305985    -3.30464e-05         0.336551        0.912661      0.000841189    -0.000244552        0.0329171        0.207661
281760                -0.0591219      -0.0831986      0.000835563     0.000149561        -0.286353        0.946201      0.000322706    -1.25396e-05
                      0.00081676     0.000148742        -0.111673       -0.179671      8.23178e-05     0.000181313         0.336874        0.912421
                       -0.286891         0.94661      4.48847e-06     0.000224221       -0.0940524       0.0377018      0.000715242    -0.000298204
                     0.000306096    -3.31243e-05         0.336959        0.912504      0.000841209    -0.000244759        0.0330532        0.207668
281762                -0.0591537      -0.0831993       0.00083523     0.000149035        -0.285912        0.946333      0.000322768    -1.27511e-05
                     0.000816992     0.000148198        -0.111736       -0.179666      8.23274e-05     0.000181298         0.337281        0.912264
                       -0.286449        0.946742      5.10079e-06     0.000224256       -0.0940446       0.0377726       0.00071523    -0.000298237
