! TOUCHSTONE file generated by CST MICROWAVE STUDIO
! Date and time: Tue Oct 14 07:24:55 2025
! Project name: Teste_Macro_Metasurface_Nanopilar.cst
! Parameters = {H=600; L_x=70; L_y=140; Lambda=1064; Max_L=200; Min_L=70; PathPara=1; Phi=0; Step_L=10; Theta=0; p=520; phaseX=180; phaseY=0}
! Header version: 2018
! Port assignment regex: !\s*Touchstone port\s*([0-9]+)\s*=\s*(CST MWS port|CST DS port)\s*([0-9]+|Zmin|Zmax)\s*\(\"(.*)\"\)(\s*mode\s*([0-9]+))?.*
! Touchstone port assignment:
! Touchstone port 1 = CST MWS port Zmax ("") mode 1
! Touchstone port 2 = CST MWS port Zmax ("") mode 2
! Touchstone port 3 = CST MWS port Zmin ("") mode 1
! Touchstone port 4 = CST MWS port Zmin ("") mode 2
! S-Parameters are not renormalized. Each port impedance will be approximated by the real part at minimum frequency. The values are described via the [Reference] keyword.
! Default impedance is overridden by [Reference]
[Version] 2.0
# GHz S RI R 376.73
[Number of Ports] 4
[Reference]
376.73 376.73 259.814 259.814 
[Number of Frequencies] 51
[Network Data]
281700                  -0.19252       0.0650026     -0.000173536     1.98769e-05          -0.3254       -0.915976     -0.000283892    -0.000205271
                     -0.00010642     3.42176e-06       -0.0308746        0.114481      -0.00038462    -0.000181362         0.992614       0.0183639
                       -0.324979       -0.916123     -0.000149252    -0.000127097        -0.189865       0.0712036     -4.42305e-05    -8.43833e-05
                    -0.000202267    -0.000253188         0.992566       0.0186996     -5.82738e-05    -6.36492e-05        0.0265572        0.115634
281702                 -0.192497       0.0650771     -0.000173466      1.9921e-05        -0.325844       -0.915817     -0.000283894    -0.000205144
                    -0.000106437     3.48679e-06       -0.0308343        0.114489     -0.000384698    -0.000181153         0.992621       0.0180032
                       -0.325423       -0.915964     -0.000149377    -0.000127215        -0.189825       0.0713154     -4.43007e-05    -8.43345e-05
                    -0.000202184    -0.000253065         0.992573       0.0183389     -5.82605e-05     -6.3613e-05        0.0266007        0.115621
281704                 -0.192474       0.0651517     -0.000173395     1.99648e-05        -0.326288       -0.915658     -0.000283897    -0.000205017
                    -0.000106455     3.55194e-06       -0.0307941        0.114496     -0.000384776    -0.000180943         0.992628       0.0176424
                       -0.325867       -0.915805     -0.000149503    -0.000127332        -0.189786       0.0714272      -4.4371e-05    -8.42856e-05
                    -0.000202101    -0.000252943          0.99258       0.0179782     -5.82473e-05    -6.35769e-05        0.0266442        0.115607
281706                 -0.192451       0.0652262     -0.000173324     2.00085e-05        -0.326732       -0.915499     -0.000283899    -0.000204889
                    -0.000106473      3.6172e-06       -0.0307538        0.114503     -0.000384854    -0.000180734         0.992634       0.0172816
                       -0.326311       -0.915645     -0.000149629    -0.000127448        -0.189746        0.071539     -4.44412e-05    -8.42366e-05
                    -0.000202018    -0.000252821         0.992587       0.0176175     -5.82341e-05     -6.3541e-05        0.0266877        0.115594
281708                 -0.192428       0.0653008     -0.000173253     2.00519e-05        -0.327176       -0.915339     -0.000283901    -0.000204762
                     -0.00010649     3.68258e-06       -0.0307135        0.114511     -0.000384932    -0.000180525         0.992641       0.0169209
                       -0.326755       -0.915486     -0.000149755    -0.000127565        -0.189706       0.0716507     -4.45113e-05    -8.41876e-05
                    -0.000201935      -0.0002527         0.992594       0.0172568      -5.8221e-05    -6.35052e-05        0.0267312        0.115581
281710                 -0.192405       0.0653753     -0.000173183     2.00952e-05         -0.32762       -0.915179     -0.000283903    -0.000204634
                    -0.000106507     3.74807e-06       -0.0306732        0.114518     -0.000385009    -0.000180315         0.992648       0.0165601
                       -0.327199       -0.915326     -0.000149881     -0.00012768        -0.189666       0.0717624     -4.45815e-05    -8.41385e-05
                    -0.000201852    -0.000252579         0.992601       0.0168961     -5.82079e-05    -6.34696e-05        0.0267746        0.115567
281712                 -0.192382       0.0654499     -0.000173112     2.01382e-05        -0.328064       -0.915019     -0.000283905    -0.000204507
                    -0.000106524     3.81368e-06        -0.030633        0.114525     -0.000385086    -0.000180106         0.992654       0.0161993
                       -0.327643       -0.915166     -0.000150008    -0.000127796        -0.189626       0.0718741     -4.46516e-05    -8.40894e-05
                    -0.000201769    -0.000252458         0.992607       0.0165354     -5.81949e-05    -6.34342e-05        0.0268181        0.115554
281714                 -0.192358       0.0655244     -0.000173041     2.01809e-05        -0.328507       -0.914859     -0.000283907    -0.000204379
                    -0.000106541      3.8794e-06       -0.0305927        0.114533     -0.000385163    -0.000179897          0.99266       0.0158385
                       -0.328086       -0.915006     -0.000150135     -0.00012791        -0.189586       0.0719858     -4.47217e-05    -8.40402e-05
                    -0.000201686    -0.000252338         0.992614       0.0161747     -5.81819e-05    -6.33989e-05        0.0268616         0.11554
281716                 -0.192335       0.0655989      -0.00017297     2.02235e-05        -0.328951       -0.914699     -0.000283909    -0.000204251
                    -0.000106558     3.94524e-06       -0.0305524         0.11454      -0.00038524    -0.000179687         0.992666       0.0154777
                        -0.32853       -0.914845     -0.000150262    -0.000128025        -0.189546       0.0720975     -4.47918e-05    -8.39909e-05
                    -0.000201603    -0.000252218          0.99262        0.015814      -5.8169e-05    -6.33637e-05         0.026905        0.115527
281718                 -0.192312       0.0656734     -0.000172899     2.02659e-05        -0.329394       -0.914538      -0.00028391    -0.000204124
                    -0.000106574     4.01119e-06       -0.0305121        0.114547     -0.000385316    -0.000179477         0.992672       0.0151169
                       -0.328974       -0.914684     -0.000150389    -0.000128139        -0.189506       0.0722091     -4.48618e-05    -8.39416e-05
                     -0.00020152    -0.000252099         0.992626       0.0154532     -5.81561e-05    -6.33287e-05        0.0269485        0.115513
281720                 -0.192289        0.065748     -0.000172828      2.0308e-05        -0.329838       -0.914377     -0.000283912    -0.000203996
                     -0.00010659     4.07726e-06       -0.0304718        0.114554     -0.000385392    -0.000179268         0.992678       0.0147561
                       -0.329417       -0.914523     -0.000150516    -0.000128252        -0.189466       0.0723207     -4.49318e-05    -8.38922e-05
                    -0.000201437     -0.00025198         0.992632       0.0150925     -5.81432e-05    -6.32939e-05        0.0269919        0.115499
281722                 -0.192266       0.0658225     -0.000172757     2.03499e-05        -0.330281       -0.914216     -0.000283913    -0.000203868
                    -0.000106606     4.14345e-06       -0.0304316        0.114562     -0.000385468    -0.000179058         0.992684       0.0143953
                        -0.32986       -0.914362     -0.000150644    -0.000128365        -0.189426       0.0724323     -4.50018e-05    -8.38428e-05
                    -0.000201353    -0.000251862         0.992638       0.0147318     -5.81304e-05    -6.32592e-05        0.0270353        0.115486
281724                 -0.192242        0.065897     -0.000172686     2.03916e-05        -0.330725       -0.914054     -0.000283914     -0.00020374
                    -0.000106622     4.20975e-06       -0.0303913        0.114569     -0.000385543    -0.000178848         0.992689       0.0140345
                       -0.330304       -0.914201     -0.000150771    -0.000128477        -0.189385       0.0725439     -4.50717e-05    -8.37933e-05
                     -0.00020127    -0.000251744         0.992644       0.0143711     -5.81177e-05    -6.32246e-05        0.0270787        0.115472
281726                 -0.192219       0.0659715     -0.000172615      2.0433e-05        -0.331168       -0.913893     -0.000283915    -0.000203613
                    -0.000106638     4.27616e-06        -0.030351        0.114576     -0.000385618    -0.000178639         0.992695       0.0136737
                       -0.330747       -0.914039     -0.000150899    -0.000128589        -0.189345       0.0726554     -4.51417e-05    -8.37437e-05
                    -0.000201187    -0.000251626          0.99265       0.0140103      -5.8105e-05    -6.31902e-05        0.0271222        0.115459
281728                 -0.192195        0.066046     -0.000172544     2.04742e-05        -0.331611       -0.913731     -0.000283916    -0.000203485
                    -0.000106654      4.3427e-06       -0.0303107        0.114583     -0.000385693    -0.000178429           0.9927       0.0133129
                        -0.33119       -0.913878     -0.000151027      -0.0001287        -0.189304       0.0727669     -4.52115e-05    -8.36941e-05
                    -0.000201103    -0.000251509         0.992655       0.0136496     -5.80923e-05    -6.31559e-05        0.0271656        0.115445
281730                 -0.192172       0.0661204     -0.000172473     2.05152e-05        -0.332054       -0.913569     -0.000283917    -0.000203357
                    -0.000106669     4.40934e-06       -0.0302704         0.11459     -0.000385768    -0.000178219         0.992705       0.0129521
                       -0.331633       -0.913716     -0.000151155    -0.000128811        -0.189264       0.0728784     -4.52814e-05    -8.36444e-05
                    -0.000201019    -0.000251392         0.992661       0.0132888     -5.80797e-05    -6.31218e-05         0.027209        0.115431
281732                 -0.192149       0.0661949     -0.000172402      2.0556e-05        -0.332498       -0.913407     -0.000283917    -0.000203229
                    -0.000106685     4.47611e-06       -0.0302301        0.114597     -0.000385842    -0.000178009          0.99271       0.0125913
                       -0.332076       -0.913553     -0.000151283    -0.000128922        -0.189223       0.0729899     -4.53512e-05    -8.35947e-05
                    -0.000200936    -0.000251275         0.992666       0.0129281     -5.80672e-05    -6.30878e-05        0.0272524        0.115418
281734                 -0.192125       0.0662694     -0.000172331     2.05966e-05        -0.332941       -0.913245     -0.000283918    -0.000203101
                      -0.0001067     4.54299e-06       -0.0301898        0.114605     -0.000385916    -0.000177799         0.992715       0.0122305
                       -0.332519       -0.913391     -0.000151412    -0.000129031        -0.189183       0.0731013      -4.5421e-05    -8.35449e-05
                    -0.000200852    -0.000251159         0.992671       0.0125674     -5.80547e-05     -6.3054e-05        0.0272958        0.115404
281736                 -0.192102       0.0663439      -0.00017226     2.06369e-05        -0.333383       -0.913082     -0.000283918    -0.000202973
                    -0.000106715     4.60999e-06       -0.0301495        0.114612      -0.00038599    -0.000177589          0.99272       0.0118697
                       -0.332962       -0.913228      -0.00015154    -0.000129141        -0.189142       0.0732128     -4.54908e-05     -8.3495e-05
                    -0.000200768    -0.000251044         0.992676       0.0122066     -5.80422e-05    -6.30203e-05        0.0273391         0.11539
281738                 -0.192078       0.0664183     -0.000172189      2.0677e-05        -0.333826       -0.912919     -0.000283918    -0.000202844
                     -0.00010673      4.6771e-06       -0.0301092        0.114619     -0.000386063    -0.000177379         0.992724       0.0115089
                       -0.333405       -0.913066     -0.000151669     -0.00012925        -0.189101       0.0733241     -4.55606e-05    -8.34451e-05
                    -0.000200684    -0.000250929         0.992681       0.0118458     -5.80298e-05    -6.29867e-05        0.0273825        0.115377
281740                 -0.192055       0.0664928     -0.000172118     2.07168e-05        -0.334269       -0.912756     -0.000283918    -0.000202716
                    -0.000106744     4.74433e-06       -0.0300689        0.114626     -0.000386137    -0.000177168         0.992729       0.0111481
                       -0.333848       -0.912902     -0.000151797    -0.000129358         -0.18906       0.0734355     -4.56303e-05    -8.33951e-05
                    -0.000200601    -0.000250814         0.992686       0.0114851     -5.80174e-05    -6.29533e-05        0.0274259        0.115363
281742                 -0.192031       0.0665672     -0.000172048     2.07564e-05        -0.334712       -0.912593     -0.000283918    -0.000202588
                    -0.000106759     4.81167e-06       -0.0300286        0.114633     -0.000386209    -0.000176958         0.992733       0.0107872
                        -0.33429       -0.912739     -0.000151926    -0.000129467        -0.189019       0.0735469        -4.57e-05    -8.33451e-05
                    -0.000200517    -0.000250699         0.992691       0.0111243     -5.80051e-05      -6.292e-05        0.0274692        0.115349
281744                 -0.192007       0.0666417     -0.000171977     2.07958e-05        -0.335155       -0.912429     -0.000283918     -0.00020246
                    -0.000106773     4.87914e-06       -0.0299883         0.11464     -0.000386282    -0.000176748         0.992738       0.0104264
                       -0.334733       -0.912576     -0.000152055    -0.000129574        -0.188978       0.0736582     -4.57696e-05     -8.3295e-05
                    -0.000200432    -0.000250586         0.992695       0.0107636     -5.79929e-05    -6.28869e-05        0.0275126        0.115335
281746                 -0.191984       0.0667161     -0.000171906      2.0835e-05        -0.335597       -0.912265     -0.000283917    -0.000202331
                    -0.000106787     4.94672e-06        -0.029948        0.114647     -0.000386355    -0.000176538         0.992742       0.0100656
                       -0.335176       -0.912412     -0.000152184    -0.000129681        -0.188937       0.0737695     -4.58393e-05    -8.32448e-05
                    -0.000200348    -0.000250472           0.9927       0.0104028     -5.79807e-05    -6.28539e-05        0.0275559        0.115322
281748                  -0.19196       0.0667905     -0.000171835     2.08739e-05         -0.33604       -0.912101     -0.000283917    -0.000202203
                    -0.000106801     5.01442e-06       -0.0299077        0.114654     -0.000386427    -0.000176327         0.992746      0.00970476
                       -0.335618       -0.912248     -0.000152313    -0.000129788        -0.188896       0.0738808     -4.59089e-05    -8.31946e-05
                    -0.000200264    -0.000250359         0.992704        0.010042     -5.79685e-05    -6.28211e-05        0.0275993        0.115308
281750                 -0.191936        0.066865     -0.000171764     2.09126e-05        -0.336482       -0.911937     -0.000283916    -0.000202075
                    -0.000106815     5.08224e-06       -0.0298674        0.114661     -0.000386499    -0.000176117          0.99275      0.00934393
                       -0.336061       -0.912084     -0.000152443    -0.000129894        -0.188855        0.073992     -4.59785e-05    -8.31443e-05
                     -0.00020018    -0.000250246         0.992708      0.00968127     -5.79564e-05    -6.27883e-05        0.0276426        0.115294
281752                 -0.191912       0.0669394     -0.000171692     2.09511e-05        -0.336924       -0.911773     -0.000283915    -0.000201946
                    -0.000106829     5.15017e-06       -0.0298271        0.114668      -0.00038657    -0.000175906         0.992753       0.0089831
                       -0.336503       -0.911919     -0.000152572        -0.00013        -0.188813       0.0741032      -4.6048e-05     -8.3094e-05
                    -0.000200095    -0.000250134         0.992712       0.0093205     -5.79443e-05    -6.27558e-05         0.027686         0.11528
281754                 -0.191889       0.0670138     -0.000171621     2.09894e-05        -0.337367       -0.911608     -0.000283914    -0.000201818
                    -0.000106842     5.21822e-06       -0.0297868        0.114675     -0.000386642    -0.000175696         0.992757      0.00862226
                       -0.336945       -0.911755     -0.000152702    -0.000130105        -0.188772       0.0742145     -4.61175e-05    -8.30436e-05
                    -0.000200011    -0.000250022         0.992716      0.00895973     -5.79323e-05    -6.27234e-05        0.0277293        0.115266
281756                 -0.191865       0.0670882      -0.00017155     2.10274e-05        -0.337809       -0.911444     -0.000283913    -0.000201689
                    -0.000106855      5.2864e-06       -0.0297465        0.114682     -0.000386713    -0.000175485          0.99276      0.00826143
                       -0.337387        -0.91159     -0.000152832    -0.000130209         -0.18873       0.0743256      -4.6187e-05    -8.29931e-05
                    -0.000199926     -0.00024991          0.99272      0.00859895     -5.79204e-05    -6.26911e-05        0.0277726        0.115253
281758                 -0.191841       0.0671626     -0.000171478     2.10652e-05        -0.338251       -0.911279     -0.000283912    -0.000201561
                    -0.000106869      5.3547e-06       -0.0297062        0.114689     -0.000386784    -0.000175274         0.992764      0.00790059
                       -0.337829       -0.911425     -0.000152962    -0.000130312        -0.188689       0.0744368     -4.62565e-05    -8.29426e-05
                    -0.000199842    -0.000249799         0.992723      0.00823817     -5.79085e-05    -6.26589e-05        0.0278159        0.115239
281760                 -0.191817        0.067237     -0.000171405     2.11025e-05        -0.338693       -0.911113      -0.00028391    -0.000201432
                    -0.000106881     5.42312e-06       -0.0296659        0.114696     -0.000386854    -0.000175064         0.992767      0.00753975
                       -0.338271        -0.91126     -0.000153093    -0.000130414        -0.188647       0.0745479     -4.63259e-05     -8.2892e-05
                    -0.000199757    -0.000249688         0.992727       0.0078774     -5.78966e-05    -6.26269e-05        0.0278592        0.115225
281762                 -0.191793       0.0673114     -0.000171328     2.11328e-05        -0.339135       -0.910948     -0.000283908    -0.000201303
                    -0.000106894     5.49166e-06       -0.0296255        0.114703     -0.000386925    -0.000174853          0.99277      0.00717891
                       -0.338713       -0.911094     -0.000153226    -0.000130508        -0.188606        0.074659     -4.63954e-05    -8.28414e-05
