! TOUCHSTONE file generated by CST MICROWAVE STUDIO
! Date and time: Tue Oct 14 07:30:33 2025
! Project name: Teste_Macro_Metasurface_Nanopilar.cst
! Parameters = {H=600; L_x=160; L_y=120; Lambda=1064; Max_L=200; Min_L=70; PathPara=1; Phi=0; Step_L=10; Theta=0; p=520; phaseX=180; phaseY=0}
! Header version: 2018
! Port assignment regex: !\s*Touchstone port\s*([0-9]+)\s*=\s*(CST MWS port|CST DS port)\s*([0-9]+|Zmin|Zmax)\s*\(\"(.*)\"\)(\s*mode\s*([0-9]+))?.*
! Touchstone port assignment:
! Touchstone port 1 = CST MWS port Zmax ("") mode 1
! Touchstone port 2 = CST MWS port Zmax ("") mode 2
! Touchstone port 3 = CST MWS port Zmin ("") mode 1
! Touchstone port 4 = CST MWS port Zmin ("") mode 2
! S-Parameters are not renormalized. Each port impedance will be approximated by the real part at minimum frequency. The values are described via the [Reference] keyword.
! Default impedance is overridden by [Reference]
[Version] 2.0
# GHz S RI R 376.73
[Number of Ports] 4
[Reference]
376.73 376.73 259.814 259.814 
[Number of Frequencies] 51
[Network Data]
281700                -0.0573281      -0.0711575      0.000561707      0.00015065         -0.39162        0.908499     -0.000195655     0.000572901
                     0.000561215     0.000237361        -0.351419       -0.455296      -0.00081175    -4.43256e-05         0.695948        0.397661
                       -0.391616        0.908449     -0.000762066    -0.000158583       -0.0899238      0.00882934     -0.000438925    -0.000405127
                    -0.000271888     0.000738873         0.695966        0.398315     -0.000317793    -0.000501682         0.565219       0.0408043
281702                -0.0573564      -0.0711599      0.000561642     0.000150546        -0.391194        0.908681     -0.000195491     0.000573046
                      0.00056133     0.000237194        -0.351816       -0.455328     -0.000812028    -4.35325e-05          0.69606        0.397045
                        -0.39119        0.908631     -0.000762164    -0.000158098       -0.0899373       0.0088949     -0.000439551    -0.000404704
                    -0.000271579     0.000739134         0.696079        0.397699      -0.00031875    -0.000501476         0.565521       0.0402504
281704                -0.0573846      -0.0711624      0.000561578     0.000150441        -0.390767        0.908864     -0.000195327     0.000573191
                     0.000561444     0.000237027        -0.352214       -0.455359     -0.000812307    -4.27382e-05         0.696172         0.39643
                       -0.390763        0.908813     -0.000762262    -0.000157613       -0.0899507      0.00896048     -0.000440176     -0.00040428
                     -0.00027127     0.000739395         0.696192        0.397084     -0.000319708    -0.000501269         0.565822       0.0396957
281706                -0.0574129      -0.0711648      0.000561513     0.000150336         -0.39034        0.909045     -0.000195162     0.000573336
                     0.000561559      0.00023686        -0.352612        -0.45539     -0.000812586    -4.19426e-05         0.696283        0.395814
                       -0.390336        0.908995     -0.000762359    -0.000157128       -0.0899642      0.00902607     -0.000440802    -0.000403855
                     -0.00027096     0.000739657         0.696304        0.396468     -0.000320668    -0.000501062         0.566124       0.0391402
281708                -0.0574412      -0.0711671      0.000561448     0.000150229        -0.389914        0.909227     -0.000194997     0.000573482
                     0.000561674     0.000236694        -0.353011        -0.45542     -0.000812865    -4.11458e-05         0.696394        0.395198
                       -0.389909        0.909176     -0.000762456    -0.000156644       -0.0899775      0.00909168     -0.000441427     -0.00040343
                    -0.000270651     0.000739919         0.696415        0.395852      -0.00032163    -0.000500853         0.566424       0.0385839
281710                -0.0574695      -0.0711695      0.000561382     0.000150121        -0.389487        0.909409     -0.000194833     0.000573628
                     0.000561789     0.000236528         -0.35341        -0.45545     -0.000813144    -4.03478e-05         0.696504        0.394581
                       -0.389482        0.909357     -0.000762553     -0.00015616       -0.0899908      0.00915731     -0.000442052    -0.000403003
                    -0.000270341     0.000740182         0.696526        0.395235     -0.000322592    -0.000500644         0.566725       0.0380268
281712                -0.0574978      -0.0711718      0.000561316     0.000150012         -0.38906         0.90959     -0.000194668     0.000573775
                     0.000561904     0.000236363         -0.35381        -0.45548     -0.000813424    -3.95486e-05         0.696613        0.393965
                       -0.389055        0.909538     -0.000762649    -0.000155677       -0.0900041      0.00922295     -0.000442677    -0.000402576
                    -0.000270031     0.000740445         0.696635        0.394618     -0.000323557    -0.000500433         0.567025       0.0374689
281714                -0.0575261      -0.0711742      0.000561249     0.000149901        -0.388633        0.909771     -0.000194502     0.000573922
                     0.000562019     0.000236197         -0.35421        -0.45551     -0.000813704    -3.87481e-05         0.696721        0.393347
                       -0.388628        0.909719     -0.000762746    -0.000155195       -0.0900173       0.0092886     -0.000443302    -0.000402148
                    -0.000269721     0.000740709         0.696744        0.394001     -0.000324523    -0.000500222         0.567325       0.0369103
281716                -0.0575544      -0.0711765      0.000561182     0.000149789        -0.388206        0.909952     -0.000194337     0.000574069
                     0.000562135     0.000236032        -0.354611       -0.455539     -0.000813985    -3.79463e-05         0.696829         0.39273
                       -0.388201          0.9099     -0.000762842    -0.000154715       -0.0900305      0.00935427     -0.000443926     -0.00040172
                     -0.00026941     0.000740973         0.696852        0.393384      -0.00032549    -0.000500009         0.567625       0.0363508
281718                -0.0575827      -0.0711788      0.000561114     0.000149675        -0.387778        0.910133     -0.000194171     0.000574217
                      0.00056225     0.000235868        -0.355012       -0.455568     -0.000814266    -3.71434e-05         0.696936        0.392112
                       -0.387774         0.91008     -0.000762939    -0.000154236       -0.0900436      0.00941996     -0.000444551     -0.00040129
                      -0.0002691     0.000741238          0.69696        0.392767     -0.000326459    -0.000499796         0.567924       0.0357906
281720                 -0.057611      -0.0711811      0.000561045      0.00014956        -0.387351        0.910313     -0.000194005     0.000574365
                     0.000562365     0.000235703        -0.355413       -0.455596     -0.000814547    -3.63392e-05         0.697043        0.391494
                       -0.387347        0.910261     -0.000763036    -0.000153761       -0.0900567      0.00948566     -0.000445175     -0.00040086
                    -0.000268789     0.000741503         0.697067        0.392149     -0.000327429    -0.000499581         0.568223       0.0352295
281722                -0.0576393      -0.0711834      0.000560976     0.000149442        -0.386924        0.910494     -0.000193839     0.000574513
                     0.000562481     0.000235539        -0.355815       -0.455625     -0.000814829    -3.55337e-05         0.697148        0.390875
                       -0.386919        0.910441     -0.000763134    -0.000153289       -0.0900697      0.00955138     -0.000445799    -0.000400428
                    -0.000268478     0.000741769         0.697173         0.39153     -0.000328401    -0.000499365         0.568522       0.0346677
281724                -0.0576677      -0.0711857      0.000560905     0.000149322        -0.386496        0.910674     -0.000193673     0.000574662
                     0.000562596     0.000235375        -0.356218       -0.455653      -0.00081511     -3.4727e-05         0.697253        0.390256
                       -0.386492        0.910621     -0.000763234    -0.000152824       -0.0900827      0.00961712     -0.000446423    -0.000399996
                    -0.000268167     0.000742035         0.697278        0.390912     -0.000329374    -0.000499149          0.56882        0.034105
281726                 -0.057696      -0.0711879      0.000560833       0.0001492        -0.386069        0.910854     -0.000193507     0.000574811
                     0.000562711     0.000235211         -0.35662        -0.45568     -0.000815393    -3.39191e-05         0.697358        0.389637
                       -0.386064          0.9108     -0.000763339    -0.000152371       -0.0900956      0.00968287     -0.000447047    -0.000399563
                    -0.000267856     0.000742302         0.697383        0.390293     -0.000330349    -0.000498931         0.569118       0.0335416
281728                -0.0577244      -0.0711902      0.000560759     0.000149074        -0.385641        0.911033      -0.00019334     0.000574961
                     0.000562827     0.000235047        -0.357023       -0.455708     -0.000815675    -3.31099e-05         0.697462        0.389017
                       -0.385637         0.91098     -0.000763452    -0.000151941       -0.0901085      0.00974863     -0.000447671     -0.00039913
                    -0.000267544     0.000742569         0.697487        0.389674     -0.000331326    -0.000498713         0.569416       0.0329774
281730                -0.0577527      -0.0711924      0.000560683     0.000148945        -0.385214        0.911213     -0.000193173     0.000575111
                     0.000562942     0.000234884        -0.357427       -0.455735     -0.000815958    -3.22995e-05         0.697564        0.388397
                       -0.385209        0.911159     -0.000763585    -0.000151568       -0.0901213      0.00981442     -0.000448294    -0.000398695
                    -0.000267233     0.000742836          0.69759        0.389054     -0.000332303    -0.000498493         0.569713       0.0324123
281732                -0.0577811      -0.0711946      0.000560605     0.000148812        -0.384786        0.911392     -0.000193006     0.000575261
                     0.000563057     0.000234721        -0.357831       -0.455763     -0.000816241    -3.14879e-05         0.697667        0.387777
                       -0.384781        0.911338     -0.000763788    -0.000151409       -0.0901341      0.00988021     -0.000448917     -0.00039826
                    -0.000266921     0.000743104         0.697692        0.388434     -0.000333283    -0.000498272          0.57001       0.0318465
281734                -0.0578095      -0.0711968      0.000560523     0.000148673        -0.384358        0.911571     -0.000192839     0.000575412
                     0.000563172     0.000234558        -0.358235       -0.455789     -0.000816525     -3.0675e-05         0.697768        0.387156
                       -0.384354        0.911517     -0.000762791    -0.000157589       -0.0901468      0.00994603      -0.00044954    -0.000397824
                    -0.000266609     0.000743372         0.697794        0.387814     -0.000334264    -0.000498051         0.570307       0.0312799
281736                -0.0578379       -0.071199      0.000560436     0.000148529         -0.38393         0.91175     -0.000192671     0.000575563
                     0.000563287     0.000234395         -0.35864       -0.455816     -0.000816809    -2.98609e-05         0.697869        0.386535
                       -0.383926        0.911695     -0.000763302    -0.000148957       -0.0901595       0.0100119     -0.000450163    -0.000397387
                    -0.000266298     0.000743641         0.697895        0.387193     -0.000335246    -0.000497828         0.570603       0.0307124
281738                -0.0578663      -0.0712012      0.000560342     0.000148377        -0.383502        0.911929     -0.000192503     0.000575714
                     0.000563402     0.000234232        -0.359045       -0.455843     -0.000817093    -2.90455e-05         0.697969        0.385914
                       -0.383498        0.911874     -0.000763611    -0.000148875       -0.0901721       0.0100777     -0.000450786    -0.000396949
                    -0.000265986      0.00074391         0.697996        0.386572      -0.00033623    -0.000497604         0.570899       0.0301442
281740                -0.0578947      -0.0712033      0.000560236     0.000148216        -0.383074        0.912107     -0.000192335     0.000575866
                     0.000563517      0.00023407        -0.359451       -0.455869     -0.000817377    -2.82289e-05         0.698069        0.385292
                        -0.38307        0.912052     -0.000763761    -0.000148517       -0.0901847       0.0101436     -0.000451409     -0.00039651
                    -0.000265674     0.000744179         0.698096         0.38595     -0.000337215    -0.000497379         0.571195       0.0295751
281742                -0.0579231      -0.0712055      0.000560113     0.000148048        -0.382646        0.912285     -0.000192167     0.000576019
                     0.000563632     0.000233908        -0.359857       -0.455895     -0.000817662     -2.7411e-05         0.698168         0.38467
                       -0.382642         0.91223     -0.000763877    -0.000148092       -0.0901972       0.0102094     -0.000452031    -0.000396071
                    -0.000265362     0.000744448         0.698195        0.385328     -0.000338202    -0.000497153          0.57149       0.0290053
281744                -0.0579515      -0.0712076      0.000559962     0.000147874        -0.382218        0.912463     -0.000191999     0.000576171
                     0.000563746     0.000233746        -0.360263       -0.455921     -0.000817947    -2.65919e-05         0.698266        0.384047
                       -0.382213        0.912407      -0.00076398    -0.000147642       -0.0902097       0.0102753     -0.000452653     -0.00039563
                     -0.00026505     0.000744718         0.698293        0.384706     -0.000339191    -0.000496927         0.571785       0.0284346
281746                -0.0579799      -0.0712097       0.00055977     0.000147709         -0.38179        0.912641      -0.00019183     0.000576324
                     0.000563861     0.000233584         -0.36067       -0.455946     -0.000818233    -2.57716e-05         0.698363        0.383425
                       -0.381785        0.912585     -0.000764076    -0.000147178       -0.0902221       0.0103412     -0.000453275    -0.000395189
                    -0.000264738     0.000744988         0.698391        0.384084      -0.00034018    -0.000496699          0.57208       0.0278632
281748                -0.0580083      -0.0712118      0.000559532     0.000147584        -0.381361        0.912819     -0.000191662     0.000576477
                     0.000563975     0.000233422        -0.361077       -0.455972     -0.000818518      -2.495e-05          0.69846        0.382802
                       -0.381357        0.912762     -0.000764168    -0.000146709       -0.0902345       0.0104071     -0.000453897    -0.000394747
                    -0.000264426     0.000745259         0.698489        0.383461     -0.000341172     -0.00049647         0.572374       0.0272909
281750                -0.0580368      -0.0712139       0.00055928     0.000147542        -0.380933        0.912996     -0.000191493     0.000576631
                      0.00056409      0.00023326        -0.361485       -0.455997     -0.000818804    -2.41271e-05         0.698556        0.382178
                       -0.380928         0.91294     -0.000764259    -0.000146235       -0.0902469       0.0104731     -0.000454519    -0.000394304
                    -0.000264113     0.000745529         0.698585        0.382838     -0.000342165     -0.00049624         0.572668       0.0267179
281752                -0.0580652       -0.071216      0.000559088     0.000147578        -0.380504        0.913173     -0.000191324     0.000576785
                     0.000564204     0.000233098        -0.361893       -0.456022     -0.000819091     -2.3303e-05         0.698651        0.381554
                         -0.3805        0.913117     -0.000764347    -0.000145758       -0.0902591        0.010539     -0.000455141    -0.000393861
                    -0.000263801       0.0007458         0.698681        0.382214     -0.000343159    -0.000496009         0.572962        0.026144
281754                -0.0580937       -0.071218      0.000558988     0.000147619        -0.380076        0.913351     -0.000191157      0.00057694
                     0.000564318     0.000232937        -0.362301       -0.456046     -0.000819377    -2.24777e-05         0.698746         0.38093
                       -0.380071        0.913293     -0.000764435    -0.000145281       -0.0902714        0.010605     -0.000455762    -0.000393418
                    -0.000263489     0.000746072         0.698776         0.38159     -0.000344155    -0.000495777         0.573255       0.0255693
281756                -0.0581221      -0.0712201      0.000558942     0.000147609        -0.379647        0.913527     -0.000190978     0.000577093
                     0.000564432     0.000232776         -0.36271       -0.456071     -0.000819664    -2.16511e-05         0.698839        0.380306
                       -0.379643         0.91347     -0.000764523    -0.000144803       -0.0902836        0.010671     -0.000456382     -0.00039297
                    -0.000263177     0.000746343         0.698871        0.380966     -0.000345152    -0.000495543         0.573548       0.0249938
281758                -0.0581506      -0.0712221      0.000558903     0.000147546        -0.379218        0.913704     -0.000190811     0.000577249
                     0.000564546     0.000232614        -0.363119       -0.456095     -0.000819951    -2.08232e-05         0.698933        0.379681
                       -0.379214        0.913646     -0.000764611    -0.000144327       -0.0902957        0.010737     -0.000457003    -0.000392524
                    -0.000262864     0.000746615         0.698965        0.380342      -0.00034615    -0.000495308         0.573841       0.0244175
281760                -0.0581791      -0.0712241      0.000558848     0.000147451         -0.37879         0.91388     -0.000190642     0.000577405
                      0.00056466     0.000232453        -0.363529       -0.456119     -0.000820238    -1.99939e-05         0.699025        0.379056
                       -0.378785        0.913822       -0.0007647    -0.000143854       -0.0903078        0.010803     -0.000457624    -0.000392077
                    -0.000262552     0.000746887         0.699058        0.379717     -0.000347151    -0.000495072         0.574133       0.0238404
281762                -0.0582076      -0.0712261      0.000558774     0.000147339        -0.378361        0.914057     -0.000190471     0.000577561
                     0.000564774     0.000232292        -0.363939       -0.456143     -0.000820524    -1.91631e-05         0.699117         0.37843
                       -0.378356        0.913998     -0.000764793    -0.000143387       -0.0903199        0.010869     -0.000458245    -0.000391629
