! TOUCHSTONE file generated by CST MICROWAVE STUDIO
! Date and time: Tue Oct 14 07:31:30 2025
! Project name: Teste_Macro_Metasurface_Nanopilar.cst
! Parameters = {H=600; L_x=175; L_y=125; Lambda=1064; Max_L=200; Min_L=70; PathPara=1; Phi=0; Step_L=10; Theta=0; p=520; phaseX=180; phaseY=0}
! Header version: 2018
! Port assignment regex: !\s*Touchstone port\s*([0-9]+)\s*=\s*(CST MWS port|CST DS port)\s*([0-9]+|Zmin|Zmax)\s*\(\"(.*)\"\)(\s*mode\s*([0-9]+))?.*
! Touchstone port assignment:
! Touchstone port 1 = CST MWS port Zmax ("") mode 1
! Touchstone port 2 = CST MWS port Zmax ("") mode 2
! Touchstone port 3 = CST MWS port Zmin ("") mode 1
! Touchstone port 4 = CST MWS port Zmin ("") mode 2
! S-Parameters are not renormalized. Each port impedance will be approximated by the real part at minimum frequency. The values are described via the [Reference] keyword.
! Default impedance is overridden by [Reference]
[Version] 2.0
# GHz S RI R 376.73
[Number of Ports] 4
[Reference]
376.73 376.73 259.814 259.814 
[Number of Frequencies] 51
[Network Data]
281700                -0.0957967       -0.126676      0.000534725    -0.000358381         0.129042        0.974573      0.000367913     5.82381e-05
                     0.000526923    -0.000317199        -0.188261        0.136963      0.000279214    -1.21008e-05         0.533349        0.805518
                        0.129337        0.973984      0.000452376    -9.78616e-05       -0.0581454        0.146818      0.000690357     7.32289e-05
                     0.000430278     3.58549e-05         0.532912        0.805825      0.000532152    -2.97534e-06        -0.196939        0.110101
281702                -0.0958399       -0.126666      0.000534595    -0.000358513         0.129472        0.974513      0.000368063     5.80786e-05
                     0.000526566    -0.000317186        -0.188192         0.13695      0.000279196    -1.23259e-05         0.533743        0.805278
                        0.129768        0.973924      0.000452296    -9.80134e-05       -0.0580597        0.146871      0.000690385     7.25629e-05
                     0.000429958      3.5675e-05         0.533306        0.805585      0.000532127    -3.28332e-06        -0.196792        0.110235
281704                -0.0958832       -0.126656      0.000534465    -0.000358645         0.129902        0.974454      0.000368213     5.79144e-05
                     0.000526208    -0.000317172        -0.188123        0.136937      0.000279178    -1.25518e-05         0.534136        0.805038
                        0.130198        0.973864      0.000452215    -9.81656e-05        -0.057974        0.146925      0.000690411     7.18962e-05
                     0.000429638      3.5495e-05           0.5337        0.805344      0.000532103    -3.59167e-06        -0.196645         0.11037
281706                -0.0959264       -0.126646      0.000534335    -0.000358778         0.130332        0.974394      0.000368364     5.77461e-05
                     0.000525851    -0.000317158        -0.188054        0.136924      0.000279159    -1.27785e-05         0.534529        0.804797
                        0.130628        0.973804      0.000452133    -9.83184e-05       -0.0578883        0.146978      0.000690434     7.12285e-05
                     0.000429318     3.53147e-05         0.534093        0.805103      0.000532079    -3.90039e-06        -0.196498        0.110504
281708                -0.0959697       -0.126636      0.000534205    -0.000358912         0.130761        0.974334      0.000368516     5.75744e-05
                     0.000525493    -0.000317145        -0.187986        0.136911      0.000279141     -1.3006e-05         0.534922        0.804556
                        0.131058        0.973743      0.000452052    -9.84716e-05       -0.0578025        0.147031      0.000690454     7.05597e-05
                     0.000428999     3.51343e-05         0.534487        0.804862      0.000532056    -4.20947e-06        -0.196351        0.110638
281710                 -0.096013       -0.126626      0.000534075    -0.000359046         0.131191        0.974274       0.00036867        5.74e-05
                     0.000525135    -0.000317131        -0.187917        0.136899      0.000279124    -1.32343e-05         0.535315        0.804315
                        0.131488        0.973682      0.000451969    -9.86253e-05       -0.0577167        0.147084      0.000690472     6.98898e-05
                     0.000428679     3.49536e-05          0.53488        0.804621      0.000532033    -4.51892e-06        -0.196204        0.110772
281712                -0.0960562       -0.126616      0.000533946    -0.000359181         0.131621        0.974214      0.000368826     5.72234e-05
                     0.000524777    -0.000317118        -0.187848        0.136886      0.000279106    -1.34634e-05         0.535708        0.804074
                        0.131918        0.973621      0.000451886    -9.87794e-05       -0.0576308        0.147137      0.000690489     6.92187e-05
                     0.000428359     3.47728e-05         0.535274         0.80438      0.000532011    -4.82873e-06        -0.196057        0.110906
281714                -0.0960995       -0.126606      0.000533816    -0.000359317          0.13205        0.974154      0.000368984     5.70453e-05
                     0.000524418    -0.000317104         -0.18778        0.136873      0.000279088    -1.36934e-05         0.536101        0.803832
                        0.132348         0.97356      0.000451803     -9.8934e-05       -0.0575449         0.14719      0.000690503     6.85464e-05
                     0.000428039     3.45917e-05         0.535667        0.804139       0.00053199    -5.13891e-06         -0.19591        0.111039
281716                -0.0961428       -0.126596      0.000533686    -0.000359453          0.13248        0.974093      0.000369143      5.6866e-05
                     0.000524059    -0.000317091        -0.187711         0.13686      0.000279071    -1.39241e-05         0.536493        0.803591
                        0.132778        0.973498      0.000451718    -9.90889e-05        -0.057459        0.147243      0.000690516      6.7873e-05
                     0.000427719     3.44105e-05          0.53606        0.803897      0.000531969    -5.44946e-06        -0.195763        0.111173
281718                 -0.096186       -0.126586      0.000533557     -0.00035959         0.132909        0.974032      0.000369304     5.66859e-05
                       0.0005237    -0.000317077        -0.187643        0.136847      0.000279054    -1.41557e-05         0.536885        0.803349
                        0.133208        0.973437      0.000451634     -9.9244e-05        -0.057373        0.147296      0.000690528     6.71984e-05
                     0.000427399      3.4229e-05         0.536453        0.803655      0.000531949    -5.76038e-06        -0.195616        0.111306
281720                -0.0962293       -0.126576      0.000533427    -0.000359727         0.133339        0.973971      0.000369467     5.65051e-05
                     0.000523341    -0.000317064        -0.187574        0.136834      0.000279037    -1.43881e-05         0.537278        0.803107
                        0.133638        0.973375      0.000451548    -9.93992e-05        -0.057287        0.147349      0.000690538     6.65227e-05
                      0.00042708     3.40474e-05         0.536845        0.803413       0.00053193    -6.07166e-06        -0.195468        0.111439
281722                -0.0962726       -0.126566      0.000533298    -0.000359865         0.133768         0.97391      0.000369631     5.63239e-05
                     0.000522982    -0.000317051        -0.187506        0.136821       0.00027902    -1.46213e-05          0.53767        0.802865
                        0.134068        0.973313      0.000451463    -9.95543e-05       -0.0572009        0.147402      0.000690547     6.58462e-05
                      0.00042676     3.38656e-05         0.537238        0.803171      0.000531911    -6.38331e-06        -0.195321        0.111572
281724                -0.0963159       -0.126556      0.000533168    -0.000360004         0.134198        0.973848      0.000369795     5.61424e-05
                     0.000522622    -0.000317037        -0.187438        0.136808      0.000279003    -1.48553e-05         0.538062        0.802623
                        0.134498        0.973251      0.000451378    -9.97098e-05       -0.0571148        0.147454      0.000690555     6.51688e-05
                      0.00042644     3.36836e-05          0.53763        0.802929      0.000531893    -6.69533e-06        -0.195174        0.111705
281726                -0.0963591       -0.126546      0.000533039    -0.000360144         0.134627        0.973787      0.000369961     5.59606e-05
                     0.000522263    -0.000317024        -0.187369        0.136795      0.000278986    -1.50902e-05         0.538453         0.80238
                        0.134928        0.973189      0.000451294    -9.98668e-05       -0.0570286        0.147507      0.000690562     6.44907e-05
                      0.00042612     3.35014e-05         0.538023        0.802686      0.000531875    -7.00772e-06        -0.195026        0.111838
281728                -0.0964024       -0.126536      0.000532909    -0.000360284         0.135056        0.973725      0.000370127     5.57787e-05
                     0.000521902    -0.000317011        -0.187301        0.136782      0.000278969    -1.53258e-05         0.538845        0.802137
                        0.135357        0.973126      0.000451209    -0.000100026       -0.0569424         0.14756      0.000690568      6.3812e-05
                     0.000425801      3.3319e-05         0.538415        0.802443      0.000531858    -7.32047e-06        -0.194879         0.11197
281730                -0.0964457       -0.126526       0.00053278    -0.000360424         0.135486        0.973663      0.000370294     5.55966e-05
                     0.000521542    -0.000316998        -0.187233        0.136769      0.000278953    -1.55623e-05         0.539236        0.801895
                        0.135787        0.973063      0.000451123    -0.000100186       -0.0568561        0.147612      0.000690573     6.31327e-05
                     0.000425481     3.31364e-05         0.538807          0.8022      0.000531842     -7.6336e-06        -0.194731        0.112103
281732                 -0.096489       -0.126516       0.00053265    -0.000360566         0.135915        0.973601      0.000370462     5.54144e-05
                     0.000521182    -0.000316985        -0.187165        0.136756      0.000278936    -1.57995e-05         0.539627        0.801652
                        0.136217           0.973      0.000451035    -0.000100347       -0.0567698        0.147665      0.000690577     6.24531e-05
                     0.000425161     3.29537e-05         0.539199        0.801957      0.000531826    -7.94709e-06        -0.194584        0.112235
281734                -0.0965323       -0.126505      0.000532521    -0.000360708         0.136344        0.973539       0.00037063      5.5232e-05
                     0.000520821    -0.000316972        -0.187097        0.136743       0.00027892    -1.60376e-05         0.540019        0.801408
                        0.136647        0.972937      0.000450946    -0.000100508       -0.0566835        0.147717       0.00069058      6.1773e-05
                     0.000424842     3.27707e-05          0.53959        0.801714       0.00053181    -8.26095e-06        -0.194436        0.112367
281736                -0.0965756       -0.126495      0.000532391    -0.000360851         0.136774        0.973476      0.000370799     5.50495e-05
                      0.00052046    -0.000316959        -0.187029         0.13673      0.000278903    -1.62765e-05          0.54041        0.801165
                        0.137076        0.972874      0.000450856     -0.00010067       -0.0565971         0.14777      0.000690582     6.10927e-05
                     0.000424522     3.25876e-05         0.539982        0.801471      0.000531796    -8.57518e-06        -0.194288        0.112499
281738                -0.0966189       -0.126485      0.000532261    -0.000360994         0.137203        0.973413      0.000370967     5.48668e-05
                     0.000520099    -0.000316946        -0.186961        0.136717      0.000278887    -1.65162e-05           0.5408        0.800921
                        0.137506         0.97281      0.000450765    -0.000100831       -0.0565107        0.147822      0.000690583     6.04122e-05
                     0.000424202     3.24043e-05         0.540373        0.801227      0.000531781    -8.88978e-06        -0.194141        0.112631
281740                -0.0966622       -0.126475      0.000532131    -0.000361138         0.137632         0.97335      0.000371137     5.46839e-05
                     0.000519738    -0.000316933        -0.186893        0.136704      0.000278871    -1.67566e-05         0.541191        0.800678
                        0.137936        0.972747      0.000450674    -0.000100994       -0.0564242        0.147875      0.000690583     5.97316e-05
                     0.000423883     3.22209e-05         0.540764        0.800983      0.000531768    -9.20475e-06        -0.193993        0.112763
281742                -0.0967055       -0.126465      0.000532001    -0.000361283         0.138061        0.973287      0.000371306     5.45009e-05
                     0.000519376     -0.00031692        -0.186825        0.136691      0.000278855    -1.69978e-05         0.541582        0.800434
                        0.138365        0.972683      0.000450582    -0.000101156       -0.0563377        0.147927      0.000690582     5.90509e-05
                     0.000423563     3.20372e-05         0.541155        0.800739      0.000531755    -9.52007e-06        -0.193845        0.112894
281744                -0.0967488       -0.126455      0.000531871    -0.000361429          0.13849        0.973224      0.000371476     5.43177e-05
                     0.000519015    -0.000316907        -0.186757        0.136678      0.000278839    -1.72397e-05         0.541972        0.800189
                        0.138795        0.972619       0.00045049    -0.000101319       -0.0562512        0.147979       0.00069058     5.83703e-05
                     0.000423244     3.18534e-05         0.541546        0.800495      0.000531742    -9.83575e-06        -0.193697        0.113026
281746                -0.0967921       -0.126444       0.00053174    -0.000361575          0.13892         0.97316      0.000371645     5.41342e-05
                     0.000518653    -0.000316894        -0.186689        0.136666      0.000278823    -1.74823e-05         0.542362        0.799945
                        0.139224        0.972555      0.000450396    -0.000101483       -0.0561646        0.148031      0.000690577     5.76896e-05
                     0.000422924     3.16694e-05         0.541937         0.80025      0.000531729    -1.01518e-05        -0.193549        0.113157
281748                -0.0968354       -0.126434      0.000531609    -0.000361722         0.139349        0.973096      0.000371815     5.39504e-05
                     0.000518291    -0.000316882        -0.186621        0.136653      0.000278806    -1.77254e-05         0.542752        0.799701
                        0.139654         0.97249      0.000450302    -0.000101647       -0.0560779        0.148084      0.000690573     5.70091e-05
                     0.000422605     3.14852e-05         0.542328        0.800006      0.000531717    -1.04681e-05        -0.193402        0.113288
281750                -0.0968787       -0.126424      0.000531479     -0.00036187         0.139778        0.973032      0.000371985     5.37664e-05
                     0.000517928    -0.000316869        -0.186554         0.13664       0.00027879    -1.79688e-05         0.543142        0.799456
                        0.140084        0.972425      0.000450207    -0.000101812       -0.0559913        0.148136      0.000690568     5.63287e-05
                     0.000422285     3.13009e-05         0.542718        0.799761      0.000531705    -1.07848e-05        -0.193254        0.113419
281752                 -0.096922       -0.126414      0.000531348    -0.000362018         0.140207        0.972968      0.000372155     5.35821e-05
                     0.000517566    -0.000316856        -0.186486        0.136627      0.000278772    -1.82122e-05         0.543532        0.799211
                        0.140513        0.972361      0.000450112    -0.000101977       -0.0559045        0.148188      0.000690562     5.56485e-05
                     0.000421966     3.11164e-05         0.543109        0.799516      0.000531691    -1.11015e-05        -0.193105        0.113549
281754                -0.0969653       -0.126404      0.000531216    -0.000362167         0.140636        0.972904      0.000372325     5.33974e-05
                     0.000517203    -0.000316844        -0.186418        0.136614      0.000278752    -1.84551e-05         0.543922        0.798966
                        0.140942        0.972296      0.000450015    -0.000102143       -0.0558178         0.14824      0.000690554     5.49686e-05
                     0.000421646     3.09317e-05         0.543499        0.799271      0.000531667    -1.14176e-05        -0.192957         0.11368
281756                -0.0970086       -0.126393      0.000531085    -0.000362317         0.141065         0.97284      0.000372494     5.32124e-05
                      0.00051684    -0.000316831        -0.186351          0.1366      0.000278722    -1.87033e-05         0.544311        0.798721
                        0.141372         0.97223      0.000449918    -0.000102309        -0.055731        0.148292      0.000690546     5.42889e-05
                     0.000421327     3.07469e-05         0.543889        0.799026      0.000531732    -1.17506e-05        -0.192809        0.113811
281758                -0.0970519       -0.126383      0.000530953    -0.000362467         0.141494        0.972777      0.000372664     5.30271e-05
                     0.000516477    -0.000316819        -0.186283        0.136587      0.000278703     -1.8974e-05           0.5447        0.798475
                        0.141801        0.972165       0.00044982    -0.000102476       -0.0556441        0.148344      0.000690536     5.36096e-05
                     0.000421008     3.05619e-05         0.544279         0.79878      0.000531687    -1.20592e-05        -0.192661        0.113941
281760                -0.0970952       -0.126373      0.000530821    -0.000362619         0.141923         0.97271      0.000372833     5.28415e-05
                     0.000516114    -0.000316806        -0.186216        0.136574      0.000278701    -1.92272e-05          0.54509         0.79823
                        0.142231        0.972099      0.000449722    -0.000102644       -0.0555572        0.148396      0.000690526     5.29307e-05
                     0.000420688     3.03767e-05         0.544669        0.798534      0.000531674    -1.23769e-05        -0.192513        0.114071
281762                -0.0971385       -0.126362      0.000530688    -0.000362771         0.142352        0.972645      0.000373002     5.26555e-05
                     0.000515751    -0.000316794        -0.186148        0.136561      0.000278691    -1.94748e-05         0.545479        0.797984
                         0.14266        0.972034      0.000449622    -0.000102812       -0.0554703        0.148448      0.000690514     5.22522e-05
