! TOUCHSTONE file generated by CST MICROWAVE STUDIO
! Date and time: Tue Oct 14 07:32:52 2025
! Project name: Teste_Macro_Metasurface_Nanopilar.cst
! Parameters = {H=600; L_x=195; L_y=175; Lambda=1064; Max_L=200; Min_L=70; PathPara=1; Phi=0; Step_L=10; Theta=0; p=520; phaseX=180; phaseY=0}
! Header version: 2018
! Port assignment regex: !\s*Touchstone port\s*([0-9]+)\s*=\s*(CST MWS port|CST DS port)\s*([0-9]+|Zmin|Zmax)\s*\(\"(.*)\"\)(\s*mode\s*([0-9]+))?.*
! Touchstone port assignment:
! Touchstone port 1 = CST MWS port Zmax ("") mode 1
! Touchstone port 2 = CST MWS port Zmax ("") mode 2
! Touchstone port 3 = CST MWS port Zmin ("") mode 1
! Touchstone port 4 = CST MWS port Zmin ("") mode 2
! S-Parameters are not renormalized. Each port impedance will be approximated by the real part at minimum frequency. The values are described via the [Reference] keyword.
! Default impedance is overridden by [Reference]
[Version] 2.0
# GHz S RI R 376.73
[Number of Ports] 4
[Reference]
376.73 376.73 259.814 259.814 
[Number of Frequencies] 51
[Network Data]
281700                 -0.286249        -0.14582     -0.000672541    -0.000240185         0.902661        0.276731     -0.000239182     -0.00041068
                    -0.000612689    -0.000255304        -0.156804      -0.0643045     -0.000121911    -0.000377636         0.966316       -0.139925
                        0.901918        0.276937      2.18012e-05    -0.000360339         0.317331       0.0389305      0.000746772     -0.00033128
                    -0.000229398    -0.000273194         0.966718       -0.140246      0.000486882    -0.000239145         0.133459      -0.0958237
281702                 -0.286299        -0.14574     -0.000672579    -0.000239892          0.90277        0.276365     -0.000239307    -0.000410894
                    -0.000612805     -0.00025522        -0.156726      -0.0642572     -0.000121783     -0.00037766         0.966251       -0.140437
                        0.902028        0.276571       2.1832e-05     -0.00036042          0.31736       0.0387669      0.000746219    -0.000332259
                    -0.000229624    -0.000273438         0.966652       -0.140758      0.000486943    -0.000239488         0.133296       -0.095884
281704                  -0.28635        -0.14566     -0.000672617    -0.000239609         0.902878        0.275998     -0.000239435    -0.000411105
                    -0.000627335     -0.00025181        -0.156648        -0.06421     -0.000121656    -0.000377685         0.966186       -0.140949
                        0.902136        0.276204      2.18553e-05    -0.000360507         0.317388       0.0386033      0.000745663    -0.000333235
                    -0.000237556    -0.000276739         0.966586       -0.141271      0.000487002     -0.00023983         0.133133       -0.095944
281706                 -0.286401       -0.145579     -0.000672657     -0.00023933         0.902987        0.275632     -0.000239567    -0.000411313
                    -0.000639378     -0.00024098        -0.156571      -0.0641628      -0.00012153    -0.000377711          0.96612       -0.141461
                        0.902242        0.275836      2.18729e-05    -0.000360598         0.317416       0.0384397      0.000745104    -0.000334207
                    -0.000253532    -0.000275935          0.96652       -0.141784       0.00048706    -0.000240172          0.13297      -0.0960038
281708                 -0.286453       -0.145498       -0.0006727    -0.000239054         0.903095        0.275265     -0.000239703    -0.000411518
                    -0.000643635    -0.000232117        -0.156493      -0.0641158     -0.000121406    -0.000377738         0.966055       -0.141974
                        0.902345        0.275467      2.18866e-05    -0.000360688         0.317443       0.0382761      0.000744542    -0.000335175
                    -0.000267045    -0.000266174         0.966453       -0.142298      0.000487116    -0.000240513         0.132807      -0.0960635
281710                 -0.286508       -0.145416     -0.000672744    -0.000238778         0.903203        0.274899     -0.000239843     -0.00041172
                    -0.000644951    -0.000227023        -0.156414      -0.0640687     -0.000121284    -0.000377767         0.965989       -0.142486
                        0.902441        0.275097      2.18981e-05    -0.000360778         0.317471       0.0381125      0.000743978     -0.00033614
                     -0.00027229    -0.000255528         0.966386       -0.142811      0.000487172    -0.000240854         0.132643      -0.0961229
281712                  -0.28657        -0.14533     -0.000672789    -0.000238503         0.903311        0.274532     -0.000239986    -0.000411919
                    -0.000645481    -0.000224147        -0.156336      -0.0640218     -0.000121163    -0.000377796         0.965922       -0.142999
                        0.902528        0.274724      2.19086e-05    -0.000360866         0.317499       0.0379489      0.000743411      -0.0003371
                    -0.000273371    -0.000248462         0.966319       -0.143324      0.000487226    -0.000241194         0.132479      -0.0961822
281714                 -0.286651       -0.145221     -0.000672835    -0.000238227         0.903419        0.274165     -0.000240132    -0.000412115
                      -0.0006458    -0.000222426        -0.156258      -0.0639749     -0.000121044    -0.000377826         0.965856       -0.143512
                        0.902593        0.274352      2.19188e-05    -0.000360954         0.317527       0.0377852      0.000742841    -0.000338057
                    -0.000273348      -0.0002443         0.966251       -0.143838      0.000487279    -0.000241534         0.132315      -0.0962412
281716                 -0.286528        -0.14502     -0.000672881     -0.00023795         0.903527        0.273799     -0.000240283    -0.000412308
                    -0.000646054    -0.000221324        -0.156179      -0.0639281     -0.000120925    -0.000377857         0.965789       -0.144024
                        0.902608        0.273995      2.19292e-05     -0.00036104         0.317554       0.0376215      0.000742268     -0.00033901
                    -0.000273197    -0.000241856         0.966183       -0.144351      0.000487331    -0.000241873         0.132151      -0.0963001
281718                 -0.286618       -0.145092     -0.000672927    -0.000237672         0.903634        0.273432     -0.000240436    -0.000412498
                    -0.000646287    -0.000220571          -0.1561      -0.0638814     -0.000120809    -0.000377889         0.965722       -0.144537
                        0.902527        0.273794      2.19402e-05    -0.000361125         0.317582       0.0374578      0.000741693    -0.000339959
                    -0.000273139    -0.000240391         0.966115       -0.144865      0.000487382    -0.000242212         0.131987      -0.0963588
281720                 -0.286693       -0.145021     -0.000672972    -0.000237393         0.903741        0.273065     -0.000240593    -0.000412685
                    -0.000646509    -0.000220025        -0.156021      -0.0638348     -0.000120694    -0.000377921         0.965654        -0.14505
                        0.902921        0.273836      2.19519e-05    -0.000361209         0.317609       0.0372941      0.000741115    -0.000340903
                    -0.000273193    -0.000239499         0.966047       -0.145379      0.000487431    -0.000242551         0.131823      -0.0964172
281722                 -0.286753       -0.144942     -0.000673017    -0.000237113         0.903849        0.272698     -0.000240753    -0.000412868
                    -0.000646725    -0.000219607        -0.155942      -0.0637882      -0.00012058    -0.000377955         0.965587       -0.145564
                        0.903291        0.273271      2.19645e-05    -0.000361292         0.317636       0.0371304      0.000740535    -0.000341844
                    -0.000273338    -0.000238956         0.965978       -0.145893      0.000487479    -0.000242889         0.131658      -0.0964755
281724                 -0.286807       -0.144862     -0.000673062    -0.000236832         0.903956        0.272331     -0.000240917    -0.000413049
                    -0.000646937     -0.00021927        -0.155863      -0.0637417     -0.000120468    -0.000377989         0.965519       -0.146077
                        0.903414        0.272784      2.19781e-05    -0.000361374         0.317663       0.0369667      0.000739952    -0.000342781
                    -0.000273547    -0.000238634         0.965909       -0.146407      0.000487526    -0.000243226         0.131493      -0.0965336
281726                  -0.28686       -0.144782     -0.000673106     -0.00023655         0.904063        0.271964     -0.000241084    -0.000413226
                    -0.000647145    -0.000218988        -0.155784      -0.0636953     -0.000120357    -0.000378024          0.96545        -0.14659
                        0.903513        0.272364      2.19927e-05    -0.000361455          0.31769       0.0368029      0.000739367    -0.000343713
                      -0.0002738    -0.000238454          0.96584       -0.146921      0.000487572    -0.000243563         0.131328      -0.0965914
281728                 -0.286911       -0.144702      -0.00067315    -0.000236267         0.904169        0.271597     -0.000241254      -0.0004134
                     -0.00064735    -0.000218743        -0.155704       -0.063649     -0.000120247     -0.00037806         0.965382       -0.147104
                        0.903613        0.271969      2.20083e-05    -0.000361535         0.317718       0.0366391      0.000738779    -0.000344642
                    -0.000274083     -0.00023837          0.96577       -0.147435      0.000487616    -0.000243899         0.131163      -0.0966491
281730                 -0.286961       -0.144621     -0.000673193    -0.000235983         0.904276         0.27123     -0.000241428    -0.000413571
                    -0.000647552    -0.000218522        -0.155624      -0.0636027     -0.000120139    -0.000378096         0.965313       -0.147617
                        0.903714        0.271586       2.2025e-05    -0.000361614         0.317744       0.0364753      0.000738189    -0.000345566
                    -0.000274386    -0.000238352           0.9657       -0.147949      0.000487659    -0.000244235         0.130998      -0.0967066
281732                 -0.287012       -0.144541     -0.000673235    -0.000235698         0.904383        0.270863     -0.000241604    -0.000413738
                    -0.000647751     -0.00021832        -0.155545      -0.0635565     -0.000120032    -0.000378134         0.965243       -0.148131
                        0.903818        0.271209      2.20427e-05    -0.000361692         0.317771       0.0363115      0.000737596    -0.000346486
                    -0.000274702    -0.000238379          0.96563       -0.148464      0.000487702     -0.00024457         0.130832      -0.0967638
281734                 -0.287062       -0.144461     -0.000673277    -0.000235412         0.904489        0.270496     -0.000241783    -0.000413902
                    -0.000647948    -0.000218129        -0.155465      -0.0635104     -0.000119927    -0.000378172         0.965174       -0.148645
                        0.903923        0.270836      2.20613e-05    -0.000361768         0.317798       0.0361477      0.000737002    -0.000347402
                    -0.000275026    -0.000238438          0.96556       -0.148978      0.000487743    -0.000244904         0.130667      -0.0968209
281736                 -0.287111        -0.14438     -0.000673318    -0.000235125         0.904595        0.270129     -0.000241966    -0.000414063
                    -0.000648142    -0.000217948        -0.155385      -0.0634643     -0.000119822     -0.00037821         0.965104       -0.149159
                        0.904028        0.270464       2.2081e-05    -0.000361844         0.317825       0.0359838      0.000736405    -0.000348313
                    -0.000275356    -0.000238518         0.965489       -0.149493      0.000487782    -0.000245238         0.130501      -0.0968778
281738                 -0.287161         -0.1443     -0.000673358    -0.000234837         0.904701        0.269762     -0.000242151    -0.000414221
                    -0.000648335    -0.000217773        -0.155304      -0.0634184      -0.00011972     -0.00037825         0.965034       -0.149673
                        0.904135        0.270094      2.21015e-05    -0.000361919         0.317851         0.03582      0.000735806    -0.000349221
                    -0.000275689    -0.000238615         0.965418       -0.150008      0.000487821    -0.000245571         0.130335      -0.0969344
281740                  -0.28721       -0.144219     -0.000673399    -0.000234548         0.904807        0.269395      -0.00024234    -0.000414376
                    -0.000648526    -0.000217603        -0.155224      -0.0633725     -0.000119618     -0.00037829         0.964964       -0.150187
                        0.904241        0.269725      2.21229e-05    -0.000361993         0.317878       0.0356561      0.000735204    -0.000350124
                    -0.000276023    -0.000238723         0.965347       -0.150523      0.000487859    -0.000245903         0.130169      -0.0969909
281742                  -0.28726       -0.144139     -0.000673438    -0.000234259         0.904913        0.269028     -0.000242531    -0.000414528
                    -0.000648715    -0.000217436        -0.155144      -0.0633266     -0.000119518     -0.00037833         0.964893       -0.150701
                        0.904348        0.269356      2.21452e-05    -0.000362066         0.317904       0.0354922      0.000734601    -0.000351024
                    -0.000276359    -0.000238839         0.965275       -0.151038      0.000487895    -0.000246235         0.130002      -0.0970472
281744                 -0.287309       -0.144059     -0.000673477    -0.000233968         0.905019         0.26866     -0.000242726    -0.000414678
                    -0.000648903    -0.000217271        -0.155063      -0.0632809     -0.000119419    -0.000378372         0.964822       -0.151215
                        0.904455        0.268988      2.21682e-05    -0.000362138         0.317931       0.0353283      0.000733996     -0.00035192
                    -0.000276694    -0.000238961         0.965203       -0.151553       0.00048793    -0.000246565         0.129836      -0.0971032
281746                 -0.287359       -0.143978     -0.000673516    -0.000233677         0.905124        0.268293     -0.000242924    -0.000414826
                     -0.00064909    -0.000217108        -0.154982      -0.0632352     -0.000119321    -0.000378413         0.964751        -0.15173
                        0.904562         0.26862      2.21921e-05    -0.000362209         0.317957       0.0351644      0.000733388    -0.000352815
                    -0.000277029    -0.000239086         0.965131       -0.152068      0.000487964    -0.000246895         0.129669      -0.0971591
281748                 -0.287408       -0.143898     -0.000673554    -0.000233385         0.905229        0.267926     -0.000243129    -0.000414977
                    -0.000649275    -0.000216946        -0.154901      -0.0631897     -0.000119225    -0.000378456         0.964679       -0.152244
                        0.904669        0.268252      2.22166e-05    -0.000362279         0.317983       0.0350004      0.000732776    -0.000353714
                    -0.000277363    -0.000239213         0.965058       -0.152583      0.000487997    -0.000247224         0.129502      -0.0972147
281750                 -0.287457       -0.143817     -0.000673592    -0.000233093         0.905335        0.267558     -0.000243358     -0.00041513
                     -0.00064946    -0.000216784         -0.15482      -0.0631442      -0.00011913    -0.000378499         0.964607       -0.152759
                        0.904776        0.267885      2.22418e-05    -0.000362349         0.318009       0.0348365      0.000732127    -0.000354634
                    -0.000277696    -0.000239342         0.964985       -0.153098      0.000488029    -0.000247553         0.129335      -0.0972702
281752                 -0.287506       -0.143737     -0.000673629    -0.000232799          0.90544        0.267191     -0.000243616     -0.00041522
                    -0.000649643    -0.000216623        -0.154739      -0.0630987     -0.000119036    -0.000378542         0.964535       -0.153274
                        0.904883        0.267517      2.22676e-05    -0.000362417         0.318035       0.0346725      0.000731462    -0.000355393
                    -0.000278029    -0.000239472         0.964912       -0.153614       0.00048806     -0.00024788         0.129168      -0.0973263
281754                 -0.287556       -0.143656     -0.000673666    -0.000232505         0.905544        0.266823     -0.000243788    -0.000415304
                    -0.000649826    -0.000216463        -0.154657      -0.0630534     -0.000118943    -0.000378587         0.964463       -0.153788
                        0.904989         0.26715       2.2294e-05    -0.000362484         0.318061       0.0345085      0.000730905    -0.000356264
                     -0.00027836    -0.000239601         0.964839       -0.154129      0.000488089    -0.000248207         0.129001      -0.0973805
281756                 -0.287605       -0.143575     -0.000673703     -0.00023221         0.905649        0.266456     -0.000243975     -0.00041543
                    -0.000650008    -0.000216302        -0.154576      -0.0630081     -0.000118851    -0.000378631          0.96439       -0.154303
                        0.905096        0.266782      2.23209e-05    -0.000362551         0.318087       0.0343445        0.0007303    -0.000357138
                     -0.00027869    -0.000239731         0.964765       -0.154645      0.000488118    -0.000248532         0.128833      -0.0974353
281758                 -0.287654       -0.143495     -0.000673739    -0.000231915         0.905754        0.266088     -0.000244179    -0.000415555
                    -0.000650189    -0.000216141        -0.154494      -0.0629629     -0.000118761    -0.000378677         0.964317       -0.154819
                        0.905202        0.266415      2.23483e-05    -0.000362617         0.318113       0.0341805      0.000729686    -0.000358002
                     -0.00027902     -0.00023986         0.964691       -0.155161      0.000488145    -0.000248857         0.128666        -0.09749
281760                 -0.287703       -0.143414     -0.000673775    -0.000231619         0.905858        0.265721     -0.000244389    -0.000415675
                    -0.000650369     -0.00021598        -0.154412      -0.0629178     -0.000118672    -0.000378722         0.964244       -0.155334
                        0.905309        0.266047      2.23762e-05    -0.000362681         0.318139       0.0340164      0.000729068     -0.00035886
                    -0.000279348    -0.000239988         0.964617       -0.155677      0.000488172    -0.000249181         0.128498      -0.0975444
281762                 -0.287752       -0.143334     -0.000673811    -0.000231322         0.905963        0.265353     -0.000244604     -0.00041579
                    -0.000650549    -0.000215818         -0.15433      -0.0628727     -0.000118583    -0.000378769          0.96417       -0.155849
                        0.905415         0.26568      2.24046e-05    -0.000362745         0.318164       0.0338524      0.000728447    -0.000359711
