! TOUCHSTONE file generated by CST MICROWAVE STUDIO
! Date and time: Mon Sep 29 00:40:57 2025
! Project name: biblioteca3_folgaOK.cst
! Parameters = {H=600; Lx=300; Ly=300; Nedge=16; P=520; mesh_pilar_nm=15; t_air=3500; t_sub=4000}
! Header version: 2018
! Port assignment regex: !\s*Touchstone port\s*([0-9]+)\s*=\s*(CST MWS port|CST DS port)\s*([0-9]+|Zmin|Zmax)\s*\(\"(.*)\"\)(\s*mode\s*([0-9]+))?.*
! Touchstone port assignment:
! Touchstone port 1 = CST MWS port Zmin ("") mode 1
! Touchstone port 2 = CST MWS port Zmin ("") mode 2
! Touchstone port 3 = CST MWS port Zmax ("") mode 1
! Touchstone port 4 = CST MWS port Zmax ("") mode 2
! S-Parameters are not renormalized. Each port impedance will be approximated by the real part at minimum frequency. The values are described via the [Reference] keyword.
! Default impedance is overridden by [Reference]
[Version] 2.0
# GHz S RI R 376.73
[Number of Ports] 4
[Reference]
376.73 376.73 376.73 376.73 
[Number of Frequencies] 401
[Network Data]
250000                  0.199144        0.217839      2.07504e-05    -0.000836217         0.150989        0.943445     -0.000294779     0.000293769
                     2.03266e-05    -0.000836265         0.201461        0.219407     -0.000310098     0.000181426         0.150122        0.942728
                        0.150989        0.943445     -0.000310094     0.000181643         0.121212        -0.26911      0.000470626     0.000874914
                    -0.000294731     0.000294054         0.150121        0.942728      0.000470331     0.000874506         0.123347       -0.271131
250200                  0.217835        0.196119     -3.95419e-05     -0.00085506         0.240711        0.925386     -0.000268973      0.00032478
                    -3.80994e-05    -0.000854242         0.220149        0.197445     -0.000289314     0.000223691         0.239802        0.924776
                         0.24074        0.925323     -0.000300334      0.00020455        0.0946811       -0.277362      0.000571537     0.000840268
                    -0.000269462     0.000318022         0.239816        0.924735      0.000574954     0.000846192        0.0965359       -0.279495
250400                   0.23392        0.172591     -0.000104075    -0.000870157         0.328419        0.898871     -0.000238624     0.000353244
                    -0.000100807    -0.000869047         0.236205        0.173689     -0.000261448     0.000261377         0.327482        0.898358
                        0.328476        0.898739      -0.00028799     0.000227431        0.0675738       -0.282691      0.000671013     0.000793942
                    -0.000241175     0.000340311         0.327488        0.898282      0.000679243     0.000805404         0.069124       -0.284893
250600                  0.247205        0.147599     -0.000172796    -0.000880807         0.413326        0.864115     -0.000204084     0.000378289
                    -0.000167852    -0.000880035         0.249434        0.148486     -0.000228061     0.000292964         0.412369        0.863692
                        0.413403        0.863908     -0.000272918     0.000249941        0.0402329       -0.285059      0.000767486     0.000735862
                    -0.000209955     0.000360455         0.412355         0.86359      0.000781427     0.000751834        0.0414663        -0.28728
250800                   0.25754        0.121511      -0.00024556    -0.000886246          0.49467          0.8214     -0.000165924     0.000399115
                    -0.000239217     -0.00088649         0.259691        0.122206     -0.000191041     0.000317588         0.493698        0.821064
                        0.494754        0.821118     -0.000255027     0.000271685        0.0130034       -0.284467      0.000859354     0.000666207
                    -0.000175971     0.000377978         0.493653        0.820946       0.00087964     0.000685485        0.0139194       -0.286656
251000                   0.26483       0.0947054     -0.000322103     -0.00088566         0.571712        0.771079     -0.000124901     0.000415059
                    -0.000314798    -0.000887617         0.266882       0.0952313     -0.000152302     0.000335067          0.57073        0.770828
                        0.571788        0.770726     -0.000234294     0.000292227       -0.0137728       -0.280956      0.000945032     0.000585413
                    -0.000139483     0.000392413          0.57065        0.770705      0.000971991     0.000606696       -0.0131638       -0.283065
251200                  0.269029       0.0675707     -0.000402023    -0.000878193         0.643749        0.713569      -8.1916e-05      0.00042565
                    -0.000394374    -0.000882557         0.270967        0.067953     -0.000113538     0.000345786          0.64276        0.713407
                        0.643802        0.713153     -0.000210779     0.000311104       -0.0397617       -0.274609         0.001023     0.000494168
                    -0.000100843      0.00040332         0.642645        0.713287       0.00105663     0.000516141       -0.0394396       -0.276594
251400                  0.270146        0.040494     -0.000484757    -0.000862972         0.710115        0.649352     -3.79548e-05     0.000430645
                    -0.000477588    -0.000870389         0.271958         0.04076     -7.60784e-05     0.000350519         0.709126        0.649283
                         0.71013        0.648887     -0.000184631     0.000327846       -0.0646417       -0.265548       0.00109185     0.000393396
                    -6.04948e-05      0.00041031         0.708979        0.649174       0.00113185     0.000414824       -0.0645785       -0.267369
251600                  0.268238       0.0138556     -0.000569563    -0.000839132         0.770187         0.57897      5.98611e-06     0.000430035
                    -0.000563915    -0.000850151         0.269917       0.0140337     -4.08445e-05     0.000350232         0.769206           0.579
                        0.770153        0.578472     -0.000156098     0.000341994       -0.0881078       -0.253931       0.00115034     0.000284227
                    -1.89633e-05      0.00041307         0.769032        0.578905        0.0011961     0.000304039       -0.0882694       -0.255556
251800                  0.263412      -0.0119776     -0.000655499    -0.000805856         0.823393        0.503021      4.89651e-05     0.000424036
                    -0.000652637    -0.000820863         0.264956      -0.0118583     -8.38317e-06     0.000345933         0.822429        0.503157
                        0.823301         0.50251     -0.000125527     0.000353129        -0.109876       -0.239952       0.00119739     0.000167964
                     2.31618e-05     0.000411374         0.822234        0.503078        0.0012481     0.000185325        -0.110224       -0.241356
252000                  0.255818      -0.0366577     -0.000741418    -0.000762413         0.869213        0.422157      9.01517e-05      0.00041305
                    -0.000742816    -0.000781564          0.25723      -0.0365687      2.10619e-05     0.000338565         0.868281        0.422405
                        0.869061        0.421656     -9.33531e-05     0.000360896        -0.129687       -0.223836       0.00123214     4.60421e-05
                     6.52464e-05     0.000405109          0.86807        0.422341       0.00128686     6.04023e-05        -0.130181       -0.225002
252200                  0.245652      -0.0598614     -0.000825969    -0.000708212         0.907186         0.33708      0.000128865     0.000397623
                    -0.000833273    -0.000731352          0.24694      -0.0597754      4.74678e-05     0.000328946         0.906303        0.337443
                        0.906977        0.336609     -6.00847e-05     0.000365024        -0.147309       -0.205839       0.00125398    -8.00109e-05
                     0.000106637     0.000394276         0.906079        0.337391       0.00131168    -6.88947e-05        -0.147908       -0.206758
252400                  0.233147      -0.0812948     -0.000907605    -0.000642859         0.936916        0.248534      0.000164594     0.000378387
                    -0.000922577    -0.000669448         0.234324      -0.0811866      7.09573e-05     0.000317756         0.936099        0.249012
                        0.936657        0.248113     -2.62826e-05     0.000365348        -0.162544       -0.186243       0.00126247    -0.000208619
                     0.000146688     0.000378997         0.935867        0.248968        0.0013222    -0.000200685        -0.163206       -0.186911
252600                  0.218571       -0.100697      -0.00098462    -0.000566205         0.958074        0.157303      0.000196995     0.000356008
                     -0.00100904    -0.000595252         0.219653       -0.100545      9.17387e-05      0.00030553         0.957343        0.157893
                        0.957776        0.156949      7.46835e-06     0.000361817        -0.175226       -0.165352       0.00125744    -0.000338194
                     0.000184787     0.000359508         0.957102        0.157853       0.00131834    -0.000333106        -0.175913       -0.165771
252800                  0.202221       -0.117846      -0.00105519    -0.000478406         0.970402       0.0642044      0.000225881     0.000331147
                     -0.00109076    -0.000508421         0.203231       -0.117631      0.000110062     0.000292682         0.969777       0.0648991
                        0.970081       0.0639309      4.05883e-05     0.000354498        -0.185227       -0.143488        0.0012389     -0.00046717
                     0.000220385     0.000336147         0.969527       0.0648563       0.00130032    -0.000464369        -0.185903       -0.143667
253000                  0.184424       -0.132559      -0.00111744    -0.000379958          0.97372      -0.0299188      0.000251198     0.000304423
                      -0.0011656    -0.000408943         0.185383       -0.132268       0.00012619     0.000279517         0.973219      -0.0291309
                        0.973394      -0.0301023      7.25305e-05     0.000343566        -0.192459       -0.120988       0.00120706    -0.000594027
                     0.000253005     0.000309339         0.972957      -0.0291799       0.00126859    -0.000592801         -0.19309       -0.120938
253200                  0.165522       -0.144698      -0.00116951    -0.000271724         0.967924       -0.124202      0.000272999     0.000276393
                     -0.00123132    -0.000297202         0.166458       -0.144321      0.000140378     0.000266258         0.967565       -0.123336
                        0.967612       -0.124291      0.000102806     0.000329295        -0.196875      -0.0981974        0.0011623    -0.000717318
                     0.000282268     0.000279567         0.967285       -0.123395       0.00122381    -0.000716878         -0.19743      -0.0979363
253400                  0.145877       -0.154171      -0.00120966    -0.000154943         0.952993       -0.217767      0.000291412     0.000247539
                     -0.00128563    -0.000174038         0.146817       -0.153706      0.000152865     0.000253058         0.952791       -0.216844
                        0.952715       -0.217764      0.000131002     0.000312034        -0.198469      -0.0754688       0.00110515    -0.000835678
                      0.00030789     0.000247359         0.952488       -0.216912        0.0011668    -0.000835241        -0.198921      -0.0750144
253600                  0.125857       -0.160935      -0.00123635    -3.11994e-05         0.928989       -0.309731      0.000306621     0.000218264
                      -0.0013263    -4.07771e-05          0.12683       -0.160385      0.000163869     0.000240022         0.928955       -0.308772
                        0.928765       -0.309641      0.000156793     0.000292185        -0.197279       -0.053153       0.00103628    -0.000947839
                     0.000329689     0.000213256         0.928623       -0.308849       0.00109848    -0.000946707        -0.197605      -0.0525263
253800                  0.105837       -0.164996      -0.00124833     9.76132e-05         0.896061       -0.399211      0.000318839     0.000188898
                     -0.00135127     0.000100762         0.106868       -0.164368      0.000173582     0.000227211           0.8962       -0.398242
                        0.895906       -0.399046      0.000179945      0.00027018        -0.193386       -0.031596      0.000956459     -0.00105263
                     0.000347579     0.000177795         0.895832       -0.398324       0.00101987     -0.00105026        -0.193564      -0.0308198
254000                  0.086186        -0.16641      -0.00124468     0.000229369          0.85444       -0.485336      0.000328292     0.000159698
                     -0.00135882     0.000248308         0.087301       -0.165718      0.000182176     0.000214659         0.854754       -0.484382
                        0.854368        -0.48511      0.000200314     0.000246461        -0.186912      -0.0111335      0.000866574       -0.001149
                     0.000361555     0.000141492         0.854346       -0.484464      0.000932042     -0.00114506        -0.186925      -0.0102323
254200                 0.0672665       -0.165284      -0.00122489     0.000361796         0.804445       -0.567252      0.000335207     0.000130863
                     -0.00134762     0.000399203         0.068487       -0.164548      0.000189797     0.000202379         0.804932        -0.56634
                        0.804465       -0.566984      0.000217839     0.000221456        -0.178023      0.00791412      0.000767586     -0.00123597
                     0.000371691     0.000104825         0.804478       -0.566414      0.000836071     -0.00123041        -0.177856      0.00891464
254400                 0.0494237       -0.161776      -0.00118888      0.00049257         0.746479       -0.644133      0.000339802     0.000102536
                     -0.00131689     0.000550516        0.0507675       -0.161019      0.000196574     0.000190366         0.747131       -0.643288
                        0.746597       -0.643841      0.000232528     0.000195569        -0.166924       0.0252475      0.000660534     -0.00131272
                     0.000378116     6.82278e-05          0.74663       -0.643345      0.000733054     -0.00130575        -0.166566       0.0263203
254600                 0.0329805        -0.15609      -0.00113697     0.000619416         0.681031       -0.715186      0.000342278     7.48201e-05
                     -0.00126641     0.000699173        0.0344605        -0.15534      0.000202617     0.000178602         0.681833       -0.714433
                        0.681246       -0.714892       0.00024445     0.000169168        -0.153857       0.0405926      0.000546527     -0.00137848
                     0.000381007     3.20851e-05         0.681287       -0.714462      0.000624073     -0.00137063        -0.153301       0.0417097
254800                 0.0182303       -0.148478      -0.00106984     0.000740195         0.608665       -0.779665      0.000342817     4.77811e-05
                     -0.00119658     0.000842101        0.0198537       -0.147765       0.00020802     0.000167061         0.609602       -0.779023
                        0.608972       -0.779387       0.00025372     0.000142578          -0.1391        0.053706      0.000426731     -0.00143263
                     0.000380573    -3.27194e-06         0.609013       -0.779013      0.000510195     -0.00142473         -0.13834       0.0548385
255000                 0.0054307       -0.139231     -0.000988512     0.000852971         0.530026       -0.836874      0.000341577     2.14586e-05
                     -0.00110833     0.000976376        0.0071984       -0.138587      0.000212865     0.000155707         0.531079        -0.83636
                        0.530417       -0.836632      0.000260486     0.000116082         -0.12296       0.0643788      0.000302369     -0.00147466
                     0.000377043    -3.75633e-05         0.530452       -0.836302      0.000392467     -0.00146778        -0.121995       0.0654974
255200               -0.00520306       -0.128681      -0.00089423     0.000956064         0.445831       -0.886178      0.000338695    -4.12925e-06
                     -0.00100313      0.00109934      -0.00329681        -0.12814       0.00021722     0.000144499         0.446975       -0.885806
                        0.446292       -0.885987      0.000264919     8.99162e-05        -0.105772       0.0724408       0.00017471     -0.00150416
                     0.000370656    -7.05567e-05          0.44632        -0.88569      0.000271911     -0.00149963        -0.104606       0.0735162
255400                -0.0135036       -0.117191     -0.000788422      0.00104807         0.356861        -0.92701      0.000334283    -2.89795e-05
                    -0.000882837      0.00120869       -0.0114714       -0.116784      0.000221145     0.000133391         0.358074       -0.926789
                        0.357376       -0.926883      0.000267205     6.42764e-05       -0.0878927       0.0777641       4.5064e-05     -0.00152086
                     0.000361651    -0.000102063         0.357402       -0.926607      0.000149531     -0.00152016       -0.0865334       0.0787674
255600                -0.0193566       -0.105149     -0.000672606      0.00112787          0.26396        -0.95888      0.000328431       -5.31e-05
                      -0.0007496      0.00130257       -0.0172179       -0.104906      0.000224689     0.000122328         0.265218       -0.958813
                        0.264511       -0.958825      0.000267536     3.93198e-05       -0.0696954       0.0802651     -8.52299e-05     -0.00152461
                     0.000350266    -0.000131933         0.264543       -0.958562      2.63124e-05     -0.00152934       -0.0681545       0.0811689
255800                -0.0227048      -0.0929624     -0.000548333      0.00119461         0.168025       -0.981379      0.000321206    -7.65052e-05
                    -0.000605744      0.00137954       -0.0204853      -0.0929116      0.000227894      0.00011125         0.169305       -0.981465
                        0.168592       -0.981399      0.000266106     1.51697e-05       -0.0515644       0.0799074     -0.000214811     -0.00151539
                     0.000336726    -0.000160045          0.16864       -0.981142     -9.67739e-05     -0.00152716       -0.0498584       0.0806862
256000                -0.0235509      -0.0810498     -0.000417126      0.00124767        0.0699959       -0.994185      0.000312653    -9.92133e-05
                    -0.000453663      0.00143859       -0.0212824      -0.0812129      0.000230795     0.000100089        0.0712757       -0.994421
                       0.0705602       -0.994281      0.000263109    -8.08011e-06       -0.0338893       0.0767023     -0.000342313     -0.00149334
                     0.000321245    -0.000186308        0.0706367       -0.994027     -0.000218768      -0.0015137       -0.0320388        0.077334
256200                  -0.02196       -0.069832     -0.000280448       0.0012866       -0.0291494        -0.99707      0.000302793    -0.000121243
                    -0.000295724      0.00147913       -0.0196794      -0.0702258      0.000233422      8.8766e-05       -0.0278886       -0.997449
                      -0.0286062       -0.997237      0.000258735    -3.03607e-05       -0.0170589       0.0707094     -0.000466375     -0.00145872
                     0.000304023    -0.000210647       -0.0284866       -0.996989     -0.000338715     -0.00148904       -0.0150882       0.0711757
