! TOUCHSTONE file generated by CST MICROWAVE STUDIO
! Date and time: Mon Sep 29 00:40:56 2025
! Project name: biblioteca3_folgaOK.cst
! Parameters = {H=600; Lx=300; Ly=300; Nedge=16; P=520; mesh_pilar_nm=20; t_air=3500; t_sub=4000}
! Header version: 2018
! Port assignment regex: !\s*Touchstone port\s*([0-9]+)\s*=\s*(CST MWS port|CST DS port)\s*([0-9]+|Zmin|Zmax)\s*\(\"(.*)\"\)(\s*mode\s*([0-9]+))?.*
! Touchstone port assignment:
! Touchstone port 1 = CST MWS port Zmin ("") mode 1
! Touchstone port 2 = CST MWS port Zmin ("") mode 2
! Touchstone port 3 = CST MWS port Zmax ("") mode 1
! Touchstone port 4 = CST MWS port Zmax ("") mode 2
! S-Parameters are not renormalized. Each port impedance will be approximated by the real part at minimum frequency. The values are described via the [Reference] keyword.
! Default impedance is overridden by [Reference]
[Version] 2.0
# GHz S RI R 376.73
[Number of Ports] 4
[Reference]
376.73 376.73 376.73 376.73 
[Number of Frequencies] 401
[Network Data]
250000                  0.200182        0.225053     -0.000592712    -0.000156098         0.152945        0.941215     -0.000230356     0.000253587
                    -0.000592742    -0.000155992         0.200285         0.22597      -0.00024733     0.000151053         0.152116        0.941108
                        0.152945        0.941215     -0.000247267     0.000150746         0.118623       -0.276859      -0.00035734     0.000401999
                    -0.000230421     0.000253375         0.152117        0.941107      -0.00035716     0.000402087         0.118897       -0.277561
250200                  0.219582        0.203492     -0.000570767    -0.000101497         0.242377        0.922824     -0.000208646     0.000261256
                    -0.000564856    -9.83115e-05         0.219847        0.204396     -0.000235624     0.000164155         0.241518        0.922801
                        0.242383        0.922838     -0.000235727     0.000162318        0.0914359       -0.285169     -0.000308101     0.000413757
                    -0.000208873     0.000260267         0.241516        0.922811     -0.000307577     0.000420501         0.091579       -0.285867
250400                  0.236489        0.180071     -0.000544318    -4.93324e-05         0.329743        0.896037     -0.000187345     0.000268394
                    -0.000533517    -4.38495e-05         0.236861         0.18094     -0.000223632     0.000176683         0.328865         0.89611
                        0.329755        0.896059     -0.000224079     0.000173664         0.063651       -0.290499     -0.000256875     0.000419646
                    -0.000187756     0.000266725         0.328863        0.896125     -0.000254182     0.000432038        0.0636697       -0.291172
250600                  0.250692        0.155096      -0.00051348    -3.11807e-07          0.41427        0.861071     -0.000166387     0.000275034
                    -0.000498869     6.71884e-06         0.251122        0.155925     -0.000211407     0.000188696         0.413386        0.861248
                        0.414288        0.861096     -0.000212307     0.000184835        0.0356163       -0.292804     -0.000204498      0.00041903
                    -0.000167002     0.000272777         0.413385        0.861265     -0.000198192     0.000435462        0.0355195       -0.293433
250800                  0.262018        0.128901     -0.000478467     4.48434e-05         0.495205        0.818213     -0.000145708     0.000281208
                    -0.000461124     5.27335e-05         0.262471        0.129697     -0.000198986     0.000200264         0.494328        0.818498
                        0.495226        0.818237     -0.000200385     0.000195888       0.00768241       -0.292081     -0.000152002     0.000411393
                    -0.000146545     0.000278446          0.49433        0.818516     -0.000141273     0.000429795       0.00748204        -0.29265
251000                  0.270341        0.101845     -0.000439604     8.54151e-05          0.57182        0.767815     -0.000125237     0.000286943
                    -0.000420568     9.35661e-05         0.270792        0.102618     -0.000186391     0.000211474         0.570967        0.768213
                        0.571844        0.767837     -0.000188274     0.000206881       -0.0198022       -0.288371     -0.000100602     0.000396402
                    -0.000126314     0.000283753         0.570971        0.768228     -8.54683e-05     0.000414505       -0.0200915       -0.288863
251200                  0.275585       0.0743001     -0.000397332      0.00012071         0.643423        0.710297     -0.000104903     0.000292263
                    -0.000377572     0.000128637         0.276019       0.0750638      -0.00017362     0.000222423          0.64261        0.710805
                        0.643447        0.710315     -0.000175922     0.000217879       -0.0464964       -0.281753     -5.16601e-05     0.000373969
                    -0.000106236     0.000288718         0.642616        0.710817     -3.30454e-05     0.000389661       -0.0468573       -0.282154
251400                   0.27772       0.0466488     -0.000352209     0.000150085         0.709359        0.646139     -8.46289e-05     0.000297188
                    -0.000332593     0.000157432          0.27813       0.0474166     -0.000160645      0.00023322         0.708601        0.646754
                        0.709381        0.646153     -0.000163257     0.000228946        -0.072071       -0.272348     -6.63629e-06     0.000344305
                     -8.6233e-05     0.000293357         0.708608        0.646762      1.37371e-05      0.00035603       -0.0724837       -0.272648
251600                  0.276771       0.0192744     -0.000304911     0.000172971         0.769016        0.575881     -6.43308e-05     0.000301732
                    -0.000286179     0.000179518         0.277158       0.0200568     -0.000147403     0.000243974         0.768328        0.576596
                        0.769035        0.575891     -0.000150184     0.000240143       -0.0962132       -0.260314      3.29948e-05     0.000307969
                     -6.6221e-05      0.00029768         0.768335          0.5766      5.28997e-05     0.000315053       -0.0966559       -0.260505
251800                  0.272812     -0.00744542     -0.000256225     0.000188898         0.821829        0.500118      -4.3917e-05     0.000305902
                    -0.000238967      0.00019456         0.273179       -0.006642     -0.000133796     0.000254797         0.821226        0.500923
                        0.821845        0.500125     -0.000136585     0.000251531        -0.118631       -0.245846       6.5837e-05     0.000265882
                     -4.6108e-05     0.000301693         0.821232        0.500924      8.29854e-05     0.000268696         -0.11908       -0.245924
252000                  0.265966      -0.0331458     -0.000207034     0.000197525         0.867289        0.419497     -2.32857e-05     0.000309697
                    -0.000191676     0.000202336         0.266321       -0.032319     -0.000119685     0.000265789         0.866784        0.420382
                        0.867302        0.419502     -0.000122312     0.000263156        -0.139057       -0.229171      9.06778e-05     0.000219319
                     -2.5792e-05     0.000305392         0.866788        0.420379      0.000103212     0.000219211        -0.139489       -0.229136
252200                  0.256407      -0.0574817     -0.000158297     0.000198654         0.904944        0.334713      -2.3238e-06       0.0003131
                    -0.000145097     0.000202745         0.256754       -0.056633     -0.000104884     0.000277031         0.904546        0.335663
                        0.904954        0.334716     -0.000107183     0.000275049        -0.157252       -0.210548       0.00010659     0.000169863
                    -5.16026e-06     0.000308764         0.904549        0.335658      0.000113492     0.000168846        -0.157641       -0.210404
252400                   0.24435      -0.0801341      -0.00011103     0.000192255         0.934405        0.246504      1.90944e-05     0.000316082
                    -0.000100076     0.000195825         0.244694      -0.0792676     -8.91616e-05      0.00028857         0.934123        0.247504
                        0.934411        0.246506     -9.09792e-05     0.000287216         -0.17301       -0.190261      0.000113019     0.000119324
                     1.59131e-05     0.000311778         0.934124        0.247498      0.000114332     0.000119603        -0.173332       -0.190018
252600                  0.230053       -0.100816     -6.62721e-05     0.000178474         0.955349        0.155644      4.11081e-05     0.000318589
                    -5.74968e-05     0.000181757         0.230394      -0.0999372     -7.22418e-05     0.000300408         0.955188        0.156678
                        0.955352        0.155646     -7.34475e-05     0.000299619        -0.186158        -0.16862      0.000109836     6.96431e-05
                     3.75673e-05     0.000314384         0.955188        0.156671      0.000106635     7.30759e-05        -0.186391        -0.16829
252800                  0.213808       -0.119278     -2.50597e-05     0.000157642         0.967522       0.0629416      6.38693e-05     0.000320539
                    -1.82558e-05      0.00016087         0.214144       -0.118392     -5.38087e-05     0.000312481         0.967487       0.0639924
                        0.967524       0.0629439     -5.42987e-05     0.000312172        -0.196561       -0.145951      9.73651e-05     2.27731e-05
                      5.9956e-05     0.000316507         0.967485        0.063986      9.14795e-05     3.04013e-05        -0.196683       -0.145553
253000                  0.195939       -0.135311      1.16105e-05     0.000130271         0.970748      -0.0307697      8.75416e-05     0.000321813
                     1.67607e-05     0.000133645         0.196266       -0.134421     -3.35174e-05     0.000324646         0.970838      -0.0297189
                        0.970748       -0.030767     -3.32156e-05     0.000324712        -0.204125       -0.122598      7.63649e-05     -1.9421e-05
                     8.32452e-05     0.000318035         0.970836      -0.0297248      6.99205e-05    -7.68497e-06        -0.204119       -0.122153
253200                  0.176794       -0.148754      4.28121e-05     9.70505e-05         0.964926       -0.124636      0.000112295     0.000322247
                     4.67036e-05     0.000100709         0.177103        -0.14786     -1.10108e-05      0.00033666         0.965139       -0.123602
                        0.964924       -0.124633     -9.86597e-06     0.000336991        -0.208797      -0.0989144      4.79778e-05    -5.52414e-05
                     0.000107611     0.000318814         0.965136       -0.123607      4.28549e-05    -4.07205e-05        -0.208648       -0.098449
253400                  0.156739       -0.159492      6.77192e-05     5.88279e-05         0.950032        -0.21779      0.000138301     0.000321619
                     7.07881e-05     6.28341e-05         0.157024       -0.158591      1.40567e-05     0.000348169         0.950365        -0.21679
                        0.950031       -0.217788      1.60776e-05     0.000348651        -0.210566      -0.0752585      1.36535e-05    -8.31818e-05
                     0.000133233     0.000318634         0.950362       -0.216794      1.09687e-05    -6.83526e-05        -0.210264      -0.0748014
253600                  0.136152       -0.167461      8.56341e-05     1.65919e-05         0.926129        -0.30936      0.000165716     0.000319639
                     8.83189e-05     2.09206e-05         0.136406       -0.166546      4.19889e-05     0.000358697         0.926575       -0.308408
                        0.926127       -0.309358      4.49075e-05     0.000359216        -0.209466      -0.0519897      -2.4969e-05    -0.000101866
                     0.000160284     0.000317219         0.926572       -0.308411     -2.52275e-05    -9.01785e-05        -0.209006      -0.0515723
253800                  0.115419        -0.17265      9.60091e-05     -2.8554e-05         0.893359       -0.398473      0.000194667     0.000315938
                     9.87149e-05    -2.40141e-05         0.115637        -0.17171      7.30111e-05     0.000367648         0.893909       -0.397583
                        0.893357       -0.398472      7.68431e-05     0.000368079        -0.205574      -0.0294628     -6.63031e-05    -0.000109836
                     0.000188915     0.000314213         0.893906       -0.397585     -6.52866e-05    -0.000105627        -0.204958      -0.0291179
254000                 0.0949209         -0.1751      9.84637e-05    -7.54199e-05         0.851949       -0.484268      0.000225229     0.000310065
                     0.000101531    -7.08551e-05        0.0951007        -0.17412      0.000107231     0.000374315         0.852593       -0.483452
                        0.851947       -0.484267      0.000111986     0.000374517         -0.19901     -0.00802274     -0.000109563    -0.000105209
                     0.000219229     0.000309176         0.852591       -0.483453     -0.000108659    -0.000113915        -0.198245     -0.00778367
254200                 0.0750322       -0.174904      9.27956e-05    -0.000122759         0.802211       -0.565899      0.000257387     0.000301481
                     9.64742e-05    -0.000118412        0.0751768       -0.173868      0.000144601     0.000377906         0.802937       -0.565166
                        0.802209       -0.565899      0.000150272      0.00037771        -0.189939       0.0120009     -0.000157019     -8.6363e-05
                     0.000251257     0.000301571         0.802936       -0.565168     -0.000154516    -0.000114105        -0.189038       0.0121014
254400                 0.0561119       -0.172207      7.89867e-05    -0.000169296         0.744539       -0.642546      0.000291006     0.000289577
                     8.34224e-05    -0.000165441        0.0562284       -0.171099      0.000184882     0.000377584         0.745335       -0.641906
                        0.744537       -0.642548       0.00019143     0.000376785        -0.178564       0.0302986     -0.000214715    -5.89323e-05
                     0.000284915     0.000290777         0.745334       -0.641906     -0.000201617    -0.000105263        -0.177546       0.0302294
254600                 0.0384966       -0.167202      5.72033e-05    -0.000213761         0.679411       -0.713423      0.000325791     0.000273692
                     6.24302e-05    -0.000210674        0.0385974       -0.166006       0.00022763     0.000372513         0.680263       -0.712881
                        0.679407       -0.713427      0.000234955      0.00037088        -0.165128       0.0465865      -0.00027518    -3.77056e-05
                     0.000319963     0.000276105         0.680262       -0.712881     -0.000248276    -8.66823e-05        -0.164019       0.0463194
254800                 0.0224947        -0.16013      2.77925e-05    -0.000254911         0.607381       -0.777787      0.000361253     0.000253161
                     3.37376e-05    -0.000252844        0.0225964       -0.158833      0.000272184     0.000361923         0.608276       -0.777346
                        0.607376       -0.777792      0.000280107     0.000359214        -0.149909       0.0606106     -0.000321279    -1.76128e-05
                     0.000355965     0.000256834         0.608275       -0.777346      -0.00029247    -5.81134e-05        -0.148741       0.0601215
255000                 0.0083795       -0.151275     -8.72501e-06     -0.00029156         0.529083       -0.834944      0.000396686     0.000227375
                    -2.22902e-06     -0.00029071       0.00850234       -0.149866      0.000317687     0.000345162         0.530007       -0.834606
                        0.529076        -0.83495      0.000325928     0.000341163        -0.133219       0.0721519     -0.000354343     1.19279e-05
                     0.000392259     0.000232272         0.530006       -0.834605     -0.000332043    -1.99049e-05        -0.132027       0.0714214
255200               -0.00361654       -0.140959      -5.1665e-05    -0.000322597         0.445219       -0.884258      0.000431176     0.000195852
                     -4.4859e-05    -0.000323088      -0.00344996       -0.139432      0.000363116     0.000321752          0.44616       -0.884022
                        0.445211       -0.884264      0.000371302     0.000316322        -0.115396       0.0810299     -0.000378939     5.12593e-05
                      0.00042794      0.00020183         0.446159       -0.884021     -0.000364975     2.69807e-05         -0.11422       0.0800448
255400                -0.0133073       -0.129537     -0.000100191    -0.000347011         0.356562        -0.92516      0.000463627     0.000158313
                    -9.33631e-05    -0.000348876       -0.0130733       -0.127892      0.000407333     0.000291425         0.357507       -0.925023
                        0.356552       -0.925166      0.000415022      0.00028454        -0.096801       0.0871065     -0.000396302     9.81541e-05
                     0.000461883     0.000165112         0.357507       -0.925022     -0.000389601     8.10835e-05       -0.0956847       0.0858602
255600                -0.0205578       -0.117393     -0.000153329    -0.000363901         0.263943       -0.957153      0.000492833     0.000114745
                    -0.000146783    -0.000367079        -0.020233       -0.115634      0.000449142     0.000254148         0.264883       -0.957111
                        0.263931       -0.957158       0.00045587     0.000245932       -0.0778142       0.0902886     -0.000406259     0.000150682
                       0.0004928     0.000121992         0.264882        -0.95711     -0.000404738     0.000140641        -0.076803        0.088782
255800                -0.0252888       -0.104932     -0.000209976    -0.000372499         0.168248       -0.979821      0.000517558     6.54329e-05
                    -0.000204005    -0.000376832       -0.0248511       -0.103066      0.000487347     0.000210118         0.169174        -0.97987
                        0.168235       -0.979826      0.000492689     0.000200856       -0.0588275       0.0905304     -0.000408312     0.000207302
                     0.000519328     7.26718e-05         0.169173       -0.979868     -0.000409699     0.000203797       -0.0579675       0.0887723
256000                -0.0274797      -0.0925731     -0.000268921     -0.00037218        0.0704107       -0.992835      0.000536639     1.09513e-05
                    -0.000263773    -0.000377426       -0.0269091      -0.0906102      0.000520802     0.000159748        0.0713148       -0.992967
                       0.0703966       -0.992838      0.000524437     0.000149865       -0.0402394       0.0878347     -0.000401954     0.000266677
                     0.000540143     1.77001e-05        0.0713136       -0.992965     -0.000404226     0.000268757        -0.039576       0.0858419
256200                -0.0271712      -0.0807404     -0.000328853    -0.000362473       -0.0285999       -0.995954      0.000549065    -4.78783e-05
                    -0.000324709    -0.000368322       -0.0264505      -0.0786934      0.000548454      0.00010364       -0.0277229       -0.996164
                      -0.0286145       -0.995955      0.000550213     9.36563e-05       -0.0224489       0.0822534     -0.000386753     0.000327557
                     0.000554068    -4.20648e-05       -0.0277241       -0.996161     -0.000388376     0.000333894       -0.0220257       0.0800507
