! TOUCHSTONE file generated by CST MICROWAVE STUDIO
! Date and time: Mon Sep 29 00:40:56 2025
! Project name: biblioteca3_folgaOK.cst
! Parameters = {H=600; Lx=300; Ly=300; Nedge=16; P=520; mesh_pilar_nm=25; t_air=3500; t_sub=4000}
! Header version: 2018
! Port assignment regex: !\s*Touchstone port\s*([0-9]+)\s*=\s*(CST MWS port|CST DS port)\s*([0-9]+|Zmin|Zmax)\s*\(\"(.*)\"\)(\s*mode\s*([0-9]+))?.*
! Touchstone port assignment:
! Touchstone port 1 = CST MWS port Zmin ("") mode 1
! Touchstone port 2 = CST MWS port Zmin ("") mode 2
! Touchstone port 3 = CST MWS port Zmax ("") mode 1
! Touchstone port 4 = CST MWS port Zmax ("") mode 2
! S-Parameters are not renormalized. Each port impedance will be approximated by the real part at minimum frequency. The values are described via the [Reference] keyword.
! Default impedance is overridden by [Reference]
[Version] 2.0
# GHz S RI R 376.73
[Number of Ports] 4
[Reference]
376.73 376.73 376.73 376.73 
[Number of Frequencies] 401
[Network Data]
250000                  0.214756        0.223721      -0.00139428     0.000172058         0.148516        0.939022      -0.00024296     0.000483036
                     -0.00136868      0.00019929         0.213504        0.227298     -0.000322947     0.000248737         0.148384        0.938452
                        0.148494        0.939048     -0.000292475     0.000227558         0.135182       -0.279088      -0.00117103     0.000359189
                    -0.000222838      0.00044288         0.148315        0.938511      -0.00120523     0.000356976         0.133008       -0.282063
250200                  0.233861         0.20069      -0.00136198     0.000279053         0.237717        0.921363     -0.000215069     0.000479136
                     -0.00133019     0.000313252         0.232747        0.204456     -0.000307845     0.000259044          0.23759        0.920844
                        0.237641        0.921381      -0.00028033     0.000238963         0.108175       -0.288521      -0.00115452     0.000480254
                    -0.000200822     0.000441591          0.23742        0.920909      -0.00115218     0.000459209         0.105507        -0.29145
250400                  0.250297         0.17579      -0.00131755     0.000386682         0.324956        0.895284     -0.000187252       0.0004746
                     -0.00127815     0.000425658         0.249401        0.179763     -0.000292144      0.00026916         0.324808        0.894799
                         0.32484        0.895304     -0.000267472     0.000250247        0.0803844       -0.295056      -0.00111042     0.000603949
                    -0.000178276     0.000439775         0.324572        0.894884      -0.00108458     0.000553249        0.0772567       -0.297852
250600                  0.263847        0.149358      -0.00126004      0.00049319         0.409447        0.860996      -0.00015952     0.000469421
                     -0.00121216     0.000534355         0.263248        0.153533     -0.000275819     0.000279058         0.409254        0.860541
                        0.409305        0.861025     -0.000253868     0.000261374        0.0521556       -0.298608      -0.00103699     0.000720546
                    -0.000155202     0.000437394         0.408983        0.860652      -0.00100435     0.000636044        0.0486121       -0.301194
250800                   0.27434        0.121761      -0.00118872     0.000596465         0.490428        0.818783      -0.00013188     0.000463589
                     -0.00113219     0.000636974         0.274114        0.126112     -0.000258843     0.000288706          0.49017         0.81836
                        0.490272        0.818824     -0.000239482     0.000272304        0.0238425       -0.299137     -0.000937142     0.000819652
                    -0.000131606     0.000434407         0.489889        0.818497     -0.000914234     0.000705175        0.0199366        -0.30145
251000                  0.281658       0.0933869       -0.0011033     0.000694061         0.567164        0.768994     -0.000104343     0.000457093
                     -0.00103872     0.000731022         0.281868       0.0978667     -0.000241189     0.000298067         0.566827        0.768613
                        0.567004        0.769048     -0.000224278     0.000282994      -0.00419608       -0.296646     -0.000818455     0.000893017
                      -0.0001075     0.000430767         0.566555        0.768773     -0.000817489     0.000759102      -0.00840585       -0.298639
251200                  0.285734       0.0646371      -0.00100397     0.000783279         0.638955        0.712044      -7.6917e-05     0.000449918
                    -0.000932787     0.000814003         0.286433       0.0691839     -0.000222828     0.000307102         0.638531        0.711721
                          0.6388        0.712109     -0.000208219     0.000293394       -0.0316032       -0.291188      -0.00069123     0.000936783
                    -8.28951e-05     0.000426429         0.638282        0.711895     -0.000717592     0.000797272       -0.0360559       -0.292825
251400                  0.286557       0.0359195      -0.00089154     0.000861284          0.70514        0.648411     -4.96091e-05     0.000442046
                    -0.000815989     0.000883563          0.28778       0.0404589     -0.000203733     0.000315765         0.704627        0.648164
                        0.704994        0.648486     -0.000191267     0.000303445       -0.0580303       -0.282858     -0.000565668      0.00095199
                      -5.781e-05     0.000421338         0.704408        0.648345     -0.000617876     0.000820082       -0.0626653       -0.284118
251600                   0.28417      0.00763964     -0.000767558     0.000925284           0.7651        0.578632     -2.24272e-05     0.000433457
                    -0.000690473     0.000937649         0.285935       0.0120897     -0.000183872     0.000324008         0.764504        0.578479
                        0.764968        0.578713     -0.000173385     0.000313087       -0.0831429       -0.271798     -0.000449578     0.000943331
                     -3.2267e-05     0.000415439          0.76432        0.578659     -0.000521256     0.000828722       -0.0879018       -0.272669
251800                  0.278671      -0.0198063     -0.000634284     0.000972737         0.818266          0.5033      4.62092e-06     0.000424127
                    -0.000558856     0.000974659         0.280979       -0.015531     -0.000163216     0.000331772         0.817597        0.503259
                        0.818152        0.503383     -0.000154536     0.000322245        -0.106627        -0.25819     -0.000347471     0.000917143
                    -6.29413e-06     0.000408673         0.817448        0.503431     -0.000430056     0.000824951        -0.111455        -0.25867
252000                  0.270212      -0.0460395     -0.000494666      0.00100158         0.864123        0.423058       3.1527e-05     0.000414026
                    -0.000424107      0.00099357         0.273044      -0.0420238     -0.000141733     0.000338994         0.863398        0.423145
                        0.864026        0.423141     -0.000134684     0.000330842        -0.128193       -0.242253     -0.000260886     0.000879672
                     2.00743e-05     0.000400972         0.863282        0.423303     -0.000345936     0.000810844        -0.133041       -0.242348
252200                  0.258991      -0.0707051     -0.000352194      0.00101046         0.902212        0.338599      5.82819e-05     0.000403119
                    -0.000289376     0.000994014         0.262312      -0.0670295     -0.000119393     0.000345604         0.901452        0.338825
                        0.902134        0.338678     -0.000113794     0.000338787        -0.147581       -0.224244     -0.000189303     0.000836101
                     4.67967e-05     0.000392269         0.901366        0.338965     -0.000269914     0.000788576        -0.152404       -0.223964
252400                  0.245254       -0.093479     -0.000210692     0.000998877         0.932139        0.250657      8.48744e-05     0.000391366
                    -0.000157821     0.000976311         0.249013      -0.0902162     -9.61663e-05     0.000351518         0.931366        0.251031
                        0.932077         0.25073     -9.18361e-05     0.000345979        -0.164567       -0.204448     -0.000131082     0.000790245
                     7.38231e-05     0.000382489         0.931305         0.25115     -0.000202444     0.000760246        -0.169325       -0.203809
252600                  0.229286       -0.114073     -7.40424e-05     0.000967264         0.953573        0.160006      0.000111291     0.000378718
                    -3.24266e-05     0.000941438          0.23342       -0.111286     -7.20237e-05     0.000356646         0.952814        0.160531
                        0.953527         0.16007     -6.87819e-05     0.000352306        -0.178961       -0.183177     -8.41566e-05     0.000744664
                     0.000101094     0.000371553         0.952774        0.160628     -0.000143532     0.000727766        -0.183621       -0.182197
252800                  0.211408       -0.132242        5.409e-05      0.00091699         0.966257       0.0674501      0.000137514     0.000365119
                     8.41512e-05     0.000890945         0.215844       -0.129981     -4.69399e-05     0.000360885         0.965538       0.0681247
                        0.966223       0.0675047     -4.46104e-05     0.000357642        -0.190616       -0.160762     -4.64605e-05      0.00070093
                     0.000128539     0.000359376         0.965513       0.0682007     -9.28474e-05     0.000692795        -0.195148       -0.159461
253000                  0.191971       -0.147784      0.000170522      0.00085023         0.970003      -0.0261772      0.000163521     0.000350506
                     0.000189704     0.000826832         0.196629       -0.146086      -2.0893e-05     0.000364116         0.969351      -0.0253592
                        0.969981      -0.0261328     -1.93078e-05     0.000361848        -0.199426       -0.137554     -1.61315e-05     0.000659909
                     0.000156076      0.00034587         0.969337      -0.0253031     -4.98347e-05     0.000656723        -0.203803       -0.135953
253200                  0.171349       -0.160549      0.000272745     0.000769769         0.964705       -0.120023      0.000189282     0.000334803
                     0.000282542     0.000751411         0.176143       -0.159437      6.13267e-06     0.000366207         0.964144       -0.119072
                        0.964691       -0.119989      7.12944e-06     0.000364769        -0.205328        -0.11391      8.41076e-06     0.000621999
                     0.000183607     0.000330942         0.964138       -0.119034     -1.37978e-05     0.000620674        -0.209527       -0.112031
253400                  0.149931       -0.170436      0.000359036     0.000678765         0.950331       -0.213219      0.000214758     0.000317925
                     0.000361514     0.000667154         0.154775        -0.16992      3.41446e-05     0.000367009         0.949885       -0.212152
                        0.950324       -0.213195      3.46918e-05     0.000366233        -0.208305      -0.0901956      2.84638e-05     0.000587304
                     0.000211021     0.000314497         0.949884       -0.212129      1.60317e-05     0.000585531        -0.212306      -0.0880622
253600                  0.128118         -0.1774      0.000428474     0.000580505         0.926936       -0.304893      0.000239898     0.000299777
                     0.000425995     0.000576562         0.132924       -0.177475      6.31386e-05     0.000366352         0.926625       -0.303727
                        0.926933       -0.304878       6.3353e-05     0.000366052        -0.208384      -0.0667749      4.50723e-05     0.000555754
                     0.000238187     0.000296436         0.926627       -0.303717      4.04471e-05     0.000551971         -0.21217      -0.0644102
253800                  0.106312       -0.181451      0.000480891     0.000478185         0.894655       -0.394169      0.000264632     0.000280251
                      0.00047583     0.000482053         0.110996       -0.182099       9.3095e-05     0.000364047         0.894497       -0.392926
                        0.894654       -0.394162      9.30659e-05     0.000364022        -0.205638      -0.0440071      5.90696e-05     0.000527185
                     0.000264953     0.000276659         0.894499       -0.392927      6.02355e-05     0.000520491        -0.209193      -0.0414355
254000                 0.0849113       -0.182652      0.000516749     0.000374744         0.853707       -0.480182      0.000288875     0.000259228
                      0.00051127     0.000385878        0.0893934       -0.183843      0.000123973     0.000359881         0.853715       -0.478888
                        0.853708       -0.480183      0.000123757     0.000359919        -0.200181      -0.0222408      7.11204e-05     0.000501393
                     0.000291146     0.000255068         0.853717       -0.478896      7.61595e-05     0.000491443        -0.203493       -0.019488
254200                 0.0643006       -0.181121      0.000537007     0.000272749         0.804398       -0.562083      0.000312514     0.000236578
                     0.000532885     0.000290066        0.0685069       -0.182815      0.000155705     0.000353619          0.80458       -0.560763
                        0.804399        -0.56209      0.000155321     0.000353503        -0.192174     -0.00180902      8.17576e-05     0.000478156
                     0.000316567     0.000231569         0.804582       -0.560777      8.89485e-05     0.000465062        -0.195232      0.00109841
254400                 0.0448468        -0.17703      0.000542969      0.00017434         0.747116       -0.639046      0.000335403     0.000212164
                     0.000541495     0.000196396        0.0487107       -0.179175      0.000188188     0.000345002         0.747478       -0.637728
                        0.747116       -0.639058      0.000187614     0.000344523        -0.181814        0.016976      9.14153e-05      0.00045726
                     0.000340987     0.000206073         0.747479       -0.637745      9.92954e-05     0.000441483         -0.18461       0.0200101
254600                 0.0268906       -0.170599      0.000536151     8.12233e-05         0.682332        -0.71028      0.000357361      0.00018584
                     0.000538091     0.000106387        0.0303538       -0.173137      0.000221273     0.000333747         0.682875       -0.708991
                        0.682331       -0.710295      0.000220443     0.000332713        -0.169339       0.0338273      0.000100455     0.000438503
                     0.000364147     0.000178504         0.682875       -0.709011      0.000107859     0.000420756        -0.171869       0.0369593
254800                 0.0107399       -0.162095      0.000518164    -5.30657e-06         0.610598       -0.775035       0.00037816     0.000157465
                      0.00052378     2.13086e-05        0.0137533        -0.16496      0.000254753     0.000319553         0.611318       -0.773802
                        0.610596       -0.775052      0.000253564     0.000317806        -0.155021       0.0484878      0.000109189     0.000421702
                     0.000385756     0.000148803         0.611318       -0.773822      0.000115269     0.000402863        -0.157284       0.0516881
255000               -0.00333645       -0.151828       0.00049063    -8.43218e-05         0.532543       -0.832608      0.000397518     0.000126901
                     0.000499731    -5.78022e-05     -0.000811849       -0.154948      0.000288354     0.000302108         0.533434       -0.831457
                        0.532539       -0.832626      0.000286666     0.000299535        -0.139165       0.0607345      0.000117899     0.000406688
                     0.000405483     0.000116937         0.533432       -0.831478      0.000122126     0.000387718        -0.141165       0.0639734
255200                -0.0151144       -0.140147      0.000455117    -0.000155206         0.448868       -0.882358      0.000415089      9.4034e-05
                     0.000467141    -0.000130119       -0.0131071       -0.143444      0.000321713     0.000281096         0.449919       -0.881314
                        0.448863       -0.882376      0.000319365     0.000277652        -0.122102       0.0703822      0.000126853     0.000393306
                     0.000422964      8.2902e-05         0.449917       -0.881334      0.000129012     0.000375167        -0.123846       0.0736308
255400                -0.0244197       -0.127429        0.0004131    -0.000217596         0.360344       -0.923707      0.000430462     5.87822e-05
                     0.000427211    -0.000195003       -0.0229472       -0.130824      0.000354369      0.00025622         0.361541       -0.922793
                        0.360338       -0.923724      0.000351198     0.000251936        -0.104186       0.0772868       0.00013632     0.000381408
                     0.000437793     4.67407e-05         0.361539       -0.922812       0.00013649     0.000364992        -0.105687       0.0805175
255600                -0.0311328       -0.114079      0.000365941    -0.000271332         0.267803       -0.956152      0.000443149     2.11207e-05
                     0.000381129    -0.000251973       -0.0302011        -0.11749      0.000385743     0.000227226         0.269129       -0.955388
                        0.267796       -0.956168      0.000381611     0.000222219       -0.0857905        0.081348      0.000146583      0.00037084
                     0.000449532     8.54988e-06         0.269127       -0.955406      0.000145103     0.000356896       -0.0870662       0.0845359
255800                 -0.035192       -0.100518      0.000314879    -0.000316405         0.172132        -0.97927       0.00045259     -1.8894e-05
                     0.000330058    -0.000300695       -0.0347956       -0.103865      0.000415136     0.000193932         0.173568       -0.978674
                        0.172124       -0.979284      0.000409965     0.000188406       -0.0673014       0.0825116      0.000157953     0.000361432
                     0.000457707    -3.15035e-05         0.173566        -0.97869      0.000155373       0.0003505       -0.0683724       0.0856353
256000                -0.0365962      -0.0871794      0.000261032    -0.000352923        0.0742654       -0.992723      0.000458159    -6.10941e-05
                     0.000275137    -0.000340955       -0.0367179      -0.0903804      0.000441721      0.00015628        0.0757896        -0.99231
                       0.0742574       -0.992735      0.000435533     0.000150511       -0.0491117       0.0807706      0.000170775     0.000352972
                     0.000461823     -7.3167e-05        0.0757874       -0.992325      0.000167789     0.000345326       -0.0500025       0.0838133
256200                -0.0354065      -0.0744977      0.000205404    -0.000381077       -0.0248242       -0.996266      0.000459179    -0.000105166
                     0.000217478    -0.000372658       -0.0360178      -0.0774754      0.000464563     0.000114381       -0.0232341        -0.99605
                      -0.0248319       -0.996275      0.000457513     0.000108685        -0.031616       0.0761662      0.000185438     0.000345186
                     0.000461367    -0.000116086       -0.0232365       -0.996062      0.000182798     0.000340788       -0.0323541       0.0791163
