! TOUCHSTONE file generated by CST MICROWAVE STUDIO
! Date and time: Fri Sep 26 20:22:15 2025
! Project name: biblioteca3_folgaOK.cst
! Parameters = {H=600; Lx=200; Ly=260; Nedge=16; P=520; k=0; mesh_pilar_nm=40; n=0; t_air=3800; t_sub=3000; wavelength_nm=0}
! Header version: 2018
! Port assignment regex: !\s*Touchstone port\s*([0-9]+)\s*=\s*(CST MWS port|CST DS port)\s*([0-9]+|Zmin|Zmax)\s*\(\"(.*)\"\)(\s*mode\s*([0-9]+))?.*
! Touchstone port assignment:
! Touchstone port 1 = CST MWS port Zmin ("") mode 1
! Touchstone port 2 = CST MWS port Zmin ("") mode 2
! Touchstone port 3 = CST MWS port Zmax ("") mode 1
! Touchstone port 4 = CST MWS port Zmax ("") mode 2
! S-Parameters are not renormalized. Each port impedance will be approximated by the real part at minimum frequency. The values are described via the [Reference] keyword.
! Default impedance is overridden by [Reference]
[Version] 2.0
# GHz S RI R 376.73
[Number of Ports] 4
[Reference]
376.73 376.73 376.73 376.73 
[Number of Frequencies] 401
[Network Data]
250000                  0.149635      -0.0682218      -0.00206208     -0.00147068         0.959489       -0.226855      -0.00099102     0.000315845
                     -0.00181632     -0.00145344       -0.0997273       -0.220727     -0.000744136      0.00119051         0.211238        0.946217
                        0.960009       -0.226608     -0.000909433      0.00137636        -0.164331      0.00582682       0.00189598       0.0013762
                    -0.000748586      0.00100006         0.212494        0.946652        0.0019692       0.0011653       0.00398589        0.242143
250200                  0.151344      -0.0905211      -0.00220588     -0.00122623         0.928801       -0.325427     -0.000898755     0.000488237
                     -0.00203012     -0.00121192        -0.113011       -0.209402     -0.000616437      0.00129047         0.295509        0.924735
                         0.92925        -0.32513     -0.000745206      0.00147863        -0.174239       0.0228673       0.00201246      0.00118333
                    -0.000660517      0.00108016         0.296475        0.925168       0.00211098     0.000992104        0.0296665        0.236132
250400                  0.149782       -0.113698      -0.00232445    -0.000964932         0.887863       -0.419986     -0.000778768     0.000644714
                     -0.00219697    -0.000956058        -0.124949        -0.19731     -0.000472605      0.00137559         0.377719        0.895643
                        0.888232       -0.419703     -0.000567146      0.00155926        -0.182221       0.0422758       0.00211574     0.000982753
                    -0.000561822      0.00115372         0.378444        0.896096       0.00223677     0.000802917        0.0543272        0.227227
250600                  0.144782       -0.137217      -0.00241551    -0.000689832         0.837234       -0.509454     -0.000635609     0.000779993
                     -0.00232204    -0.000691459        -0.135515       -0.184618     -0.000314573      0.00144273         0.457169        0.859143
                        0.837499       -0.509228     -0.000378764      0.00161631        -0.187778       0.0638213       0.00220515     0.000774809
                    -0.000452923      0.00121922         0.457699         0.85963       0.00234469     0.000599515        0.0776165        0.215581
250800                  0.136281       -0.160523      -0.00247724    -0.000404286         0.777583       -0.592842     -0.000474908     0.000890511
                     -0.00240949    -0.000421746        -0.144704       -0.171491     -0.000144984      0.00148903         0.533183        0.815501
                        0.777714       -0.592689     -0.000183791      0.00164853        -0.190442       0.0871608       0.00227995     0.000559926
                    -0.000334477      0.00127515         0.533556        0.816029       0.00243312     0.000383894        0.0992072        0.201389
251000                  0.124314       -0.183058      -0.00250833    -0.000111877         0.709674       -0.669254     -0.000302647     0.000974569
                     -0.00246242    -0.000149352        -0.152528       -0.158083      3.28515e-05       0.0015121          0.60511        0.765043
                        0.709643       -0.669168      1.39732e-05      0.00165538        -0.189808        0.111847       0.00233927     0.000338655
                    -0.000207376      0.00132007          0.60536        0.765615       0.00250071      0.00015823         0.118802        0.184887
251200                  0.109018        -0.20429        -0.002508     0.000183685         0.634352       -0.737897     -0.000124514      0.00103218
                     -0.00248303     0.000123941        -0.159018       -0.144543      0.000215056      0.00151017         0.672334        0.708154
                        0.634138       -0.737856      0.000210805      0.00163693        -0.185556        0.137341       0.00238222     0.000111691
                    -7.27445e-05      0.00135262         0.672488        0.708767       0.00254639    -7.51658e-05         0.136138        0.166346
251400                 0.0906121       -0.223721      -0.00247599     0.000478657         0.552527       -0.798083      5.45653e-05      0.00106468
                     -0.00247271     0.000396635        -0.164218       -0.131008      0.000397343      0.00148231         0.734272        0.645272
                        0.552123       -0.798054      0.000403163      0.00159387        -0.177476        0.163038       0.00240784    -0.000120102
                     6.80863e-05      0.00137159         0.734353        0.645923       0.00256941    -0.000313893         0.150991        0.146066
251600                 0.0693919       -0.240912      -0.00241254     0.000769346         0.465162       -0.849235      0.000230684      0.00107432
                     -0.00243223     0.000667263        -0.168184       -0.117606      0.000575214      0.00142846         0.790384        0.576888
                        0.464574       -0.849178      0.000587767      0.00152736        -0.165477        0.188294       0.00241517    -0.000355669
                     0.000213597      0.00137595         0.790412        0.577573       0.00256931    -0.000555502         0.163177        0.124371
251800                 0.0457095       -0.255481      -0.00231836      0.00105219         0.373263       -0.890886      0.000401006      0.00106381
                     -0.00236189     0.000934206        -0.170985       -0.104452      0.000744189      0.00134953         0.840174        0.503539
                        0.372509       -0.890763      0.000761649      0.00143897        -0.149595         0.21245       0.00240329    -0.000593752
                     0.000362112      0.00136485         0.840163        0.504253        0.0025459    -0.000797535         0.172556        0.101605
252000                 0.0199617       -0.267115      -0.00219456      0.00132381         0.277861       -0.922681      0.000563691      0.00103596
                      -0.0022617      0.00119557        -0.172699      -0.0916507      0.000900047      0.00124733         0.883197        0.425808
                        0.276975       -0.922457      0.000922181      0.00133064        -0.129987        0.234868       0.00237132    -0.000832871
                     0.000511837      0.00133767         0.883159        0.426546        0.0024993     -0.00103756         0.179029       0.0781211
252200                -0.0074247        -0.27557      -0.00204263      0.00158107         0.180005       -0.944374      0.000717734     0.000993426
                     -0.00213146       0.0014491        -0.173413      -0.0792937       0.00103905      0.00112453         0.919058        0.344316
                        0.179028       -0.944023       0.00106709      0.00120452        -0.106926        0.254952        0.0023185     -0.00107133
                     0.000660893      0.00129404         0.919003        0.345074       0.00242989     -0.00127321         0.182544       0.0542824
252400                -0.0360049       -0.280669      -0.00186433      0.00182109        0.0807499       -0.955828      0.000862777      0.00093857
                     -0.00197101      0.00169211        -0.173218      -0.0674606       0.00115812     0.000984478         0.947419        0.259721
                       0.0797314       -0.955334       0.00119446      0.00106303       -0.0807783        0.272169       0.00224425     -0.00130721
                     0.000807351       0.0012338         0.947355        0.260496        0.0023383     -0.00150219         0.183093       0.0304527
252600                -0.0653261         -0.2823      -0.00166169      0.00204125       -0.0188539       -0.957009      0.000998938     0.000873355
                     -0.00178032      0.00192146        -0.172214       -0.056218       0.00125498      0.00083099         0.968001        0.172711
                      -0.0198623       -0.956372       0.00130273     0.000908708       -0.0519889        0.286062       0.00214817     -0.00153841
                      0.00094927      0.00115703         0.967935          0.1735        0.0022254     -0.00172235         0.180711      0.00699329
252800                -0.0949362       -0.280413      -0.00143691      0.00223921        -0.117768       -0.947989       0.00112664     0.000799326
                     -0.00155965      0.00213357        -0.170505      -0.0456199       0.00132823     0.000668165         0.980589       0.0840015
                       -0.118717        -0.94722        0.0013907     0.000744239       -0.0210617        0.296259       0.00203014     -0.00176262
                      0.00108472      0.00106404         0.980528       0.0848022       0.00209226     -0.00193166         0.175476      -0.0157427
253000                 -0.124391       -0.275014      -0.00119236      0.00241292        -0.214978       -0.928937       0.00124652     0.000717612
                     -0.00130979      0.00232445        -0.168195      -0.0357066       0.00137731     0.000500148         0.985031     -0.00567349
                       -0.215821       -0.928059       0.00145754     0.000572391        0.0114596        0.302477       0.00189036     -0.00197745
                       0.0012118     0.000955345         0.984979     -0.00486352       0.00194017     -0.00212823         0.167507      -0.0374146
253200                 -0.153257       -0.266164     -0.000930515      0.00256055        -0.309496       -0.900116       0.00135926     0.000628945
                     -0.00103212       0.0024898        -0.165393      -0.0265054       0.00140248     0.000330937         0.981242      -0.0955635
                       -0.310197       -0.899163       0.00150276     0.000395982        0.0450076        0.304518       0.00172936      -0.0021804
                      0.00132868     0.000831674         0.981206      -0.0947467       0.00177055     -0.00231036         0.156964      -0.0576988
253400                 -0.181122       -0.253972     -0.000653931      0.00268052        -0.400373       -0.861882        0.0014656     0.000533684
                    -0.000728842      0.00262514        -0.162209      -0.0180295       0.00140474     0.000164217         0.969206       -0.184909
                       -0.400906       -0.860894       0.00152628     0.000217843        0.0790044         0.30227       0.00154805     -0.00236896
                      0.00143357      0.00069393         0.969191       -0.184089       0.00158499     -0.00247653         0.144044      -0.0762929
253600                  -0.20759       -0.238595     -0.000365252      0.00277144        -0.486705       -0.814674       0.00156621     0.000431835
                    -0.000403062        0.002726        -0.158749      -0.0102788       0.00138563      3.2369e-06         0.948979       -0.272948
                       -0.487055       -0.813697       0.00152836     4.07653e-05         0.112872        0.295696       0.00134775      -0.0025407
                      0.00152475     0.000543201         0.948989       -0.272127        0.0013852     -0.00262541         0.128976      -0.0929198
253800                 -0.232294        -0.22023     -6.71916e-05      0.00283212        -0.567637       -0.759013       0.00166166     0.000323069
                     -5.8863e-05       0.0027881        -0.155119     -0.00323919       0.00134715    -0.000149263         0.920687       -0.358923
                       -0.567803       -0.758094       0.00150969    -0.000132546         0.146042        0.284834       0.00113014     -0.00269332
                      0.00160061     0.000380753         0.920726       -0.358105       0.00117297     -0.00275589         0.112026       -0.107332
254000                 -0.254894       -0.199118      0.000237461      0.00286157        -0.642372       -0.695496       0.00175238     0.000206722
                      0.00029868      0.00280772        -0.151421      0.00311697        0.0012916    -0.000291091         0.884526       -0.442084
                       -0.642365        -0.69468       0.00147127    -0.000299532         0.177958         0.26979        0.0008973     -0.00282473
                      0.00165958     0.000208027         0.884597       -0.441274      0.000950193     -0.00286704        0.0934859       -0.119313
254200                 -0.275079       -0.175532      0.000545829      0.00285892        -0.710174        -0.62479       0.00183858     8.17854e-05
                     0.000663569      0.00278183         -0.14775      0.00883049       0.00122142    -0.000420597         0.840765         -0.5217
                       -0.710017       -0.624117       0.00141448    -0.000457841         0.208085        0.250737      0.000651613     -0.00293315
                      0.00170019     2.66547e-05         0.840869       -0.520904      0.000718774     -0.00295816        0.0736725       -0.128686
254400                 -0.292577       -0.149783       0.00085493       0.0028235        -0.770377       -0.547627        0.0019202    -5.31094e-05
                      0.00102903      0.00270849        -0.144195       0.0139548       0.00113911    -0.000536649         0.789741       -0.597065
                       -0.770101       -0.547128       0.00134101    -0.000605381         0.235911        0.227906      0.000395741     -0.00301715
                      0.00172109    -0.000161538         0.789879       -0.596287      0.000480661     -0.00302875        0.0529247       -0.135311
254600                 -0.307154        -0.12221       0.00116166      0.00275482        -0.822386       -0.464796       0.00199677     -0.00019972
                      0.00138777      0.00258698        -0.140833       0.0185552       0.00104712    -0.000638579         0.731859       -0.667503
                        -0.82203       -0.464492       0.00125278    -0.000740375          0.26095        0.201591       0.00013254     -0.00307571
                      0.00172102    -0.000354508         0.732029       -0.666748      0.000237797     -0.00307851        0.0315973        -0.13909
254800                 -0.318617      -0.0931786       0.00146278      0.00265256        -0.865685       -0.377138       0.00206728    -0.000360222
                      0.00173224      0.00241797        -0.137733       0.0227074      0.000947757    -0.000726125         0.667589       -0.732375
                       -0.865291        -0.37704       0.00115195    -0.000861401         0.282752        0.172144     -0.000135019     -0.00310824
                      0.00169889    -0.000549982          0.66779       -0.731649     -7.90337e-06     -0.00310734        0.0100565       -0.139971
255000                 -0.326821      -0.0630769       0.00175488      0.00251666        -0.899836        -0.28554       0.00212993    -0.000537221
                      0.00205503      0.00220361        -0.134951       0.0264964      0.000843178    -0.000799366         0.597464       -0.791088
                        -0.89945       -0.285648       0.00104077    -0.000967412         0.300904        0.139973     -0.000403938     -0.00311461
                      0.00165379    -0.000745439         0.597691       -0.790395      -0.00025457     -0.00311533       -0.0113256       -0.137946
255200                 -0.331669      -0.0323079       0.00203438       0.0023473        -0.924492       -0.190927       0.00218184     -0.00073372
                      0.00234919      0.00194745        -0.132527       0.0300145      0.000735322    -0.000858652         0.522073         -0.8431
                       -0.924155       -0.191228       0.00092157     -0.00105775         0.315042        0.105544     -0.000671278     -0.00309512
                      0.00158508      -0.0009381         0.522321       -0.842441     -0.000500399     -0.00310276       -0.0321765       -0.133056
255400                 -0.333118     -0.00128445       0.00229752        0.002145        -0.939389      -0.0942541        0.0022185    -0.000952988
                      0.00260858       0.0016543        -0.130486       0.0333592      0.000625908    -0.000904546         0.442058       -0.887924
                       -0.939141      -0.0947252       0.00079665     -0.00113215         0.324852       0.0693737     -0.000934238     -0.00305047
                      0.00149241     -0.00112494         0.442319       -0.887302     -0.000743672     -0.00307003       -0.0521293       -0.125387
255600                 -0.331177       0.0295775       0.00254039      0.00191067        -0.944359      0.00349988       0.00223323      -0.0011982
                      0.00282813      0.00132998         -0.12884        0.036631      0.000516426    -0.000937767         0.358106       -0.925136
                        -0.94423      0.00289017      0.000668224     -0.00119067         0.330089       0.0320298      -0.00119023     -0.00298175
                      0.00137585      -0.0013027         0.358375        -0.92455     -0.000982767     -0.00301772       -0.0708292       -0.115073
255800                 -0.325909       0.0598665       0.00275891      0.00164568        -0.939325        0.101341       0.00221627     -0.00147166
                      0.00300401      0.00098101        -0.127582       0.0399312      0.000408146     -0.00095914         0.270948       -0.954381
                       -0.939339        0.100631      0.000538359     -0.00123373         0.330576     -0.00587898      -0.00143691     -0.00289034
                      0.00123593     -0.00146794         0.271218       -0.953828      -0.00121617     -0.00294651       -0.0879392       -0.102294
256000                 -0.317432       0.0891837       0.00294893      0.00135195        -0.924307        0.198269       0.00215405      -0.0017733
                      0.00313373     0.000614312        -0.126687       0.0433586      0.000302126    -0.000969551         0.181347       -0.975372
                       -0.924475        0.197502       0.00040893     -0.00126199          0.32622      -0.0437098      -0.00167225     -0.00277785
                      0.00107378     -0.00161712         0.181611       -0.974848       -0.0014425     -0.00285719        -0.103146      -0.0872728
256200                 -0.305916         0.11715       0.00310627      0.00103199        -0.899422        0.293285       0.00202874     -0.00209803
                      0.00321613     0.000236855        -0.126117       0.0470076      0.000199232    -0.000969923        0.0900914         -0.9879
                       -0.899745        0.292505      0.000281588     -0.00127633          0.31702      -0.0807968      -0.00189455     -0.00264608
                     0.000891134     -0.00174668        0.0903441       -0.987398      -0.00166048     -0.00275066        -0.116167      -0.0702712
