! TOUCHSTONE file generated by CST MICROWAVE STUDIO
! Date and time: Sun Sep 28 17:20:11 2025
! Project name: biblioteca3_folgaOK.cst
! Parameters = {H=600; Lx=200; Ly=260; Nedge=16; P=520; k=0; mesh_pilar_nm=40; n=0; t_air=3800; t_sub=3000; wavelength_nm=0}
! Header version: 2018
! Port assignment regex: !\s*Touchstone port\s*([0-9]+)\s*=\s*(CST MWS port|CST DS port)\s*([0-9]+|Zmin|Zmax)\s*\(\"(.*)\"\)(\s*mode\s*([0-9]+))?.*
! Touchstone port assignment:
! Touchstone port 1 = CST MWS port Zmin ("") mode 1
! Touchstone port 2 = CST MWS port Zmin ("") mode 2
! Touchstone port 3 = CST MWS port Zmax ("") mode 1
! Touchstone port 4 = CST MWS port Zmax ("") mode 2
! S-Parameters are not renormalized. Each port impedance will be approximated by the real part at minimum frequency. The values are described via the [Reference] keyword.
! Default impedance is overridden by [Reference]
[Version] 2.0
# GHz S RI R 376.73
[Number of Ports] 4
[Reference]
376.73 376.73 376.73 376.73 
[Number of Frequencies] 401
[Network Data]
250000                -0.0187905        0.161721     -0.000322332     -0.00159821        -0.561603        0.811249      -0.00129203     -0.00181349
                    -0.000206847     -0.00154568         0.242038       0.0358023      0.000600566     -0.00150464        -0.794039       -0.556394
                       -0.561463        0.811142      0.000401657     -0.00158742         0.144776      -0.0745258     -0.000100128     -0.00133815
                     -0.00125947     -0.00187229        -0.794048       -0.556519      0.000104066     -0.00154443        -0.116293       -0.215254
250200               -0.00604603        0.174654     -0.000451717     -0.00166162        -0.487381        0.855724      -0.00140146     -0.00175947
                    -0.000305455     -0.00151846         0.239597       0.0260145      0.000499554     -0.00154271        -0.833108       -0.497914
                       -0.487431        0.855534      0.000303143     -0.00161909         0.146915      -0.0936479     -0.000144768     -0.00130766
                     -0.00143537     -0.00178834        -0.833173       -0.498249     -1.22936e-05     -0.00151052        -0.136398       -0.198714
250400                0.00826541        0.186225     -0.000618688     -0.00170959        -0.409618        0.893332      -0.00151257     -0.00169511
                    -0.000405442     -0.00148295         0.236651       0.0166039      0.000394922     -0.00157575        -0.867905       -0.436601
                       -0.409828        0.893106      0.000198959     -0.00164401         0.146287       -0.114077     -0.000187786     -0.00127513
                     -0.00160631     -0.00168249        -0.868037       -0.437085     -0.000116945     -0.00146823        -0.154411       -0.180152
250600                 0.0239753        0.196266      -0.00082403     -0.00172272        -0.328984        0.923802      -0.00162449     -0.00161937
                    -0.000506034     -0.00143843          0.23324      0.00760375      0.000286826     -0.00160342         -0.89822       -0.372765
                       -0.329324        0.923577      8.96498e-05     -0.00166126         0.142591       -0.135377     -0.000229033     -0.00124064
                     -0.00176882     -0.00155502        -0.898421       -0.373342     -0.000210492     -0.00142016        -0.170114       -0.159823
250800                 0.0408979        0.204634      -0.00105598     -0.00167802        -0.246165        0.946937      -0.00173612      -0.0015312
                    -0.000606278     -0.00138422         0.229402    -0.000956082      0.000175452     -0.00162532        -0.923865       -0.306729
                       -0.246601        0.946739     -2.40793e-05     -0.00166999         0.135604       -0.157049     -0.000268366     -0.00120429
                     -0.00191942     -0.00140692        -0.924128       -0.307355     -0.000293838     -0.00136832        -0.183321       -0.138009
251000                 0.0588341        0.211209      -0.00128642     -0.00155951        -0.161853        0.962609       -0.0018461     -0.00142957
                    -0.000705037     -0.00131974         0.225182     -0.00904958      6.10197e-05     -0.00164106        -0.944673       -0.238834
                       -0.162354        0.962456     -0.000141367     -0.00166945         0.125197       -0.178554      -0.00030564     -0.00116618
                     -0.00205485      -0.0012399        -0.944985       -0.239471     -0.000368008     -0.00131421        -0.193879       -0.115009
251200                 0.0775749        0.215899       -0.0014784     -0.00137161       -0.0767395        0.970757      -0.00195276     -0.00131354
                     -0.00080098     -0.00124452         0.220623      -0.0166546     -5.62177e-05     -0.00165025        -0.960502        -0.16943
                      -0.0772748         0.97066      -0.00026121     -0.00165897         0.111334       -0.199325     -0.000340713     -0.00112643
                     -0.00217222     -0.00105628        -0.960848       -0.170049     -0.000434034      -0.0012589        -0.201673      -0.0911407
251400                 0.0969051        0.218636      -0.00160458     -0.00114157       0.00849366         0.97139      -0.00205415     -0.00118229
                    -0.000892588     -0.00115828         0.215772      -0.0237531     -0.000175968     -0.00165248        -0.971236      -0.0988797
                      0.00795066        0.971351     -0.000382482     -0.00163807        0.0940839       -0.218794     -0.000373445     -0.00108516
                     -0.00226918    -0.000858952        -0.971596      -0.0994624     -0.000492888     -0.00120316        -0.206625      -0.0667328
251600                  0.116606         0.21938      -0.00166047    -0.000905045        0.0931774        0.964575      -0.00214796     -0.00103522
                    -0.000978177     -0.00106096         0.210676      -0.0303311     -0.000297896     -0.00164737        -0.976783       -0.027557
                       0.0926498        0.964592     -0.000503966     -0.00160641         0.073611       -0.236404     -0.000403696     -0.00104251
                     -0.00234401     -0.00065113        -0.977138      -0.0280905     -0.000545449     -0.00114749        -0.208695      -0.0421211
251800                   0.13646        0.218115      -0.00166063    -0.000688614         0.176662        0.950439      -0.00223159    -0.000872013
                     -0.00105593    -0.000952804         0.205385      -0.0363792     -0.000421628      -0.0016345        -0.977077       0.0441579
                        0.176169        0.950508     -0.000624389     -0.00156388        0.0501736       -0.251633     -0.000431325     -0.00099863
                      -0.0023957    -0.000436242        -0.977409       0.0436789     -0.000592492     -0.00109224        -0.207885      -0.0176446
252000                  0.156253         0.21485      -0.00162585    -0.000503549         0.258324        0.929166      -0.00230214    -0.000692744
                     -0.00112396    -0.000834412         0.199947      -0.0418922      -0.00054674     -0.00161347        -0.972081        0.115878
                         0.25788        0.929277     -0.000742468     -0.00151057        0.0241138       -0.264004     -0.000456193    -0.000953692
                     -0.00242391     -0.00021772        -0.972376        0.115453      -0.00063468     -0.00103759        -0.204236      0.00635991
252200                  0.175775        0.209617      -0.00157359      -0.0003497         0.337564        0.900988       -0.0023565    -0.000497956
                     -0.00118039    -0.000706769         0.194411      -0.0468693     -0.000672764     -0.00158391        -0.961786        0.187211
                        0.337179        0.901131     -0.000856953     -0.00144676      -0.00415276         -0.2731     -0.000478156    -0.000907872
                     -0.00242895     1.15251e-06        -0.962031        0.186836     -0.000672575    -0.000983659        -0.197826       0.0295618
252400                  0.194825         0.20247      -0.00151513    -0.000221647         0.413818        0.866184      -0.00239145    -0.000288742
                     -0.00122341    -0.000571275         0.188825      -0.0513143      -0.00079918     -0.00154543        -0.946212        0.257764
                        0.413499        0.866348     -0.000966671     -0.00137294       -0.0341499       -0.278578     -0.000497068    -0.000861369
                     -0.00241168     0.000217377        -0.946397        0.257429     -0.000706646    -0.000930495        -0.188776       0.0516415
252600                  0.213213        0.193482      -0.00145643    -0.000112853         0.486553        0.825075      -0.00240378    -6.67913e-05
                     -0.00125146    -0.000429744         0.183239      -0.0552352      -0.00092542     -0.00149767        -0.925408        0.327142
                        0.486302        0.825248      -0.00107056     -0.00128977       -0.0653535       -0.280167     -0.000512772    -0.000814403
                     -0.00237338     0.000428328        -0.925528        0.326837     -0.000737279    -0.000878107        -0.177241        0.072295
252800                  0.230761        0.182746      -0.00140001    -1.75393e-05         0.555271        0.778018      -0.00239048     0.000165608
                     -0.00126327    -0.000284367         0.177699      -0.0586444      -0.00105087     -0.00144029        -0.899452        0.394952
                        0.555089        0.778191      -0.00116771     -0.00119806       -0.0972052       -0.277682     -0.000525102     -0.00076722
                     -0.00231564     0.000631808        -0.899506        0.394666     -0.000764784    -0.000826486        -0.163412       0.0912382
253000                  0.247303        0.170371      -0.00134633     6.87883e-05         0.619515        0.725407      -0.00234898     0.000405634
                     -0.00125801    -0.000137642          0.17225      -0.0615585      -0.00117486     -0.00137295        -0.868452        0.460805
                        0.619398        0.725571      -0.00125739      -0.0010987        -0.129125        -0.27102     -0.000533873    -0.000720102
                     -0.00224023     0.000826059        -0.868443        0.460525     -0.000789412    -0.000775617        -0.147515        0.108211
253200                   0.26269        0.156478      -0.00129481     0.000149386         0.678863        0.667663      -0.00227734      0.00065007
                     -0.00123533     7.73241e-06         0.166935      -0.0639982      -0.00129668     -0.00129536        -0.832547        0.524319
                        0.678806         0.66781      -0.00133903    -0.000992657        -0.160525       -0.260165     -0.000538876    -0.000673375
                     -0.00214899      0.00100974        -0.832481        0.524034     -0.000811361    -0.000725494        -0.129803         0.12298
253400                  0.276786        0.141204      -0.00124439     0.000226487         0.732933        0.605236      -0.00217459     0.000895529
                     -0.00119548     0.000148988         0.161798       -0.065988      -0.00141557     -0.00120721        -0.791906         0.58512
                         0.73293        0.605359      -0.00141225    -0.000880924        -0.190819       -0.245184     -0.000539868    -0.000627432
                     -0.00204375       0.0011819        -0.791791        0.584821     -0.000830789    -0.000676127        -0.110558        0.135345
253600                  0.289473        0.124696      -0.00119378     0.000301526         0.781384        0.538596      -0.00204095      0.00113874
                     -0.00113926     0.000283432         0.156875      -0.0675561      -0.00153075     -0.00110819        -0.746726        0.642845
                        0.781427        0.538691      -0.00147686    -0.000764463        -0.219438       -0.226225     -0.000536557    -0.000582756
                     -0.00192625      0.00134191        -0.746574        0.642525     -0.000847824    -0.000627558       -0.0900855         0.14514
253800                  0.300649        0.107106      -0.00114167     0.000375316         0.823913        0.468236      -0.00187822      0.00137686
                     -0.00106802     0.000408594         0.152203      -0.0687343      -0.00164137    -0.000997899        -0.697233        0.697146
                        0.823994        0.468301      -0.00153282    -0.000644184        -0.245836       -0.203518     -0.000528585    -0.000539967
                     -0.00179809      0.00148939        -0.697056        0.696799     -0.000862584    -0.000579864       -0.0687087        0.152235
254000                  0.310231       0.0885993      -0.00108678     0.000448179         0.860258        0.394664      -0.00169013      0.00160761
                    -0.000983577     0.000522357         0.147815      -0.0695573      -0.00174646    -0.000875822        -0.643683        0.747689
                         0.86037        0.394698      -0.00158024    -0.000520913        -0.269502       -0.177361      -0.00051551    -0.000499893
                     -0.00166071      0.00162419        -0.643495        0.747313     -0.000875195    -0.000533176        -0.046766        0.156543
254200                  0.318152       0.0693411      -0.00102793     0.000520036           0.8902        0.318402      -0.00148277      0.00182914
                    -0.000888104     0.000623052          0.14374      -0.0700629      -0.00184479    -0.000741136        -0.586357        0.794159
                        0.890334        0.318406      -0.00161932    -0.000395371        -0.289972       -0.148126     -0.000496773    -0.000463689
                     -0.00151538      0.00174626        -0.586171        0.793755     -0.000885824    -0.000487674       -0.0246054        0.158014
254400                  0.324362       0.0495025     -0.000964054     0.000590469         0.913557        0.239986      -0.00126476      0.00203923
                    -0.000783999     0.000709525         0.140003      -0.0702914      -0.00193439    -0.000592622        -0.525562        0.836262
                        0.913706        0.239961      -0.00165037    -0.000268152        -0.306831       -0.116242     -0.000471681     -0.00043305
                     -0.00136318      0.00185567        -0.525392        0.835834     -0.000894717    -0.000443596      -0.00257949        0.156645
254600                  0.328831       0.0292559     -0.000894275     0.000658769          0.93019         0.15996      -0.00104655      0.00223393
                    -0.000673752     0.000781155         0.136625      -0.0702851      -0.00201147    -0.000429035        -0.461631        0.873729
                        0.930347         0.15991      -0.00167374    -0.000139715        -0.319728       -0.082196     -0.000439417    -0.000410586
                     -0.00120507       0.0019525        -0.461488        0.873282     -0.000902263    -0.000401209          0.01896        0.152474
254800                  0.331543      0.00877373     -0.000817898     0.000723975             0.94       0.0788737     -0.000838246      0.00240619
                    -0.000559816     0.000837836         0.133624      -0.0700885      -0.00206932    -0.000251467        -0.394916        0.906312
                        0.940159       0.0788034      -0.00168981    -1.03784e-05        -0.328376      -0.0465192     -0.000399173    -0.000400545
                     -0.00104184      0.00203684        -0.394812        0.905855     -0.000909063    -0.000360756        0.0396671        0.145584
255000                  0.332501      -0.0117729     -0.000734468     0.000784916         0.942928      -0.0027157     -0.000646111      0.00254637
                    -0.000444496     0.000879929         0.131012      -0.0697471      -0.00210145    -6.81593e-05        -0.325794        0.933794
                        0.943086     -0.00280198      -0.00169895     0.000119683        -0.332564     -0.00978082     -0.000350727    -0.000410199
                    -0.000874199      0.00210874        -0.325736        0.933338     -0.000915998    -0.000322327        0.0592075        0.136098
255200                  0.331725       -0.032216      -0.00064381     0.000840258         0.938958      -0.0842502      -0.00047011      0.00264557
                    -0.000329863     0.000908194         0.128798      -0.0693077      -0.00211189     0.000108323        -0.254656        0.955987
                         0.93911      -0.0843475      -0.00170152     0.000250441        -0.332156       0.0274226      -0.00029654    -0.000452526
                    -0.000702762      0.00216819         -0.25465        0.955542     -0.000924237    -0.000285649        0.0772635        0.124182
255400                  0.329249      -0.0523917     -0.000546064     0.000888561         0.928114       -0.165171     -0.000305079      0.00269979
                    -0.000217696     0.000923709         0.126984      -0.0688175      -0.00211324     0.000276513        -0.181913        0.972731
                        0.928258       -0.165274       -0.0016978     0.000382009        -0.327102       0.0644774     -0.000249161     -0.00055058
                    -0.000528119      0.00221512        -0.181962         0.97231     -0.000935093    -0.000249786        0.0935392         0.11004
255600                  0.325124      -0.0721421      -0.00044171      0.00092835         0.910461       -0.244923      -0.00014479      0.00271147
                    -0.000109444     0.000927795         0.125571      -0.0683242      -0.00210996     0.000444862        -0.107986        0.983902
                        0.910595       -0.245026      -0.00168799     0.000514641        -0.317431        0.100764     -0.000255839    -0.000737211
                    -0.000350854      0.00224936        -0.108092        0.983517     -0.000949587    -0.000212897         0.107765       0.0939147
255800                  0.319414      -0.0913166     -0.000331583     0.000958195         0.886107       -0.322953      1.46379e-05      0.00268743
                    -6.21193e-06     0.000921944         0.124553      -0.0678748      -0.00209816     0.000618578       -0.0333101        0.989407
                        0.886231       -0.323051      -0.00167217     0.000648734         -0.30326         0.13567      -0.00045085    -0.000997203
                     -0.00017159      0.00227071       -0.0334689         0.98907     -0.000967754     -0.00017234         0.119705       0.0760778
256000                    0.3122       -0.109773     -0.000216866     0.000976798         0.855201       -0.398716      0.000173965       0.0026357
                     9.12514e-05     0.000907759         0.123918      -0.0675159      -0.00207327     0.000797791        0.0416748        0.989189
                        0.855314       -0.398806      -0.00165026     0.000784818         -0.28479        0.168597     -0.000942014      -0.0010557
                     8.98438e-06       0.0022789        0.0414672        0.988911     -0.000988032      -0.0001254         0.129154       0.0568321
256200                  0.303574       -0.127378     -9.90599e-05     0.000983086         0.817932       -0.471679      0.000331864      0.00256347
                     0.000182557     0.000886909         0.123653      -0.0672928      -0.00203235     0.000980528         0.116522        0.983226
                        0.818036       -0.471754      -0.00162195     0.000923556        -0.262302        0.198978      -0.00132201    -0.000672193
                      0.00019008      0.00227363         0.116273        0.983017      -0.00100737    -7.04515e-05          0.13595       0.0365039
