! TOUCHSTONE file generated by CST MICROWAVE STUDIO
! Date and time: Sun Sep 28 19:09:16 2025
! Project name: biblioteca3_folgaOK.cst
! Parameters = {H=600; Lx=200; Ly=260; Nedge=26; P=520; mesh_pilar_nm=40; t_air=3800; t_sub=6000}
! Header version: 2018
! Port assignment regex: !\s*Touchstone port\s*([0-9]+)\s*=\s*(CST MWS port|CST DS port)\s*([0-9]+|Zmin|Zmax)\s*\(\"(.*)\"\)(\s*mode\s*([0-9]+))?.*
! Touchstone port assignment:
! Touchstone port 1 = CST MWS port Zmin ("") mode 1
! Touchstone port 2 = CST MWS port Zmin ("") mode 2
! Touchstone port 3 = CST MWS port Zmax ("") mode 1
! Touchstone port 4 = CST MWS port Zmax ("") mode 2
! S-Parameters are not renormalized. Each port impedance will be approximated by the real part at minimum frequency. The values are described via the [Reference] keyword.
! Default impedance is overridden by [Reference]
[Version] 2.0
# GHz S RI R 376.73
[Number of Ports] 4
[Reference]
376.73 376.73 376.73 376.73 
[Number of Frequencies] 401
[Network Data]
250000                  0.315883        0.218796      0.000591389     4.68064e-05         0.289898        0.876582       0.00159596     0.000736031
                     0.000726426     2.66712e-06         0.104801       0.0231137       0.00146875     0.000562824        -0.938587        0.327668
                         0.29012        0.876601       0.00137718     0.000663117         0.123237       -0.364003      0.000261879    -0.000133811
                      0.00141938     0.000717681        -0.938464        0.327566      0.000294013    -0.000170002       -0.0676263       0.0833404
250200                   0.33913        0.185286      0.000600701    -4.27153e-06         0.387237        0.837405       0.00162861     0.000584085
                     0.000679308    -0.000100124         0.102899       0.0256712       0.00154748     0.000441066        -0.899071        0.424297
                        0.386734        0.837637       0.00141454     0.000519447        0.0799145       -0.377929      0.000198215    -0.000123236
                      0.00150923     0.000620073        -0.899999        0.423584      0.000251761    -0.000190133       -0.0457935       0.0957917
250400                  0.357863        0.149069      0.000605509    -6.06975e-05         0.479457        0.787806       0.00165299     0.000427493
                     0.000619839    -0.000189376         0.102433       0.0286608       0.00161523     0.000303665        -0.849445        0.516305
                        0.478535        0.788308       0.00144267     0.000368772        0.0344838       -0.385905        0.0001406    -0.000106945
                      0.00159514     0.000505498        -0.851246        0.515355      0.000204951    -0.000207906        -0.022068        0.104238
250600                  0.371759        0.110811      0.000604237    -0.000122587         0.565572        0.728405       0.00166831     0.000266475
                     0.000551574    -0.000263986         0.103461       0.0317845       0.00166897     0.000151567        -0.790262        0.602588
                        0.564474         0.72917       0.00146041     0.000211549       -0.0121318       -0.387527      8.86682e-05    -8.64174e-05
                      0.00167397     0.000372977        -0.792715        0.601676      0.000153308    -0.000222436       0.00284655         0.10839
250800                  0.380589       0.0712177       0.00059493    -0.000189707         0.644652        0.659889       0.00167373     0.000101343
                     0.000477852    -0.000323768         0.105982       0.0347409       0.00170575    -1.36587e-05        -0.722201         0.68211
                        0.643559        0.660866        0.0014666     4.84008e-05       -0.0589241       -0.382553      4.18651e-05    -6.27598e-05
                      0.00174197      0.00022214        -0.725068        0.681422      9.66672e-05    -0.000232638        0.0282035        0.108087
251000                  0.384232       0.0310202      0.000575271    -0.000261255         0.715823        0.583008       0.00166835    -6.74907e-05
                     0.000401601    -0.000369243         0.109942        0.037236        0.0017228    -0.000189809         -0.64606         0.75393
                        0.714857        0.584124       0.00146006    -0.000119866         -0.10483       -0.370919     -4.48516e-07    -3.67491e-05
                      0.00179497     5.34635e-05        -0.649106        0.753563      3.50479e-05    -0.000237206        0.0532386        0.103304
251200                  0.382671     -0.00904001      0.000542691     -0.00033557         0.778265        0.498581       0.00165122    -0.000239485
                     0.000325243    -0.000401409         0.115236       0.0389924       0.00171771    -0.000374083         -0.56274        0.817206
                        0.777497        0.499754       0.00143964    -0.000292248        -0.148769       -0.352752     -3.89316e-05    -8.88276e-06
                      0.00182857    -0.000131507        -0.565754        0.817185     -3.12481e-05    -0.000234615        0.0771953       0.0941486
251400                  0.375996      -0.0482254      0.000494653    -0.000409823         0.831214        0.407496       0.00162134    -0.000413955
                     0.000250689    -0.000421537          0.12171       0.0397581       0.00168857    -0.000563164        -0.473228        0.871211
                        0.830674        0.408648       0.00140426    -0.000467536        -0.189677       -0.328374     -7.42248e-05     2.05792e-05
                      0.00183845    -0.000330004        -0.476035        0.871503     -0.000101516    -0.000223162        0.0993494       0.0808589
251600                  0.364407      -0.0858172      0.000429187    -0.000479758         0.873972        0.310713        0.0015777    -0.000590046
                     0.000179372    -0.000431017         0.129175       0.0393132       0.00163406     -0.00075333        -0.378587        0.915344
                        0.873656        0.311776       0.00135294    -0.000644313        -0.226547       -0.298295     -0.000106929     5.15849e-05
                       0.0018208    -0.000537993        -0.381056        0.915871     -0.000174515    -0.000201048         0.119031       0.0637916
251800                  0.348204       -0.121131      0.000345695      -0.0005397         0.905908        0.209268       0.00151928    -0.000766711
                     0.000112329    -0.000431243         0.137403       0.0374759       0.00155358    -0.000940603        -0.279931        0.949128
                         0.90579        0.210193       0.00128484    -0.000820955        -0.258462       -0.263207     -0.000137595     8.42753e-05
                      0.00177274    -0.000750302        -0.281982        0.949789     -0.000248334    -0.000166552         0.135643       0.0434098
252000                  0.327793       -0.153532      0.000245889    -0.000583059         0.926472        0.104276       0.00144508    -0.000942682
                     5.02717e-05    -0.000423544         0.146145        0.034106       0.00144726      -0.0011209        -0.178416        0.972222
                        0.926509        0.105032       0.00119934    -0.000995651        -0.284632       -0.223961     -0.000166709     0.000118985
                      0.00169272    -0.000960915        -0.180014        0.972905     -0.000320314    -0.000118273         0.148678        0.020267
252200                   0.30367        -0.18245      0.000134508    -0.000603511         0.935205     -0.00307259       0.00135412     -0.00111645
                    -6.32974e-06    -0.000409143         0.155131        0.029108       0.00131593     -0.00129022       -0.0752169        0.984418
                        0.935349      -0.0024989       0.00109602     -0.00116643        -0.304421       -0.181547     -0.000194684      0.00015626
                       0.0015808     -0.00116344       -0.0763745        0.985014     -0.000387064    -5.54721e-05         0.157731     -0.00501102
252400                  0.276416       -0.207395      1.92709e-05    -0.000596704         0.931753        -0.11151       0.00124557     -0.00128624
                    -5.71831e-05    -0.000389145         0.164082       0.0224322       0.00116115     -0.00144474        0.0284851        0.985642
                        0.931954       -0.111114      0.000974787     -0.00133119        -0.317369       -0.137058     -0.000221828     0.000196899
                      0.00143868     -0.00135164        0.0277181        0.986059     -0.000444644     2.15633e-05         0.162506      -0.0317449
252600                  0.246687       -0.227971     -9.03199e-05    -0.000561864         0.915882       -0.219697        0.0011187        -0.00145
                    -0.000102116    -0.000364535         0.172717        0.014075       0.00098504     -0.00158101         0.131519        0.975947
                        0.916098        -0.21946      0.000835846     -0.00148777        -0.323216      -0.0916641     -0.000248287      0.00024202
                      0.00126959     -0.00151997         0.131063        0.976118      -0.00048895     0.000111204         0.162825      -0.0592214
252800                  0.215194       -0.243887     -0.000185094    -0.000502451         0.887498       -0.326235      0.000973038      -0.0016054
                    -0.000141031      -0.0003362         0.180757      0.00407742      0.000790255     -0.00169597         0.232738        0.955513
                        0.887692       -0.326127      0.000679774     -0.00163402        -0.321906      -0.0465731      -0.00027394      0.00029315
                      0.00107791     -0.00166401         0.232496        0.955402     -0.000516283     0.000210348         0.158623      -0.0867127
253000                  0.182693       -0.254969     -0.000258369    -0.000425375         0.846658       -0.429672       0.00080837      -0.0017498
                    -0.000173872     -0.00030494         0.187938     -0.00747642      0.000579832     -0.00178708         0.331033        0.924639
                        0.846806       -0.429656      0.000507529     -0.00176784        -0.313598     -0.00299331     -0.000298193     0.000352355
                     0.000868746      -0.0017807         0.330896        0.924245     -0.000523991     0.000314581         0.149957       -0.113495
253200                  0.149962       -0.261168     -0.000307152    -0.000339127         0.793591       -0.528521      0.000624867     -0.00188033
                    -0.000200602    -0.000271496         0.194008      -0.0204625      0.000357094      -0.0018523         0.425342        0.883736
                         0.79368       -0.528558      0.000320455     -0.00188731        -0.298665       0.0379042     -0.000319597     0.000422359
                     0.000647409     -0.00186835         0.425208        0.883096     -0.000511009     0.000418667         0.136992       -0.138867
253400                   0.11778       -0.262562     -0.000332017     -0.00025178         0.728711       -0.621283      0.000423164     -0.00199389
                    -0.000221187     -0.00023658         0.198742      -0.0347203      0.000125546     -0.00189012         0.514665        0.833317
                        0.728741       -0.621335      0.000120277     -0.00199081        -0.277686       0.0750235     -0.000335152     0.000506585
                     0.000419021     -0.00192659         0.514444        0.832503     -0.000478102     0.000517279         0.120003       -0.162166
253600                 0.0869063       -0.259363     -0.000336039    -0.000169653          0.65263       -0.706471      0.000204442     -0.00208724
                    -0.000235591    -0.000200901         0.201942      -0.0500571     -0.000111214     -0.00189953         0.598067        0.773991
                        0.652609       -0.706505     -9.09191e-05     -0.00207707        -0.251431        0.107381     -0.000339108      0.00060882
                     0.000188194     -0.00195604         0.597699        0.773109     -0.000427721     0.000605752        0.0993598       -0.182781
253800                 0.0580554       -0.251908     -0.000323486    -9.68699e-05         0.566164       -0.782636     -2.94836e-05      -0.0021571
                    -0.000243776    -0.000165196         0.203438       -0.066253      -0.00034957     -0.00187999         0.674689        0.706451
                         0.56611       -0.782625      -0.00031072     -0.00214532        -0.220843        0.134138     -0.000321169     0.000731788
                    -4.11446e-05     -0.00195807         0.674159        0.705636     -0.000363527     0.000680664        0.0755228       -0.200171
254000                 0.0318759       -0.240654     -0.000298773    -3.55846e-05          0.47034       -0.848406     -0.000276104     -0.00220027
                    -0.000245722    -0.000130268           0.2031      -0.0830655     -0.000585945     -0.00183141         0.743756        0.631468
                        0.470276       -0.848332     -0.000536421     -0.00219546         -0.18701        0.154639     -0.000264778     0.000873138
                    -0.000265806     -0.00193447         0.743116        0.630866     -0.000289746     0.000740093        0.0490272       -0.213872
254200                0.00892734       -0.226167     -0.000265848     1.34981e-05         0.366391       -0.902515     -0.000532181     -0.00221379
                    -0.000241447    -9.70106e-05         0.200831       -0.100236     -0.000816844     -0.00175406         0.804576        0.549876
                        0.366342       -0.902369     -0.000765048     -0.00222812        -0.151134        0.168432     -0.000148915      0.00101728
                    -0.000483298     -0.00188721         0.803969        0.549614     -0.000210546     0.000783545        0.0204715       -0.223509
254400                -0.0103397       -0.209101     -0.000227955     5.05838e-05         0.255746       -0.943843     -0.000793752     -0.00219515
                    -0.000231055    -6.64397e-05         0.196576       -0.117493      -0.00103888     -0.00164857         0.856551        0.462569
                        0.255738       -0.943627     -0.000993347     -0.00224494        -0.114489        0.175294      3.88877e-05      0.00112668
                    -0.000691719     -0.00181826         0.856219        0.462681     -0.000129592     0.000811671      -0.00949664       -0.228803
254600                -0.0256002       -0.190186     -0.000187629     7.63601e-05         0.140016       -0.971451      -0.00105619     -0.00214245
                    -0.000214796    -3.97136e-05         0.190319       -0.134562       -0.0012488     -0.00151582         0.899175        0.370487
                        0.140071       -0.971175      -0.00121769     -0.00224874       -0.0783806        0.175246       0.00027666       0.0011508
                    -0.000889634     -0.00172945         0.899389         0.37081     -4.98045e-05     0.000825877       -0.0401954       -0.229577
254800                -0.0366675       -0.170192     -0.000146807     9.17072e-05         0.020964       -0.984615       -0.0013143     -0.00205458
                    -0.000193153    -1.81319e-05         0.182084       -0.151167      -0.00144348     -0.00135694         0.932037        0.274607
                          0.0211       -0.984296      -0.00143379     -0.00224391        -0.044097         0.16856        0.0005009      0.00106752
                     -0.00107593      -0.0016224         0.932908        0.274764      2.66927e-05     0.000827966       -0.0709243        -0.22576
255000                -0.0435006       -0.149911     -0.000106975     9.75258e-05       -0.0995234       -0.982857      -0.00156255     -0.00193143
                    -0.000166944    -3.10378e-06         0.171934        -0.16704       -0.0016199     -0.00117314         0.954826        0.175939
                      -0.0992957       -0.982519      -0.00163607     -0.00223683       -0.0128576        0.155755      0.000651965     0.000912109
                     -0.00124969     -0.00149852         0.956131        0.175549      9.84971e-05     0.000819846         -0.10098       -0.217388
255200                -0.0462068       -0.130125     -6.93101e-05     9.46512e-05        -0.219476       -0.965969       -0.0017952     -0.00177396
                    -0.000137445     3.93677e-06         0.159972       -0.181925       -0.0017751    -0.000965659         0.967329       0.0755099
                       -0.219154       -0.965636      -0.00181616     -0.00223645        0.0142352        0.137582      0.000718543     0.000743442
                     -0.00141008     -0.00135899         0.968654       0.0744733      0.000164796      0.00080334        -0.129671       -0.204604
255400                -0.0450368       -0.111577      -3.4807e-05     8.38237e-05        -0.336886       -0.934028      -0.00200666     -0.00158427
                    -0.000106497     1.68693e-06         0.146336        -0.19558      -0.00190604    -0.000735516          0.96943      -0.0256392
                       -0.336474       -0.933726      -0.00195981     -0.00225453        0.0362447        0.114999      0.000725042     0.000599047
                     -0.00155625     -0.00120485         0.970457      -0.0271499      0.000225218     0.000780082        -0.156336       -0.187652
255600                 -0.040375      -0.0949436     -4.37995e-06     6.56964e-05        -0.449754       -0.887406      -0.00219171     -0.00136555
                    -7.65676e-05     -1.0784e-05         0.131195       -0.207788      -0.00200928    -0.000483162         0.961114       -0.126464
                       -0.449264       -0.887159      -0.00204039     -0.00230377         0.052442       0.0891399      0.000699994     0.000489083
                     -0.00168727     -0.00103702         0.961723       -0.128195      0.000279696     0.000751463        -0.180356       -0.166878
255800                -0.0327233      -0.0808093      2.10549e-05     4.08676e-05        -0.556139       -0.826766      -0.00234579     -0.00112201
                    -5.07002e-05    -3.37201e-05         0.114752       -0.218359      -0.00208017    -0.000207829         0.942462       -0.225922
                        -0.55559       -0.826595      -0.00200771     -0.00238739        0.0623398       0.0612615      0.000662559     0.000409852
                     -0.00180211     -0.00085637         0.942672       -0.227667      0.000328358     0.000718634        -0.201168       -0.142717
256000                  -0.02268      -0.0696464       4.0515e-05     9.93407e-06        -0.654208       -0.753053      -0.00246522    -0.000858661
                    -3.22957e-05     -6.6344e-05        0.0972303       -0.227131      -0.00211061     9.37214e-05         0.913654       -0.322987
                       -0.653625       -0.752972      -0.00178165     -0.00246329        0.0657168       0.0326957      0.000622863     0.000354155
                     -0.00189957    -0.000663842         0.913543        -0.32461      0.000371441     0.000682519        -0.218283       -0.115685
256200                -0.0109148      -0.0617981      5.29046e-05    -2.64361e-05        -0.742283       -0.667471      -0.00254733    -0.000581063
                    -2.46902e-05    -0.000106606         0.078878       -0.233977      -0.00208192     0.000429147         0.874967       -0.416648
                       -0.741692       -0.667488      -0.00130811     -0.00237666        0.0626284       0.0047902      0.000585489     0.000315445
                     -0.00197832    -0.000460487         0.874626       -0.418078      0.000409229     0.000643849        -0.231292      -0.0863716
