! TOUCHSTONE file generated by CST MICROWAVE STUDIO
! Date and time: Sun Sep 28 20:03:45 2025
! Project name: biblioteca3_folgaOK.cst
! Parameters = {H=600; Lx=300; Ly=300; Nedge=4; P=520; mesh_pilar_nm=40; t_air=3500; t_sub=4000}
! Header version: 2018
! Port assignment regex: !\s*Touchstone port\s*([0-9]+)\s*=\s*(CST MWS port|CST DS port)\s*([0-9]+|Zmin|Zmax)\s*\(\"(.*)\"\)(\s*mode\s*([0-9]+))?.*
! Touchstone port assignment:
! Touchstone port 1 = CST MWS port Zmin ("") mode 1
! Touchstone port 2 = CST MWS port Zmin ("") mode 2
! Touchstone port 3 = CST MWS port Zmax ("") mode 1
! Touchstone port 4 = CST MWS port Zmax ("") mode 2
! S-Parameters are not renormalized. Each port impedance will be approximated by the real part at minimum frequency. The values are described via the [Reference] keyword.
! Default impedance is overridden by [Reference]
[Version] 2.0
# GHz S RI R 376.73
[Number of Ports] 4
[Reference]
376.73 376.73 376.73 376.73 
[Number of Frequencies] 401
[Network Data]
250000                  0.222309        0.192769     -0.000468028     0.000148982        -0.178377       -0.938931      -0.00138095     2.97673e-07
                    -0.000571316     0.000139269         0.219374        0.194346      -0.00128684     0.000338942        -0.175171       -0.939785
                       -0.178136       -0.938994      -0.00134952     0.000328707          0.13612       -0.260877      -0.00102782     -0.00026047
                     -0.00141145    -1.64933e-05        -0.175341       -0.939858      -0.00109735    -0.000247946         0.134601       -0.260397
250200                  0.241604        0.162876     -0.000430057     0.000196031         -0.27955       -0.914844      -0.00134494     0.000150487
                    -0.000512019     0.000188334         0.239094        0.165013      -0.00123928     0.000479951        -0.276476       -0.915982
                       -0.279392       -0.914974      -0.00127906     0.000479084         0.109285       -0.270069      -0.00111109     -0.00019364
                     -0.00137771     0.000137767        -0.276577        -0.91606      -0.00115128    -0.000166269         0.107891       -0.269699
250400                    0.2566         0.13095     -0.000387179     0.000241909        -0.377684       -0.879965      -0.00129458     0.000294505
                    -0.000448229     0.000235666         0.254601        0.133539      -0.00117564     0.000616555        -0.374738        -0.88137
                       -0.377625       -0.880117      -0.00119386      0.00061662        0.0818192       -0.276167      -0.00118007    -0.000110555
                     -0.00133319     0.000287543        -0.374808       -0.881447      -0.00119467    -7.45815e-05        0.0805122       -0.275937
250600                  0.267071       0.0976566     -0.000339014     0.000285992        -0.471646       -0.834652      -0.00123083      0.00043102
                    -0.000379729     0.000280596         0.265647        0.100585      -0.00109618     0.000746428        -0.468822       -0.836314
                       -0.471682       -0.834785      -0.00109635      0.00074026        0.0540935        -0.27913      -0.00123226    -1.55528e-05
                     -0.00127754     0.000432169        -0.468889       -0.836381      -0.00122558     2.48452e-05        0.0528343        -0.27906
250800                  0.272901       0.0636831     -0.000285206     0.000327525         -0.56034       -0.779377      -0.00115472      0.00055887
                    -0.000306346     0.000322335         0.272098       0.0668377       -0.0010016     0.000867239        -0.557637       -0.781296
                       -0.560454        -0.77946     -0.000988862     0.000849418        0.0264819       -0.278961      -0.00126662     8.69156e-05
                     -0.00121048     0.000570819        -0.557713        -0.78134      -0.00124275     0.000129314        0.0252304       -0.279061
251000                  0.274083       0.0297205     -0.000225453     0.000365598        -0.642721       -0.714724      -0.00106734     0.000677046
                    -0.000227975     0.000359961         0.273929       0.0329879     -0.000892998     0.000976741         -0.64014       -0.716907
                       -0.642888       -0.714738     -0.000873527     0.000943884     -0.000644154       -0.275709      -0.00128338     0.000192768
                     -0.00113175     0.000702495         -0.64023       -0.716918      -0.00124575     0.000235973      -0.00192707       -0.275979
251200                  0.270718     -0.00355317     -0.000159537     0.000399129        -0.717801       -0.641387     -0.000969805     0.000784687
                    -0.000144612     0.000392404         0.271226    -0.000285751     -0.000771896      0.00107286        -0.715353       -0.643843
                       -0.717994       -0.641325     -0.000752254      0.00102373         -0.02692       -0.269462      -0.00128364     0.000298582
                     -0.00104124     0.000826022        -0.715456       -0.643817      -0.00123489     0.000342083       -0.0282722       -0.269898
251400                  0.263008      -0.0354896     -8.73745e-05     0.000426847        -0.784665       -0.560162     -0.000863233     0.000881046
                    -5.63946e-05     0.000418444         0.264179      -0.0323352     -0.000640174      0.00115378        -0.782367       -0.562905
                       -0.784857       -0.560027     -0.000626709      0.00108924       -0.0519928       -0.260354      -0.00126907     0.000401714
                    -0.000938967     0.000940042        -0.782478       -0.562839      -0.00121112     0.000445245        -0.053451       -0.260946
251600                   0.25125      -0.0654846      -9.0753e-06     0.000447292         -0.84248       -0.471942     -0.000748744     0.000965482
                     3.63448e-05     0.000436706         0.253069      -0.0625565     -0.000500023      0.00121802         -0.84036       -0.474985
                       -0.842649       -0.471748      -0.00049832      0.00114079       -0.0755269       -0.248561      -0.00124159     0.000500273
                     -0.00082516      0.00104303        -0.840471        -0.47488      -0.00117584     0.000543539       -0.0771265       -0.249295
251800                  0.235827      -0.0929907       7.4983e-05     0.000458814        -0.890505       -0.377711     -0.000627452      0.00103743
                     0.000133021     0.000445679         0.238263      -0.0904027     -0.000353871      0.00126449        -0.888598       -0.381063
                       -0.890636       -0.377474       -0.0003683      0.00117881       -0.0972084         -0.2343       -0.0012031     0.000593029
                    -0.000700316       0.0011333        -0.888703       -0.380924      -0.00113071     0.000635583        -0.098984       -0.235155
252000                  0.217199       -0.117529      0.000164068     0.000459604          -0.9281       -0.278533     -0.000500468      0.00109637
                     0.000232723     0.000443738         0.220203       -0.115394     -0.000204292      0.00129255        -0.926452       -0.282196
                       -0.928186       -0.278272      -0.00023768      0.00120376        -0.116751       -0.217824      -0.00115543     0.000679275
                    -0.000565259      0.00120908        -0.926546        -0.28203      -0.00107746     0.000720517        -0.118736       -0.218777
252200                  0.195888       -0.138701      0.000256995     0.000447752        -0.954741        -0.17554     -0.000368915      0.00114186
                      0.00033414     0.000429206         0.199393       -0.137125     -5.39134e-05      0.00130199          -0.9534        -0.17951
                        -0.95478       -0.175275     -0.000107342      0.00121603          -0.1339       -0.199424      -0.00110016     0.000758701
                    -0.000421202      0.00126853        -0.953481       -0.179326      -0.00101775      0.00079793        -0.136127       -0.200446
252400                  0.172472       -0.156192      0.000352031     0.000421344        -0.970018      -0.0699269     -0.000233942      0.00117344
                     0.000435483     0.000400432         0.176389       -0.155277      9.46756e-05      0.00129305        -0.969042      -0.0741892
                       -0.970018      -0.0696744      2.19318e-05      0.00121596        -0.148437       -0.179422      -0.00103866     0.000831276
                    -0.000269798      0.00130986        -0.969108      -0.0739959     -0.000953093     0.000867778        -0.150936       -0.180477
252600                  0.147568       -0.169785      0.000446807     0.000378609        -0.973654       0.0370655     -9.67456e-05      0.00119071
                     0.000534423     0.000355924         0.151785       -0.169617      0.000239007      0.00126638          -0.9731       0.0325369
                       -0.973624        0.037294      0.000149415       0.0012038        -0.160186       -0.158166     -0.000972064     0.000897155
                    -0.000113177      0.00133143        -0.973152       0.0327326     -0.000884761     0.000930273        -0.162985       -0.159214
252800                  0.121815       -0.179361      0.000538273     0.000318114        -0.965502        0.144162      4.14022e-05      0.00119328
                     0.000628056     0.000294508         0.126204       -0.180008      0.000376806      0.00122299        -0.965427        0.139405
                       -0.965456        0.144361       0.00027439      0.00117971        -0.169015       -0.136026     -0.000901277      0.00095661
                     4.60564e-05      0.00133188        -0.965468        0.139597     -0.000813816     0.000985806        -0.172136       -0.137021
253000                 0.0958639       -0.184907      0.000622708     0.000239011        -0.945553        0.250068      0.000179128      0.00118081
                     0.000712911     0.000215534         0.100279       -0.186412      0.000506045      0.00116421        -0.946013        0.245132
                       -0.945504        0.250237      0.000396099      0.00114376        -0.174838       -0.113391      -0.00082702      0.00100998
                     0.000204855      0.00131028        -0.946046        0.245317     -0.000741096      0.00103487          -0.1783       -0.114279
253200                  0.070359        -0.18651       0.00069583     0.000141312        -0.913942        0.353484      0.000314928      0.00115301
                     0.000785041     0.000119104        0.0746443       -0.188891      0.000624983      0.00109161        -0.914987         0.34843
                       -0.913901        0.353626      0.000513688      0.00109597        -0.177622      -0.0906585     -0.000749846      0.00105763
                     0.000359816      0.00126628        -0.915016        0.348604     -0.000667236      0.00107798        -0.181435      -0.0913809
253400                 0.0459207       -0.184367      0.000753013     2.61409e-05        -0.870946        0.453118      0.000447144      0.00110972
                     0.000840196      6.2958e-06         0.049916       -0.187611      0.000732187      0.00100693        -0.872618        0.448019
                       -0.870922        0.453244      0.000626157      0.00103631        -0.177381      -0.0682307     -0.000670168      0.00109995
                     0.000507321      0.00120023        -0.872646        0.448182       -0.0005927      0.00111568        -0.181549      -0.0687255
253600                 0.0231291       -0.178771      0.000789634    -0.000104067        -0.816985        0.547706      0.000573944      0.00105089
                     0.000874109    -0.000120652        0.0266765       -0.182834      0.000826536     0.000912045        -0.819317        0.542643
                       -0.816981        0.547828      0.000732308     0.000964744        -0.174187      -0.0465077     -0.000588282      0.00113735
                     0.000643717      0.00111327        -0.819346        0.542796      -0.00051781      0.00114848        -0.178702      -0.0467093
253800                0.00250755        -0.17011       0.00080151    -0.000245502         -0.75262        0.636027      0.000693322     0.000976708
                     0.000882862    -0.000258257       0.00545774        -0.17492      0.000907214     0.000808873        -0.755636        0.631088
                       -0.752636        0.636156      0.000830697     0.000881355        -0.168159      -0.0258807     -0.000504397      0.00117022
                     0.000765543      0.00100736        -0.755667        0.631232     -0.000442773      0.00117683        -0.173006      -0.0257216
254000                -0.0154936       -0.158858      0.000785377    -0.000393094        -0.678554        0.716916      0.000803104     0.000887658
                     0.000863318    -0.000401845       -0.0132761       -0.164317      0.000973697      0.00069935        -0.682263        0.712197
                       -0.678583        0.717063      0.000919602     0.000786385         -0.15947     -0.00672489     -0.000418652        0.001199
                     0.000869755     0.000885216        -0.682296        0.712333     -0.000367709      0.00120114        -0.164622     -0.00613764
254200                -0.0305117        -0.14556      0.000739322    -0.000540823        -0.595619        0.789282      0.000900997     0.000784588
                     0.000813533    -0.000545779       -0.0291444       -0.151547       0.00102573     0.000585377        -0.600019        0.784882
                       -0.595652        0.789455      0.000997015     0.000680385        -0.148342       0.0106067     -0.000331153      0.00122416
                     0.000953943     0.000750205        -0.600053        0.785011      -0.00029267      0.00122177        -0.153761       0.0116879
254400                -0.0422839       -0.130819      0.000663067    -0.000682197        -0.504774        0.852125      0.000984656     0.000668812
                     0.000733079    -0.000683854       -0.0418643       -0.137195       0.00106329     0.000468797        -0.509849        0.848144
                         -0.5048        0.852328       0.00106067     0.000564364        -0.135042       0.0257896     -0.000242008      0.00124624
                      0.00101649     0.000606148        -0.509882        0.848267     -0.000217664      0.00123899        -0.140681       0.0274273
254600                -0.0506574       -0.115274      0.000558049    -0.000810813        -0.407096        0.904547        0.0010518     0.000542175
                     0.000623198    -0.000809808       -0.0512621       -0.121888        0.0010866     0.000351364        -0.412817        0.901089
                       -0.407101        0.904779       0.00110813     0.000439949        -0.119881       0.0385344     -0.000151399      0.00126587
                      0.00105668     0.000457078        -0.412847        0.901204     -0.000142668      0.00125306        -0.125682       0.0407862
254800                -0.0555961      -0.0995895      0.000427269    -0.000920908        -0.303767        0.945771       0.00110035     0.000407093
                     0.000486745    -0.000917866         -0.05728       -0.106277       0.00109602     0.000234735         -0.31009        0.942937
                       -0.303738        0.946027       0.00113693     0.000309517        -0.103209       0.0485915     -5.96905e-05      0.00128382
                      0.00107469     0.000306987        -0.310115        0.943042     -6.76409e-05      0.00126414        -0.109105       0.0515091
255000                -0.0571835      -0.0844256      0.000274946     -0.00100778        -0.196061        0.975149       0.00112863     0.000266552
                     0.000327923     -0.00100322         -0.05998      -0.0910124       0.00109213     0.000120449        -0.202931        0.973038
                       -0.195991        0.975419       0.00114482     0.000176275       -0.0854089       0.0557568      3.24094e-05       0.0013009
                      0.00107153      0.00015959        -0.202951        0.973131      7.45857e-06      0.00127236       -0.0913256       0.0593844
255200                -0.0556222      -0.0704227      0.000106057     -0.00106803       -0.0853339        0.992177       0.00113553     0.000124036
                      0.00015187     -0.00106234       -0.0595416      -0.0767251       0.00107562     9.92979e-06         -0.09268        0.990885
                      -0.0852154        0.992449       0.00112994     4.41678e-05       -0.0668916       0.0598755       0.00012362       0.0013179
                      0.00104891     1.81269e-05       -0.0926945        0.990962      8.26647e-05      0.00127779       -0.0727471       0.0642494
255400                -0.0512301      -0.0581792      -7.4125e-05     -0.00109959        0.0269977        0.996504       0.00112071    -1.66181e-05
                    -3.58327e-05     -0.00109316       -0.0562569      -0.0640049       0.00104732    -9.55267e-05        0.0192592        0.996122
                       0.0271646        0.996763       0.00109107    -8.24917e-05       -0.0480892       0.0608456      0.000211895      0.00133513
                      0.00100906     -0.00011477         0.019247         0.99618      0.000157991      0.00128044       -0.0537961       0.0659936
255600                -0.0444321      -0.0482319     -0.000260442     -0.00110161          0.13947         0.98794       0.00108473    -0.000151437
                    -0.000229618     -0.00109495       -0.0505215      -0.0533819       0.00100818    -0.000194752         0.131436        0.988554
                        0.139681        0.988172       0.00102755    -0.000199948       -0.0294492       0.0586207      0.000294513      0.00135175
                     0.000954496    -0.000237147         0.131422         0.98859      0.000233418      0.00128025       -0.0349149        0.064562
255800                -0.0357495      -0.0410386     -0.000448129     -0.00107421         0.250592        0.966462        0.0010291    -0.000276586
                    -0.000424308     -0.00106819       -0.0428226      -0.0453108      0.000959221    -0.000286711         0.242373         0.96815
                        0.250836        0.966654      0.000939446    -0.000307077       -0.0114265       0.0532112      0.000368848      0.00136506
                     0.000887891    -0.000347735         0.242352        0.968163      0.000308882      0.00127711       -0.0165545       0.0599564
256000                -0.0257863      -0.0369622     -0.000632975     -0.00101822         0.358864         0.93222      0.000956243    -0.000388666
                    -0.000615361     -0.00101423       -0.0337268      -0.0401574      0.000901591    -0.000370509         0.350584        0.935051
                        0.359127        0.932363      0.000829997    -0.000409077        0.0055229       0.0446854      0.000433919      0.00137051
                     0.000811851    -0.000445908         0.350549        0.935042      0.000384263      0.00127081      0.000832376       0.0522366
256200                -0.0152139      -0.0362575     -0.000811354    -0.000934867         0.462797        0.885533      0.000869337    -0.000484993
                    -0.000798994    -0.000935011       -0.0238652      -0.0381872      0.000836502    -0.000445401         0.454593        0.889569
                        0.463061        0.885625      0.000715748    -0.000516692        0.0209491       0.0331683      0.000491668      0.00136331
                     0.000728793    -0.000531609         0.454538        0.889541      0.000459372      0.00126102         0.016799       0.0415198
