! TOUCHSTONE file generated by CST MICROWAVE STUDIO
! Date and time: Sun Sep 28 20:03:50 2025
! Project name: biblioteca3_folgaOK.cst
! Parameters = {H=600; Lx=300; Ly=300; Nedge=32; P=520; mesh_pilar_nm=40; t_air=3500; t_sub=4000}
! Header version: 2018
! Port assignment regex: !\s*Touchstone port\s*([0-9]+)\s*=\s*(CST MWS port|CST DS port)\s*([0-9]+|Zmin|Zmax)\s*\(\"(.*)\"\)(\s*mode\s*([0-9]+))?.*
! Touchstone port assignment:
! Touchstone port 1 = CST MWS port Zmin ("") mode 1
! Touchstone port 2 = CST MWS port Zmin ("") mode 2
! Touchstone port 3 = CST MWS port Zmax ("") mode 1
! Touchstone port 4 = CST MWS port Zmax ("") mode 2
! S-Parameters are not renormalized. Each port impedance will be approximated by the real part at minimum frequency. The values are described via the [Reference] keyword.
! Default impedance is overridden by [Reference]
[Version] 2.0
# GHz S RI R 376.73
[Number of Ports] 4
[Reference]
376.73 376.73 376.73 376.73 
[Number of Frequencies] 401
[Network Data]
250000                  0.218491        0.199343      -0.00018063     0.000148243        -0.200044       -0.933958      0.000404375    -0.000251618
                     -0.00027226     0.000219914          0.21863        0.198159      0.000451172     4.70111e-05        -0.201244       -0.933998
                       -0.200015       -0.934202      0.000598945    -0.000132825         0.117722       -0.271318     -8.57711e-05    -1.28497e-05
                      0.00041619    -0.000231812        -0.201464       -0.933948     -0.000142005     2.57746e-05         0.117581       -0.270696
250200                  0.238456        0.169818      -0.00017098     0.000176699        -0.300473       -0.907852      0.000389623    -0.000277387
                    -0.000240343      0.00026941         0.238431        0.168651      0.000457781    -2.88527e-05        -0.301802       -0.907551
                       -0.300473       -0.907909      0.000588469    -0.000173241        0.0901456       -0.278492     -7.29518e-05    -2.75146e-06
                      0.00040099    -0.000267819        -0.301718       -0.907563     -0.000106154    -2.21546e-06         0.090034       -0.277809
250400                  0.254198        0.138193     -0.000155163     0.000207727        -0.397695       -0.870954       0.00037283    -0.000303892
                     -0.00019508      0.00031339         0.254001        0.137051      0.000460064    -9.71688e-05        -0.399059       -0.870368
                       -0.397684         -0.8709       0.00057488    -0.000214395        0.0621572       -0.282537     -5.70567e-05     5.42833e-07
                     0.000382612    -0.000304269        -0.398795       -0.870468     -8.22341e-05    -2.36234e-05        0.0620897       -0.281798
250600                   0.26548        0.105113     -0.000131357     0.000240295         -0.49055       -0.823656      0.000353741    -0.000331087
                    -0.000138207     0.000347912         0.265105        0.104013      0.000457471    -0.000159863        -0.491884        -0.82284
                       -0.490514       -0.823555      0.000557892    -0.000256051        0.0341339       -0.283435     -4.10596e-05    -3.95349e-06
                     0.000360788    -0.000340937         -0.49154       -0.823027     -6.72988e-05      -4.157e-05        0.0341221       -0.282649
250800                  0.272169       0.0712522     -9.76785e-05     0.000272499        -0.577928       -0.766471      0.000332066    -0.000358903
                    -7.27172e-05     0.000369915         0.271616       0.0702152      0.000449742    -0.000218274        -0.579191       -0.765473
                        -0.57787       -0.766367      0.000537205    -0.000297896       0.00645153       -0.281217     -2.80552e-05    -1.57291e-05
                     0.000335244    -0.000377557        -0.578839       -0.765727     -5.93963e-05    -5.75127e-05       0.00650472       -0.280392
251000                  0.274242       0.0372907     -5.25954e-05     0.000301313        -0.658779       -0.700024      0.000307472    -0.000387233
                    -2.32633e-06      0.00037761         0.273517       0.0363429      0.000436738    -0.000273302        -0.659947       -0.698885
                       -0.658712       -0.699948      0.000512499    -0.000339499       -0.0205209       -0.275957     -2.04438e-05    -3.30262e-05
                     0.000305707    -0.000413808        -0.659635       -0.699176     -5.72492e-05    -7.21161e-05       -0.0203956       -0.275101
251200                  0.271781      0.00390046      4.41929e-06     0.000322537        -0.732126        -0.62505      0.000279576    -0.000415927
                     6.91345e-05     0.000370528         0.270898      0.00306798      0.000418361    -0.000325522        -0.733186         -0.6238
                       -0.732065       -0.625016      0.000483428    -0.000380229       -0.0464265       -0.267773     -1.95095e-05    -5.34857e-05
                     0.000271907     -0.00044932        -0.732939       -0.624096     -6.00168e-05    -8.56342e-05       -0.0462238       -0.266895
251400                  0.264972      -0.0282725      7.20686e-05     0.000331181         -0.79707       -0.542383      0.000247939    -0.000444764
                     0.000138194     0.000349302         0.263949      -0.0289654      0.000394517    -0.000375254        -0.798015       -0.541042
                        -0.79703       -0.542393      0.000449578    -0.000419025       -0.0709255       -0.256828     -2.54773e-05    -7.47921e-05
                     0.000233586    -0.000483662        -0.797842       -0.541315     -6.71388e-05    -9.80882e-05       -0.0706416       -0.255938
251600                  0.254093       -0.058624      0.000146603     0.000322471        -0.852802       -0.452948      0.000212055    -0.000473431
                     0.000202007     0.000315319         0.252956      -0.0591566      0.000365098    -0.000422619        -0.853627       -0.451529
                       -0.852795       -0.452995      0.000410316    -0.000453631       -0.0937008       -0.243323     -3.78468e-05    -9.50584e-05
                     0.000190497     -0.00051635        -0.853523       -0.451755     -7.82327e-05    -0.000109353       -0.0933328       -0.242429
251800                  0.239515      -0.0866053      0.000221904     0.000293322        -0.898613       -0.357754      0.000171348    -0.000501475
                     0.000258414     0.000270376         0.238291      -0.0869616      0.000329976    -0.000467565        -0.899311       -0.356266
                       -0.898644       -0.357825      0.000363895    -0.000476563        -0.114462         -0.2275     -5.57595e-05    -0.000112933
                     0.000142406    -0.000546847        -0.899262        -0.35643     -9.30247e-05    -0.000119202        -0.114007       -0.226609
252000                  0.221682       -0.111736      0.000290628     0.000243652        -0.933898       -0.257884      0.000125178    -0.000528237
                     0.000305877     0.000216417         0.220402       -0.111905      0.000289017    -0.000509889        -0.934463       -0.256333
                       -0.933967       -0.257964      0.000288833    -0.000412432        -0.132949        -0.20963     -7.82668e-05     -0.00012753
                     8.90826e-05    -0.000574578         -0.93445       -0.256428     -0.000111301    -0.000127329        -0.132407       -0.208751
252200                  0.201104       -0.133614      0.000346078     0.000176713        -0.958168       -0.154485      7.28795e-05    -0.000552752
                     0.000343349     0.000155375           0.1998        -0.13359      0.000242081    -0.000549248        -0.958589       -0.152875
                        -0.95827       -0.154561      0.000281963    -0.000692541        -0.148938       -0.190017     -0.000104477    -0.000138303
                     3.02631e-05    -0.000598951        -0.958593       -0.152903     -0.000132869    -0.000133364        -0.148307       -0.189159
252400                  0.178344       -0.151925      0.000383883     9.81169e-05        -0.971056      -0.0487588      1.38741e-05    -0.000573609
                     0.000370146     8.90923e-05         0.177047       -0.151707      0.000189045    -0.000585161        -0.971319      -0.0470954
                        -0.97118       -0.048816      0.000216686    -0.000662266        -0.162244       -0.168993     -0.000133608     -0.00014492
                    -3.44462e-05    -0.000619417        -0.971322      -0.0470646     -0.000157531    -0.000136882        -0.161522       -0.168162
252600                  0.154001       -0.166448      0.000402624     1.41253e-05        -0.972319       0.0580545     -5.20609e-05    -0.000588821
                     0.000385838     1.93141e-05         0.152741       -0.166039      0.000129817    -0.000617013        -0.972412       0.0597618
                       -0.972452        0.058024      0.000150234    -0.000676026        -0.172723       -0.146907     -0.000164995    -0.000147166
                    -0.000105845    -0.000635594        -0.972399       0.0598379     -0.000185057    -0.000137415         -0.17191       -0.146113
252800                  0.128697       -0.177062      0.000403328     -6.9856e-05        -0.961852        0.164685     -0.000124276     -0.00059585
                     0.000390179    -5.22973e-05         0.127504       -0.176468      6.43625e-05    -0.000644055        -0.961758        0.166423
                       -0.961978        0.164685      7.94302e-05    -0.000692674        -0.180274       -0.124127     -0.000198062    -0.000144884
                    -0.000186025    -0.000647613        -0.961721        0.166528     -0.000215161    -0.000134462         -0.17937       -0.123379
253000                  0.103061       -0.183745      0.000388393    -0.000150024        -0.939681        0.269846      -0.00020057    -0.000592182
                     0.000383067     -0.00012413         0.101964       -0.182977     -7.26687e-06    -0.000665404        -0.939389        0.271597
                       -0.939787        0.269877      3.85219e-06    -0.000706054        -0.184846       -0.101032     -0.000232296    -0.000137937
                    -0.000282117    -0.000657346        -0.939323        0.271715     -0.000247485    -0.000127504        -0.183851        -0.10034
253200                 0.0777148       -0.186578      0.000360572    -0.000224186        -0.905978        0.372254     -0.000277052    -0.000576787
                     0.000364535     -0.00019459        0.0767396       -0.185647     -8.48996e-05    -0.000680049        -0.905476        0.373997
                        -0.90605         0.37231     -7.63386e-05    -0.000713694        -0.186431      -0.0780054     -0.000267219    -0.000126192
                    -0.000434908    -0.000674637        -0.905381         0.37411     -0.000281584    -0.000116019        -0.185347      -0.0773806
253400                  0.053252       -0.185738      0.000322306    -0.000291364         -0.86105        0.470637     -0.000349784    -0.000551689
                     0.000334753    -0.000262086        0.0524258       -0.184662     -0.000168205    -0.000686859        -0.860333        0.472346
                        -0.86108        0.470709     -0.000160697    -0.000713999        -0.185074      -0.0554311      -0.00030236    -0.000109509
                     -0.00021518     0.000569026        -0.860215        0.472441     -0.000316914    -9.95083e-05        -0.183903      -0.0548843
253600                 0.0302276       -0.181499      0.000275442    -0.000351305        -0.805351        0.563754     -0.000417803    -0.000521166
                      0.00029405     -0.00032501         0.029576       -0.180297     -0.000256652    -0.000684606        -0.804416        0.565401
                       -0.805332        0.563833     -0.000248551    -0.000705677        -0.180866      -0.0336857     -0.000337241    -8.77483e-05
                    -0.000325195    -0.000500163        -0.804282        0.565469     -0.000352825     -7.7517e-05        -0.179613      -0.0332284
253800                 0.0091408       -0.174219      0.000221184    -0.000404064         -0.73947         0.65041     -0.000483959     -0.00048814
                     0.000242938    -0.000381751       0.00868776       -0.172915     -0.000349459    -0.000671993        -0.738322        0.651967
                       -0.739401        0.650483     -0.000339015    -0.000687601        -0.173945      -0.0131335     -0.000371355    -6.07751e-05
                    -0.000456357    -0.000503133        -0.738181           0.652      -0.00038857    -4.96613e-05        -0.172616      -0.0127774
254000               -0.00957876       -0.164335      0.000160183    -0.000449706        -0.664134        0.729472     -0.000552058    -0.000451794
                     0.000182133    -0.000430704      -0.00981151       -0.162957     -0.000445556    -0.000647699        -0.662782        0.730909
                       -0.664017        0.729529     -0.000430989    -0.000658769        -0.164498      0.00587981     -0.000404162     -2.8468e-05
                    -0.000551803    -0.000469384        -0.662644        0.730905     -0.000423308    -1.56545e-05        -0.163101      0.00612351
254200                -0.0255832       -0.152346      9.26693e-05    -0.000488096        -0.580198        0.799884     -0.000623916    -0.000408691
                     0.000112576    -0.000470299       -0.0255774       -0.150929     -0.000543544    -0.000610445        -0.578657        0.801173
                        -0.58004        0.799916     -0.000523163    -0.000618321        -0.152754       0.0230332     -0.000435081     9.26882e-06
                    -0.000634823    -0.000418798         -0.57853        0.801135     -0.000456124     2.46702e-05        -0.151299       0.0231538
254400                -0.0386168       -0.138805      1.86034e-05    -0.000518775        -0.488639        0.860684     -0.000698795    -0.000354997
                     3.54446e-05    -0.000499034       -0.0383592       -0.137387     -0.000641665    -0.000559069        -0.486929        0.861802
                       -0.488448        0.860684     -0.000614026    -0.000565567        -0.138985       0.0380358     -0.000463488      5.2495e-05
                    -0.000709497    -0.000355214         -0.48682        0.861732     -0.000486055     7.13418e-05        -0.137483       0.0380238
254600                -0.0485245       -0.124298     -6.21745e-05    -0.000540859        -0.390547         0.91102     -0.000774205    -0.000287738
                    -4.78441e-05    -0.000515512       -0.0480083       -0.122923     -0.000737803    -0.000492624        -0.388691        0.911943
                       -0.390334        0.910984     -0.000701885     -0.00050002        -0.123497       0.0506323     -0.000488716     0.000101223
                     -0.00077626    -0.000280089        -0.388604        0.911849     -0.000512121     0.000124242        -0.121963       0.0504796
254800                -0.0552568       -0.109431     -0.000149778    -0.000552983        -0.287111        0.950158     -0.000846721    -0.000205119
                    -0.000135638    -0.000518481       -0.0544833       -0.108145     -0.000829497     -0.00041048        -0.285137         0.95087
                       -0.286888        0.950086     -0.000784896    -0.000421433        -0.106634       0.0606079     -0.000510062     0.000155407
                    -0.000834478    -0.000194372        -0.285073        0.950758     -0.000533354     0.000183107        -0.105079       0.0603077
255000                -0.0588727      -0.0948064     -0.000244087    -0.000553258        -0.179607        0.977502     -0.000912515    -0.000106503
                    -0.000226064    -0.000506868       -0.0578524      -0.0936566     -0.000913996    -0.000312436        -0.177544         0.97799
                       -0.179384        0.977397     -0.000861099    -0.000329831       -0.0887611       0.0677922     -0.000526792     0.000214938
                    -0.000883151    -9.89551e-05        -0.177501        0.977866     -0.000548835     0.000247537       -0.0872026       0.0673397
255200                -0.0595391       -0.081009     -0.000344523    -0.000539276       -0.0693823        0.992598     -0.000967678     7.65703e-06
                    -0.000317046     -0.00047981       -0.0582923      -0.0800424     -0.000988357    -0.000198818       -0.0672594        0.992853
                      -0.0691697        0.992466     -0.000928468     -0.00022553       -0.0702698       0.0720627     -0.000538149      0.00027964
                    -0.000921181      5.2013e-06       -0.0672348        0.992723     -0.000557714     0.000317022       -0.0687225       0.0714549
255400                -0.0575264      -0.0685852     -0.000449793    -0.000508176        0.0421613        0.995149      -0.00100849     0.000135894
                     -0.00040633    -0.000436678       -0.0560833      -0.0678455      -0.00104956    -7.05461e-05        0.0443139        0.995166
                       0.0423565        0.994998     -0.000984958    -0.000109156        -0.051565       0.0733477     -0.000543361     0.000349263
                    -0.000947492     0.000117044        0.0443256        0.995034     -0.000559233     0.000390968       -0.0500446       0.0725834
255600                -0.0532019      -0.0580261     -0.000557591    -0.000456816         0.153586        0.985017       -0.0010317     0.000275843
                    -0.000491499    -0.000377098        -0.051602      -0.0575514      -0.00109468     7.08306e-05         0.155739        0.984795
                        0.153759        0.984857      -0.00102856     1.83655e-05       -0.0330604       0.0716276     -0.000541653     0.000423497
                    -0.000961087     0.000235438         0.155744        0.984662     -0.000552728     0.000468739       -0.0315825       0.0707073
255800                -0.0470194      -0.0497505     -0.000664333    -0.000382086         0.263435         0.96223      -0.00103469      0.00042442
                    -0.000569998    -0.000300959       -0.0453101      -0.0495713      -0.00112104     0.000223155         0.265561        0.961771
                        0.263585        0.962071      -0.00105735     0.000155816       -0.0151719       0.0669359     -0.000532247     0.000501968
                    -0.000961073     0.000359199         0.265564        0.961637     -0.000537621     0.000549691       -0.0137516       0.0658616
256000                -0.0395066      -0.0440909     -0.000764958    -0.000281388         0.370255        0.926983      -0.00101574     0.000578085
                    -0.000639138    -0.000208429       -0.0377413      -0.0442284      -0.00112635     0.000383745         0.372328        0.926292
                        0.370383        0.926836      -0.00106953     0.000301719       0.00168955       0.0593589     -0.000514365     0.000584258
                    -0.000946654     0.000487127         0.372334        0.926154     -0.000513397     0.000633212        0.0030379       0.0581337
256200                  -0.03125      -0.0412812     -0.000852937    -0.000153276         0.472613        0.879641     -0.000973991     0.000733149
                    -0.000696103    -9.99617e-05       -0.0294857      -0.0417461      -0.00110889     0.000549522         0.474608        0.878723
                        0.472724        0.879513      -0.00106346     0.000454374        0.0171247       0.0490341     -0.000487225     0.000669918
                    -0.000917114      0.00061804         0.474621        0.878576     -0.000479569     0.000718749        0.0183874       0.0476617
