! TOUCHSTONE file generated by CST MICROWAVE STUDIO
! Date and time: Fri Sep 26 07:22:01 2025
! Project name: biblioteca3_folgaOK.cst
! Parameters = {H=600; Lx=200; Ly=260; Nedge=36; P=520; k=0; mesh_pilar_nm=40; n=0; t_air=3500; t_sub=2000; wavelength_nm=0}
! Header version: 2018
! Port assignment regex: !\s*Touchstone port\s*([0-9]+)\s*=\s*(CST MWS port|CST DS port)\s*([0-9]+|Zmin|Zmax)\s*\(\"(.*)\"\)(\s*mode\s*([0-9]+))?.*
! Touchstone port assignment:
! Touchstone port 1 = CST MWS port Zmin ("") mode 1
! Touchstone port 2 = CST MWS port Zmin ("") mode 2
! Touchstone port 3 = CST MWS port Zmax ("") mode 1
! Touchstone port 4 = CST MWS port Zmax ("") mode 2
! S-Parameters are not renormalized. Each port impedance will be approximated by the real part at minimum frequency. The values are described via the [Reference] keyword.
! Default impedance is overridden by [Reference]
[Version] 2.0
# GHz S RI R 376.73
[Number of Ports] 4
[Reference]
376.73 376.73 376.73 376.73 
[Number of Frequencies] 401
[Network Data]
250000                 -0.296047       -0.118325     -8.59414e-05     -0.00102708         0.649351       -0.690392     -0.000148896     0.000115731
                     0.000122617    -0.000946995       -0.0081615       -0.183195      -0.00032446     4.62002e-05         0.764834        0.617463
                        0.649249       -0.690246     -0.000288413      6.1178e-05        -0.136205       -0.288247     -0.000215155    -0.000936935
                    -0.000120247     0.000146563         0.764897         0.61744     -0.000154577     -0.00101787          0.18083      -0.0306171
250200                 -0.296237      -0.0977118     -0.000186501     -0.00102698         0.594694       -0.740777     -0.000139394     0.000139128
                     3.49266e-05    -0.000994435       -0.0159212       -0.185905     -0.000306553     7.30369e-05          0.80289        0.566116
                        0.594682       -0.740685     -0.000296519     9.15925e-05         -0.15942       -0.268347       -0.0002682    -0.000933157
                    -0.000120896     0.000149192         0.802971        0.566247     -0.000206958     -0.00101525         0.180458      -0.0473958
250400                 -0.294732      -0.0773893     -0.000288865     -0.00101958         0.535978       -0.787043     -0.000129609     0.000160557
                     -5.9701e-05     -0.00103227       -0.0239739       -0.188194     -0.000286916     0.000100315          0.83752          0.5124
                        0.536025       -0.786991     -0.000300493     0.000124167        -0.180004       -0.246274     -0.000322043    -0.000927587
                    -0.000121233     0.000151117         0.837628        0.512629     -0.000261057     -0.00101036         0.178464      -0.0642773
250600                 -0.291561      -0.0575145      -0.00039234     -0.00100453         0.473488       -0.828838     -0.000119524     0.000180264
                    -0.000160057     -0.00105954        -0.032293       -0.190037     -0.000265468     0.000127835         0.868576        0.456545
                        0.473568       -0.828814     -0.000299805     0.000158231        -0.197716       -0.222384     -0.000376719    -0.000920156
                    -0.000121118     0.000152128         0.868714        0.456827     -0.000316867       -0.001003         0.174829      -0.0810984
250800                  -0.28677      -0.0382428     -0.000496159    -0.000981552         0.407539       -0.865829     -0.000109124     0.000198453
                    -0.000264791     -0.00107548       -0.0408499       -0.191413     -0.000242131     0.000155348         0.895928        0.398788
                        0.407633       -0.865818     -0.000294063     0.000192971        -0.212366        -0.19706     -0.000432273    -0.000910781
                    -0.000120335     0.000151971         0.896093        0.399088     -0.000374368    -0.000992932         0.169551      -0.0976932
251000                 -0.280419      -0.0197265     -0.000599484    -0.000950447         0.338482         -0.8977     -9.83872e-05     0.000215296
                    -0.000372455     -0.00107954       -0.0496144         -0.1923     -0.000216837     0.000182548         0.919462        0.339376
                        0.338577       -0.897688     -0.000283056     0.000227468         -0.22382       -0.170707     -0.000488758    -0.000899364
                    -0.000118541     0.000150348         0.919648        0.339665     -0.000433523    -0.000979905         0.162646       -0.113896
251200                 -0.272588     -0.00211251     -0.000701421    -0.000911116         0.266699       -0.924161     -8.72903e-05      0.00023094
                    -0.000481544      -0.0010714       -0.0585546        -0.19268     -0.000189533     0.000209069          0.93908         0.27856
                        0.266787       -0.924133     -0.000266788     0.000260752        -0.231998       -0.143743     -0.000546242    -0.000885786
                    -0.000115205     0.000146941         0.939278         0.27882      -0.00049428    -0.000963654         0.154146        -0.12954
251400                 -0.263369       0.0144592     -0.000801024     -0.00086356         0.192603       -0.944944     -7.58066e-05     0.000245509
                    -0.000590548     -0.00105098        -0.067637       -0.192536     -0.000160186     0.000234484         0.954698        0.216596
                        0.192681       -0.944889     -0.000245487     0.000291861        -0.236878       -0.116592     -0.000604798    -0.000869902
                    -0.000109515     0.000141481         0.954899        0.216816     -0.000556565    -0.000943894         0.144101       -0.144466
251600                 -0.252871       0.0298572     -0.000897316    -0.000807883         0.116638       -0.959816     -6.39054e-05     0.000259109
                    -0.000697985     -0.00101842       -0.0768267       -0.191854     -0.000128796     0.000258305         0.966252        0.153747
                        0.116706       -0.959723     -0.000219595     0.000319908        -0.238494      -0.0896744     -0.000664511    -0.000851533
                    -0.000100288     0.000133907         0.966448        0.153921     -0.000620282    -0.000920324          0.13258       -0.158517
251800                 -0.241215       0.0439608     -0.000989298    -0.000744297         0.039275       -0.968576     -5.15515e-05     0.000271832
                    -0.000802445    -0.000974063       -0.0860876       -0.190622     -9.54046e-05     0.000279991         0.973693       0.0902772
                       0.0393361       -0.968438     -0.000189739     0.000344136        -0.236937      -0.0634014     -0.000725472     -0.00083046
                    -8.59347e-05     0.000124662         0.973877       0.0904046     -0.000685305    -0.000892621         0.119665       -0.171543
252000                 -0.228539       0.0566615      -0.00107597    -0.000673117       -0.0389895       -0.971061     -3.87047e-05     0.000283756
                     -0.00090262    -0.000918419       -0.0953827       -0.188831     -6.01155e-05     0.000298952         0.976989       0.0264523
                       -0.038929       -0.970873     -0.000156677     0.000363956         -0.23235      -0.0381661     -0.000787772    -0.000806414
                    -6.46684e-05     0.000115156         0.977154       0.0265387      -0.00075148    -0.000860446         0.105454       -0.183404
252200                  -0.21499        0.067865      -0.00115635     -0.00059475        -0.117636       -0.967148     -2.53188e-05     0.000294944
                    -0.000997321     -0.00085216        -0.104674       -0.186474     -2.31076e-05     0.000314566         0.976125      -0.0374593
                       -0.117569        -0.96691     -0.000121251     0.000378977        -0.224926      -0.0143377     -0.000851499    -0.000779064
                    -3.52025e-05     0.000108175         0.976268      -0.0374057     -0.000818618    -0.000823443        0.0900613       -0.193969
252400                 -0.200728       0.0774923      -0.00122949    -0.000509689        -0.196128       -0.956763     -1.13408e-05     0.000305453
                      -0.0010855    -0.000776074        -0.113922       -0.183548      1.53455e-05     0.000326202         0.971101       -0.101189
                       -0.196047       -0.956477     -8.43248e-05     0.000388998        -0.214905      0.00774528     -0.000916723    -0.000748009
                     1.99834e-06     0.000107666         0.971221       -0.101158     -0.000886488     -0.00078124        0.0736124        -0.20312
252600                 -0.185921       0.0854816       -0.0012945    -0.000418494        -0.273913       -0.939875       3.2902e-06     0.000315326
                     -0.00116625    -0.000691038        -0.123088        -0.18005      5.48588e-05     0.000333244         0.961937        -0.16447
                        -0.27381       -0.939546     -4.67338e-05     0.000394003         -0.20257       0.0277805     -0.000983483    -0.000712761
                     4.36932e-05     0.000117194         0.962035       -0.164449      -0.00095482    -0.000733449        0.0562457       -0.210749
252800                 -0.170744       0.0917891      -0.00135057    -0.000321775        -0.350428       -0.916507      1.86445e-05     0.000324598
                     -0.00123881    -0.000597989        -0.132133       -0.175983      9.49235e-05     0.000335123         0.948668       -0.227036
                       -0.350297       -0.916142     -9.24826e-06     0.000394128        -0.188238       0.0455071      -0.00105176    -0.000672738
                     8.45831e-05     0.000137631         0.948746       -0.227012      -0.00102329    -0.000679671        0.0381097       -0.216766
253000                 -0.155377       0.0963905        -0.001397    -0.000220181        -0.425107       -0.886733      3.48034e-05     0.000333291
                     -0.00130256    -0.000497897        -0.141016       -0.171351      0.000134902     0.000331361         0.931345       -0.288624
                       -0.424944       -0.886343      2.74541e-05     0.000389628        -0.172261       0.0607103      -0.00112147    -0.000627254
                     0.000119969     0.000166263         0.931409       -0.288584      -0.00109154    -0.000619499        0.0193624       -0.221094
253200                 -0.140003       0.0992813      -0.00143322     -0.00011438        -0.497385       -0.850681      5.18607e-05     0.000341418
                     -0.00135702    -0.000391747        -0.149697        -0.16616      0.000174031      0.00032161         0.910036       -0.348974
                       -0.497186       -0.850276       6.2801e-05     0.000380843        -0.155012        0.073225      -0.00119238    -0.000575514
                     0.000148002     0.000198471         0.910093       -0.348907      -0.00115912     -0.00055252      0.000169102       -0.223671
253400                 -0.124807        0.100478      -0.00145879    -5.05374e-06        -0.566701       -0.808534      6.99257e-05     0.000348977
                     -0.00140182    -0.000280517        -0.158138       -0.160422      0.000211445     0.000305692         0.884825        -0.40783
                       -0.566467       -0.808127      9.63278e-05     0.000368163        -0.136886       0.0829394      -0.00126411    -0.000516625
                     0.000169627     0.000230179         0.884882       -0.407727      -0.00122556    -0.000478318       -0.0192988       -0.224453
253600                  -0.10997        0.100017      -0.00147343     0.000107109        -0.632509       -0.760529      8.91253e-05     0.000355953
                     -0.00143671    -0.000165169        -0.166299       -0.154149      0.000246204     0.000283638         0.855813       -0.464945
                       -0.632243       -0.760134      0.000127671     0.000352003        -0.118284       0.0897962      -0.00133604    -0.000449614
                     0.000187097     0.000258996         0.855877       -0.464796      -0.00129032    -0.000396484       -0.0388658       -0.223413
253800                -0.0956701       0.0979556      -0.00147704     0.000221409        -0.694281       -0.706958      0.000109607     0.000362308
                     -0.00146152    -4.66333e-05        -0.174141       -0.147357      0.000277343     0.000255714         0.823115       -0.520073
                       -0.693989       -0.706587      0.000156557     0.000332776       -0.0996137       0.0937952      -0.00140727    -0.000373478
                     0.000202694     0.000283998         0.823195       -0.519873       -0.0013528    -0.000306613       -0.0583537       -0.220542
254000                -0.0820766       0.0943718      -0.00146966     0.000337135        -0.751514       -0.648167      0.000131544     0.000367985
                     -0.00147618     7.41928e-05        -0.181627       -0.140066       0.00030393     0.000222428         0.786861        -0.57298
                       -0.751203       -0.647831      0.000182787     0.000310883       -0.0812777       0.0949924      -0.00147657    -0.000287251
                     0.000218182     0.000305095         0.786966       -0.572725      -0.00141234    -0.000208317       -0.0775833       -0.215846
254200                -0.0693507       0.0893624       -0.0014515     0.000453557        -0.803735       -0.584551      0.000155137     0.000372891
                     -0.00148066     0.000196452        -0.188721       -0.132296      0.000325127     0.000184521         0.747197       -0.623438
                       -0.803417        -0.58426      0.000206223     0.000286699       -0.0636652       0.0934998       -0.0015423     -0.00019012
                     0.000234773     0.000322502         0.747335       -0.623126      -0.00146826    -0.000101221       -0.0963767       -0.209353
254400                -0.0576411       0.0830424      -0.00142288     0.000569925        -0.850509       -0.516553      0.000180619     0.000376895
                     -0.00147504     0.000319325        -0.195388       -0.124073      0.000340251     0.000142939         0.704283       -0.671227
                       -0.850196       -0.516312      0.000226773     0.000260569       -0.0471453       0.0894834      -0.00160247    -8.15531e-05
                     0.000253245     0.000336456          0.70446        -0.67086      -0.00151986     1.50306e-05        -0.114558       -0.201105
254600                -0.0470825       0.0755432      -0.00138421      0.00068547        -0.891443       -0.444658      0.000208264     0.000379809
                     -0.00145939     0.000442033        -0.201594       -0.115423      0.000348822     9.87796e-05         0.658292        -0.71614
                        -0.89115       -0.444472      0.000244376     0.000232807       -0.0320589       0.0831601      -0.00165473     3.85321e-05
                     0.000274084     0.000347085         0.658514       -0.715721      -0.00156644     0.000140779        -0.131957       -0.191163
254800                -0.0377934       0.0670116      -0.00133599     0.000799411         -0.92619       -0.369392      0.000238384      0.00038137
                     -0.00143386     0.000563835        -0.207307       -0.106378      0.000350594     5.32319e-05          0.60941       -0.757977
                       -0.925932       -0.369261      0.000258992     0.000203698       -0.0187114        0.074793       -0.0016965     0.000169617
                     0.000297582     0.000354361         0.609682       -0.757512      -0.00160739     0.000276354        -0.148408       -0.179606
255000                -0.0298742       0.0576068      -0.00127874     0.000910969        -0.954456       -0.291314      0.000271336     0.000381217
                     -0.00139862     0.000684023        -0.212498      -0.0969681       0.00034557     7.50593e-06         0.557837       -0.796554
                       -0.954248       -0.291235      0.000270592     0.000173498      -0.00736616       0.0646866      -0.00172521     0.000310463
                     0.000323889     0.000358096         0.558162        -0.79605      -0.00164226     0.000422086        -0.163753       -0.166527
255200                -0.0234055       0.0474984      -0.00121301      0.00101938        -0.976001       -0.211012      0.000307519     0.000378847
                     -0.00135388     0.000801922        -0.217138      -0.0872296      0.000333985    -3.72331e-05         0.503784       -0.831696
                       -0.975859       -0.210977       0.00027915     0.000142444       0.00176161       0.0531798      -0.00173851     0.000459076
                     0.000353036      0.00035794         0.504163       -0.831161      -0.00167089     0.000578313        -0.177845       -0.152037
255400                -0.0184476       0.0368642      -0.00113935      0.00112391        -0.990645       -0.129094       0.00034736     0.000373569
                     -0.00129986     0.000916885        -0.221204      -0.0771993      0.000316281    -7.99222e-05         0.447471       -0.863241
                        -0.99058       -0.129092      0.000284637     0.000110754       0.00850952       0.0406385      -0.00173456     0.000612781
                      0.00038493     0.000353395         0.447905       -0.862685      -0.00169372      0.00074537        -0.190548        -0.13626
255600                -0.0150388       0.0258869       -0.0010583      0.00122386        -0.998265       -0.046184      0.000391289     0.000364437
                     -0.00123683      0.00102829        -0.224671      -0.0669166      0.000293067    -0.000119643         0.389133       -0.891043
                       -0.998289      -0.0462001      0.000287017     7.86396e-05        0.0127717       0.0274477      -0.00171228     0.000768422
                     0.000419332      0.00034383          0.38962       -0.890476      -0.00171214     0.000923491        -0.201735       -0.119335
255800                -0.0131955       0.0147519     -0.000970384       0.0013186        -0.998802       0.0370845      0.000439676     0.000350156
                     -0.00116505      0.00113553         -0.22752      -0.0564227      0.000265065    -0.000155645         0.329011       -0.914968
                       -0.998923       0.0370689      0.000286245     4.63065e-05        0.0145013       0.0140023      -0.00167147      0.00092265
                     0.000455814     0.000328501         0.329548       -0.914401      -0.00172921      0.00111248        -0.211298       -0.101413
256000                -0.0129122       0.0036442     -0.000876122      0.00140753         -0.99226        0.120077      0.000492725     0.000328982
                     -0.00108482      0.00123804        -0.229735      -0.0457609      0.000233066    -0.000187356         0.267356       -0.934899
                        -0.99248        0.120084      0.000282263     1.39664e-05         0.013711     0.000698343      -0.00161284      0.00107226
                     0.000493716     0.000306595         0.267939       -0.934342      -0.00175066      0.00131066        -0.219139      -0.0826559
256200                -0.0141613     -0.00725443     -0.000776009      0.00149013        -0.978701        0.202164      0.000550264     0.000298605
                    -0.000996463      0.00133526          -0.2313      -0.0349759      0.000197884    -0.000214379         0.204427       -0.950733
                        -0.97902        0.202217      0.000275001     -1.8157e-05        0.0104727      -0.0120765      -0.00153785      0.00121446
                     0.000532091     0.000277287         0.205049       -0.950197      -0.00178595      0.00151215         -0.22518      -0.0632353
