! TOUCHSTONE file generated by CST MICROWAVE STUDIO
! Date and time: Fri Sep 26 05:54:29 2025
! Project name: biblioteca3_folgaOK.cst
! Parameters = {H=600; Lx=200; Ly=260; Nedge=24; P=520; k=0; mesh_pilar_nm=40; n=0; t_air=3500; t_sub=2000; wavelength_nm=0}
! Header version: 2018
! Port assignment regex: !\s*Touchstone port\s*([0-9]+)\s*=\s*(CST MWS port|CST DS port)\s*([0-9]+|Zmin|Zmax)\s*\(\"(.*)\"\)(\s*mode\s*([0-9]+))?.*
! Touchstone port assignment:
! Touchstone port 1 = CST MWS port Zmin ("") mode 1
! Touchstone port 2 = CST MWS port Zmin ("") mode 2
! Touchstone port 3 = CST MWS port Zmax ("") mode 1
! Touchstone port 4 = CST MWS port Zmax ("") mode 2
! S-Parameters are not renormalized. Each port impedance will be approximated by the real part at minimum frequency. The values are described via the [Reference] keyword.
! Default impedance is overridden by [Reference]
[Version] 2.0
# GHz S RI R 376.73
[Number of Ports] 4
[Reference]
376.73 376.73 376.73 376.73 
[Number of Frequencies] 401
[Network Data]
250000                  0.215323        0.233208     -0.000774169    -0.000610517         -0.87944        0.354712     -0.000556356    -0.000279302
                    -0.000743793    -0.000591381       -0.0681106        0.178043      0.000223913     0.000243574         -0.43983       -0.877599
                       -0.879326        0.354942      0.000169727     0.000243093        0.0068248        0.317362      0.000963801     0.000137007
                    -0.000577672    -0.000210551        -0.439878       -0.877704      0.000933891     0.000164321        -0.183406      -0.0520264
250200                  0.224363        0.214433     -0.000815669    -0.000566647        -0.850289        0.425091     -0.000577758    -0.000226888
                    -0.000799466    -0.000556949       -0.0613699        0.183846      0.000247395     0.000224251        -0.497431        -0.84554
                       -0.850158        0.425433      0.000200303     0.000242521        0.0370416        0.308171      0.000991536     3.92596e-05
                     -0.00059376    -0.000167543        -0.497505        -0.84563      0.000963143     7.38138e-05        -0.190531      -0.0357077
250400                  0.231681        0.195211     -0.000856325    -0.000520178        -0.815379        0.493367     -0.000597448    -0.000173577
                    -0.000853653    -0.000516487       -0.0541671        0.189323      0.000270184     0.000203226        -0.552746       -0.809699
                        -0.81521        0.493789      0.000233291     0.000238235        0.0656193        0.295804       0.00101214    -5.95456e-05
                    -0.000607604    -0.000122675        -0.552834       -0.809777      0.000985466    -1.94586e-05        -0.196083      -0.0185551
250600                  0.237242        0.175707     -0.000896002    -0.000471281        -0.774833        0.559048     -0.000615189    -0.000119347
                    -0.000905584    -0.000470028        -0.046522         0.19444       0.00029211     0.000180428        -0.605527       -0.770238
                       -0.774615        0.559517      0.000268325     0.000229397        0.0921829        0.280498       0.00102522    -0.000158935
                    -0.000618971    -7.60106e-05        -0.605621       -0.770307       0.00100037    -0.000114991        -0.199972    -0.000729304
250800                  0.241024        0.156092     -0.000934506    -0.000420267        -0.728816        0.621644     -0.000630723    -6.41869e-05
                    -0.000954484    -0.000417731        -0.038457         0.19916      0.000312981     0.000155793        -0.655538       -0.727334
                       -0.728545        0.622132      0.000304784      0.00021515          0.11639        0.262537       0.00103039    -0.000258389
                    -0.000627616    -2.76398e-05         -0.65563       -0.727397        0.0010074    -0.000212212        -0.202124       0.0175991
251000                  0.243024        0.136541     -0.000971491    -0.000367629        -0.677541        0.680672     -0.000643779    -8.10401e-06
                    -0.000999596    -0.000359882       -0.0299973        0.203451      0.000332586      0.00012927        -0.702556        -0.68118
                       -0.677218        0.681154      0.000341753     0.000194698          0.13794        0.242252       0.00102735    -0.000357345
                    -0.000633287     2.23222e-05        -0.702642        -0.68124       0.00100616    -0.000310486        -0.202482       0.0362524
251200                   0.24326        0.117229      -0.00100628    -0.000314037        -0.621264        0.735661     -0.000654066     4.88741e-05
                     -0.00104021    -0.000296892       -0.0211706        0.207282      0.000350692     0.000100825        -0.746369       -0.631983
                       -0.620896        0.736116      0.000378005     0.000167418         0.156575         0.22001       0.00101585    -0.000455197
                     -0.00063572     7.37289e-05        -0.746447        -0.63204      0.000996307    -0.000409119        -0.201009       0.0550471
251400                  0.241764       0.0983294      -0.00103758    -0.000260141        -0.560288        0.786156     -0.000661277     0.000106693
                      -0.0010757    -0.000229284       -0.0120072        0.210623      0.000367044     7.04459e-05        -0.786783       -0.579961
                       -0.559884        0.786568      0.000412037     0.000132986          0.17209        0.196211      0.000995691    -0.000551304
                    -0.000634649       0.0001264         -0.78685       -0.580017      0.000977561     -0.00050736        -0.197688       0.0737965
251600                  0.238588       0.0800141      -0.00106338    -0.000205984        -0.494961        0.831723     -0.000665087     0.000165268
                     -0.00110553    -0.000157676      -0.00253936        0.213447      0.000381365      3.8147e-05        -0.823616       -0.525346
                       -0.494533        0.832081       0.00044216     9.15035e-05         0.184337        0.171279       0.00096677    -0.000644992
                    -0.000629803     0.000180115        -0.823672       -0.525403      0.000949732     -0.00060441        -0.192519       0.0923121
251800                  0.233805       0.0624494      -0.00108152    -0.000150199        -0.425674        0.871953      -0.00066516     0.000224471
                     -0.00112927    -8.27537e-05       0.00719827         0.21573      0.000393361     3.97481e-06        -0.856702       -0.468383
                       -0.425235         0.87225      0.000466658     4.35855e-05         0.193223        0.145657      0.000929056    -0.000735562
                    -0.000620916     0.000234614        -0.856746        -0.46844      0.000912717    -0.000699431        -0.185524        0.110406
252000                  0.227504       0.0457945      -0.00109125    -9.00838e-05        -0.352861        0.906468     -0.000661145     0.000284132
                     -0.00114663    -5.24975e-06        0.0171693         0.21745      0.000402719    -3.19856e-05        -0.885893       -0.409324
                       -0.352423        0.906701       0.00048398    -9.62428e-06         0.198717        0.119794      0.000882613    -0.000822296
                    -0.000607725     0.000289589        -0.885925       -0.409381      0.000866508    -0.000791556        -0.176742        0.127893
252200                   0.21979       0.0301996      -0.00109402    -2.33731e-05        -0.276994        0.934925     -0.000652686     0.000344026
                     -0.00115744       7.409e-05        0.0273354        0.218586      0.000409114    -6.96049e-05        -0.911055       -0.348431
                        -0.27657        0.935095      0.000492949    -6.65296e-05         0.200851       0.0941396      0.000827593    -0.000904471
                    -0.000589986     0.000344683        -0.911076       -0.348487      0.000811202      -0.0008799        -0.166232        0.144592
252400                  0.210788       0.0158031      -0.00109221     5.01147e-05        -0.198586         0.95702     -0.000639428     0.000403864
                     -0.00116166     0.000154532        0.0376569        0.219122      0.000412216    -0.000108703        -0.932074       -0.285975
                       -0.198185        0.957132      0.000492909    -0.000125247         0.199717       0.0691364      0.000764249    -0.000981365
                    -0.000567474     0.000399486        -0.932083        -0.28603      0.000747001    -0.000963574        -0.154072        0.160327
252600                  0.200637      0.00273031      -0.00108727     0.000128913         -0.11818        0.972495     -0.000621023      0.00046329
                     -0.00115936     0.000235383        0.0480928        0.219045      0.000411692    -0.000149043        -0.948853       -0.222235
                       -0.117811        0.972556      0.000483793    -0.000183824         0.195467       0.0452089      0.000692926     -0.00105227
                    -0.000539996     0.000453535        -0.948849       -0.222287      0.000674218      -0.0010417        -0.140357        0.174933
252800                  0.189489     -0.00890903      -0.00107933     0.000211254       -0.0363508         0.98114     -0.000597145      0.00052187
                     -0.00115071     0.000316009        0.0586007        0.218342      0.000407222    -0.000190328        -0.961312       -0.157492
                      -0.0360208        0.981158      0.000466081    -0.000240459         0.188309       0.0227565      0.000614071      -0.0011165
                    -0.000507399     0.000506313        -0.961296       -0.157541      0.000593276     -0.00111341          -0.1252        0.188251
253000                  0.177509      -0.0190223       -0.0010678     0.000295775        0.0463008        0.982798     -0.000567503     0.000579089
                     -0.00113599     0.000395859        0.0691375        0.217007      0.000398503    -0.000232196         -0.96939      -0.0920368
                       0.0465891        0.982781      0.000440683     -0.00029367         0.178507      0.00214563      0.000528219      -0.0011734
                    -0.000469585     0.000557247        -0.969362      -0.0920808      0.000504705      -0.0011779        -0.108728        0.200136
253200                  0.164875      -0.0275355      -0.00105188     0.000381551         0.129155        0.977366     -0.000531855     0.000634343
                      -0.0011155     0.000474473        0.0796594        0.215034      0.000385268    -0.000274217        -0.973047      -0.0261597
                        0.129401        0.977326      0.000408759     -0.00034239         0.166372      -0.0162983      0.000435998     -0.00122238
                    -0.000426522     0.000605718        -0.973004      -0.0261985      0.000409138     -0.00123439       -0.0910834        0.210456
253400                  0.151768      -0.0343949      -0.00103086     0.000467919         0.211578        0.964802     -0.000490036     0.000686946
                     -0.00108961     0.000551495        0.0901219        0.212422      0.000367297    -0.000315901        -0.972257       0.0398444
                        0.211782        0.964747      0.000371555    -0.000385973         0.152256      -0.0322972      0.000338114      -0.0012629
                    -0.000378256      0.00065106        -0.972201       0.0398113      0.000307303     -0.00128217       -0.0724234        0.219092
253600                  0.138379      -0.0395679       -0.0010041      0.00055433         0.292927        0.945125     -0.000441974     0.000736126
                     -0.00105868     0.000626677          0.10048        0.209173      0.000344431    -0.000356693        -0.967019         0.10568
                        0.293093        0.945063      0.000330259    -0.000424143          0.13655      -0.0456264      0.000235348     -0.00129447
                    -0.000324927     0.000692576        -0.966949        0.105653      0.000200016     -0.00132064       -0.0529159        0.225942
253800                  0.124901       -0.043044     -0.000971127     0.000640255         0.372558        0.918415     -0.000387714     0.000781044
                     -0.00102309     0.000699881          0.11069        0.205291      0.000316588    -0.000395989        -0.957347        0.171051
                         0.37269        0.918354       0.00028591     -0.00045691          0.11967      -0.0561191      0.000128545     -0.00131671
                     -0.00026678     0.000729548        -0.957262        0.171029      8.81681e-05     -0.00134924       -0.0327396        0.230921
254000                  0.111527       -0.044835     -0.000931564     0.000725145          0.44983        0.884816      -0.00032745     0.000820803
                    -0.000983155     0.000771078         0.120707        0.200785      0.000283776    -0.000433143        -0.943276        0.235663
                        0.449934        0.884761      0.000239347    -0.000484469         0.102051       -0.063671      1.85979e-05      -0.0013293
                    -0.000204177     0.000761255        -0.943175        0.235647     -2.72842e-05     -0.00136753       -0.0120821        0.233962
254200                 0.0984486      -0.0449755     -0.000885131     0.000808407         0.524116        0.844535      -0.00026154      0.00085448
                    -0.000939139     0.000840347         0.130487        0.195667      0.000246108    -0.000467484        -0.924858        0.299224
                        0.524199        0.844489      0.000191206    -0.000507116         0.084138      -0.0682418     -9.35587e-05     -0.00133202
                    -0.000137606     0.000786992        -0.924743        0.299212     -0.000145335     -0.00137518       0.00886244        0.235017
254400                  0.085851      -0.0435222     -0.000831642     0.000889399         0.594807        0.797841     -0.000190525     0.000881154
                    -0.000891209     0.000907869         0.139986         0.18995      0.000203803    -0.000498336        -0.902168        0.361444
                        0.594875        0.797807      0.000141935    -0.000525169        0.0663775      -0.0698569     -0.000206965     -0.00132475
                    -6.76815e-05     0.000806096        -0.902038        0.361436     -0.000264942     -0.00137195        0.0298945        0.234057
254600                 0.0739126      -0.0405536     -0.000771006     0.000967438         0.661319        0.745064     -0.000115144      0.00089995
                    -0.000839396     0.000973911         0.149163        0.183654      0.000157198    -0.000525039        -0.875297         0.42204
                        0.661379        0.745042      9.18224e-05    -0.000538923        0.0492049      -0.0686064     -0.000320649     -0.00130745
                      4.8499e-06     0.000817975        -0.875152        0.422034     -0.000385039     -0.00135774        0.0508119        0.231075
254800                 0.0628008      -0.0361685     -0.000703223       0.0010418         0.723103         0.68659     -3.63307e-05     0.000910082
                    -0.000783545      0.00103881         0.157975        0.176799      0.000106741    -0.000546971        -0.844353        0.480732
                         0.72316        0.686579      4.10384e-05    -0.000548611        0.0330369      -0.0646439     -0.000433638     -0.00128018
                     7.91222e-05      0.00082213        -0.844195        0.480727     -0.000504555     -0.00133252        0.0714112        0.226083
255000                 0.0526699      -0.0304852     -0.000628391      0.00111173         0.779644        0.622861      4.47955e-05     0.000910905
                    -0.000723256      0.00110295         0.166384        0.169409      5.29901e-05    -0.000563571        -0.809466         0.53725
                        0.779704        0.622858     -1.03302e-05    -0.000554379        0.0182616      -0.0581826     -0.000544973     -0.00124311
                     0.000154161     0.000818189        -0.809295        0.537245     -0.000622424     -0.00129641        0.0914905        0.219116
255200                 0.0436586      -0.0236391     -0.000546709      0.00117645         0.830476        0.554367      0.000126959     0.000901962
                    -0.000657809      0.00116664          0.17435        0.161513     -3.40423e-06    -0.000574363        -0.770781        0.591329
                        0.830542        0.554369     -6.22422e-05    -0.000556283       0.00522944      -0.0494903      -0.00065372     -0.00119647
                     0.000228907     0.000805932        -0.770598        0.591324     -0.000737597     -0.00124961         0.110851        0.210228
255400                 0.0358879       -0.015781     -0.000458481      0.00123519          0.87518        0.481642      0.000208765     0.000883026
                    -0.000586087      0.00123006         0.181838         0.15314     -6.17126e-05    -0.000578969         -0.72846        0.642716
                        0.875255        0.481646     -0.000114668     -0.00055428      -0.00575415      -0.0388836     -0.000758978     -0.00114061
                     0.000302241     0.000785308        -0.728268        0.642709     -0.000849061     -0.00119244           0.1293        0.199494
255600                 0.0294594     -0.00707466     -0.000364118       0.0012872         0.913393        0.405262      0.000288756     0.000854131
                    -0.000506529      0.00129299         0.188813        0.144325     -0.000121149    -0.000577128        -0.682685        0.691166
                        0.913477        0.405263     -0.000167557    -0.000548234       -0.0144362        -0.02672     -0.000859895     -0.00107594
                     0.000373023     0.000756457        -0.682485        0.691157      -0.00095584     -0.00112532         0.146651        0.187008
255800                 0.0244539      0.00230608     -0.000264137      0.00133172         0.944809        0.325832      0.000365474     0.000815588
                     -0.00041716      0.00135455         0.195243        0.135101     -0.000180893    -0.000568701        -0.633651        0.736447
                        0.944901        0.325826     -0.000220811    -0.000537925       -0.0206215      -0.0133897     -0.000955666     -0.00100293
                     0.000440126     0.000719711        -0.633445        0.736435      -0.00105701     -0.00104873          0.16273        0.172887
256000                 0.0209298       0.0121798     -0.000159159      0.00136807         0.969183        0.243985      0.000437524     0.000767984
                    -0.000315826      0.00141276           0.2011        0.125509     -0.000240116    -0.000553671        -0.581569        0.778339
                        0.969284         0.24397     -0.000274253    -0.000523065       -0.0241771     0.000694105      -0.00104555    -0.000922138
                     0.000502479     0.000675595        -0.581359        0.778324      -0.00115172    -0.000963262         0.177371         0.15726
256200                 0.0189234       0.0223604     -4.99066e-05      0.00139562         0.986335        0.160373      0.000503643     0.000712159
                    -0.000200753       0.0014642         0.206356        0.115589     -0.000298004    -0.000532146        -0.526667        0.816635
                        0.986442        0.160346     -0.000327602    -0.000503318       -0.0250347       0.0151046      -0.00112887    -0.000834162
                     0.000559108     0.000624812        -0.526454        0.816617      -0.00123917    -0.000869568         0.190426        0.140279
