! TOUCHSTONE file generated by CST MICROWAVE STUDIO
! Date and time: Fri Sep 26 07:22:00 2025
! Project name: biblioteca3_folgaOK.cst
! Parameters = {H=600; Lx=200; Ly=260; Nedge=30; P=520; k=0; mesh_pilar_nm=40; n=0; t_air=3500; t_sub=2000; wavelength_nm=0}
! Header version: 2018
! Port assignment regex: !\s*Touchstone port\s*([0-9]+)\s*=\s*(CST MWS port|CST DS port)\s*([0-9]+|Zmin|Zmax)\s*\(\"(.*)\"\)(\s*mode\s*([0-9]+))?.*
! Touchstone port assignment:
! Touchstone port 1 = CST MWS port Zmin ("") mode 1
! Touchstone port 2 = CST MWS port Zmin ("") mode 2
! Touchstone port 3 = CST MWS port Zmax ("") mode 1
! Touchstone port 4 = CST MWS port Zmax ("") mode 2
! S-Parameters are not renormalized. Each port impedance will be approximated by the real part at minimum frequency. The values are described via the [Reference] keyword.
! Default impedance is overridden by [Reference]
[Version] 2.0
# GHz S RI R 376.73
[Number of Ports] 4
[Reference]
376.73 376.73 376.73 376.73 
[Number of Frequencies] 401
[Network Data]
250000                 -0.291376       -0.112714      0.000532046     -0.00124446         0.650753       -0.692062      0.000530905      0.00163414
                     0.000566436     -0.00128927       -0.0143004        -0.19666     -0.000667792      0.00170461         0.762533        0.616156
                        0.650614        -0.69208     -0.000691269      0.00165557         -0.13045       -0.283892      0.000146052    -0.000815579
                     0.000542382      0.00167972         0.762747        0.616062      8.07147e-05    -0.000870863          0.19525      -0.0272907
250200                 -0.290615      -0.0926019      0.000419358     -0.00125366         0.595893       -0.742871      0.000632936       0.0016084
                      0.00044855     -0.00131868       -0.0229822       -0.198888     -0.000563467       0.0017931         0.800423        0.565108
                        0.596041       -0.742884     -0.000574899      0.00174956        -0.153725       -0.263629      0.000110297    -0.000841088
                     0.000647726      0.00164348         0.800701        0.564992      4.28014e-05    -0.000891343         0.195123      -0.0450698
250400                 -0.288212        -0.07289      0.000305165      -0.0012589         0.536886       -0.789495      0.000735477      0.00157678
                     0.000327864     -0.00133952       -0.0319186       -0.200622     -0.000445167      0.00187438         0.834926        0.511694
                        0.537249       -0.789538     -0.000445881      0.00183366        -0.174156       -0.241225      7.17108e-05    -0.000865711
                     0.000752918      0.00160213         0.835246        0.511558      2.23833e-06    -0.000910805         0.193263      -0.0629053
250600                 -0.284209      -0.0537312      0.000189713     -0.00125949         0.474032       -0.831575      0.000838197      0.00153902
                      0.00020502     -0.00135135        -0.041077        -0.20184     -0.000313518      0.00194608         0.865892        0.456142
                        0.474543       -0.831668     -0.000305296      0.00190606        -0.191539       -0.217073      3.01739e-05    -0.000889224
                     0.000857668      0.00155542         0.866237        0.455987     -4.10778e-05    -0.000929017         0.189675      -0.0806327
250800                 -0.278662       -0.035276      7.32873e-05     -0.00125477         0.407665       -0.868771      0.000940732      0.00149491
                     8.07357e-05     -0.00135374       -0.0504232       -0.202524     -0.000169626      0.00200595          0.89319        0.398688
                        0.408266       -0.868921     -0.000154532      0.00196508        -0.205724       -0.191584     -1.44242e-05    -0.000911372
                     0.000961655       0.0015031         0.893544        0.398518     -8.72399e-05    -0.000945719         0.184374      -0.0980881
251000                 -0.271643      -0.0176703      -4.3768e-05     -0.00124408         0.338149       -0.900764       0.00104269      0.00144422
                     -4.4205e-05     -0.00134635       -0.0599212       -0.202657      -1.5046e-05      0.00205191         0.916702        0.339574
                        0.338791       -0.900967      4.75875e-06      0.00200931        -0.216614       -0.165177     -6.21839e-05    -0.000931872
                      0.00106452      0.00144494         0.917056        0.339395     -0.000136327    -0.000960621         0.177388       -0.115109
251200                 -0.263241     -0.00105368     -0.000161045     -0.00122681         0.265884       -0.927261       0.00114363      0.00138677
                    -0.000168954     -0.00132889        -0.069534       -0.202225      0.000148281      0.00208224          0.93633        0.279052
                        0.266527       -0.927506      0.000170712      0.00203762        -0.224162       -0.138276     -0.000113191    -0.000950408
                      0.00116588      0.00138073         0.936674        0.278868     -0.000188399    -0.000973402         0.168762       -0.131537
251400                 -0.253559       0.0144427     -0.000278064     -0.00120238         0.191298       -0.947996        0.0012431      0.00132238
                    -0.000292608     -0.00130119       -0.0792231       -0.201216      0.000318119      0.00209561         0.951989        0.217375
                        0.191911       -0.948267      0.000341315      0.00204916        -0.228377       -0.111301     -0.000167513    -0.000966634
                      0.00126531      0.00131026         0.952317        0.217191     -0.000243494    -0.000983711         0.158553       -0.147214
251600                 -0.242716       0.0286977     -0.000394265     -0.00117025          0.11485       -0.962737       0.00134059      0.00125089
                    -0.000414221     -0.00126314       -0.0889493        -0.19962      0.000492054      0.00209114         0.963613        0.154804
                        0.115413       -0.963015      0.000514473      0.00204344        -0.229313      -0.0846666     -0.000225192    -0.000980163
                      0.00136232      0.00123336         0.963922        0.154625     -0.000301617    -0.000991162         0.146832       -0.161989
251800                 -0.230843       0.0416024     -0.000509007     -0.00112997        0.0370247       -0.971288       0.00143557      0.00117218
                     -0.00053281     -0.00121476       -0.0986723       -0.197433      0.000667607      0.00206842         0.971151       0.0916021
                       0.0375236       -0.971552       0.00068808       0.0020203        -0.227079      -0.0587758     -0.000286239    -0.000990577
                      0.00145643      0.00114989          0.97144       0.0914312      -0.00036274    -0.000995338         0.133685       -0.175717
252000                 -0.218085       0.0530614     -0.000621566     -0.00108114       -0.0416697       -0.973492       0.00152747      0.00108618
                    -0.000647376     -0.00115617        -0.108351       -0.194651      0.000842347      0.00202747          0.97457       0.0280331
                      -0.0412388       -0.973724      0.000860078      0.00197988         -0.22183      -0.0340135     -0.000350628    -0.000997419
                      0.00154709      0.00105972         0.974838       0.0278732     -0.000426788    -0.000995791         0.119211       -0.188261
252200                 -0.204597       0.0629949     -0.000731137     -0.00102345        -0.120703       -0.969235        0.0016157     0.000992824
                    -0.000756915     -0.00108762        -0.117946       -0.191273       0.00101398      0.00196873         0.973855      -0.0356363
                       -0.120338       -0.969418       0.00102851      0.00192262        -0.213766      -0.0107418     -0.000418284      -0.0010002
                      0.00163372     0.000962787         0.974102      -0.0357833     -0.000493636    -0.000992042         0.103524        -0.19949
252400                 -0.190544         0.07134     -0.000836843    -0.000956721        -0.199528       -0.958449       0.00169961     0.000892121
                    -0.000860434     -0.00100946        -0.127413       -0.187302       0.00118043      0.00189293         0.969006      -0.0991397
                       -0.199223        -0.95857       0.00119157      0.00184918        -0.203136       0.0107056      -0.00048908    -0.000998385
                       0.0017157     0.000859066         0.969233      -0.0992729     -0.000563096    -0.000983591        0.0867478       -0.209288
252600                 -0.176098       0.0780519      -0.00093774    -0.000880865        -0.277585       -0.941116       0.00177855     0.000784117
                    -0.000956969    -0.000922164        -0.136712       -0.182744       0.00133986      0.00180107         0.960039       -0.162212
                       -0.277329       -0.941164       0.00134762      0.00176043        -0.190226       0.0300293     -0.000562819    -0.000991426
                      0.00179238     0.000748584         0.960247       -0.162331      -0.00063491    -0.000969915         0.069021       -0.217547
252800                 -0.161436       0.0831048      -0.00103283    -0.000795943        -0.354307       -0.917269       0.00185182     0.000668915
                      -0.0010456     -0.00082634        -0.145803       -0.177606       0.00149069      0.00169431         0.946989       -0.224588
                       -0.354087       -0.917239       0.00149521      0.00165741        -0.175362       0.0469697     -0.000639233    -0.000978741
                      0.00186308      0.00063143          0.94718       -0.224695     -0.000708741    -0.000950484        0.0504912       -0.224173
253000                 -0.146737       0.0864933       -0.0011211    -0.000702159        -0.429123       -0.886991       0.00191871     0.000546682
                     -0.00112548    -0.000722688        -0.154643       -0.171902       0.00163162      0.00157391         0.929905       -0.286008
                       -0.428923       -0.886883       0.00163309      0.00154126        -0.158901       0.0613125     -0.000717962    -0.000959731
                       0.0019271     0.000507758          0.93008       -0.286103     -0.000784161    -0.000924766        0.0313162       -0.229086
253200                 -0.132182        0.088232       -0.0012015    -0.000599873        -0.501464       -0.850424       0.00197848      0.00041765
                     -0.00119582    -0.000612014        -0.163192       -0.165644       0.00176156      0.00144118         0.908854       -0.346214
                       -0.501272        -0.85024       0.00176021      0.00141319        -0.141227       0.0728933     -0.000798552    -0.000933792
                      0.00198371     0.000377799         0.909015       -0.346299     -0.000860648    -0.000892242        0.0116618       -0.232223
253400                 -0.117949       0.0883563        -0.001273    -0.000489606        -0.570772       -0.807761        0.0020304     0.000282128
                     -0.00125595    -0.000495218        -0.171412       -0.158852       0.00187966      0.00129743         0.883918       -0.404953
                       -0.570573       -0.807507       0.00187569      0.00127443        -0.122746        0.081602     -0.000880436    -0.000900327
                      0.00203218     0.000241862         0.884064        -0.40503     -0.000937576    -0.000852423      -0.00829929       -0.233536
253600                 -0.104213       0.0869221      -0.00133461    -0.000372045          -0.6365       -0.759251       0.00207369     0.000140502
                     -0.00130526    -0.000373275        -0.179264       -0.151545        0.0019852      0.00114392         0.855194       -0.461977
                       -0.636283       -0.758938       0.00197882      0.00112625        -0.103874        0.087386     -0.000962933    -0.000858766
                      0.00207177     0.000100343         0.855326       -0.462049      -0.00101421    -0.000804866       -0.0283892       -0.232994
253800                -0.0911401       0.0840049      -0.00138542    -0.000248035        -0.698124       -0.705196       0.00210762    -6.75701e-06
                     -0.00134331    -0.000247221        -0.186711       -0.143747       0.00207762     0.000981892         0.822796       -0.517044
                        -0.69788       -0.704836       0.00206905     0.000969897         -0.08503       0.0902519      -0.00104524    -0.000808583
                      0.00210173    -4.62688e-05         0.822914       -0.517114      -0.00108971    -0.000749199       -0.0484269       -0.230584
254000                -0.0788867       0.0796994       -0.0014246    -0.000118573        -0.755146       -0.645951       0.00213144    -0.000159088
                     -0.00136973    -0.000118139        -0.193718       -0.135485       0.00215646     0.000812542          0.78685       -0.569922
                       -0.754869       -0.645557       0.00214594     0.000806579       -0.0666306       0.0902668      -0.00112642     -0.00074932
                      0.00212136    -0.000197393         0.786953       -0.569991      -0.00116313    -0.000685142       -0.0682296       -0.226312
254200                -0.0675981       0.0741179      -0.00145143     1.52082e-05        -0.807099        -0.58192       0.00214443    -0.000315838
                     -0.00138431     1.28565e-05         -0.20025       -0.126786       0.00222134     0.000637018           0.7475       -0.620383
                       -0.806786       -0.581506       0.00220915     0.000637486       -0.0490769       0.0875569      -0.00120541    -0.000680619
                      0.00212996    -0.000352349         0.747586       -0.620453      -0.00123344    -0.000612532       -0.0876152         -0.2202
254400                -0.0574049        0.067389      -0.00146536     0.000152058        -0.853555       -0.513552       0.00214589    -0.000476257
                     -0.00138693     0.000144643        -0.206276       -0.117683       0.00227194     0.000456439         0.704901       -0.668209
                       -0.853206       -0.513133       0.00225845     0.000463765       -0.0327473       0.0823057      -0.00128104    -0.000602246
                      0.00212689    -0.000510359         0.704969       -0.668282       -0.0012995    -0.000531345        -0.106403       -0.212291
254600                -0.0484218       0.0596554      -0.00146599     0.000290637         -0.89413        -0.44134       0.00213517    -0.000639497
                     -0.00137763     0.000276102        -0.211767        -0.10821       0.00230797     0.000271908         0.659222       -0.713194
                       -0.893748       -0.440929       0.00229367     0.000286531       -0.0179883       0.0747499      -0.00135201    -0.000514124
                      0.00211156    -0.000670547         0.659271        -0.71327      -0.00136015    -0.000441724        -0.124419       -0.202646
254800                -0.0407454       0.0510723      -0.00145309     0.000429543        -0.928485       -0.365813       0.00211169    -0.000804613
                     -0.00135654     0.000406134        -0.216694       -0.098404       0.00232919     8.45255e-05         0.610646       -0.755138
                       -0.928077       -0.365422       0.00231471     0.000106863      -0.00510695       0.0651741      -0.00141697    -0.000416363
                      0.00208345    -0.000831946         0.610675       -0.755219      -0.00141416    -0.000343993        -0.141491       -0.191341
255000                 -0.034453       0.0418044      -0.00142665     0.000567342        -0.956336       -0.287533       0.00207493    -0.000970563
                     -0.00132393     0.000533675        -0.221034      -0.0883027       0.00233541    -0.000104596         0.559369       -0.793856
                       -0.955909       -0.287171        0.0023215     -7.4181e-05       0.00563653       0.0539043      -0.00147448    -0.000309287
                      0.00204214    -0.000993497         0.559374       -0.793941      -0.00146031    -0.000238674        -0.157458       -0.178472
255200                -0.0296014       0.0320239      -0.00138682     0.000702603        -0.977453       -0.207087       0.00202446     -0.00113621
                     -0.00128014     0.000657711        -0.224764      -0.0779473       0.00232647     -0.00029432         0.505596       -0.829172
                       -0.977015       -0.206763       0.00231404    -0.000255565        0.0140344       0.0413004      -0.00152311    -0.000193455
                      0.00198728     -0.00115406         0.505577       -0.829261      -0.00149744    -0.000126498        -0.172167       -0.164151
255400                -0.0262266       0.0219076      -0.00133395     0.000833929        -0.991663       -0.125084       0.00195994     -0.00130035
                     -0.00122565     0.000777285        -0.227865      -0.0673803       0.00230227    -0.000483477         0.449545       -0.860925
                       -0.991225       -0.124802       0.00229235    -0.000436262         0.019936       0.0277471      -0.00156145    -6.96773e-05
                      0.00191866     -0.00131244           0.4495       -0.861016      -0.00152442    -8.39666e-06        -0.185479       -0.148503
255600                -0.0243427       0.0116341      -0.00126856     0.000959986        -0.998853      -0.0421459       0.00188116     -0.00146167
                     -0.00116097     0.000891509        -0.230321      -0.0566463       0.00226277    -0.000670858         0.391445       -0.888964
                       -0.998426      -0.0419081       0.00225652    -0.000615247        0.0232505       0.0136451      -0.00158815     6.09807e-05
                      0.00183618     -0.00146736         0.391373       -0.889057      -0.00154028     0.000114499        -0.197263       -0.131671
255800                -0.0239429      0.00138125      -0.00119134      0.00107953        -0.998973       0.0410989       0.00178805     -0.00161882
                     -0.00108673     0.000999567        -0.232119      -0.0457908       0.00220803    -0.000855215         0.331534       -0.913155
                       -0.998565       0.0412926       0.00220666    -0.000791495        0.0239487    -0.000598453      -0.00160202     0.000197206
                      0.00173989     -0.00161752         0.331434       -0.913247      -0.00154417     0.000240883        -0.207407       -0.113809
256000                -0.0249989     -0.00867666       -0.0011031      0.00119144        -0.992031        0.124021       0.00168066     -0.00177039
                      -0.0010036      0.00110072        -0.233251      -0.0348609       0.00213818     -0.00103526         0.270059       -0.933376
                       -0.991652        0.124173       0.00214293     -0.00096397        0.0220623      -0.0145795      -0.00160204     0.000337459
                      0.00162997      -0.0017616         0.269931       -0.933465      -0.00153546     0.000369301        -0.215813      -0.0950812
256200                -0.0274626      -0.0183714      -0.00100478       0.0012947        -0.978095        0.205997       0.00155921     -0.00191493
                    -0.000912301      0.00119433        -0.233709      -0.0239047        0.0020535     -0.00120969         0.207275       -0.949522
                       -0.977754        0.206112       0.00206557     -0.00113162        0.0176829      -0.0279063      -0.00158744     0.000480007
                      0.00150676     -0.00189825         0.207119       -0.949606      -0.00151371     0.000498187        -0.222398      -0.0756636
