! TOUCHSTONE file generated by CST MICROWAVE STUDIO
! Date and time: Fri Sep 26 07:21:58 2025
! Project name: biblioteca3_folgaOK.cst
! Parameters = {H=600; Lx=200; Ly=260; Nedge=12; P=520; k=0; mesh_pilar_nm=40; n=0; t_air=3500; t_sub=2000; wavelength_nm=0}
! Header version: 2018
! Port assignment regex: !\s*Touchstone port\s*([0-9]+)\s*=\s*(CST MWS port|CST DS port)\s*([0-9]+|Zmin|Zmax)\s*\(\"(.*)\"\)(\s*mode\s*([0-9]+))?.*
! Touchstone port assignment:
! Touchstone port 1 = CST MWS port Zmin ("") mode 1
! Touchstone port 2 = CST MWS port Zmin ("") mode 2
! Touchstone port 3 = CST MWS port Zmax ("") mode 1
! Touchstone port 4 = CST MWS port Zmax ("") mode 2
! S-Parameters are not renormalized. Each port impedance will be approximated by the real part at minimum frequency. The values are described via the [Reference] keyword.
! Default impedance is overridden by [Reference]
[Version] 2.0
# GHz S RI R 376.73
[Number of Ports] 4
[Reference]
376.73 376.73 376.73 376.73 
[Number of Frequencies] 401
[Network Data]
250000                 -0.291376       -0.112714      0.000532046     -0.00124446         0.650753       -0.692062      0.000530905      0.00163414
                     0.000566436     -0.00128927       -0.0143004        -0.19666     -0.000667792      0.00170461         0.762533        0.616156
                        0.650614        -0.69208      -0.00069127      0.00165557         -0.13045       -0.283892      0.000146052    -0.000815579
                     0.000542382      0.00167972         0.762747        0.616062      8.07147e-05    -0.000870863          0.19525      -0.0272907
250200                 -0.290694      -0.0925816      0.000418621     -0.00126661         0.595923       -0.742913      0.000634917      0.00160922
                     0.000450419      -0.0013225       -0.0229948       -0.198858     -0.000555988      0.00178179         0.800452        0.565136
                        0.596023       -0.742983     -0.000574341      0.00174406        -0.153409       -0.264538      0.000110731    -0.000840622
                     0.000653258      0.00164257         0.800686        0.565007      4.23563e-05    -0.000891819         0.195166      -0.0448259
250400                 -0.288345      -0.0728438      0.000303099     -0.00128131         0.536928       -0.789569      0.000739035      0.00157805
                     0.000330726     -0.00134637       -0.0319367       -0.200571     -0.000433874      0.00185184         0.834977        0.511737
                          0.5372       -0.789703     -0.000445836      0.00182355        -0.173823       -0.242857      7.26023e-05    -0.000864895
                     0.000762465      0.00160027          0.83522        0.511582      1.43619e-06    -0.000911696         0.193384      -0.0625096
250600                 -0.284372      -0.0536582      0.000185937     -0.00128827         0.474074       -0.831671       0.00084293      0.00154048
                     0.000208206     -0.00136038       -0.0410956       -0.201777     -0.000301826      0.00191332          0.86596         0.45619
                        0.474458       -0.831869     -0.000306558      0.00189234        -0.191394       -0.219206      3.15348e-05    -0.000888174
                     0.000869922      0.00155267         0.866204        0.456018      -4.2141e-05    -0.000930274          0.18988      -0.0801629
250800                 -0.278836       -0.035179      6.76338e-05     -0.00128718         0.407699       -0.868878      0.000946252      0.00149635
                     8.37731e-05     -0.00136413       -0.0504392       -0.202454     -0.000160446      0.00196476         0.893267        0.398734
                        0.408146       -0.869132     -0.000157604      0.00194882        -0.205882       -0.193986     -1.25956e-05    -0.000910203
                     0.000975503      0.00149959         0.893507        0.398553     -8.84628e-05    -0.000947309         0.184655      -0.0976056
251000                 -0.271813      -0.0175546     -5.12684e-05     -0.00127779         0.338173       -0.900873       0.00104863      0.00144554
                    -4.15992e-05     -0.00135732        -0.059933       -0.202586     -1.05723e-05      0.00200473         0.916783        0.339614
                        0.338643       -0.901169     -3.45657e-07      0.00199156        -0.217108       -0.167632     -5.99032e-05    -0.000930698
                      0.00107904      0.00144084         0.917017         0.33943     -0.000137606    -0.000962529         0.177726       -0.114659
251200                 -0.263397    -0.000926347     -0.000170182     -0.00125985         0.265897       -0.927363       0.00114966       0.0013879
                    -0.000166896     -0.00133975        -0.069541       -0.202156      0.000146715      0.00203188         0.936408        0.279082
                        0.266359       -0.927683      0.000163601      0.00201933        -0.224962         -0.1406     -0.000110488    -0.000949338
                       0.0011803      0.00137625         0.936633        0.278902     -0.000189631    -0.000975633         0.169132       -0.131146
251400                 -0.253693        0.014574     -0.000288474     -0.00123315         0.191302       -0.948086       0.00124894      0.00132332
                    -0.000291073     -0.00131132       -0.0792257       -0.201153        0.0003101      0.00204498          0.95206        0.217395
                        0.191736        -0.94841      0.000332425      0.00203114        -0.229402       -0.113356     -0.000164432    -0.000965768
                      0.00127902      0.00130565         0.952276        0.217222      -0.00024458    -0.000986288         0.158927       -0.146898
251600                 -0.242824       0.0288255     -0.000405466     -0.00119754         0.114848       -0.962811         0.001346       0.0012517
                     -0.00041307     -0.00127207       -0.0889482       -0.199566      0.000478054      0.00204297         0.963674        0.154815
                         0.11524       -0.963119      0.000504173      0.00202634         -0.23046      -0.0863666     -0.000221791    -0.000979594
                      0.00137488      0.00122887          0.96388        0.154652     -0.000302469    -0.000994126         0.147187       -0.161751
251800                 -0.230925       0.0417198     -0.000520436     -0.00115291        0.0370195       -0.971344       0.00144037      0.00117294
                    -0.000531827     -0.00122215       -0.0986687       -0.197389      0.000648857        0.002025         0.971199       0.0916037
                        0.037364       -0.971617      0.000676818      0.00200456        -0.228233      -0.0600847     -0.000282589    -0.000990385
                      0.00146751      0.00114576         0.971397       0.0914538     -0.000363284    -0.000998749         0.134001       -0.175552
252000                 -0.218143       0.0531629      -0.00063262      -0.0010992       -0.0416735        -0.97353       0.00153154      0.00108699
                    -0.000646296      -0.0011618        -0.108346       -0.194617      0.000820641      0.00199047         0.974604        0.028028
                      -0.0413761       -0.973752      0.000848326      0.00196576        -0.222881      -0.0349409     -0.000346812    -0.000997669
                      0.00155649      0.00105619         0.974794       0.0278913     -0.000426969    -0.000999723         0.119474       -0.188156
252200                 -0.204634       0.0630764     -0.000741217     -0.00103642        -0.120702       -0.969258       0.00161897     0.000993806
                     -0.00075546     -0.00109141         -0.11794       -0.191249      0.000991436      0.00193906         0.973873      -0.0356459
                       -0.120446       -0.969415       0.00101671      0.00191023        -0.214628      -0.0113338     -0.000414395     -0.00100094
                      0.00164134     0.000960074         0.974057      -0.0357695     -0.000493424     -0.00099658         0.103726       -0.199432
252400                 -0.190563       0.0713991     -0.000845393    -0.000964661        -0.199519       -0.958459       0.00170208     0.000893388
                    -0.000858343     -0.00101147        -0.127409       -0.187287       0.00115922      0.00187075         0.969009      -0.0991516
                       -0.199297       -0.958543        0.0011801      0.00183849        -0.203745       0.0103773     -0.000485217    -0.000999641
                      0.00172156     0.000857351         0.969187      -0.0992629      -0.00056249    -0.000988823        0.0868867       -0.209259
252600                 -0.176105       0.0780878     -0.000944287    -0.000884097        -0.277567       -0.941117       0.00178026     0.000785767
                    -0.000954023    -0.000922553         -0.13671       -0.182736       0.00132199      0.00178581         0.960028       -0.162224
                       -0.277368       -0.941122       0.00133678      0.00175134        -0.190551       0.0298796     -0.000559086    -0.000993206
                      0.00179658     0.000748006         0.960201       -0.162324     -0.000633939    -0.000975929        0.0690998       -0.217532
252800                 -0.161435       0.0831184      -0.00103702    -0.000794987        -0.354279       -0.917263       0.00185287     0.000671024
                     -0.00104165    -0.000825347        -0.145802       -0.177606       0.00147779      0.00168482         0.946966       -0.224598
                        -0.35409        -0.91719        0.0014852      0.00164974        -0.175404       0.0469117     -0.000635732    -0.000981024
                      0.00186577     0.000632079         0.947133        -0.22469     -0.000707469    -0.000957353         0.050517       -0.224159
253000                 -0.146733       0.0864866      -0.00112272    -0.000697691        -0.429085       -0.886985       0.00191924     0.000549287
                     -0.00112044    -0.000720618        -0.154645       -0.171906       0.00162478       0.0015686         0.929872       -0.286015
                       -0.428894       -0.886835       0.00162403      0.00153483        -0.158686       0.0612673      -0.00071479    -0.000962474
                      0.00192849     0.000509671         0.930033       -0.286099     -0.000782685    -0.000932542        0.0312989       -0.229064
253200                 -0.132179       0.0882083      -0.00120049    -0.000592673        -0.501419       -0.850419       0.00197864     0.000420749
                      -0.0011897    -0.000609208        -0.163197       -0.165653       0.00176128      0.00143825         0.908814       -0.346216
                       -0.501214       -0.850199       0.00175214      0.00140782        -0.140804       0.0727978     -0.000795795    -0.000936929
                      0.00198404     0.000380957         0.908967       -0.346296     -0.000859093    -0.000900942        0.0116128       -0.232186
253400                  -0.11795       0.0883196      -0.00126949    -0.000480503         -0.57072       -0.807761       0.00203036     0.000285669
                     -0.00124884    -0.000492024         -0.17142       -0.158863       0.00188582      0.00129505         0.883873        -0.40495
                       -0.570493        -0.80748       0.00186859      0.00126999        -0.122176       0.0814136     -0.000878165    -0.000903768
                      0.00203172     0.000246187         0.884018       -0.405027     -0.000936088    -0.000862018      -0.00836815       -0.233482
253600                 -0.104219       0.0868764      -0.00132888    -0.000361865        -0.636445       -0.759258       0.00207364     0.000144385
                     -0.00129734    -0.000370022        -0.179274       -0.151557       0.00199713      0.00114045         0.855147       -0.461969
                       -0.636189       -0.758927       0.00197266      0.00112262        -0.103224       0.0870845     -0.000961197    -0.000862402
                      0.00207078     0.000105702         0.855282       -0.462046      -0.00101295    -0.000815273       -0.0284671       -0.232923
253800                -0.0911514       0.0839546      -0.00137789    -0.000237549         -0.69807       -0.705211       0.00210771    -2.67988e-06
                     -0.00133482    -0.000244203        -0.186722       -0.143759       0.00209416     0.000975987         0.822749       -0.517032
                       -0.697778       -0.704844       0.00206375     0.000966998       -0.0843663        0.089839      -0.00104406    -0.000812289
                      0.00210048    -4.00615e-05         0.822872        -0.51711      -0.00108882    -0.000760271       -0.0485045       -0.230498
254000                -0.0789037       0.0796483      -0.00141582    -0.000108455        -0.755094       -0.645975       0.00213179    -0.000155006
                     -0.00136096    -0.000115592        -0.193729       -0.135496       0.00217612     0.000803299         0.786806       -0.569906
                       -0.754767       -0.645583       0.00214145     0.000804375       -0.0660088       0.0897625      -0.00112578    -0.000752966
                      0.00212008    -0.000190565         0.786915       -0.569986      -0.00116275    -0.000696665       -0.0682999       -0.226216
254200                -0.0676196       0.0740695      -0.00144204     2.44181e-05        -0.807053       -0.581951       0.00214513    -0.000311973
                     -0.00137558     1.47654e-05        -0.200262       -0.126796       0.00224245     0.000624033          0.74746       -0.620364
                        -0.80669       -0.581549       0.00220542     0.000635957       -0.0485396       0.0869951      -0.00120528    -0.000684072
                      0.00212884    -0.000345164         0.747552       -0.620447      -0.00123363    -0.000624228       -0.0876734       -0.220101
254400                -0.0574294       0.0673459      -0.00145603     0.000159978        -0.853518       -0.513589       0.00214698    -0.000472849
                     -0.00137859      0.00014582        -0.206288       -0.117692       0.00229278     0.000439828         0.704866       -0.668189
                       -0.853122       -0.513189       0.00225546       0.0004629       -0.0323205       0.0817282      -0.00128133    -0.000605384
                      0.00212608    -0.000503102          0.70494       -0.668275      -0.00130029    -0.000542884        -0.106447       -0.212195
254600                -0.0484472       0.0596195      -0.00145739     0.000297053        -0.894102       -0.441381       0.00213664    -0.000636788
                     -0.00136999     0.000276527        -0.211777       -0.108217       0.00232696     0.000252279         0.659194       -0.713173
                        -0.89368       -0.440995       0.00229142     0.000286313        -0.017681       0.0742003      -0.00135262    -0.000516843
                      0.00211116    -0.000663512         0.659247       -0.713263      -0.00136143     -0.00045274        -0.124448       -0.202558
254800                -0.0407696       0.0510445      -0.00144585     0.000434408        -0.928468       -0.365856       0.00211344    -0.000802829
                      -0.0013499     0.000405858        -0.216703      -0.0984085       0.00234501      6.2916e-05         0.610626       -0.755119
                       -0.928026       -0.365492       0.00231321     0.000107259      -0.00491227       0.0646923      -0.00141776    -0.000418588
                      0.00208349    -0.000825417         0.610656       -0.755211      -0.00141575    -0.000354118        -0.141508       -0.191266
255000                 -0.034474        0.041785      -0.00142128     0.000570762         -0.95633       -0.287575       0.00207682    -0.000969892
                     -0.00131851     0.000532808        -0.221041      -0.0883055       0.00234707    -0.000126817         0.559356       -0.793839
                       -0.955877       -0.287241       0.00232078    -7.32304e-05       0.00573825       0.0535218      -0.00147531    -0.000310979
                      0.00204259    -0.000987735         0.559361       -0.793933      -0.00146191     -0.00024757        -0.157465       -0.178413
255200                -0.0296175       0.0320123      -0.00138371     0.000704808        -0.977456       -0.207126       0.00202629     -0.00113679
                     -0.00127613     0.000656406        -0.224769      -0.0779486       0.00233344    -0.000315573          0.50559        -0.82916
                       -0.977003       -0.206828       0.00231411    -0.000254149        0.0140715       0.0410373      -0.00152381    -0.000194619
                      0.00198806     -0.00114929         0.505568       -0.829254      -0.00149863    -0.000133899        -0.172169        -0.16411
255400                -0.0262365       0.0219027      -0.00133331     0.000835238        -0.991675       -0.125117       0.00196149     -0.00130222
                     -0.00122313     0.000775724        -0.227867      -0.0673806       0.00230448    -0.000502107         0.449546       -0.860917
                        -0.99123       -0.124858       0.00229321    -0.000434502        0.0199409       0.0276103      -0.00156187    -7.03634e-05
                      0.00191966     -0.00130882         0.449497       -0.861011      -0.00152471    -1.41552e-05        -0.185479       -0.148481
255600                -0.0243459       0.0116344      -0.00127042     0.000960762        -0.998872      -0.0421719       0.00188219      -0.0014648
                     -0.00115997      0.00088988        -0.230321      -0.0566459       0.00226065     -0.00068528         0.391452       -0.888962
                       -0.998445      -0.0419515       0.00225813     -0.00061329        0.0232549       0.0136287      -0.00158817     6.06807e-05
                      0.00183724     -0.00146499         0.391374       -0.889053      -0.00153912     0.000110377        -0.197266       -0.131665
255800                -0.0239392      0.00138514      -0.00119554      0.00108013        -0.998995       0.0410809       0.00178833     -0.00162307
                     -0.00108718     0.000998048        -0.232118      -0.0457901       0.00220242    -0.000864057         0.331545       -0.913158
                       -0.998596       0.0412636       0.00220894    -0.000789505        0.0239792    -0.000511703      -0.00160156     0.000197164
                      0.00174084     -0.00161643         0.331439       -0.913245      -0.00154104     0.000238211        -0.207415       -0.113816
256000                -0.0249889     -0.00867091      -0.00110929      0.00119218        -0.992054        0.124011       0.00168002     -0.00177551
                     -0.00100535      0.00109946        -0.233247      -0.0348603       0.00213033     -0.00103751         0.270072       -0.933385
                       -0.991691        0.124159       0.00214575    -0.000962114        0.0221375      -0.0144152      -0.00160107     0.000337525
                      0.00163065     -0.00176172         0.269939       -0.933466      -0.00152991     0.000367707        -0.215827      -0.0950986
256200                -0.0274473      -0.0183653      -0.00101247       0.0012958        -0.978118        0.205995       0.00155757     -0.00192058
                    -0.000915128      0.00119342        -0.233704      -0.0239043       0.00204488     -0.00120481          0.20729       -0.949535
                       -0.977797        0.206114       0.00206872     -0.00113006        0.0178109       -0.027695      -0.00158598     0.000480023
                      0.00150702     -0.00189944         0.207129       -0.949608      -0.00150549     0.000497128         -0.22242      -0.0756872
