! TOUCHSTONE file generated by CST MICROWAVE STUDIO
! Date and time: Sun Sep 28 17:20:11 2025
! Project name: biblioteca3_folgaOK.cst
! Parameters = {H=600; Lx=200; Ly=260; Nedge=12; P=520; k=0; mesh_pilar_nm=40; n=0; t_air=3800; t_sub=3000; wavelength_nm=0}
! Header version: 2018
! Port assignment regex: !\s*Touchstone port\s*([0-9]+)\s*=\s*(CST MWS port|CST DS port)\s*([0-9]+|Zmin|Zmax)\s*\(\"(.*)\"\)(\s*mode\s*([0-9]+))?.*
! Touchstone port assignment:
! Touchstone port 1 = CST MWS port Zmin ("") mode 1
! Touchstone port 2 = CST MWS port Zmin ("") mode 2
! Touchstone port 3 = CST MWS port Zmax ("") mode 1
! Touchstone port 4 = CST MWS port Zmax ("") mode 2
! S-Parameters are not renormalized. Each port impedance will be approximated by the real part at minimum frequency. The values are described via the [Reference] keyword.
! Default impedance is overridden by [Reference]
[Version] 2.0
# GHz S RI R 376.73
[Number of Ports] 4
[Reference]
376.73 376.73 376.73 376.73 
[Number of Frequencies] 401
[Network Data]
250000                -0.0189827        0.166881      0.000248188      -0.0013408        -0.564726        0.807939      -0.00121716     -0.00259172
                     0.000211039      -0.0012117         0.237626       0.0227745      0.000418241     -0.00245339        -0.793701       -0.559489
                       -0.564317        0.807941      0.000321036     -0.00237789         0.150168      -0.0752443     -0.000393888     -0.00112385
                     -0.00120329     -0.00258471         -0.79324        -0.55882     -0.000224421      -0.0011566        -0.101329       -0.216175
250200               -0.00542976        0.179769      0.000128453     -0.00131426        -0.490499        0.852553      -0.00143847     -0.00246421
                     0.000140769      -0.0011775          0.23389       0.0134316      0.000227547     -0.00247697        -0.833104       -0.501029
                       -0.490354         0.85229       0.00015182     -0.00238004         0.152617       -0.095091     -0.000480898     -0.00099508
                     -0.00144128     -0.00248332        -0.832546       -0.500466     -0.000314153     -0.00104766        -0.121521       -0.200329
250400                0.00964208        0.191162      1.75008e-05     -0.00127076        -0.412841        0.890304      -0.00164567      -0.0023177
                     6.98766e-05      -0.0011392         0.229692      0.00459719      3.63056e-05     -0.00248738        -0.868262       -0.439686
                       -0.412908        0.889908      -1.7743e-05     -0.00237428         0.152087        -0.11618     -0.000548781    -0.000859823
                     -0.00166854     -0.00235143         -0.86764       -0.439231       -0.0003834     -0.00093313        -0.139651       -0.182453
250600                 0.0260492        0.200911     -8.16541e-05     -0.00121315        -0.332401        0.920948      -0.00183705     -0.00215399
                    -1.01192e-06     -0.00109596         0.225083     -0.00369966     -0.000154791     -0.00248466        -0.898952       -0.375764
                       -0.332615        0.920516     -0.000187659     -0.00236034         0.148324       -0.138024     -0.000596312    -0.000721151
                      -0.0018797     -0.00219117        -0.898294       -0.375412     -0.000432792    -0.000816517        -0.155504       -0.162801
250800                 0.0435947        0.208886     -0.000167026     -0.00114479         -0.24984        0.944303      -0.00201118     -0.00197503
                    -7.10459e-05     -0.00104693         0.220117      -0.0114345     -0.000345053     -0.00246885        -0.924971       -0.309585
                       -0.250133        0.943901     -0.000357888     -0.00233789         0.141168       -0.160096     -0.000622982    -0.000582429
                     -0.00207006     -0.00200589        -0.924303       -0.309329     -0.000463455    -0.000700843        -0.168892       -0.141648
251000                 0.0620712        0.214988      -0.00023768     -0.00106918        -0.165827        0.960253      -0.00216695     -0.00178284
                    -0.000139102    -0.000991343         0.214848      -0.0185876     -0.000533787        -0.00244        -0.946141       -0.241486
                       -0.166133        0.959919     -0.000528326     -0.00230652         0.130551       -0.181845     -0.000629061    -0.000447109
                     -0.00223594     -0.00179997        -0.945484       -0.241317     -0.000476845    -0.000588642        -0.179663       -0.119292
251200                 0.0812642        0.219138     -0.000293611    -0.000989624       -0.0810295        0.968747      -0.00230349     -0.00157947
                    -0.000203751    -0.000928609         0.209332      -0.0251447     -0.000720284     -0.00239814        -0.962307       -0.171822
                      -0.0812899        0.968492     -0.000698797     -0.00226578         0.116497        -0.20272     -0.000615592    -0.000318515
                     -0.00237489     -0.00157837        -0.961678       -0.171728     -0.000474618    -0.000481984        -0.187698      -0.0960468
251400                  0.100955        0.221285      -0.00033554    -0.000909005       0.00389055        0.969791      -0.00242021     -0.00136698
                    -0.000263249    -0.000858407         0.203628      -0.0310965     -0.000903818     -0.00234334        -0.973339       -0.100961
                      0.00372384        0.969611     -0.000869032     -0.00221511        0.0991226       -0.222181     -0.000584315    -0.000199632
                      -0.0024858     -0.00134629        -0.972752       -0.100928     -0.000458523    -0.000382516        -0.192915      -0.0722381
251600                  0.120925        0.221402      -0.00036468     -0.00082967        0.0882845        0.963453      -0.00251676     -0.00114738
                    -0.000315575     -0.00078085         0.197793      -0.0364391      -0.00108364     -0.00227566        -0.979137      -0.0292826
                       0.0882464        0.963329      -0.00103865     -0.00215394        0.0786271       -0.239714     -0.000537534    -9.29468e-05
                     -0.00256881     -0.00110869        -0.978601      -0.0292975     -0.000430339    -0.000291525        -0.195271      -0.0482009
251800                  0.140954        0.219486     -0.000382528    -0.000753412          0.17152        0.949853      -0.00259299    -0.000922615
                     -0.00035854    -0.000696647         0.191884      -0.0411739      -0.00125896     -0.00219519        -0.979627       0.0428249
                        0.171632        0.949759      -0.00120715     -0.00208164        0.0552849       -0.254846     -0.000477942    -3.38263e-07
                     -0.00262519    -0.000870045        -0.979147       0.0427748     -0.000391825    -0.000209986        -0.194761      -0.0242742
252000                   0.16083        0.215558     -0.000390687    -0.000681506         0.252988        0.929167      -0.00264895    -0.000694542
                    -0.000389981    -0.000607222         0.185959      -0.0453078      -0.00142898     -0.00210207        -0.974765        0.114964
                        0.253258        0.929071      -0.00137387     -0.00199756         0.029437       -0.267151     -0.000408433     7.69645e-05
                     -0.00265697    -0.000634032        -0.974345        0.114891     -0.000344694    -0.000138614        -0.191422    -0.000796476
252200                  0.180346        0.209661     -0.000390741    -0.000614783         0.332103        0.901616      -0.00268483    -0.000464927
                    -0.000408031    -0.000514786         0.180074      -0.0488531      -0.00159284     -0.00199644        -0.964537        0.186732
                        0.332525        0.901488      -0.00153798     -0.00190105       0.00148154       -0.276258     -0.000331933     0.000138368
                     -0.00266675    -0.000403441        -0.964176        0.186648       -0.0002906    -7.79075e-05        -0.185329        0.021899
252400                  0.199302        0.201858     -0.000384174    -0.000553718         0.408307        0.867468      -0.00270099     -0.00023543
                    -0.000411452    -0.000422257         0.174284       -0.051827      -0.00174966     -0.00187852        -0.948961        0.257725
                        0.408867        0.867278      -0.00169848     -0.00179149       -0.0281355       -0.281857     -0.000251245     0.000183851
                     -0.00265732    -0.000180138        -0.948657        0.257638     -0.000231135    -2.81826e-05        -0.176599       0.0434886
252600                  0.217512        0.192234     -0.000372328    -0.000498508         0.481075        0.827029      -0.00269786    -7.60272e-06
                    -0.000399933    -0.000333042         0.168642      -0.0542523      -0.00189854     -0.00174858        -0.928085        0.327535
                        0.481749        0.826757      -0.00185413     -0.00166833       -0.0589297       -0.283703     -0.000168942     0.000213877
                     -0.00263141     3.48757e-05        -0.927834        0.327454      -0.00016783     1.04045e-05        -0.165385       0.0636637
252800                    0.2348         0.18089     -0.000356386    -0.000449154         0.549915        0.780646      -0.00267599     0.000217111
                    -0.000374292    -0.000250656         0.163197      -0.0561562      -0.00203853     -0.00160696         -0.90199         0.39576
                        0.550674        0.780275      -0.00200351      -0.0015311       -0.0903864       -0.281618      -8.7293e-05     0.000229283
                     -0.00259152     0.000241341        -0.901785        0.395689      -0.00010216     3.78383e-05        -0.151878       0.0821347
253000                  0.251006        0.167942      -0.00033737    -0.000405516         0.614368        0.728697        -0.002636     0.000437369
                    -0.000336485    -0.000178262         0.157997      -0.0575711      -0.00216866     -0.00145408        -0.870787        0.461999
                        0.615179        0.728219      -0.00214496     -0.00137955         -0.12197       -0.275496     -8.23277e-06     0.000231175
                      -0.0025397     0.000439587        -0.870623        0.461942     -3.55445e-05     5.42341e-05        -0.136303       0.0986361
253200                  0.265984        0.153522     -0.000316154    -0.000367364         0.674012         0.67159      -0.00257856     0.000651927
                    -0.000289388    -0.000118243         0.153086      -0.0585333      -0.00228796     -0.00129045        -0.834621        0.525859
                        0.674843        0.671006      -0.00227662      -0.0012136        -0.153132       -0.265303      6.66463e-05     0.000220832
                     -0.00247748      0.00063035        -0.834492        0.525819      3.06474e-05     5.98316e-05        -0.118919        0.112931
253400                  0.279605        0.137774     -0.000293479    -0.000334408         0.728464        0.609762      -0.00250438      0.00085963
                    -0.000236419    -7.19207e-05         0.148503      -0.0590833      -0.00239544     -0.00111668        -0.793667         0.58696
                        0.729281         0.60908      -0.00239645     -0.00103352         -0.18332       -0.251077      0.000136075     0.000199623
                      -0.0024058     0.000814584        -0.793566        0.586934      9.50982e-05     5.49939e-05        -0.100011        0.124813
253600                  0.291755        0.120851     -0.000269976    -0.000306327         0.777374        0.543673      -0.00241422       0.0010594
                    -0.000181077    -3.94746e-05         0.144285      -0.0592655      -0.00249011    -0.000933485        -0.748131        0.644929
                        0.778151        0.542907      -0.00250228    -0.000839914        -0.211985       -0.232932      0.000199078     0.000168942
                     -0.00232499     0.000993272        -0.748053        0.644917      0.000156546     4.02077e-05       -0.0798892        0.134115
253800                   0.30234        0.102916     -0.000246178    -0.000282785         0.820435        0.473803      -0.00230888      0.00125025
                    -0.000126532    -2.00759e-05         0.140461       -0.059127      -0.00257103    -0.000741699        -0.698249        0.699412
                        0.821147        0.472974      -0.00259188    -0.000633812        -0.238595       -0.211055      0.000254933     0.000130164
                     -0.00223483      0.00116724        -0.698189        0.699411      0.000213789     1.60845e-05       -0.0588832        0.140705
254000                  0.311285       0.0841372      -0.00022254    -0.000263437         0.857377        0.400651      -0.00218915      0.00143124
                    -7.53443e-05     -1.2153e-05         0.137057      -0.0587182      -0.00263726    -0.000542276        -0.644285        0.750072
                        0.858006        0.399782      -0.00266306    -0.000416732        -0.262637       -0.185705      0.000303128      8.4609e-05
                     -0.00213463      0.00133699        -0.644241        0.750076      0.000265702     -1.6638e-05       -0.0373382        0.144495
254200                  0.318529       0.0646882     -0.000199457    -0.000247936          0.88797        0.324732      -0.00205588      0.00160149
                    -2.93353e-05    -1.37071e-05         0.134096      -0.0580913      -0.00268794    -0.000336292        -0.586533        0.796591
                        0.888504         0.32385      -0.00271377     -0.00019069        -0.283636       -0.157212       0.00034333     3.35272e-05
                     -0.00202336      0.00150256        -0.586502        0.796597      0.000311241     -5.7096e-05       -0.0156087         0.14544
254400                  0.324034       0.0447448     -0.000177267    -0.000235936         0.912021        0.246573      -0.00190992       0.0017602
                     1.03978e-05    -2.26016e-05         0.131591      -0.0573005      -0.00272226    -0.000124944        -0.525311        0.838673
                        0.912457        0.245706      -0.00274227     4.18025e-05        -0.301155       -0.125976       0.00037534      -2.191e-05
                     -0.00189983      0.00166341        -0.525292        0.838676      0.000349467    -0.000104303       0.00594622        0.143538
254600                  0.327778       0.0244838     -0.000156267    -0.000227084          0.92938        0.166714      -0.00175216      0.00190657
                      4.3383e-05    -3.67806e-05         0.129553      -0.0564012      -0.00273954     9.04535e-05        -0.460961         0.87605
                         0.92972        0.165887      -0.00274725     0.000277789        -0.314815      -0.0924538      0.000399068    -8.06111e-05
                     -0.00176287      0.00181841        -0.460955        0.876046      0.000379559    -0.000157155        0.0269693        0.138833
254800                  0.329757      0.00408109     -0.000136718    -0.000221026         0.939935       0.0857019      -0.00158351      0.00203989
                     6.96322e-05    -5.44057e-05         0.127986      -0.0554493      -0.00273917     0.000308474        -0.393849        0.908478
                        0.940187       0.0849395      -0.00272796     0.000513965        -0.324294      -0.0571621      0.000414507    -0.000141558
                      -0.0016116      0.00196585        -0.393857        0.908462      0.000400836     -0.00021444        0.0471105        0.131414
255000                  0.329985      -0.0162901     -0.000118845    -0.000217391         0.943616      0.00409102       -0.0014049      0.00215946
                      8.9497e-05    -7.39219e-05         0.126888      -0.0545009      -0.00272071     0.000527593        -0.324358        0.935743
                        0.943793      0.00341343      -0.00268433     0.000746818        -0.329346      -0.0206628      0.000421714    -0.000203799
                     -0.00144558      0.00210353        -0.324384        0.935712      0.000412774    -0.000274856        0.0660323        0.121414
255200                  0.328493      -0.0364607     -0.000102839    -0.000215796         0.940394      -0.0775606      -0.00121731      0.00226465
                     0.000103544    -9.40711e-05         0.126252      -0.0536114      -0.00268384     0.000746201        -0.252893        0.957661
                        0.940512      -0.0781373      -0.00261704     0.000972813        -0.329799       0.0164447      0.000420794    -0.000266437
                     -0.00126498        0.002229        -0.252939        0.957614      0.000415021    -0.000337023        0.0834158        0.109005
255400                  0.325328      -0.0562675     -8.88508e-05    -0.000215834         0.930278       -0.158693      -0.00102174      0.00235483
                     0.000112456    -0.000113874         0.126065      -0.0528352      -0.00262843     0.000962624        -0.179869        0.974082
                         0.93036       -0.159158      -0.00252752      0.00118859        -0.325569       0.0535348      0.000411893    -0.000328616
                     -0.00107067      0.00233972         -0.17994        0.974017      0.000407419     -0.00039951        0.0989657       0.0944017
255600                  0.320553      -0.0755547     -7.69882e-05    -0.000217074         0.913323       -0.238745      -0.00081924      0.00242945
                     0.000116964    -0.000132595         0.126309      -0.0522253      -0.00255451      0.00117514        -0.105717        0.984888
                         0.91339       -0.239093      -0.00241788      0.00139117        -0.316661       0.0899688      0.000395192    -0.000389512
                    -0.000864159      0.00243331        -0.105818        0.984806      0.000390007     -0.00046086         0.112415       0.0778526
255800                  0.314246      -0.0941749     -6.73011e-05    -0.000219059         0.889623       -0.317161     -0.000610907      0.00248798
                     0.000117799    -0.000149702         0.126959      -0.0518322      -0.00246233      0.00138202       -0.0308761        0.989996
                        0.889698       -0.317392      -0.00229082      0.00157815        -0.303171        0.125108      0.000370904    -0.000448319
                    -0.000647544      0.00250776       -0.0310099        0.989898      0.000363034    -0.000519619          0.12353       0.0596393
256000                  0.306497       -0.111991     -5.97706e-05     -0.00022131         0.859317       -0.393389     -0.000397878      0.00252995
                     0.000115664    -0.000164829         0.127987      -0.0517037      -0.00235231      0.00158152        0.0442082        0.989359
                        0.859422       -0.393509      -0.00214943       0.0017478        -0.285287        0.158327      0.000339284     -0.00050424
                    -0.000423329      0.00256159        0.0440377        0.989248       0.00032696    -0.000574366         0.132113       0.0400711
256200                  0.297411       -0.128877     -5.42937e-05    -0.000223333         0.822584       -0.466885     -0.000181345      0.00255496
                      0.00011122    -0.000177743         0.129359      -0.0518848      -0.00222507      0.00177196         0.119087        0.982964
                        0.822738       -0.466905      -0.00199699      0.00189917        -0.263288        0.189031      0.000300627    -0.000556475
                    -0.000194237       0.0025939         0.118877        0.982845      0.000282455    -0.000623746         0.138008       0.0194802
