! TOUCHSTONE file generated by CST MICROWAVE STUDIO
! Date and time: Sun Sep 28 19:09:20 2025
! Project name: biblioteca3_folgaOK.cst
! Parameters = {H=600; Lx=200; Ly=260; Nedge=40; P=520; mesh_pilar_nm=40; t_air=3800; t_sub=6000}
! Header version: 2018
! Port assignment regex: !\s*Touchstone port\s*([0-9]+)\s*=\s*(CST MWS port|CST DS port)\s*([0-9]+|Zmin|Zmax)\s*\(\"(.*)\"\)(\s*mode\s*([0-9]+))?.*
! Touchstone port assignment:
! Touchstone port 1 = CST MWS port Zmin ("") mode 1
! Touchstone port 2 = CST MWS port Zmin ("") mode 2
! Touchstone port 3 = CST MWS port Zmax ("") mode 1
! Touchstone port 4 = CST MWS port Zmax ("") mode 2
! S-Parameters are not renormalized. Each port impedance will be approximated by the real part at minimum frequency. The values are described via the [Reference] keyword.
! Default impedance is overridden by [Reference]
[Version] 2.0
# GHz S RI R 376.73
[Number of Ports] 4
[Reference]
376.73 376.73 376.73 376.73 
[Number of Frequencies] 401
[Network Data]
250000                  0.310813        0.213133      0.000231301     0.000743467         0.310671        0.872789       0.00139571     0.000694434
                     0.000121851     0.000467841        0.0967328       0.0194645       0.00137355     0.000507565        -0.934173        0.342792
                        0.310885         0.87265       0.00161993     0.000784151         0.106119       -0.361606      0.000497622     -0.00085609
                      0.00123512     0.000687725        -0.934343         0.34281      0.000344276      -0.0011502       -0.0611889       0.0773861
250200                  0.333681        0.179552       0.00026806     0.000542996         0.406969         0.83125       0.00149251     0.000514588
                      0.00016303     0.000386803        0.0945657       0.0224743       0.00144206     0.000358174        -0.893084         0.43906
                        0.406948        0.831157       0.00168466     0.000575199        0.0626429       -0.373654      0.000366477    -0.000927583
                      0.00132769     0.000577809        -0.893264        0.439241      0.000250609     -0.00106073       -0.0400001        0.088571
250400                  0.351892         0.14326      0.000304651      0.00037551         0.498187        0.779444       0.00155972     0.000323842
                     0.000197342     0.000305167        0.0938463       0.0258779       0.00149164     0.000201262        -0.841946        0.530481
                        0.498049        0.779365       0.00171188     0.000366859        0.0175273       -0.379471      0.000214843    -0.000976475
                      0.00141529     0.000449354        -0.842081        0.530768       0.00015789    -0.000976207        -0.017236       0.0957878
250600                  0.365131        0.104972      0.000332104      0.00023378          0.58329        0.717928       0.00159738     0.000128149
                     0.000224539     0.000223218        0.0946104       0.0293949       0.00152184     3.96554e-05        -0.781341        0.615973
                        0.583113        0.717822       0.00170688     0.000167725       -0.0282364        -0.37882      4.75845e-05    -0.000993703
                      0.00149381     0.000299773        -0.781403        0.616308      6.75176e-05    -0.000894931       0.00641785       0.0988309
250800                  0.373192       0.0654342      0.000346588      0.00011171         0.661294        0.647346       0.00160685    -6.73115e-05
                     0.000244401     0.000141308         0.096847       0.0327451       0.00153263    -0.000123935        -0.711972         0.69453
                        0.661122        0.647177       0.00167665    -1.69338e-05       -0.0736247       -0.371629     -0.000125702    -0.000971275
                        0.001557     0.000127116        -0.711954        0.694864     -1.93195e-05      -0.0008153        0.0302519       0.0976123
251000                  0.375978       0.0254071      0.000346972     5.02315e-06         0.731265        0.568435        0.0015903     -0.00025835
                     0.000256752     5.98622e-05         0.100499       0.0356563       0.00152435    -0.000286967        -0.634652        0.765237
                         0.73112        0.568172       0.00162835    -0.000185017        -0.117609       -0.357995     -0.000290877    -0.000905183
                      0.00159611    -6.85259e-05        -0.634562        0.765529     -0.000101531    -0.000735839        0.0535535       0.0921636
251200                  0.373503      -0.0143463      0.000333441    -8.89765e-05         0.792329        0.482021       0.00155039    -0.000441803
                     0.000261494      -2.063e-05         0.105465       0.0378711       0.00149756    -0.000447081        -0.550292        0.827278
                        0.792216        0.481642       0.00156817    -0.000336905        -0.159184       -0.338182     -0.000431575    -0.000798261
                      0.00160048    -0.000282777        -0.550148        0.827501     -0.000178024    -0.000655244        0.0756266       0.0826339
251400                  0.365888      -0.0530743      0.000306787    -0.000171817         0.843682        0.389016       0.00148985    -0.000615442
                      0.00025865    -9.96247e-05         0.111604       0.0391538       0.00145293    -0.000602057        -0.459887        0.879952
                        0.843594         0.38851       0.00150091    -0.000474641        -0.197391       -0.312616     -0.000533453    -0.000661181
                      0.00156026    -0.000504667        -0.459714        0.880091     -0.000247612    -0.000572422        0.0958113       0.0692841
251600                  0.353362      -0.0900513      0.000268085    -0.000244228         0.884591        0.290421        0.0014113    -0.000777815
                      0.00024843    -0.000176555         0.118739       0.0392962       0.00139095    -0.000749711        -0.364499        0.922678
                        0.884515        0.289786       0.00142977    -0.000601205        -0.231347       -0.281878     -0.000588522    -0.000510332
                      0.00147173      -0.0007167        -0.364323        0.922728     -0.000308947    -0.000486551         0.113501       0.0524793
251800                  0.336257       -0.124592      0.000218552     -0.00030642         0.914408        0.187321       0.00131707     -0.00092805
                     0.000231336    -0.000250897         0.126663       0.0381228        0.0013113     -0.00088777        -0.265244        0.954998
                        0.914331        0.186564        0.0013564    -0.000719968        -0.260264       -0.246689     -0.000597126    -0.000363301
                      0.00134228    -0.000900125        -0.265089        0.954968     -0.000360464    -0.000397153         0.128159       0.0326773
252000                  0.315005       -0.156064      0.000159484    -0.000358284         0.932581        0.080886       0.00120912     -0.00106568
                     0.000208342    -0.000322302         0.135143       0.0354945         0.001211     -0.00101441        -0.163272        0.976588
                        0.932488       0.0800206       0.00128107    -0.000834303        -0.283478         -0.2079     -0.000566637     -0.00023439
                      0.00118942      -0.0010439        -0.163157        0.976492     -0.000400367    -0.000304206         0.139332       0.0104157
252200                   0.29013       -0.183907      9.22432e-05    -0.000399534         0.938663      -0.0276354       0.00108905     -0.00119047
                     0.000181247    -0.000390914         0.143928       0.0313123       0.00108078     -0.00113559       -0.0597581        0.987251
                        0.938543       -0.028592       0.00120272    -0.000947282        -0.300466        -0.16647     -0.000508085    -0.000132276
                      0.00103232     -0.00114989       -0.0596945         0.98711     -0.000426656    -0.000208281          0.14666      -0.0137034
252400                  0.262238       -0.207642      1.82443e-05    -0.000429808         0.932329       -0.136921      0.000958122     -0.00130228
                      0.00015342    -0.000458159         0.152755       0.0255187      0.000933733     -0.00128402        0.0441206        0.986924
                        0.932172       -0.137949       0.00111907     -0.00106138        -0.310867       -0.123445     -0.000432785    -6.01373e-05
                     0.000882722     -0.00122934        0.0441282        0.986762     -0.000437222    -0.000110706         0.149886      -0.0390297
252600                  0.232006       -0.226888     -6.10481e-05    -0.000448742         0.913386       -0.245582      0.000817244     -0.00140095
                     0.000131663    -0.000529176         0.161357       0.0180987      0.000823695     -0.00142596         0.147195         0.97567
                        0.913187        -0.24666       0.00102671     -0.00117815        -0.314498      -0.0799282     -0.000350217    -1.72343e-05
                     0.000742512     -0.00129488          0.14715         0.97551     -0.000430051    -1.37303e-05         0.148863      -0.0648819
252800                  0.200166       -0.241373     -0.000144127    -0.000456026         0.881791       -0.352176      0.000667087     -0.00148617
                     0.000131502     -0.00062256         0.169467      0.00907994      0.000707983      -0.0015248         0.248319        0.953677
                        0.881548       -0.353282      0.000921251     -0.00129771        -0.311364      -0.0370573     -0.000267287    -7.47332e-07
                      0.00060703     -0.00135495         0.248231        0.953541     -0.000403537     7.93587e-05         0.143553      -0.0905662
253000                  0.167491       -0.250946     -0.000229453     -0.00045144         0.837664       -0.455218      0.000508122     -0.00155743
                     0.000188591    -0.000831351         0.176828      -0.0014689      0.000572746     -0.00160259         0.346382        0.921253
                        0.837378       -0.456332      0.000797725     -0.00141827        -0.301673      0.00403504     -0.000188469    -7.23095e-06
                     0.000469548     -0.00141256         0.346269        0.921155     -0.000356928     0.000164241          0.13403       -0.115393
253200                  0.134773       -0.255581     -0.000315467    -0.000434883         0.781304       -0.553202      0.000340719     -0.00161391
                    -0.000240934     -0.00177841         0.183195        -0.01344      0.000423669     -0.00166614         0.440323        0.878816
                        0.780979       -0.554306      0.000651353      -0.0015356        -0.285828       0.0422538     -0.000116314    -3.35467e-05
                     0.000324168      -0.0014665         0.440204        0.878766     -0.000290833     0.000235778         0.120477       -0.138696
253400                  0.102799       -0.255385     -0.000400608    -0.000406389         0.713199       -0.644621      0.000165255     -0.00165436
                     -0.00104088    -0.000603654         0.188345      -0.0266895      0.000264547     -0.00171584         0.529139         0.82689
                         0.71284       -0.645697      0.000478716     -0.00164284        -0.264434       0.0765796     -5.19815e-05    -7.74108e-05
                     0.000167055     -0.00151298         0.529036        0.826891     -0.000207702     0.000288509         0.103178       -0.159847
253600                 0.0723351       -0.250597     -0.000483325    -0.000366143         0.634035        -0.72799     -1.77015e-05     -0.00167702
                    -0.000779655     -0.00043405         0.192078      -0.0410413      9.76347e-05     -0.00175095         0.611894        0.766095
                         0.63365       -0.729026      0.000279212     -0.00173104        -0.238275        0.106107      4.37094e-06    -0.000137776
                    -3.30828e-06     -0.00154706         0.611828        0.766141     -0.000112087     0.000317441         0.082513       -0.178271
253800                 0.0440968       -0.241582     -0.000562097    -0.000314481         0.544705       -0.801881     -0.000207098     -0.00167948
                    -0.000738204     -0.00039622         0.194226      -0.0562914      -7.5411e-05     -0.00177056         0.687729        0.697137
                        0.544303       -0.802865      5.62731e-05     -0.00179055        -0.208302        0.130078      5.34386e-05    -0.000215297
                    -0.000186273     -0.00156355         0.687719        0.697216      -1.0492e-05     0.000318998         0.058946       -0.193462
254000                 0.0187286       -0.228829     -0.000635448    -0.000251894         0.446307       -0.864952     -0.000400873     -0.00165864
                    -0.000757179    -0.000355365          0.19465      -0.0722128     -0.000253121     -0.00177378          0.75587        0.620801
                        0.445899       -0.865876      -0.00018236      -0.0018133        -0.175603        0.147922      9.70254e-05    -0.000313246
                    -0.000379324     -0.00155769         0.755926        0.620893      8.92719e-05      0.00029189         0.033014       -0.204993
254200               -0.00321915       -0.212931     -0.000701959    -0.000179023         0.340142       -0.915979     -0.000595021     -0.00161092
                    -0.000795705    -0.000300841         0.193249      -0.0885611     -0.000434034     -0.00175972         0.815629        0.537936
                        0.339737       -0.916839     -0.000425821       -0.001795        -0.141364        0.159276      0.000139291    -0.000439653
                    -0.000578449      -0.0015257         0.815756         0.53802      0.000179153     0.000237583       0.00531292       -0.212527
254400                -0.0213095       -0.194572     -0.000760286    -9.66561e-05           0.2277       -0.953899      -0.00078215     -0.00153343
                     -0.00083867    -0.000232054         0.189959       -0.105079     -0.000616602     -0.00172756         0.866414        0.449448
                        0.227307       -0.954691     -0.000662499     -0.00173627        -0.106834        0.164012      0.000191388    -0.000612831
                    -0.000778552       -0.001465         0.866605        0.449503      0.000252055     0.000160184       -0.0235165       -0.215824
254600                -0.0352355       -0.174502     -0.000809166     -5.7241e-06         0.110639       -0.977835     -0.000950427     -0.00142769
                    -0.000878472    -0.000150136         0.184755       -0.121505     -0.000799134     -0.00167651         0.907724        0.356291
                        0.110268       -0.978561     -0.000882603     -0.00164215       -0.0732688        0.162243       0.00029192    -0.000876804
                     -0.00097391     -0.00137453         0.907967        0.356298       0.00030281     6.57456e-05       -0.0528044       -0.214745
254800                -0.0448326       -0.153517      -0.00084743     9.27072e-05      -0.00923701       -0.987137      -0.00108745     -0.00130664
                    -0.000910437    -5.68134e-05         0.177648       -0.137574     -0.000979765     -0.00160591         0.939158        0.259454
                     -0.00957888       -0.987799      -0.00107984     -0.00152038       -0.0418887        0.154334      0.000633339     -0.00132969
                     -0.00115865     -0.00125475         0.939432        0.259402      0.000328648    -3.87518e-05       -0.0818676       -0.209256
255000                -0.0500849       -0.132422     -0.000874014     0.000197441        -0.130013       -0.981404      -0.00119613     -0.00119586
                    -0.000931367     4.58114e-05         0.168691       -0.153027      -0.00115643     -0.00151524         0.960409        0.159955
                       -0.130321       -0.982008      -0.00125172     -0.00137921       -0.0138222        0.140882       0.00222221     -0.00129075
                     -0.00132721     -0.00110759         0.960693        0.159843      0.000329129    -0.000146423        -0.110026       -0.199431
255200                -0.0511269       -0.112014     -0.000887963     0.000307153        -0.249706       -0.960509      -0.00130703     -0.00110886
                    -0.000939021     0.000155361          0.15797       -0.167616      -0.00132685     -0.00140415         0.971268       0.0588363
                       -0.249976       -0.961062      -0.00139881     -0.00122584       0.00994097        0.122701       0.00147375      0.00073182
                     -0.00147471     -0.00093625         0.971546       0.0586704      0.000305666    -0.000251233        -0.136617       -0.185445
255400                -0.0482377      -0.0930418     -0.000888448     0.000420394        -0.366305       -0.924614      -0.00144892     -0.00102189
                      -0.0009319     0.000269265         0.145609       -0.181107      -0.00148855     -0.00127256         0.971629      -0.0428447
                       -0.366538       -0.925122      -0.00152356     -0.00106557        0.0285939        0.100792       0.00059259     0.000418228
                     -0.00159725    -0.000744861         0.971886      -0.0430541      0.000260888    -0.000348389        -0.161014       -0.167575
255600                -0.0418303      -0.0761842     -0.000874778     0.000535595        -0.477826       -0.874171      -0.00161611      -0.0009003
                    -0.000909144     0.000384856         0.131762       -0.193289      -0.00163886     -0.00112068         0.961486       -0.144025
                       -0.478022       -0.874641      -0.00162918    -0.000901687        0.0415491        0.076297       0.00033358     0.000117372
                     -0.00169205    -0.000538174         0.961716       -0.144266      0.000198022    -0.000434407        -0.182638        -0.14619
255800                -0.0324344      -0.0620239     -0.000846412     0.000651067        -0.582353       -0.809923      -0.00178409    -0.000729493
                    -0.000870468     0.000499462         0.116613       -0.203971      -0.00177497     -0.00094912         0.940939       -0.243646
                       -0.582516       -0.810361      -0.00171887    -0.000735775        0.0484644       0.0504513      0.000207302    -8.71966e-05
                     -0.00175753    -0.000321184         0.941137       -0.243907      0.000120422    -0.000506958        -0.200969       -0.121746
256000                -0.0206745      -0.0510264     -0.000802983     0.000765003        -0.678093       -0.732888      -0.00193138    -0.000511809
                    -0.000816101     0.000610502         0.100369       -0.212995      -0.00189398     -0.00075891         0.910189       -0.340662
                       -0.678228       -0.733298      -0.00179534    -0.000568089        0.0492584       0.0245318       0.00011591    -0.000241782
                     -0.00179317     -9.8822e-05         0.910355       -0.340931      3.12719e-05    -0.000564617        -0.215567      -0.0947717
256200               -0.00724381      -0.0435245     -0.000744318     0.000875488        -0.763416       -0.644335      -0.00204377    -0.000255873
                    -0.000746717      0.00071556        0.0832596        -0.22023      -0.00199295    -0.000551584         0.869538       -0.434051
                       -0.763526       -0.644719      -0.00186058    -0.000397979        0.0441129    -0.000200777      3.16804e-05    -0.000368911
                     -0.00179942     0.000124297         0.869673       -0.434319     -6.65606e-05    -0.000606597        -0.226072      -0.0658627
