! TOUCHSTONE file generated by CST MICROWAVE STUDIO
! Date and time: Sun Sep 28 20:03:47 2025
! Project name: biblioteca3_folgaOK.cst
! Parameters = {H=600; Lx=300; Ly=300; Nedge=12; P=520; mesh_pilar_nm=40; t_air=3500; t_sub=4000}
! Header version: 2018
! Port assignment regex: !\s*Touchstone port\s*([0-9]+)\s*=\s*(CST MWS port|CST DS port)\s*([0-9]+|Zmin|Zmax)\s*\(\"(.*)\"\)(\s*mode\s*([0-9]+))?.*
! Touchstone port assignment:
! Touchstone port 1 = CST MWS port Zmin ("") mode 1
! Touchstone port 2 = CST MWS port Zmin ("") mode 2
! Touchstone port 3 = CST MWS port Zmax ("") mode 1
! Touchstone port 4 = CST MWS port Zmax ("") mode 2
! S-Parameters are not renormalized. Each port impedance will be approximated by the real part at minimum frequency. The values are described via the [Reference] keyword.
! Default impedance is overridden by [Reference]
[Version] 2.0
# GHz S RI R 376.73
[Number of Ports] 4
[Reference]
376.73 376.73 376.73 376.73 
[Number of Frequencies] 401
[Network Data]
250000                  0.222309        0.192769      -0.00046803     0.000148983        -0.178377       -0.938931      -0.00138096     3.00198e-07
                    -0.000571318      0.00013927         0.219374        0.194346      -0.00128683     0.000338932        -0.175171       -0.939785
                       -0.178136       -0.938994      -0.00134952     0.000328706          0.13612       -0.260877      -0.00102781    -0.000260457
                     -0.00141145    -1.64935e-05        -0.175341       -0.939858      -0.00109735    -0.000247958         0.134601       -0.260397
250200                  0.241519        0.163821      -0.00043469     0.000194232        -0.278887        -0.91541      -0.00134644     0.000132016
                    -0.000544755     0.000235516         0.239166        0.165502      -0.00124665     0.000484321        -0.275739       -0.916352
                       -0.278642       -0.914341      -0.00130258     0.000451172         0.109442       -0.270088      -0.00104516    -0.000198866
                     -0.00142036     0.000113703        -0.275908       -0.914308      -0.00113532    -0.000162257         0.108307       -0.269693
250400                  0.256709        0.132612     -0.000396331     0.000238835        -0.376682       -0.881047      -0.00130066     0.000260818
                    -0.000501931     0.000329219         0.254874        0.134381      -0.00118782     0.000626495         -0.37357       -0.882134
                       -0.376238       -0.879182       -0.0012426     0.000571221        0.0820707       -0.276239      -0.00106015    -0.000134055
                     -0.00141492     0.000250677        -0.373388       -0.878559      -0.00116469    -7.10677e-05         0.081224       -0.276014
250600                   0.26755       0.0997717     -0.000352485     0.000282209        -0.470554       -0.836151      -0.00124368     0.000385681
                    -0.000442849     0.000417218         0.266193        0.101627      -0.00111053     0.000762327        -0.467475       -0.837438
                       -0.469807       -0.833798      -0.00116947     0.000687083        0.0543845       -0.279267      -0.00107239    -6.59815e-05
                     -0.00139308     0.000392656        -0.466741       -0.832877      -0.00118463      2.4319e-05         0.053725       -0.279268
250800                  0.273823       0.0659861     -0.000302688     0.000323622        -0.559335       -0.781166      -0.00117565     0.000505552
                    -0.000368229      0.00049629         0.272933       0.0679299      -0.00101564     0.000888705        -0.556301       -0.782704
                       -0.558256       -0.778593      -0.00108332     0.000796894        0.0267688       -0.279159      -0.00108145     5.36654e-06
                     -0.00135299     0.000537297        -0.554943       -0.777643      -0.00119456     0.000122462        0.0261957       -0.279415
251000                  0.275434       0.0319734     -0.000246511      0.00036217        -0.641911       -0.716668      -0.00109679      0.00061936
                    -0.000279523     0.000563344         0.275022       0.0339978     -0.000904644       0.0010027        -0.638948         -0.7185
                        -0.64053       -0.714095     -0.000984644     0.000898756     -0.000391757        -0.27595      -0.00108687     7.99552e-05
                     -0.00129314     0.000681681        -0.636995        -0.71335      -0.00119421     0.000221847     -0.000973729       -0.276468
251200                  0.272415     -0.00154005       -0.0001836     0.000396749        -0.717239       -0.643358      -0.00100744     0.000726009
                    -0.000178862     0.000615616         0.272509      0.00054013     -0.000779637      0.00110174        -0.714384       -0.645517
                       -0.715625       -0.640952     -0.000874241     0.000990802       -0.0267199       -0.269727      -0.00108815     0.000157696
                     -0.00121262     0.000822373        -0.711938       -0.640603      -0.00118361     0.000320959       -0.0273968       -0.270493
251400                  0.264925      -0.0338448     -0.000113719     0.000426033         -0.78436       -0.562049     -0.000908017     0.000824388
                    -6.89519e-05     0.000650833          0.26556      -0.0317568     -0.000643185      0.00118373        -0.781657        -0.56456
                       -0.782603       -0.559925     -0.000753256      0.00107126       -0.0518518       -0.260622      -0.00108473     0.000238434
                     -0.00111119     0.000955544        -0.778869       -0.560118       -0.0011631     0.000418367       -0.0526979       -0.261607
251600                  0.253241      -0.0642717     -3.68291e-05     0.000448457        -0.842405       -0.473659     -0.000799067     0.000913369
                     4.70813e-05     0.000667334         0.254449      -0.0622485     -0.000498184      0.00124716        -0.839906       -0.476535
                       -0.840607       -0.471882     -0.000623153      0.00113854       -0.0754425       -0.248814      -0.00107604      0.00032193
                    -0.000989548      0.00107716         -0.83695       -0.472714      -0.00113325     0.000512781       -0.0765193       -0.249978
251800                  0.237751       -0.092213      4.68318e-05     0.000462216        -0.890614         -0.3792     -0.000681247     0.000991813
                     0.000165862     0.000664132         0.239551      -0.0903505     -0.000347702      0.00129114        -0.888372       -0.382442
                        -0.88887        -0.37779     -0.000485676      0.00119128       -0.0971722       -0.234522      -0.00106149     0.000407851
                    -0.000849309      0.00118321        -0.885424       -0.379314      -0.00109485     0.000603101       -0.0985281       -0.235818
252000                  0.218934        -0.11714      0.000136638      0.00046529        -0.928336        -0.27976     -0.000555355      0.00105858
                     0.000283942     0.000640927         0.221325       -0.115552     -0.000194818      0.00131541        -0.926407       -0.283362
                       -0.926731       -0.278704     -0.000342801      0.00122843        -0.116751       -0.218008      -0.00104046     0.000495749
                    -0.000693076      0.00127005        -0.923631        -0.28093      -0.00104879     0.000688443        -0.118422       -0.219385
252200                  0.197351       -0.138619      0.000231454       0.0004555        -0.955044       -0.176501     -0.000422346      0.00111253
                     0.000397948     0.000598059           0.2003       -0.137429     -4.24799e-05      0.00132026        -0.953483       -0.180443
                       -0.953643       -0.175758     -0.000196669      0.00124926        -0.133923       -0.199567      -0.00101235     0.000585051
                    -0.000524315      0.00133461        -0.951012       -0.178655     -0.000996061      0.00076815        -0.135934       -0.200971
252400                  0.173616       -0.156317      0.000329511     0.000430623        -0.970335      -0.0706348     -0.000283348      0.00115254
                     0.000504711      0.00053643         0.177062       -0.155652      0.000106605      0.00130647        -0.969197      -0.0748892
                       -0.969181      -0.0701476     -4.95129e-05      0.00125341        -0.148471       -0.179525     -0.000976606     0.000675042
                    -0.000347164      0.00137465        -0.967129      -0.0736573     -0.000937679     0.000841782        -0.150839       -0.180903
252600                  0.148387       -0.170017      0.000428292     0.000388562        -0.973942       0.0365811     -0.000139686      0.00117756
                     0.000601338     0.000457414         0.152235       -0.169991       0.00025005      0.00127523        -0.973278       0.0320513
                       -0.973052       0.0368788      9.64183e-05       0.0012409        -0.160221       -0.158233     -0.000932715     0.000764858
                    -0.000166173      0.00138897        -0.971668       0.0328415     -0.000874622     0.000909098        -0.162953       -0.159534
252800                  0.122339        -0.17961      0.000524466     0.000327594         -0.96573        0.143862      7.09738e-06      0.00118657
                     0.000685266     0.000362758         0.126463       -0.180324      0.000385823      0.00122799        -0.965589        0.139103
                       -0.965102        0.144037      0.000238932       0.0012121        -0.169044       -0.136066      -0.00088028     0.000853482
                     1.40033e-05      0.00137741        -0.964452        0.139574     -0.000807809     0.000970026        -0.172142       -0.137239
253000                 0.0961454       -0.185104      0.000613903      0.00024667        -0.945705         0.24991      0.000155225      0.00117871
                     0.000754265     0.000254493         0.100397       -0.186631      0.000512262      0.00116637        -0.946131        0.244973
                       -0.945318        0.250023      0.000375957      0.00116771        -0.174858        -0.11341     -0.000819047      0.00093975
                     0.000188896      0.00134082        -0.945445        0.245245     -0.000738077      0.00102464         -0.17832       -0.114406
253200                 0.0704653       -0.186615      0.000691809     0.000145755        -0.914014        0.353423      0.000302666      0.00115324
                      0.00080644     0.000134868        0.0746771       -0.188998      0.000628053       0.0010921        -0.915047        0.348371
                       -0.913832        0.353525      0.000505595      0.00110871        -0.177631       -0.090665      -0.00074895      0.00102237
                     0.000354474      0.00128095        -0.914756        0.348547     -0.000666159       0.0010731         -0.18145      -0.0914349
253400                 0.0459207       -0.184367      0.000753018     2.61415e-05        -0.870946        0.453118      0.000447138      0.00110971
                     0.000840202     6.29633e-06         0.049916       -0.187611      0.000732199      0.00100692        -0.872618        0.448019
                       -0.870922        0.453244      0.000626159      0.00103632        -0.177381      -0.0682307     -0.000670164      0.00109994
                     0.000507322      0.00120024        -0.872646        0.448182     -0.000592685      0.00111567        -0.181549      -0.0687255
253600                 0.0230837       -0.178677      0.000792436    -0.000109338        -0.816928        0.547736      0.000586113      0.00104793
                      0.00085425    -0.000128665        0.0266846       -0.182752      0.000823977     0.000912558        -0.819266        0.542665
                       -0.817012        0.547909      0.000736199     0.000951939        -0.174181      -0.0465055     -0.000583143      0.00117103
                     0.000644736      0.00110157        -0.819521         0.54287     -0.000518176      0.00115265        -0.178682      -0.0466755
253800                0.00246199       -0.169952      0.000805591    -0.000256283        -0.752527        0.636065      0.000716851     0.000968135
                     0.000847555    -0.000267328       0.00549753       -0.174792      0.000902888      0.00081066        -0.755551        0.631103
                       -0.752671        0.636291      0.000834504     0.000857094        -0.168151      -0.0258786     -0.000488657      0.00123419
                     0.000764748     0.000988101        -0.755937        0.631378     -0.000443057      0.00118437        -0.172967      -0.0256723
254000                -0.0155138       -0.158674      0.000789203    -0.000408932        -0.678446        0.716948      0.000836461     0.000871044
                     0.000819352    -0.000406873          -0.0132        -0.16418      0.000968615     0.000702815        -0.682166        0.712184
                       -0.678606        0.717223      0.000920105     0.000753397        -0.159463     -0.00672333      -0.00038781      0.00128811
                      0.00086608     0.000863038        -0.682594        0.712529     -0.000367656      0.00121115        -0.164571     -0.00608761
254200                 -0.030501       -0.145389      0.000741643    -0.000560615        -0.595517        0.789305      0.000941995     0.000757948
                     0.000769153     -0.00054433       -0.0290447       -0.151434       0.00102098     0.000590534        -0.599933        0.784832
                       -0.595656        0.789612      0.000992256     0.000642503        -0.148338       0.0106087     -0.000282035      0.00133161
                     0.000948063     0.000729506        -0.600325        0.785223     -0.000292222      0.00123333        -0.153707       0.0117285
254400                -0.0422538       -0.130691      0.000663178    -0.000704378        -0.504696        0.852141       0.00103058     0.000630787
                     0.000696774    -0.000676573       -0.0417656       -0.137123       0.00105992     0.000475262        -0.509798        0.848056
                       -0.504789        0.852457       0.00105041     0.000526078        -0.135043       0.0257942     -0.000173064      0.00136382
                      0.00101053     0.000590444        -0.510096        0.848453      -0.00021693      0.00125122        -0.140634       0.0274536
254600                 -0.050631        -0.11521      0.000555931    -0.000833648        -0.407052        0.904565       0.00109958     0.000492183
                     0.000602383    -0.000800311       -0.0511932        -0.12186       0.00108546       0.0003584        -0.412818         0.90097
                       -0.407085        0.904864       0.00109422     0.000405776        -0.119887       0.0385438     -6.28694e-05      0.00138422
                      0.00105371     0.000448552        -0.412988        0.901323     -0.000141894       0.0012651        -0.125653        0.040798
254800                 -0.055601      -0.0995925      0.000423566    -0.000942814        -0.303763          0.9458       0.00114681     0.000345429
                     0.000486568    -0.000912099       -0.0572661       -0.106279       0.00109769      0.00024132        -0.310156          0.9428
                       -0.303733        0.946057       0.00112347     0.000283236        -0.103219       0.0486078      4.64235e-05      0.00139275
                      0.00107811     0.000306269        -0.310186        0.943055     -6.71763e-05      0.00127522        -0.109103       0.0515104
255000                -0.0572449      -0.0844841      0.000270804     -0.00102759        -0.196096        0.975199       0.00117073     0.000194414
                     0.000350411     -0.00100837        -0.060035      -0.0910189        0.0010968     0.000125398        -0.203066          0.9729
                        -0.19601        0.975394       0.00113808     0.000160073         -0.08542       0.0557813      0.000152648      0.00138981
                      0.00108446      0.00016578         -0.20297        0.973011      7.20478e-06       0.0012818       -0.0913538       0.0593822
255200                -0.0557568      -0.0705138      0.000102863     -0.00108516       -0.0854021        0.992257       0.00117063     4.34697e-05
                     0.000195576     -0.00108548       -0.0596645      -0.0767062       0.00108305     1.20267e-05       -0.0928813        0.990764
                      -0.0852739        0.992374       0.00113811     3.78949e-05       -0.0669015       0.0599082      0.000253718      0.00137634
                      0.00107362      2.9044e-05         -0.09269        0.990695      8.12651e-05      0.00128501       -0.0728066        0.064252
255400                 -0.051442      -0.0582735     -7.50369e-05     -0.00111405        0.0269066        0.996619       0.00114681     -0.00010285
                     2.43909e-05     -0.00113983       -0.0564311      -0.0639337       0.00105683    -9.73604e-05         0.019001        0.996033
                       0.0270582        0.996652       0.00112368    -8.16875e-05       -0.0480953       0.0608855       0.00034776      0.00135374
                      0.00104655    -0.000102173        0.0192416        0.995768      0.000155048        0.001285       -0.0538836       0.0660091
255600                -0.0447116         -0.0483     -0.000258049     -0.00111391         0.139369        0.988091       0.00110066    -0.000240055
                    -0.000160082     -0.00116798       -0.0507182      -0.0532424       0.00101869    -0.000201284         0.131137        0.988508
                        0.139523        0.988042       0.00109504    -0.000197035        -0.029449       0.0586656      0.000433229      0.00132387
                      0.00100427    -0.000226258         0.131374        0.988052      0.000228619      0.00128184       -0.0350233       0.0645967
255800                -0.0360744      -0.0410571     -0.000441912     -0.00108518         0.250494        0.966644        0.0010346    -0.000364031
                    -0.000354007     -0.00116681        -0.043008      -0.0451023      0.000969399    -0.000298227         0.242053        0.968154
                        0.250632        0.966524       0.00105255     -0.00030645       -0.0114189       0.0532581      0.000509011      0.00128896
                     0.000947866    -0.000341716         0.242236        0.967533      0.000302059      0.00127558       -0.0166742       0.0600136
256000                -0.0261258      -0.0369188     -0.000623025     -0.00102875          0.35878        0.932422      0.000952046    -0.000471344
                    -0.000552779     -0.00113374       -0.0338697      -0.0398955      0.000909973    -0.000386657         0.350265        0.935104
                        0.358888        0.932249      0.000996695    -0.000408152       0.00553801       0.0447308      0.000574506       0.0012515
                     0.000878487    -0.000447139          0.35035        0.934367      0.000375457      0.00126622       0.00071245       0.0523157
256200                -0.0155342      -0.0361541     -0.000798403    -0.000945683         0.462735        0.885743      0.000857107    -0.000559499
                    -0.000751084     -0.00106691        -0.023945      -0.0379011      0.000841781    -0.000465087         0.454298        0.889664
                        0.462805         0.88554      0.000928134     -0.00050024        0.0209704       0.0332089      0.000629678      0.00121416
                     0.000797369    -0.000541185         0.454258        0.888876      0.000448908       0.0012537        0.0166897        0.041616
