! TOUCHSTONE file generated by CST MICROWAVE STUDIO
! Date and time: Sun Sep 28 17:45:56 2025
! Project name: biblioteca3_folgaOK.cst
! Parameters = {H=600; Lx=200; Ly=260; Nedge=4; P=520; k=0; mesh_pilar_nm=40; n=0; t_air=3800; t_sub=6000; wavelength_nm=0}
! Header version: 2018
! Port assignment regex: !\s*Touchstone port\s*([0-9]+)\s*=\s*(CST MWS port|CST DS port)\s*([0-9]+|Zmin|Zmax)\s*\(\"(.*)\"\)(\s*mode\s*([0-9]+))?.*
! Touchstone port assignment:
! Touchstone port 1 = CST MWS port Zmin ("") mode 1
! Touchstone port 2 = CST MWS port Zmin ("") mode 2
! Touchstone port 3 = CST MWS port Zmax ("") mode 1
! Touchstone port 4 = CST MWS port Zmax ("") mode 2
! S-Parameters are not renormalized. Each port impedance will be approximated by the real part at minimum frequency. The values are described via the [Reference] keyword.
! Default impedance is overridden by [Reference]
[Version] 2.0
# GHz S RI R 376.73
[Number of Ports] 4
[Reference]
376.73 376.73 376.73 376.73 
[Number of Frequencies] 401
[Network Data]
250000                  0.295679        0.245414      0.000585087     9.80113e-05         0.251506        0.888358       0.00156244     0.000804731
                     0.000723448     6.57718e-05         0.102396       0.0321319       0.00144289     0.000626164        -0.951947        0.286545
                        0.251727        0.888387       0.00134704     0.000722374         0.123237       -0.364003      0.000261877    -0.000133816
                      0.00138683     0.000778722        -0.951821        0.286448      0.000294015    -0.000170002       -0.0676263       0.0833404
250200                  0.298749         0.24531      0.000580518     6.35741e-05         0.306385        0.869866       0.00159215     0.000694765
                     0.000716586     5.89428e-05        0.0962827       0.0445379       0.00145781     0.000521886        -0.934841        0.338608
                        0.306606        0.869751       0.00141037     0.000640068        0.0793925       -0.378269      0.000120733    -0.000166608
                      0.00148353     0.000726744        -0.934836        0.338474      0.000199248    -0.000234021       -0.0454014       0.0958195
250400                  0.300965        0.244702      0.000573659     3.01431e-05         0.360207        0.848376       0.00161856     0.000589102
                     0.000709823     5.16078e-05        0.0900406       0.0568132       0.00147146     0.000416168        -0.914701        0.389631
                        0.360371        0.848147        0.0014722     0.000553146        0.0333668       -0.386398       5.0122e-06    -0.000174916
                      0.00157876     0.000658359        -0.914765        0.389435      8.63574e-05    -0.000285142       -0.0214151        0.104225
250600                  0.302327        0.243578      0.000564536    -2.12971e-06         0.412855         0.82391       0.00164233     0.000487193
                     0.000703143     4.36404e-05        0.0836847       0.0689155       0.00148371     0.000309222        -0.891609        0.439412
                        0.412927        0.823601       0.00153223     0.000461586       -0.0138552       -0.387973     -9.10005e-05    -0.000169064
                      0.00166862     0.000573379        -0.891705        0.439127     -4.29532e-05    -0.000316551       0.00364776        0.108311
250800                  0.302832        0.241925      0.000553184     -3.3091e-05         0.464211        0.796488       0.00166401     0.000388473
                     0.000696507     3.48864e-05        0.0772289       0.0808041       0.00149439     0.000201279        -0.865661        0.487756
                        0.464168        0.796132       0.00159013     0.000365396       -0.0612017       -0.382758     -0.000172176    -0.000154552
                      0.00174914     0.000472914        -0.865766        0.487358     -0.000183941    -0.000321316        0.0290661        0.107946
251000                  0.302476        0.239736      0.000539646    -6.25865e-05         0.514149        0.766123       0.00168409     0.000292361
                     0.000689847     2.51586e-05        0.0706855       0.0924411       0.00150331     9.25841e-05         -0.83697        0.534482
                        0.513984        0.765754       0.00164558     0.000264625        -0.107551       -0.370715     -0.000242298    -0.000134279
                      0.00181681     0.000359357        -0.837074         0.53395     -0.000328462    -0.000294044        0.0541033        0.103123
251200                  0.301256        0.237004      0.000523979    -9.04609e-05         0.562532        0.732829       0.00170295     0.000198249
                     0.000683047      1.4234e-05        0.0640662        0.103791       0.00151027    -1.66058e-05         -0.80566        0.579419
                        0.562247        0.732477        0.0016982     0.000159362        -0.151775       -0.352015     -0.000304237    -0.000109696
                       0.0018691     0.000236113        -0.805762        0.578738     -0.000465711    -0.000232837        0.0780287       0.0939555
251400                  0.299167        0.233728      0.000506248    -0.000116559         0.609213         0.69662       0.00172095       0.0001055
                     0.000675919     1.85199e-06         0.057382        0.114819       0.00151501    -0.000126026        -0.771866        0.622414
                         0.60882        0.696308       0.00174764     4.97454e-05        -0.192779       -0.327036     -0.000360164    -8.13881e-05
                      0.00190476     0.000107108        -0.771974        0.621576      -0.00058426    -0.000140699         0.100139       0.0806784
251600                  0.296204         0.22991       0.00048653    -0.000140727         0.654033         0.65751       0.00173831     1.34375e-05
                     0.000668177    -1.22793e-05        0.0506434        0.125494       0.00151728    -0.000235406        -0.735733        0.663325
                        0.653548        0.657256        0.0017935    -6.40328e-05        -0.229546       -0.296354     -0.000411738    -4.93671e-05
                      0.00192386    -2.37669e-05         -0.73586         0.66233     -0.000674801    -2.54421e-05         0.119778       0.0636406
251800                  0.292362        0.225556      0.000464914     -0.00016281         0.696818        0.615521       0.00175522    -7.86609e-05
                     0.000659389    -2.84649e-05        0.0438608        0.135787       0.00151679    -0.000344476        -0.697414        0.702026
                        0.696263        0.615338       0.00183536    -0.000181719        -0.261171       -0.260721     -0.000460214    -1.31982e-05
                       0.0019276    -0.000153134        -0.697574        0.700881     -0.000732365     0.000102109         0.136357       0.0432948
252000                  0.287637        0.220676      0.000441501    -0.000182657          0.73738        0.570682       0.00177173    -0.000171568
                     0.000648931    -4.69824e-05        0.0370444         0.14567       0.00151322    -0.000452968        -0.657063        0.738406
                        0.736778        0.570574       0.00187281    -0.000302994        -0.286893       -0.221046     -0.000506507     2.79677e-05
                      0.00191791    -0.000278429        -0.657276        0.737127     -0.000756981     0.000230821         0.149369       0.0201843
252200                  0.282023        0.215286      0.000416405    -0.000200117         0.775516        0.523034       0.00178779    -0.000266113
                     0.000635932    -6.80022e-05        0.0302047        0.155118       0.00150624    -0.000560617        -0.614843        0.772366
                         0.77489           0.523       0.00190541    -0.000427465        -0.306123       -0.178359     -0.000551179     7.54314e-05
                      0.00189708    -0.000397992        -0.615123        0.770978     -0.000752684      0.00035157         0.158407     -0.00507256
252400                  0.275518        0.209406      0.000389754    -0.000215044         0.811007        0.472631       0.00180321    -0.000363176
                     0.000619243    -9.14544e-05        0.0233519        0.164108       0.00149553    -0.000667164        -0.570914        0.803825
                        0.810378        0.472667       0.00193271    -0.000554663        -0.318459       -0.133779     -0.000594343     0.000131035
                      0.00186742       -0.000511        -0.571275        0.802358     -0.000725693     0.000458385         0.163167      -0.0318004
252600                   0.26812         0.20306      0.000361688    -0.000227297         0.843623         0.41955        0.0018176    -0.000463685
                     0.000597464     -0.00011683        0.0164967        0.172618       0.00148074    -0.000772357        -0.525441        0.832711
                        0.843009        0.419647       0.00195423    -0.000684037          -0.3237      -0.0884799     -0.000635411     0.000197284
                      0.00183102    -0.000617303        -0.525889        0.831202     -0.000682654     0.000548409         0.163464      -0.0592861
252800                  0.259829         0.19628      0.000332364    -0.000236737         0.873117        0.363889       0.00183037    -0.000568591
                     0.000569108    -0.000142941       0.00964992        0.180627       0.00146154    -0.000875953        -0.478585        0.858967
                        0.872534        0.364034       0.00196952    -0.000814955        -0.321848      -0.0436548     -0.000672622     0.000277451
                      0.00178959    -0.000717231        -0.479119        0.857459     -0.000629496      0.00062118         0.159229       -0.086798
253000                   0.25065        0.189101      0.000301952    -0.000243234         0.899236        0.305775       0.00184066    -0.000678834
                     0.000532965    -0.000167727       0.00282279        0.188119       0.00143759     -0.00097771        -0.430506        0.882548
                        0.898694        0.305954       0.00197808    -0.000946698        -0.313113    -0.000478836     -0.000702173     0.000375498
                      0.00174449    -0.000811412        -0.431119        0.881085     -0.000570919     0.000677741         0.150512       -0.113606
253200                  0.240589        0.181563      0.000270639    -0.000246664         0.921719        0.245364        0.0018473    -0.000795287
                     0.000488666    -0.000188296      -0.00397332        0.195076       0.00140858     -0.00107739        -0.381361        0.903417
                        0.921224        0.245562       0.00197941     -0.00107847        -0.297903       0.0399227     -0.000716823     0.000495413
                      0.00169665    -0.000900624        -0.382034        0.902047     -0.000510343     0.000719892         0.137479       -0.139002
253400                  0.229657        0.173714      0.000238628    -0.000246916         0.940303        0.182847       0.00184878    -0.000918671
                     0.000437272    -0.000201396       -0.0107267        0.201483       0.00137422     -0.00117476        -0.331305         0.92155
                        0.939857        0.183052       0.00197302      -0.0012094        -0.276813       0.0765076     -0.000704114     0.000639042
                       0.0016467     -0.00098569        -0.332009        0.920318     -0.000450082     0.000749678         0.120405       -0.162313
253600                  0.217871        0.165602      0.000206141    -0.000243886         0.954726        0.118455       0.00184323     -0.00104944
                     0.000381487    -0.000204337       -0.0174253        0.207327       0.00133423     -0.00126958        -0.280487         0.93693
                        0.954329        0.118654       0.00195837     -0.00133855        -0.250613        0.108348     -0.000645596        0.000801
                      0.00159496      -0.0010674        -0.281179        0.935879     -0.000391598     0.000769087        0.0996661       -0.182924
253800                  0.205252        0.157283      0.000173413    -0.000237485         0.964737       0.0524566       0.00182841     -0.00118764
                     0.000325157    -0.000195963       -0.0240569        0.212596       0.00128837     -0.00136161        -0.229054        0.949545
                        0.964386       0.0526387       0.00193497     -0.00146494        -0.220229        0.134658     -0.000521404     0.000960496
                      0.00154153     -0.00114648        -0.229678        0.948713     -0.000335734     0.000779902        0.0757292       -0.200289
254000                  0.191831        0.148814      0.000140699    -0.000227642           0.9701      -0.0148395       0.00180184     -0.00133274
                     0.000272166    -0.000177084       -0.0306089         0.21728       0.00123645     -0.00145058        -0.177146        0.959393
                         0.96979      -0.0146802       0.00190229     -0.00158754        -0.186715        0.154821     -0.000326041      0.00107705
                      0.00148633     -0.00122354        -0.177631        0.958808     -0.000282913      0.00078365        0.0491379       -0.213941
254200                  0.177641        0.140255      0.000108273    -0.000214302         0.970604      -0.0830828       0.00176092     -0.00148348
                     0.000225343    -0.000150059       -0.0370686         0.22137       0.00117828     -0.00153624        -0.124902        0.966477
                        0.970326      -0.0829501       0.00185983     -0.00170535        -0.151229        0.168414     -8.88909e-05      0.00110673
                      0.00142914     -0.00129909         -0.12516        0.966152     -0.000233281     0.000781596        0.0204991       -0.223507
254400                  0.162727        0.131669      7.64226e-05    -0.000197432         0.966064       -0.151885       0.00170314     -0.00163775
                     0.000185973    -0.000117852       -0.0434232        0.224858       0.00111374     -0.00161829       -0.0724521        0.970803
                        0.965814       -0.151779       0.00180711     -0.00181735        -0.114995        0.175227      0.000131197      0.00103821
                      0.00136964     -0.00137353       -0.0723804         0.97073     -0.000186814     0.000774775      -0.00953214       -0.228712
254600                   0.14714        0.123118      4.54545e-05    -0.000177025         0.956338       -0.220821       0.00162644     -0.00179256
                     0.000153976    -8.31605e-05       -0.0496595        0.227737       0.00104274     -0.00169645       -0.0199269        0.972382
                        0.956109       -0.220741       0.00174371     -0.00192258       -0.0792692        0.175275      0.000286775     0.000905352
                       0.0013074     -0.00144711       -0.0194055        0.972521     -0.000143383      0.00076402       -0.0402684       -0.229386
254800                  0.130939        0.114663      1.56897e-05    -0.000153101         0.941326       -0.289437       0.00152952     -0.00194413
                     0.000128445    -4.79573e-05       -0.0557645        0.230002      0.000965239     -0.00177038        0.0325489        0.971227
                        0.941115       -0.289378       0.00166924     -0.00202017       -0.0452958        0.168808      0.000369176     0.000756234
                      0.00124198     -0.00151998         0.033651        0.971494     -0.000102805     0.000749997        -0.071006       -0.225466
255000                   0.11419        0.106363      -1.2537e-05    -0.000125714         0.920982       -0.357254       0.00141221     -0.00208819
                     0.000108163    -1.34283e-05        -0.061725        0.231649      0.000881243     -0.00183976        0.0848533        0.967355
                        0.920788        -0.35721       0.00158344     -0.00210932        -0.014261        0.156312      0.000396305     0.000622543
                      0.00117286     -0.00159217        0.0866657          0.9676     -6.48715e-05     0.000733235        -0.101041       -0.216997
255200                 0.0969698       0.0982753     -3.88798e-05     -9.4951e-05         0.895317       -0.423776        0.0012756     -0.00222034
                     9.19509e-05     1.98707e-05        -0.067528        0.232676        0.0007908     -0.00190421         0.136867        0.960786
                        0.895141       -0.423743       0.00148617     -0.00218936        0.0127529        0.138496      0.000390592     0.000515553
                      0.00109952     -0.00166359         0.139489        0.960771     -2.93666e-05     0.000714153        -0.129686       -0.204128
255400                 0.0793584       0.0904501      -6.2985e-05    -6.09429e-05         0.864402       -0.488503       0.00112211      -0.0023366
                     7.88282e-05     5.18066e-05       -0.0731604         0.23308      0.000694011     -0.00196337         0.188473        0.951538
                        0.864246       -0.488475       0.00137743     -0.00225973         0.034814        0.116277      0.000368716     0.000434903
                      0.00102143       -0.001734         0.191914        0.950929      3.92094e-06     0.000693083        -0.156282       -0.187114
255600                 0.0614439        0.082933     -8.44953e-05    -2.38627e-05         0.828371       -0.550934      0.000955241     -0.00243383
                      6.8058e-05     8.24909e-05       -0.0786096        0.232861      0.000591024     -0.00201683         0.239555        0.939634
                        0.828239       -0.550908        0.0012574     -0.00232001        0.0511833        0.090743      0.000340728     0.000376128
                     0.000938066     -0.00180306          0.24365        0.938029      3.51915e-05     0.000670287        -0.180217       -0.166302
255800                 0.0433191       0.0757621     -0.000103055     1.60681e-05         0.787419       -0.610585      0.000779185     -0.00251012
                     5.91303e-05     0.000112155       -0.0838629         0.23202      0.000482041     -0.00206418         0.289998        0.925097
                        0.787319       -0.610558       0.00112647     -0.00236987        0.0613512       0.0631183      0.000312037     0.000334298
                     0.000848932     -0.00187029         0.294323        0.922146      6.46313e-05     0.000645971        -0.200939       -0.142131
256000                 0.0250804       0.0689681     -0.000118316      5.8577e-05         0.741804       -0.666994      0.000598344     -0.00256484
                     5.17235e-05      0.00014107       -0.0889082        0.230558      0.000367314     -0.00210501         0.339688        0.907952
                        0.741743       -0.666967      0.000985223      -0.0024091        0.0650648       0.0347104      0.000285317     0.000305238
                     0.000753587     -0.00193507         0.343594        0.903566      9.24107e-05     0.000620294        -0.217964       -0.115118
256200                0.00682636        0.062573     -0.000129944     0.000103338         0.691838       -0.719733      0.000416848     -0.00259859
                     4.56648e-05     0.000169504       -0.0937336        0.228477      0.000247146     -0.00213888         0.388509        0.888225
                        0.691821       -0.719709      0.000834448     -0.00243758        0.0623437      0.00685514      0.000261763     0.000285734
                     0.000651661     -0.00199668         0.391355        0.882725      0.000118684     0.000593384        -0.230892      -0.0858499
