! TOUCHSTONE file generated by CST MICROWAVE STUDIO
! Date and time: Sun Sep 28 17:20:10 2025
! Project name: biblioteca3_folgaOK.cst
! Parameters = {H=600; Lx=200; Ly=260; Nedge=10; P=520; k=0; mesh_pilar_nm=40; n=0; t_air=3800; t_sub=3000; wavelength_nm=0}
! Header version: 2018
! Port assignment regex: !\s*Touchstone port\s*([0-9]+)\s*=\s*(CST MWS port|CST DS port)\s*([0-9]+|Zmin|Zmax)\s*\(\"(.*)\"\)(\s*mode\s*([0-9]+))?.*
! Touchstone port assignment:
! Touchstone port 1 = CST MWS port Zmin ("") mode 1
! Touchstone port 2 = CST MWS port Zmin ("") mode 2
! Touchstone port 3 = CST MWS port Zmax ("") mode 1
! Touchstone port 4 = CST MWS port Zmax ("") mode 2
! S-Parameters are not renormalized. Each port impedance will be approximated by the real part at minimum frequency. The values are described via the [Reference] keyword.
! Default impedance is overridden by [Reference]
[Version] 2.0
# GHz S RI R 376.73
[Number of Ports] 4
[Reference]
376.73 376.73 376.73 376.73 
[Number of Frequencies] 401
[Network Data]
250000                -0.0189827        0.166881      0.000248188      -0.0013408        -0.564726        0.807939      -0.00121715     -0.00259172
                     0.000211039      -0.0012117         0.237626       0.0227745      0.000418241     -0.00245339        -0.793701       -0.559489
                       -0.564317        0.807941      0.000321036     -0.00237789         0.150168      -0.0752443     -0.000393889     -0.00112385
                     -0.00120329     -0.00258471         -0.79324        -0.55882     -0.000224421      -0.0011566        -0.101329       -0.216175
250200               -0.00542949        0.179768      0.000128444     -0.00131413        -0.490499        0.852558      -0.00143899     -0.00246409
                     0.000136356     -0.00117829         0.233889       0.0134317      0.000227621     -0.00247705        -0.833106       -0.501029
                       -0.490355        0.852299      0.000152389     -0.00237985          0.15266      -0.0951134     -0.000482663    -0.000994519
                     -0.00144102     -0.00248364        -0.832549       -0.500464     -0.000314211     -0.00104794        -0.121519       -0.200329
250400                0.00964219        0.191161      1.75055e-05     -0.00127065         -0.41284        0.890308      -0.00164609     -0.00231756
                     6.56208e-05     -0.00113961         0.229691      0.00459723      3.63619e-05     -0.00248745        -0.868264       -0.439686
                       -0.412907        0.889916     -1.72581e-05     -0.00237415         0.152118       -0.116204     -0.000550156    -0.000859176
                     -0.00166835     -0.00235176        -0.867641       -0.439229     -0.000383482    -0.000933349         -0.13965       -0.182453
250600                 0.0260492        0.200911     -8.16541e-05     -0.00121315        -0.332401        0.920948      -0.00183705     -0.00215399
                    -1.01193e-06     -0.00109596         0.225083     -0.00369966      -0.00015479     -0.00248466        -0.898952       -0.375764
                       -0.332615        0.920516     -0.000187659     -0.00236034         0.148324       -0.138024      -0.00059631    -0.000721153
                      -0.0018797     -0.00219117        -0.898294       -0.375412     -0.000432792    -0.000816517        -0.155504       -0.162801
250800                 0.0435948        0.208888     -0.000167061     -0.00114493        -0.249841        0.944299      -0.00201071     -0.00197526
                    -6.35986e-05     -0.00104753         0.220117      -0.0114346     -0.000345108     -0.00246875        -0.924969       -0.309585
                       -0.250135        0.943894     -0.000358522     -0.00233798         0.141143       -0.160058     -0.000621581    -0.000583625
                     -0.00207017     -0.00200535        -0.924301       -0.309331     -0.000463284    -0.000700628        -0.168893       -0.141648
251000                 0.0620715         0.21499     -0.000237766     -0.00106944         -0.16583        0.960247      -0.00216613     -0.00178333
                    -0.000122582     -0.00099422         0.214848      -0.0185879     -0.000533872     -0.00243982        -0.946137       -0.241487
                       -0.166137        0.959906     -0.000529496     -0.00230663         0.130519       -0.181773     -0.000626886    -0.000449537
                     -0.00223595      -0.0017989        -0.945481       -0.241321     -0.000476495    -0.000588315        -0.179665       -0.119292
251200                 0.0812648         0.21914     -0.000293735    -0.000989915       -0.0810341        0.968741       -0.0023026      -0.0015801
                    -0.000179291    -0.000935214         0.209333       -0.025145     -0.000720366     -0.00239793        -0.962302       -0.171823
                      -0.0812959        0.968479     -0.000700173     -0.00226581         0.116475       -0.202635     -0.000613525    -0.000321554
                     -0.00237467     -0.00157707        -0.961675       -0.171733     -0.000474178     -0.00048168        -0.187701      -0.0960462
251400                  0.100956        0.221287     -0.000335649    -0.000909216       0.00388691        0.969787      -0.00241959     -0.00136749
                    -0.000237802    -0.000867651         0.203628      -0.0310968     -0.000903867     -0.00234317        -0.973336       -0.100962
                      0.00371892        0.969603     -0.000870076     -0.00221506        0.0991173       -0.222118     -0.000583118    -0.000202023
                     -0.00248544     -0.00134529         -0.97275       -0.100932     -0.000458178    -0.000382345        -0.192917      -0.0722375
251600                  0.120925        0.221402     -0.000364681    -0.000829669        0.0882845        0.963453      -0.00251676     -0.00114738
                    -0.000315575     -0.00078085         0.197793      -0.0364391      -0.00108364     -0.00227566        -0.979137      -0.0292826
                       0.0882464        0.963329      -0.00103865     -0.00215394        0.0786271       -0.239714     -0.000537533    -9.29488e-05
                     -0.00256881     -0.00110869        -0.978601      -0.0292975     -0.000430339    -0.000291525        -0.195271      -0.0482009
251800                  0.140953        0.219484     -0.000382285    -0.000753054         0.171527        0.949858      -0.00259395    -0.000921579
                    -0.000621892    -0.000653069         0.191883      -0.0411734      -0.00125891     -0.00219548        -0.979632       0.0428269
                        0.171642        0.949771      -0.00120527     -0.00208199        0.0552607       -0.254944     -0.000478823     4.01326e-06
                     -0.00262655    -0.000871642        -0.979149       0.0427816     -0.000392449      -0.0002101        -0.194758      -0.0242759
252000                  0.160827        0.215554     -0.000390023    -0.000680641         0.253004        0.929177      -0.00265112     -0.00069185
                    -0.000204704     -0.00100116         0.185958      -0.0453066      -0.00142892     -0.00210278        -0.974775         0.11497
                        0.253281        0.929096      -0.00136922     -0.00199882        0.0293438       -0.267368     -0.000409172     8.75606e-05
                     -0.00266123    -0.000637492        -0.974346        0.114908     -0.000346204     -0.00013868        -0.191416    -0.000801251
252200                  0.180339        0.209654     -0.000389441    -0.000613257         0.332131        0.901631       -0.0026884    -0.000459884
                    -0.000256245    -0.000788748         0.180073      -0.0488508      -0.00159282     -0.00199772        -0.964554        0.186743
                        0.332566        0.901525      -0.00152969     -0.00190404       0.00126573       -0.276596     -0.000330841     0.000156737
                     -0.00267585    -0.000408407        -0.964176        0.186677     -0.000293205    -7.76662e-05         -0.18532       0.0218895
252400                  0.199291         0.20185     -0.000381984    -0.000551375         0.408349        0.867484        -0.002706      -0.0002273
                    -0.000289272    -0.000696707         0.174283      -0.0518235      -0.00174978      -0.0018805        -0.948984        0.257742
                        0.408928        0.867327       -0.0016858     -0.00179733       -0.0285282       -0.282295      -0.00024612     0.000210923
                      -0.0026734     -0.00018538        -0.948652        0.257682     -0.000234954     -2.7297e-05        -0.176587       0.0434729
252600                  0.217497        0.192224     -0.000368951    -0.000495197         0.481133        0.827046      -0.00270428     4.35958e-06
                    -0.000309053    -0.000625745          0.16864      -0.0542474       -0.0018989     -0.00175136        -0.928115        0.327561
                        0.481831        0.826813      -0.00183653     -0.00167846       -0.0595448       -0.284199     -0.000157291     0.000249821
                     -0.00265646     3.16231e-05        -0.927821        0.327513     -0.000172866     1.23167e-05        -0.165371       0.0636402
252800                   0.23478        0.180879     -0.000351479    -0.000444723         0.549988         0.78066      -0.00268365     0.000233631
                    -0.000320409    -0.000562871         0.163196        -0.05615      -0.00203927     -0.00161061        -0.902024        0.395794
                        0.550774        0.780337      -0.00198083     -0.00154724       -0.0912533       -0.282112     -6.65858e-05     0.000273441
                     -0.00262692     0.000243416        -0.901762        0.395765     -0.000108286     4.11678e-05        -0.151863       0.0821022
253000                  0.250981        0.167932     -0.000330538    -0.000399822         0.614455        0.728705      -0.00264463     0.000459125
                    -0.000325247    -0.000504726         0.157997      -0.0575634      -0.00216993     -0.00145864        -0.870825        0.462043
                        0.615295        0.728285       -0.0021175     -0.00140364        -0.123095       -0.275917       2.3842e-05     0.000282082
                     -0.00258573     0.000451249        -0.870585        0.462033     -4.25017e-05     5.93389e-05         -0.13629       0.0985941
253200                  0.265954        0.153513     -0.000306946    -0.000360271         0.674112         0.67159       -0.0025878     0.000679533
                    -0.000324541    -0.000450231         0.153087      -0.0585244       -0.0022899     -0.00129592        -0.834662        0.525913
                        0.674969        0.671076      -0.00224531     -0.00124771        -0.154498       -0.265577      0.000111952      0.00027631
                     -0.00253289     0.000656413        -0.834435        0.525923      2.32407e-05      6.6997e-05         -0.11891        0.112879
253400                   0.27957        0.137767     -0.000281382      -0.0003258         0.728572        0.609753      -0.00251381     0.000893616
                    -0.000318919    -0.000399064         0.148505      -0.0590735      -0.00239819     -0.00112302        -0.793708        0.587023
                        0.729411        0.609154      -0.00236292     -0.00107968        -0.184882       -0.251136      0.000195841     0.000256938
                     -0.00246744     0.000859838        -0.793487         0.58705      8.77244e-05     6.43948e-05        -0.100007        0.124753
253600                  0.291716        0.120847     -0.000254404    -0.000296113         0.777489        0.543652      -0.00242336      0.00110021
                    -0.000308867    -0.000351203         0.144288       -0.059255      -0.00249381    -0.000940596        -0.748171           0.645
                        0.778277        0.542989      -0.00246896    -0.000899924        -0.213678       -0.232724      0.000273773     0.000225004
                     -0.00238775      0.00106173        -0.747949        0.645039      0.000149755     5.18774e-05       -0.0798922        0.134046
253800                  0.302299        0.102915     -0.000226469     -0.00027091         0.820552         0.47377       -0.0023172      0.00129822
                    -0.000294811    -0.000306761         0.140466      -0.0591164      -0.00257575    -0.000749453        -0.698287        0.699489
                        0.821263         0.47307      -0.00256203    -0.000709023        -0.240337       -0.210549      0.000344196     0.000181741
                     -0.00229187       0.0012613        -0.698059        0.699534       0.00020816      2.9894e-05       -0.0588952        0.140631
254000                  0.311241       0.0841401     -0.000197949    -0.000249899         0.857493        0.400607      -0.00219612      0.00148662
                    -0.000277159     -0.00026591         0.137064      -0.0587078      -0.00264306    -0.000550506        -0.644321        0.750153
                        0.858107        0.399902       -0.0026407    -0.000507748        -0.264341       -0.184897      0.000405766     0.000128554
                     -0.00217796      0.00145673        -0.644085        0.750197       0.00026179      -9.896e-07       -0.0373602        0.144417
254200                  0.318486       0.0646947     -0.000169147    -0.000232804          0.88808        0.324678      -0.00206097      0.00166444
                     -0.00025632    -0.000228844         0.134104      -0.0580817      -0.00269481    -0.000344803        -0.586565        0.796673
                        0.888587        0.324003      -0.00270359    -0.000297087        -0.285211       -0.156126      0.000457359     6.69884e-05
                     -0.00204476      0.00164525         -0.58632        0.796707      0.000309529    -4.00769e-05       -0.0156412         0.14536
254400                  0.323991       0.0447546     -0.000140312    -0.000219369         0.912122        0.246511      -0.00191262      0.00183078
                    -0.000232719    -0.000195761         0.131601      -0.0572922      -0.00273015    -0.000133526         -0.52534        0.838754
                        0.912521        0.245905      -0.00274935    -7.82555e-05        -0.302526       -0.124659       0.00049809    -1.30198e-06
                     -0.00189197      0.00182347        -0.525087        0.838771      0.000350316    -8.65283e-05       0.00590341        0.143459
254600                  0.327737       0.0244962     -0.000111649    -0.000209362         0.929469        0.166648      -0.00175198      0.00198479
                    -0.000206801    -0.000166847         0.129564      -0.0563945      -0.00274831     8.20122e-05        -0.460988        0.876127
                        0.929767        0.166146      -0.00277674     0.000147307        -0.315919      -0.0909786      0.000527316    -7.45845e-05
                     -0.00172038      0.00198784         -0.46073         0.87612      0.000383162    -0.000139352        0.0269171        0.138758
254800                  0.329719      0.00409538     -8.33301e-05    -0.000202575         0.940011       0.0856341         -0.00158      0.00212568
                    -0.000179039    -0.000142265         0.127997      -0.0554445      -0.00274865     0.000300374        -0.393875        0.908548
                        0.940225       0.0852709      -0.00278467     0.000377941        -0.325097      -0.0556139      0.000544646    -0.000151083
                     -0.00153186      0.00213508        -0.393617         0.90851      0.000407183      -0.0001974        0.0470502        0.131345
255000                   0.32995      -0.0162749     -5.55037e-05    -0.000198826         0.943677      0.00402547      -0.00139765      0.00225272
                    -0.000149938    -0.000122143         0.126899      -0.0544982      -0.00273064     0.000520007        -0.324386        0.935805
                        0.943833      0.00382945      -0.00277222      0.00061178        -0.329838       -0.019134      0.000549939     -0.00022901
                     -0.00132914      0.00226254        -0.324135         0.93573      0.000421634    -0.000259371        0.0659659        0.121352
255200                  0.328462      -0.0364458     -2.83023e-05    -0.000197953         0.940439        -0.07762      -0.00120596      0.00236523
                    -0.000120035    -0.000106564         0.126262      -0.0536109      -0.00269392     0.000739261        -0.252925        0.957713
                        0.940569      -0.0776269      -0.00273869     0.000846779            -0.33       0.0178635        0.0005433      -0.0003066
                     -0.00111544      0.00236846        -0.252688        0.957598      0.000425938    -0.000323824        0.0833457        0.108952
255400                  0.325301       -0.056254     -1.84924e-06    -0.000199821         0.930309       -0.158742      -0.00100596      0.00246257
                    -8.98968e-05    -9.55535e-05         0.126074      -0.0528369      -0.00263832     0.000956408        -0.179909        0.974123
                        0.930451       -0.158546      -0.00268363      0.00108074        -0.325524       0.0547641      0.000525073    -0.000382142
                    -0.000894162      0.00245196        -0.179695        0.973967      0.000419732    -0.000389198        0.0988943       0.0943573
255600                   0.32053      -0.0755436      2.37341e-05    -0.000204314         0.913341       -0.238782      -0.00079874      0.00254418
                    -6.01183e-05    -8.90652e-05         0.126316      -0.0522289      -0.00256384      0.00116967        -0.105768        0.984919
                        0.913535       -0.238379       -0.0026069      0.00131136        -0.316438       0.0909469      0.000495831    -0.000454009
                    -0.000668558      0.00251301        -0.105586        0.984721      0.000402887    -0.000453844         0.112345       0.0778171
255800                  0.314226      -0.0941673       4.8322e-05    -0.000211334         0.889631       -0.317182     -0.000585427      0.00260954
                    -3.13119e-05    -8.69667e-05         0.126963      -0.0518374      -0.00247072      0.00137723       -0.0309408        0.990017
                         0.88992       -0.316578      -0.00250865      0.00153627        -0.302851        0.125797      0.000456357    -0.000520687
                    -0.000441524      0.00255218       -0.0308005         0.98978      0.000375546     -0.00051607         0.123463       0.0596117
256000                   0.30648       -0.111988      7.17783e-05    -0.000220802         0.859317       -0.393392     -0.000367178      0.00265817
                    -4.09544e-06    -8.90257e-05         0.127989      -0.0517101      -0.00235939      0.00157729        0.0441264        0.989371
                        0.859743       -0.392603      -0.00238938      0.00175311        -0.284958        0.158716      0.000407627    -0.000580799
                    -0.000215497       0.0025705         0.044217          0.9891      0.000338132    -0.000574183         0.132052       0.0400501
256200                  0.297395       -0.128879      9.39481e-05    -0.000232654         0.822579       -0.466868     -0.000145197      0.00268969
                     2.09273e-05    -9.48968e-05         0.129358      -0.0518916       -0.0022305       0.0017681         0.118985        0.982972
                         0.82318       -0.465922      -0.00224991      0.00195957        -0.263037        0.189135       0.00035079     -0.00063313
                     7.57289e-06      0.00256926         0.119019        0.982672      0.000291361    -0.000626553         0.137953       0.0194641
