! TOUCHSTONE file generated by CST MICROWAVE STUDIO
! Date and time: Sun Sep 28 17:45:59 2025
! Project name: biblioteca3_folgaOK.cst
! Parameters = {H=600; Lx=200; Ly=260; Nedge=20; P=520; k=0; mesh_pilar_nm=40; n=0; t_air=3800; t_sub=6000; wavelength_nm=0}
! Header version: 2018
! Port assignment regex: !\s*Touchstone port\s*([0-9]+)\s*=\s*(CST MWS port|CST DS port)\s*([0-9]+|Zmin|Zmax)\s*\(\"(.*)\"\)(\s*mode\s*([0-9]+))?.*
! Touchstone port assignment:
! Touchstone port 1 = CST MWS port Zmin ("") mode 1
! Touchstone port 2 = CST MWS port Zmin ("") mode 2
! Touchstone port 3 = CST MWS port Zmax ("") mode 1
! Touchstone port 4 = CST MWS port Zmax ("") mode 2
! S-Parameters are not renormalized. Each port impedance will be approximated by the real part at minimum frequency. The values are described via the [Reference] keyword.
! Default impedance is overridden by [Reference]
[Version] 2.0
# GHz S RI R 376.73
[Number of Ports] 4
[Reference]
376.73 376.73 376.73 376.73 
[Number of Frequencies] 401
[Network Data]
250000                  0.295679        0.245414      0.000585086     9.80121e-05         0.251506        0.888358       0.00156244     0.000804731
                     0.000723447     6.57729e-05         0.102396       0.0321319       0.00144289     0.000626154        -0.951947        0.286545
                        0.251727        0.888387       0.00134704     0.000722375         0.123237       -0.364003      0.000261877    -0.000133818
                      0.00138683     0.000778722        -0.951821        0.286448      0.000294011    -0.000170001       -0.0676263       0.0833404
250200                  0.298768        0.245322      0.000580602     6.34447e-05         0.306476        0.869854       0.00159453     0.000686158
                     0.000716697     5.89202e-05        0.0962909       0.0445668       0.00145874     0.000521276        -0.934808        0.338669
                        0.306632        0.869729       0.00141132     0.000626479        0.0793296       -0.378275      0.000158183    -0.000157047
                      0.00148339     0.000726506         -0.93475        0.338446      0.000199129    -0.000233504       -0.0453605       0.0957809
250400                  0.300989        0.244717      0.000573757     2.99781e-05         0.360314        0.848353       0.00162021      0.00057874
                     0.000709974      5.1567e-05        0.0900515       0.0568463       0.00147266     0.000415435        -0.914656        0.389702
                          0.3604        0.848117       0.00147323       0.0005363        0.0332877       -0.386393      5.05251e-05    -0.000169255
                      0.00157851     0.000658087        -0.914661        0.389392       8.6314e-05    -0.000284416       -0.0213736        0.104173
250600                  0.302344        0.243587        0.0005646    -2.24719e-06         0.412925        0.823889       0.00164269      0.00048026
                     0.000703257     4.36011e-05        0.0836927       0.0689365       0.00148457     0.000308726        -0.891575        0.439457
                        0.412944        0.823579        0.0015328      0.00044982       -0.0139094       -0.387961     -6.00814e-05    -0.000168935
                       0.0016684     0.000573221        -0.891636        0.439091     -4.28899e-05    -0.000316005       0.00367006        0.108272
250800                  0.302832        0.241925      0.000553184    -3.30909e-05         0.464211        0.796487       0.00166401     0.000388471
                     0.000696507     3.48861e-05        0.0772289       0.0808041       0.00149437     0.000201264        -0.865661        0.487756
                        0.464168        0.796132       0.00159013     0.000365396       -0.0612017       -0.382758     -0.000172175    -0.000154549
                      0.00174914     0.000472914        -0.865766        0.487358     -0.000183955    -0.000321332        0.0290661        0.107946
251000                  0.302454        0.239726      0.000539571    -6.24132e-05         0.514062        0.766164       0.00168547     0.000301262
                     0.000689658     2.52572e-05        0.0706736       0.0924163       0.00150197     9.31844e-05        -0.837024        0.534429
                        0.513966        0.765785       0.00164535      0.00028165        -0.107484       -0.370756     -0.000283758    -0.000124637
                       0.0018172     0.000359444        -0.837162        0.534016     -0.000328948     -0.00029485          0.05409        0.103178
251200                  0.301208        0.236985      0.000523831    -9.00743e-05         0.562357        0.732929       0.00170777     0.000216706
                     0.000682602     1.45175e-05        0.0640399        0.103741       0.00150725    -1.53567e-05        -0.805782        0.579318
                        0.562215        0.732545       0.00169855     0.000197377        -0.151645       -0.352126     -0.000392225    -7.79885e-05
                      0.00186998     0.000236124        -0.805942        0.578901     -0.000467164    -0.000234384        0.0780179       0.0940732
251400                  0.299092        0.233703      0.000506039    -0.000115935         0.608958        0.696793       0.00173118     0.000133067
                     0.000675171     2.43704e-06        0.0573402        0.114747       0.00151009     -0.00012418        -0.772067        0.622274
                         0.60878        0.696416       0.00174975      0.00011149        -0.192605       -0.327243     -0.000494342    -1.38745e-05
                      0.00190612     0.000106842        -0.772238         0.62186     -0.000587079     -0.00014262         0.100149       0.0808558
251600                  0.296103        0.229881      0.000486281    -0.000139857         0.653715        0.657765       0.00175565     4.87895e-05
                     0.000667111    -1.12447e-05        0.0505866        0.125406       0.00151035    -0.000233086        -0.736016         0.66316
                        0.653509        0.657403       0.00179888     2.29718e-05        -0.229359       -0.296671      -0.00058631      6.7678e-05
                      0.00192559    -2.44862e-05        -0.736189        0.662753     -0.000679108    -2.71685e-05         0.119824       0.0638664
251800                  0.292238        0.225527       0.00046465    -0.000161701         0.696459         0.61586       0.00178087    -3.75203e-05
                     0.000658043    -2.68053e-05        0.0437905        0.135687       0.00150785    -0.000341852        -0.697773        0.701854
                        0.696232        0.615517       0.00184577    -6.91583e-05        -0.261007       -0.261148     -0.000663964      0.00016559
                      0.00192951    -0.000154411        -0.697944        0.701452      -0.00073794     0.000101145          0.13645       0.0435515
252000                  0.287494        0.220651      0.000441248     -0.00018133         0.737004        0.571099        0.0018063    -0.000127102
                     0.000647421    -4.45095e-05        0.0369632        0.145564       0.00150243    -0.000450237         -0.65749        0.738241
                        0.736761         0.57078       0.00189009    -0.000165861        -0.286789       -0.221568     -0.000723112     0.000277484
                      0.00191977    -0.000280273        -0.657654        0.737845     -0.000763338     0.000230992         0.149514       0.0204513
252200                  0.281867        0.215267      0.000416189    -0.000198609         0.775146        0.523516       0.00183117    -0.000221044
                     0.000634477    -6.45471e-05        0.0301157        0.155011       0.00149388    -0.000557981        -0.615322        0.772225
                        0.774892        0.523223       0.00193134    -0.000268087        -0.306107       -0.178947      -0.00076003      0.00039958
                      0.00189871     -0.00040032        -0.615478        0.771831     -0.000759244     0.000352972         0.158599     -0.00481599
252400                  0.275356        0.209395      0.000389596    -0.000213401         0.810666        0.473163       0.00185452    -0.000320271
                     0.000618181    -8.69248e-05        0.0232588        0.164005       0.00148198    -0.000664809        -0.571428        0.803717
                        0.810402        0.472897       0.00196879    -0.000376766        -0.318548       -0.134395     -0.000772036       0.0005268
                      0.00186866    -0.000513664        -0.571577        0.803323     -0.000731933     0.000460863         0.163398      -0.0315723
252600                  0.267958        0.203059      0.000361605    -0.000225575         0.843326         0.42011       0.00187519    -0.000425528
                     0.000597234    -0.000111294        0.0164034        0.172522       0.00146647    -0.000770433        -0.525968        0.832645
                        0.843053        0.419873       0.00200144    -0.000492782        -0.323895      -0.0890826     -0.000758014     0.000653164
                      0.00183179    -0.000620119        -0.526113        0.832249     -0.000688204     0.000551654         0.163719      -0.0590997
252800                  0.259674        0.196288      0.000332363    -0.000235001         0.872878        0.364452       0.00189184    -0.000537342
                     0.000570171     -0.00013672       0.00956013        0.180542       0.00144709    -0.000874556        -0.479103        0.858945
                        0.872596        0.364247       0.00202799    -0.000616923        -0.322138      -0.0442026     -0.000718756     0.000772416
                       0.0017899     -0.00072001        -0.479248        0.858546     -0.000634151     0.000624823         0.159491      -0.0866606
253000                  0.250507        0.189117      0.000302034    -0.000241552         0.899059        0.306315       0.00190296    -0.000655986
                     0.000535636    -0.000161445       0.00273992        0.188046       0.00142356    -0.000976878        -0.430994        0.882566
                         0.89877        0.306144       0.00204675    -0.000749798         -0.31347    -0.000938668     -0.000656984     0.000878788
                      0.00174437    -0.000813982        -0.431143        0.882166     -0.000574617      0.00068143         0.150763       -0.113519
253200                  0.240464        0.181585      0.000270793    -0.000245109         0.921604        0.245856       0.00190693    -0.000781431
                     0.000492891      -0.0001828      -0.00404628        0.195017       0.00139558     -0.00107709        -0.381798         0.90347
                        0.921308        0.245723       0.00205565    -0.000891717        -0.298289       0.0395719     -0.000577024     0.000967697
                      0.00169622    -0.000902851        -0.381957         0.90307     -0.000513124     0.000723331         0.137703       -0.138959
253400                  0.229554        0.173739      0.000238834    -0.000245556         0.940242        0.183268       0.00190202    -0.000913298
                     0.000442464    -0.000197487       -0.0107873        0.201438       0.00136284     -0.00117491        -0.331674        0.921626
                         0.93994        0.183179       0.00205225     -0.00104253        -0.277186       0.0762719     -0.000484203      0.00103622
                      0.00164607     -0.00098748        -0.331847        0.921229     -0.000452046     0.000752641          0.12059       -0.162306
253600                  0.217793        0.165626      0.000206365    -0.000242787         0.954708        0.118786        0.0018865     -0.00105082
                     0.000386602    -0.000202381       -0.0174718        0.207295       0.00132503     -0.00127001        -0.280774        0.937013
                        0.954403        0.118746       0.00203378     -0.00120146        -0.250933        0.108217     -0.000384145      0.00108326
                      0.00159429     -0.00106871        -0.280965        0.936625     -0.000392873     0.000771415        0.0998048       -0.182939
253800                  0.205201        0.157303      0.000173615    -0.000236708         0.964745       0.0526832       0.00185873     -0.00119282
                      0.00032907    -0.000195637       -0.0240881        0.212577       0.00128186     -0.00136213        -0.229249        0.949619
                        0.964442       0.0526962       0.00199733     -0.00136686        -0.220461        0.134608     -0.000282115      0.00110934
                      0.00154095      -0.0011473        -0.229461        0.949245     -0.000336456     0.000781495        0.0758182       -0.200312
254000                  0.191806        0.148825      0.000140829    -0.000227234         0.970115      -0.0147253       0.00181726      -0.0013377
                     0.000274154    -0.000177473       -0.0306244        0.217271       0.00123302     -0.00145096        -0.177244         0.95944
                        0.969821      -0.0146542        0.0019401     -0.00153607        -0.186835        0.154817     -0.000182563      0.00111628
                      0.00148599     -0.00122392        -0.177479        0.959087     -0.000283212     0.000784455        0.0491792       -0.213958
254200                  0.177641        0.140255      0.000108272    -0.000214301         0.970604      -0.0830828       0.00176092     -0.00148348
                     0.000225343    -0.000150059       -0.0370686         0.22137       0.00117827     -0.00153623        -0.124902        0.966477
                        0.970326      -0.0829501       0.00185983     -0.00170535        -0.151229        0.168414     -8.88835e-05      0.00110671
                      0.00142914     -0.00129909         -0.12516        0.966152     -0.000233275     0.000781598        0.0204991       -0.223507
254400                   0.16275        0.131654      7.62288e-05    -0.000197859         0.966029       -0.151994       0.00168897     -0.00162787
                     0.000184487    -0.000116598       -0.0434084        0.224865       0.00111735     -0.00161767       -0.0723589        0.970738
                        0.965778       -0.151798       0.00175522     -0.00186998        -0.114881        0.175189     -3.39148e-06      0.00108362
                      0.00137007     -0.00137325       -0.0726387        0.970448     -0.000186603     0.000773986      -0.00956382       -0.228685
254600                  0.147181        0.123086      4.50036e-05    -0.000177886         0.956249       -0.221029       0.00160114     -0.00176837
                     0.000151773    -8.02338e-05       -0.0496311        0.227749       0.00105009     -0.00169498       -0.0197491        0.972234
                        0.956037        -0.22077       0.00162641     -0.00202459       -0.0790645        0.175161      7.25726e-05      0.00105004
                      0.00130833     -0.00144667       -0.0200474        0.971987     -0.000143052     0.000762472       -0.0403202       -0.229328
254800                  0.130994        0.114612      1.49187e-05    -0.000154383         0.941168       -0.289727       0.00149776     -0.00190241
                     0.000126276     -4.3362e-05        -0.055724        0.230017      0.000976317      -0.0017679        0.0327986        0.970982
                        0.941006       -0.289409       0.00147529     -0.00216375       -0.0450335        0.168592      0.000138459      0.00100879
                      0.00124343     -0.00151951        0.0324866        0.970784     -0.000102422     0.000747734       -0.0710658       -0.225375
255000                  0.114254        0.106295     -1.36866e-05    -0.000127385         0.920745       -0.357606        0.0013797     -0.00202749
                     0.000106599    -7.44812e-06       -0.0616744        0.231666       0.00089595     -0.00183612         0.085159           0.967
                        0.920645       -0.357236       0.00130551     -0.00228269       -0.0139821         0.15598       0.00019431     0.000962366
                      0.00117483      -0.0015918        0.0848394        0.966858     -6.44893e-05     0.000730314        -0.101098       -0.216874
255200                  0.097038       0.0981895     -4.04578e-05    -9.69628e-05         0.894995       -0.424168       0.00124836     -0.00214135
                     9.13363e-05     2.68241e-05       -0.0674693        0.232693      0.000808942     -0.00189935          0.13721        0.960312
                        0.894969       -0.423755        0.0011221       -0.002378        0.0130053        0.138051      0.000240572     0.000912856
                      0.00110196     -0.00166344          0.13689        0.960229     -2.90261e-05     0.000710636        -0.129729        -0.20398
255400                 0.0794261       0.0903491      -6.5029e-05    -6.32297e-05         0.863996       -0.488911       0.00110563     -0.00224209
                     7.93114e-05     5.93027e-05       -0.0730959        0.233096      0.000715314     -0.00195727         0.188833        0.950942
                        0.864052       -0.488467      0.000930864     -0.00244811        0.0350006        0.115734      0.000277948      0.00086197
                      0.00102428     -0.00173419         0.188521        0.950921       4.1907e-06     0.000689039        -0.156304       -0.186947
255600                 0.0615071       0.0828197      -8.7027e-05    -2.63445e-05         0.827886       -0.551336      0.000953669     -0.00232831
                     6.96401e-05     9.01421e-05       -0.0785414        0.232876      0.000615146     -0.00200954          0.23991        0.938914
                        0.828031       -0.550877      0.000737543     -0.00249335        0.0512733       0.0901322       0.00030728     0.000811061
                     0.000941216     -0.00180369         0.239616        0.938958       3.5371e-05     0.000665785        -0.180215       -0.166125
255800                 0.0433744       0.0756402     -0.000106077     1.34825e-05         0.786868        -0.61096      0.000794868     -0.00239911
                     6.17152e-05     0.000119642        -0.083793        0.232032      0.000508585      -0.0020558         0.290327        0.924256
                        0.787106       -0.610502      0.000547114     -0.00251574        0.0613259       0.0624758      0.000329466     0.000761175
                     0.000852265     -0.00187143          0.29006        0.924366       6.4709e-05     0.000641083         -0.20091       -0.141954
256000                 0.0251253       0.0688415      -0.00012181     5.59857e-05         0.741201       -0.667326      0.000631628     -0.00245411
                     5.51585e-05     0.000148148       -0.0888386        0.230567      0.000395841     -0.00209569         0.339968        0.906997
                        0.741532       -0.666886      0.000363304     -0.00251843        0.0649193       0.0340762      0.000345405     0.000713101
                     0.000756962     -0.00193677          0.33974        0.907171       9.2382e-05     0.000615096         -0.21791        -0.11495
256200                0.00685965       0.0624459     -0.000133869      0.00010084         0.691201       -0.720008      0.000466259     -0.00249345
                     4.97683e-05     0.000175998        -0.093666        0.228483      0.000277189     -0.00212881         0.388721        0.887167
                        0.691621       -0.719606      0.000188422     -0.00250507        0.0620867      0.00626716      0.000355965     0.000667419
                      0.00065493     -0.00199892         0.388541        0.887402       0.00011855      0.00058795        -0.230817       -0.085697
