! TOUCHSTONE file generated by CST MICROWAVE STUDIO
! Date and time: Sun Sep 28 19:09:17 2025
! Project name: biblioteca3_folgaOK.cst
! Parameters = {H=600; Lx=200; Ly=260; Nedge=30; P=520; mesh_pilar_nm=40; t_air=3800; t_sub=6000}
! Header version: 2018
! Port assignment regex: !\s*Touchstone port\s*([0-9]+)\s*=\s*(CST MWS port|CST DS port)\s*([0-9]+|Zmin|Zmax)\s*\(\"(.*)\"\)(\s*mode\s*([0-9]+))?.*
! Touchstone port assignment:
! Touchstone port 1 = CST MWS port Zmin ("") mode 1
! Touchstone port 2 = CST MWS port Zmin ("") mode 2
! Touchstone port 3 = CST MWS port Zmax ("") mode 1
! Touchstone port 4 = CST MWS port Zmax ("") mode 2
! S-Parameters are not renormalized. Each port impedance will be approximated by the real part at minimum frequency. The values are described via the [Reference] keyword.
! Default impedance is overridden by [Reference]
[Version] 2.0
# GHz S RI R 376.73
[Number of Ports] 4
[Reference]
376.73 376.73 376.73 376.73 
[Number of Frequencies] 401
[Network Data]
250000                  0.304002        0.214875     -0.000251149    -0.000302794         0.290183         0.88172       0.00225996     0.000591082
                    -0.000521973    -0.000216843         0.104924        0.017153       0.00204683      0.00184397        -0.938247        0.328682
                        0.290243        0.881948       0.00212809      0.00191952         0.116936       -0.353453     -0.000776245    -0.000559058
                      0.00209575     0.000562846        -0.938466        0.328407     -0.000794092    -0.000744039       -0.0713089       0.0788557
250200                  0.327313         0.18279     -0.000307456    -0.000305739         0.387714        0.842333       0.00231063      0.00037037
                    -0.000556265    -0.000201727         0.102621       0.0191355       0.00224547      0.00163383        -0.898819        0.425386
                         0.38762        0.842578       0.00235443      0.00170156        0.0743435       -0.367288      -0.00086499    -0.000536894
                      0.00217328       0.0002605        -0.898783        0.424861     -0.000952195    -0.000701101       -0.0504309       0.0914906
250400                  0.346256        0.147838     -0.000374463    -0.000300448         0.480265        0.792513       0.00234488     0.000139939
                    -0.000595239    -0.000182958         0.101632       0.0215406       0.00242404      0.00139705        -0.849275        0.517434
                        0.480095         0.79277       0.00255665      0.00144137        0.0297328       -0.375082     -0.000962188    -0.000505884
                      0.00221274    -1.94992e-05        -0.849157        0.516771      -0.00110852    -0.000628599       -0.0276898        0.100244
250600                  0.360462        0.110703     -0.000451626    -0.000281306         0.566801        0.732838       0.00236066    -9.93948e-05
                    -0.000639675    -0.000158919         0.101999       0.0240986        0.0025783      0.00113577        -0.790178        0.603737
                        0.566609        0.733089       0.00272434      0.00114338       -0.0159272       -0.376493      -0.00106849    -0.000463412
                      0.00222173    -0.000281593        -0.790077        0.603044       -0.0012565    -0.000526472      -0.00377708        0.104846
250800                  0.369678       0.0721104     -0.000535082    -0.000241965         0.646341        0.663972       0.00235578    -0.000346456
                    -0.000690225    -0.000127196         0.103716       0.0265409        0.0027043     0.000852893        -0.722213        0.683277
                        0.646161        0.664194       0.00284856     0.000815388       -0.0616076       -0.371352      -0.00118428    -0.000406036
                      0.00220501    -0.000529123        -0.722172        0.682644      -0.00138969    -0.000396512        0.0205812        0.105155
251000                  0.373766       0.0328092     -0.000616735    -0.000177896         0.717966        0.586658       0.00232795    -0.000599622
                    -0.000747026    -8.42632e-05         0.106731       0.0286073       0.00279856     0.000552029        -0.646179        0.755126
                        0.717811        0.586828       0.00292318     0.000467825        -0.106254        -0.35967      -0.00130938    -0.000329245
                      0.00216553    -0.000764504        -0.646196        0.754619      -0.00150244    -0.000242197        0.0446494        0.101157
251200                  0.372704     -0.00644636     -0.000685847    -8.97468e-05         0.780816        0.501721       0.00227484    -0.000856732
                    -0.000808903    -2.52269e-05          0.11095        0.030054       0.00285823     0.000237398        -0.562968        0.818457
                        0.780685        0.501822       0.00294573     0.000112433        -0.148818       -0.341643      -0.00144251    -0.000227228
                      0.00210505    -0.000989381        -0.563018        0.818113      -0.00159035    -6.82619e-05         0.067706       0.0929693
251400                   0.36658       -0.044913     -0.000733513     1.54257e-05         0.834097        0.410064       0.00219422     -0.00111499
                    -0.000871971      5.5988e-05          0.11624       0.0306591       0.00288115    -8.63249e-05        -0.473559        0.872552
                        0.833979        0.410086       0.00291761    -0.000239342        -0.188293       -0.317644      -0.00158042      -9.274e-05
                      0.00202456     -0.00120475        -0.473605        0.872381      -0.00165058     0.000119868         0.089065       0.0808244
251600                  0.355593      -0.0818731     -0.000756811     0.000127204         0.877086        0.312671       0.00208409     -0.00137086
                    -0.000927751     0.000165152         0.122435       0.0302282       0.00286599    -0.000414169        -0.379001        0.916812
                        0.876968        0.312613       0.00284346    -0.000577809        -0.223745       -0.288218      -0.00171657     8.26705e-05
                      0.00192446     -0.00141104        -0.379003        0.916799       -0.0016818     0.000316664         0.108095       0.0650662
251800                  0.340041       -0.116649     -0.000758923     0.000236854         0.909142        0.210607       0.00194295     -0.00162005
                    -0.000962108     0.000303854         0.129341       0.0285989        0.0028122    -0.000741039        -0.280396        0.950762
                        0.909007        0.210476       0.00273003    -0.000895976        -0.254337       -0.254059      -0.00183923     0.000307559
                      0.00180484     -0.00160818        -0.280322        0.950873      -0.00168401     0.000516972         0.124235       0.0461344
252000                   0.32032       -0.148616     -0.000745808     0.000340159          0.92971        0.105011       0.00177004     -0.00185752
                    -0.000958233     0.000463801          0.13674       0.0256435       0.00272004     -0.00106187        -0.178884        0.974055
                        0.929544        0.104824       0.00258483     -0.00118985        -0.279358       -0.216001       -0.0019296     0.000587775
                      0.00166552     -0.00179561        -0.178713        0.974245      -0.00165815     0.000716319         0.137006       0.0245503
252200                  0.296913       -0.177215      -0.00072282     0.000437003         0.938338      -0.0028953       0.00156571     -0.00207757
                    -0.000905921     0.000624613           0.1444       0.0212723       0.00259053     -0.00137179       -0.0756304        0.986473
                        0.938133     -0.00311902       0.00241502     -0.00145818         -0.29824       -0.174988      -0.00196123     0.000921093
                      0.00150623      -0.0019723       -0.0753567        0.986692      -0.00160572     0.000911033         0.146025     0.000901078
252400                  0.270383       -0.201964     -0.000693144       0.0005295         0.934684       -0.111822       0.00133178     -0.00227419
                    -0.000811099      0.00076209         0.152078       0.0154341       0.00242529     -0.00166621        0.0281937        0.987928
                         0.93444        -0.11206        0.0022265     -0.00170179        -0.310578       -0.132053      -0.00190395      0.00128977
                      0.00132666     -0.00213679          0.02856        0.988125      -0.00152843       0.0010982         0.151008      -0.0241761
252600                  0.241358        -0.22247     -0.000657695     0.000620361         0.918536       -0.220413       0.00107178     -0.00244151
                    -0.000693687      0.00086254         0.159527      0.00811725       0.00222654      -0.0019409         0.131422        0.978458
                        0.918257       -0.220641       0.00202353     -0.00192284        -0.316142       -0.088291      -0.00173538      0.00165543
                      0.00112662     -0.00228716         0.131858         0.97859      -0.00142788      0.00127549         0.151778      -0.0500114
252800                  0.210526        -0.23844      -0.00061558     0.000711943         0.889821       -0.327252      0.000791065     -0.00257451
                    -0.000574479     0.000928361         0.166502    -0.000650769       0.00199694     -0.00219206         0.232909        0.958225
                        0.889522       -0.327453       0.00180854     -0.00212406        -0.314888      -0.0448314      -0.00145774       0.0019648
                     0.000906091     -0.00242104          0.23338        0.958259      -0.00130546      0.00144095         0.148265      -0.0759185
253000                  0.178613       -0.249689     -0.000564589     0.000805768         0.848626       -0.430884      0.000496576     -0.00266979
                     -0.00046514     0.000971397         0.172766      -0.0108047       0.00173948     -0.00241633          0.33154         0.92751
                        0.848323       -0.431043       0.00158227     -0.00230806        -0.306964     -0.00280567      -0.00110721      0.00217081
                     0.000665374     -0.00253566         0.332008        0.927427       -0.0011622      0.00159274         0.140508       -0.101211
253200                  0.146372        -0.25615      -0.00050155     0.000902251         0.795205       -0.529823      0.000196132     -0.00272637
                    -0.000367584      0.00100413         0.178095      -0.0222434       0.00145745     -0.00261077         0.426247        0.886707
                         0.79492       -0.529934       0.00134399     -0.00247684        -0.292713       0.0366836     -0.000742315       0.0022567
                     0.000405215     -0.00262785         0.426669          0.8865     -0.000998881      0.00172883         0.128652       -0.125221
253400                  0.114561       -0.257879     -0.000422636      0.00100041         0.730001        -0.62258     -0.000102671     -0.00274604
                    -0.000277864       0.0010354         0.182285      -0.0348328       0.00115435     -0.00277286         0.516017        0.836314
                        0.729755       -0.622644       0.00109181     -0.00263131        -0.272669       0.0725963      -0.00041698      0.00224241
                      0.00012694     -0.00269415         0.516353        0.835991     -0.000816128      0.00184677         0.112946       -0.147309
253600                 0.0839243       -0.255055     -0.000323719      0.00109755         0.653645        -0.70768     -0.000393812     -0.00273317
                    -0.000189576      0.00106985         0.185153      -0.0484089      0.000833824     -0.00290045         0.599898        0.776927
                         0.65346       -0.707707       0.00082311       -0.002771        -0.247549         0.10399     -0.000160483      0.00216953
                    -0.000167416     -0.00273086         0.600115        0.776507     -0.000614691      0.00194348        0.0937314       -0.166885
253800                 0.0551685       -0.247982     -0.000200946      0.00118882         0.566975       -0.783698     -0.000674052     -0.00269376
                    -9.56129e-05      0.00110858         0.186544      -0.0627822      0.000499692     -0.00299177         0.677015        0.709232
                        0.566865       -0.783704      0.000535017     -0.00289376        -0.218238        0.130052      2.47044e-05      0.00208148
                    -0.000474973     -0.00273427         0.677086        0.708745     -0.000395828      0.00201509        0.0714402        -0.18342
254000                 0.0289433       -0.237083     -5.16533e-05      0.00126703         0.471028       -0.849285      -0.00094353     -0.00263383
                     1.11121e-05      0.00114955         0.186334      -0.0777422      0.000155902     -0.00304538          0.74657        0.633993
                        0.471002       -0.849292      0.000224976     -0.00299556         -0.18577        0.150138      0.000154537      0.00201204
                    -0.000791914     -0.00270076         0.746479        0.633474     -0.000161812        0.002057        0.0465802       -0.196457
254200                0.00581728       -0.222888       0.00012433      0.00132271         0.367041       -0.903202      -0.00120543     -0.00255764
                     0.000137115      0.00118748         0.184432      -0.0930621     -0.000193453     -0.00306019         0.807852        0.552047
                          0.3671       -0.903236     -0.000108527     -0.00307055        -0.151291        0.163796       0.00025536      0.00198277
                     -0.00111342     -0.00262714         0.807595        0.551534      8.34769e-05       0.0020641        0.0197245       -0.205626
254400                 -0.013742       -0.206023      0.000323188      0.00134508          0.25644       -0.944357      -0.00146469     -0.00246626
                     0.000287252      0.00121336          0.18078       -0.108504     -0.000544126     -0.00303549          0.86024        0.464291
                        0.256576       -0.944442     -0.000465165     -0.00311121        -0.116031        0.170796      0.000360426      0.00200287
                      -0.0014337     -0.00251088         0.859824        0.463821      0.000333984      0.00203146      -0.00850217       -0.210646
254600                -0.0293858       -0.187186      0.000536001      0.00132402         0.140825       -0.971835      -0.00172618     -0.00235693
                     0.000462583      0.00121423         0.175359       -0.123825     -0.000891718     -0.00297094         0.903209        0.371673
                        0.141021       -0.971994     -0.000841947       -0.003109       -0.0812542        0.171146      0.000508985      0.00206577
                     -0.00174607     -0.00235044          0.90265        0.371282      0.000581164       0.0019553       -0.0374387       -0.211341
254800                -0.0408981        -0.16713      0.000748853      0.00125292        0.0219413       -0.984933      -0.00199267     -0.00222356
                     0.000657175      0.00117455         0.168182        -0.13878      -0.00123168     -0.00286667         0.936331        0.275186
                       0.0221734       -0.985184      -0.00123257     -0.00305531       -0.0482108        0.165105       0.00074092      0.00213965
                     -0.00204317     -0.00214557         0.935654        0.274902      0.000814206      0.00183438       -0.0664031       -0.207637
255000                -0.0482048       -0.146632      0.000944846      0.00113149       -0.0983459       -0.983189      -0.00226338     -0.00205794
                     0.000855282      0.00108057         0.159302       -0.153132      -0.00155937     -0.00272332         0.959279        0.175852
                      -0.0981074        -0.98354      -0.00162717     -0.00294286       -0.0180875        0.153172       0.00107584      0.00215878
                     -0.00231727     -0.00189754         0.958516        0.175697       0.00102106      0.00167132       -0.0947098       -0.199569
255200                -0.0513772       -0.126465       0.00110777     0.000966905        -0.218093       -0.966402      -0.00253324     -0.00185163
                      0.00103212     0.000927625         0.148801       -0.166652      -0.00187005     -0.00254209         0.971828       0.0747203
                        -0.21788       -0.966852      -0.00201277     -0.00276732       0.00804685        0.136084       0.00147656      0.00204069
                     -0.00256067     -0.00160932         0.971012        0.074708        0.0011903      0.00147335        -0.121685       -0.187277
255400                 -0.050629       -0.107374       0.00122601      0.00077257         -0.33532       -0.934648      -0.00279302     -0.00159794
                       0.0011611      0.00072635         0.136798       -0.179126      -0.00215904     -0.00232483         0.973854       -0.027147
                       -0.335164       -0.935189      -0.00237448      -0.0025286        0.0292893        0.114777       0.00184012      0.00174813
                     -0.00276617     -0.00128558         0.973023      -0.0270132       0.00131341      0.00125198        -0.146685       -0.171006
255600                -0.0463081      -0.0900422       0.00129483     0.000564729        -0.448052       -0.888291      -0.00303035     -0.00129354
                      0.00122513     0.000501564         0.123438       -0.190361      -0.00242177     -0.00207408         0.965339       -0.128682
                       -0.447981       -0.888904      -0.00269735     -0.00223167        0.0449456       0.0903574       0.00206446      0.00133619
                     -0.00292756    -0.000932565         0.964527       -0.128407       0.00138668      0.00102131         -0.16911       -0.151097
255800                -0.0388815      -0.0750701       0.00131622     0.000358697        -0.554372       -0.827981      -0.00323128    -0.000939626
                      0.00122367     0.000282509         0.108892       -0.200186      -0.00265392     -0.00179307         0.946365       -0.228821
                       -0.554408       -0.828639      -0.00296853     -0.00188625        0.0545632       0.0640497       0.00212367     0.000907326
                     -0.00303999    -0.000557846         0.945605       -0.228418       0.00141193     0.000795513         -0.18842       -0.127983
256000                -0.0289156      -0.0629521       0.00129695      0.00016624        -0.652466        -0.75464      -0.00338218    -0.000542208
                      0.00117034     9.16203e-05        0.0933566       -0.208456      -0.00285162     -0.00148573         0.917119       -0.326512
                       -0.652621       -0.755312      -0.00317895     -0.00150558        0.0579526        0.037142       0.00205896     0.000534596
                     -0.00310033    -0.000169864         0.916437       -0.325999       0.00139572     0.000586371        -0.204147       -0.102174
256200                -0.0170529      -0.0540606       0.00124589    -5.30112e-06        -0.740665       -0.669447      -0.00347151    -0.000111669
                      0.00108442    -6.05038e-05        0.0770426       -0.215059      -0.00301153     -0.00115661         0.877887       -0.420723
                       -0.740942       -0.670098      -0.00332437     -0.00110454        0.0551943       0.0109283        0.0019257     0.000241391
                     -0.00310732     0.000222538         0.877303       -0.420125       0.00134755      0.00040169        -0.215907      -0.0742485
