! TOUCHSTONE file generated by CST MICROWAVE STUDIO
! Date and time: Sun Sep 28 21:29:16 2025
! Project name: biblioteca3_folgaOK.cst
! Parameters = {H=600; Lx=300; Ly=300; Nedge=12; P=520; mesh_pilar_nm=40; t_air=3500; t_sub=4000}
! Header version: 2018
! Port assignment regex: !\s*Touchstone port\s*([0-9]+)\s*=\s*(CST MWS port|CST DS port)\s*([0-9]+|Zmin|Zmax)\s*\(\"(.*)\"\)(\s*mode\s*([0-9]+))?.*
! Touchstone port assignment:
! Touchstone port 1 = CST MWS port Zmin ("") mode 1
! Touchstone port 2 = CST MWS port Zmin ("") mode 2
! Touchstone port 3 = CST MWS port Zmax ("") mode 1
! Touchstone port 4 = CST MWS port Zmax ("") mode 2
! S-Parameters are not renormalized. Each port impedance will be approximated by the real part at minimum frequency. The values are described via the [Reference] keyword.
! Default impedance is overridden by [Reference]
[Version] 2.0
# GHz S RI R 376.73
[Number of Ports] 4
[Reference]
376.73 376.73 376.73 376.73 
[Number of Frequencies] 401
[Network Data]
250000                  0.209316        0.217246       0.00025623     7.94314e-05         0.167821        0.938523      0.000715064    -0.000237378
                     0.000255615     8.13772e-05         0.211603        0.215826      0.000727176    -0.000170521         0.168144        0.938279
                        0.167821        0.938525      0.000724039    -0.000171933          0.12106       -0.276319     -0.000220123    -0.000355245
                     0.000712506    -0.000238828         0.168144        0.938283     -0.000218177    -0.000355299         0.123488       -0.275875
250200                  0.227582         0.19452      0.000279408     5.35595e-05         0.257143        0.918853      0.000689061    -0.000308668
                     0.000277307     5.26239e-05         0.229711        0.192706      0.000710025    -0.000241308         0.257421        0.918612
                        0.257128        0.918881      0.000706271    -0.000240995        0.0935323       -0.284347     -0.000232597    -0.000338677
                     0.000688078    -0.000310542         0.257431        0.918616     -0.000231239    -0.000340656        0.0961411       -0.284034
250400                  0.243122        0.170095      0.000299872     2.35734e-05         0.344274        0.890787       0.00065566    -0.000377156
                     0.000296171     2.07702e-05         0.245055        0.167926      0.000685187    -0.000310144         0.344528        0.890547
                        0.344257        0.890832      0.000681261    -0.000308278        0.0655019       -0.289316     -0.000243899    -0.000322668
                     0.000655705    -0.000379617         0.344543         0.89055     -0.000243203    -0.000325863        0.0682603       -0.289165
250600                  0.255767        0.144321       0.00031688    -1.02248e-05         0.428447        0.854553      0.000615243    -0.000441959
                     0.000311728    -1.39814e-05         0.257469        0.141834      0.000653014    -0.000376058          0.42869         0.85431
                        0.428434        0.854605      0.000649292    -0.000372906        0.0373237       -0.291203     -0.000254223    -0.000307185
                     0.000615801    -0.000445031         0.428707        0.854311     -0.000254117    -0.000311015        0.0402011       -0.291237
250800                  0.265392        0.117566      0.000329728     -4.7387e-05         0.508914        0.810445      0.000568315    -0.000502272
                     0.000323493    -5.13503e-05          0.26683        0.114799      0.000613997    -0.000438174         0.509155        0.810192
                        0.508908        0.810496      0.000610763    -0.000434072       0.00935207       -0.290027     -0.000263726    -0.000292184
                     0.000568928     -0.00050586         0.509172        0.810191     -0.000264033    -0.000296196        0.0123192       -0.290263
251000                   0.27192       0.0902103      0.000337791    -8.73284e-05         0.584952        0.758822      0.000515476    -0.000557378
                     0.000330995    -9.09705e-05         0.273063       0.0872009      0.000568735    -0.000495725         0.585196        0.758553
                        0.584952        0.758867      0.000566177    -0.000491055       -0.0180634       -0.285845     -0.000272539    -0.000277616
                     0.000515772    -0.000561296         0.585211         0.75855     -0.000273009    -0.000281488       -0.0150347       -0.286296
251200                  0.275324       0.0626368      0.000340542    -0.000129345         0.655869        0.700108      0.000457409    -0.000606669
                     0.000333785    -0.000132386         0.276142       0.0594247      0.000517909    -0.000548068         0.656117        0.699817
                        0.655875        0.700145      0.000516117    -0.000543232       -0.0445819       -0.278754     -0.000280769    -0.000263427
                     0.000457115    -0.000610667          0.65613        0.699813     -0.000281109    -0.000266965       -0.0415188        -0.27943
251400                  0.275625       0.0352285      0.000337585    -0.000172639         0.721012        0.634792      0.000394852    -0.000649647
                     0.000331456    -0.000175048          0.27609       0.0318574       0.00046225    -0.000594686         0.721263        0.634471
                         0.72102        0.634817      0.000461223    -0.000590082       -0.0698758       -0.268891       -0.0002885    -0.000249566
                     0.000393798    -0.000653445         0.721272        0.634467     -0.000288398    -0.000252699       -0.0668053       -0.269799
251600                   0.27289      0.00836151      0.000328662    -0.000216347         0.779767        0.563418      0.000328579    -0.000685929
                     0.000323668    -0.000218319         0.272979      0.00487918      0.000402513    -0.000635188         0.780017        0.563063
                        0.779775        0.563434      0.000402168    -0.000631194       -0.0936351       -0.256429     -0.000295802     -0.00023598
                     0.000326695    -0.000689244         0.780024         0.56306     -0.000294952    -0.000238761       -0.0905841       -0.257575
251800                  0.267233      -0.0176005      0.000313668    -0.000259568         0.831571        0.486591       0.00025938    -0.000715244
                      0.00031016    -0.000261474          0.26693      -0.0211419      0.000339451    -0.000669299         0.831815        0.486199
                        0.831577        0.486598      0.000339646    -0.000666257        -0.115572       -0.241578     -0.000302731    -0.000222619
                     0.000256685    -0.000717815          0.83182        0.486196     -0.000300852    -0.000225221        -0.112567       -0.242963
252000                  0.258815      -0.0423115      0.000292643    -0.000301399         0.875913        0.404968      0.000188039    -0.000737423
                     0.000290777    -0.000303717         0.258108      -0.0458564      0.000273795    -0.000696849         0.876145        0.404534
                        0.875915        0.404967      0.000274345    -0.000695056        -0.135423       -0.224581     -0.000309329    -0.000209436
                     0.000184631    -0.000739034         0.876148        0.404533     -0.000306195    -0.000212152        -0.132494       -0.226203
252200                  0.247838      -0.0654492      0.000265775    -0.000340957         0.912339        0.319253      0.000115327    -0.000752399
                     0.000265487    -0.000344193         0.246724      -0.0689394      0.000206234    -0.000717763         0.912553        0.318778
                        0.912338        0.319248      0.000206943    -0.000717464        -0.152959        -0.20571      -0.00031563    -0.000196388
                     0.000111359    -0.000752886         0.912555        0.318778     -0.000311101    -0.000199629        -0.150131       -0.207566
252400                  0.234543      -0.0867195      0.000233379    -0.000377405         0.940461        0.230198      4.19823e-05    -0.000760185
                     0.000234397    -0.000382015         0.233031      -0.0900963      0.000137406    -0.000732046          0.94065        0.229681
                        0.940456         0.23019      0.000138091    -0.000733428        -0.167978       -0.185265     -0.000321659    -0.000183432
                     3.76448e-05    -0.000759452         0.940651        0.229681     -0.000315726    -0.000187727        -0.165281       -0.187345
252600                  0.219211       -0.105862      0.000195886    -0.000409966         0.959959        0.138592     -3.12934e-05    -0.000760871
                     0.000197766    -0.000416284         0.217316       -0.109068      6.78873e-05    -0.000739778         0.960115        0.138033
                         0.95995        0.138583      6.84086e-05    -0.000742961        -0.180322       -0.163569     -0.000327434    -0.000170531
                    -3.57891e-05     -0.00075889         0.960115        0.138034     -0.000320281    -0.000176511        -0.177782       -0.165861
252800                   0.20215       -0.122656      0.000153829    -0.000437938         0.970584        0.045257     -0.000103841    -0.000754611
                     0.000156012    -0.000446124         0.199899       -0.125635     -1.80701e-06    -0.000741115         0.970699       0.0446586
                        0.970572       0.0452492     -1.52097e-06    -0.000746128        -0.189867       -0.140961     -0.000332966    -0.000157651
                    -0.000108283    -0.000751417         0.970699       0.0446602     -0.000325062    -0.000166008         -0.18751        -0.14345
253000                    0.1837       -0.136921      0.000107825    -0.000460703         0.972164      -0.0489567     -0.000175049    -0.000741608
                     0.000109705    -0.000470711         0.181126       -0.139624      -7.1207e-05    -0.000736289         0.972232      -0.0495918
                        0.972151      -0.0489626      -7.1151e-05     -0.00074304        -0.196536       -0.117798     -0.000338262    -0.000144762
                    -0.000179237    -0.000737298         0.972232      -0.0495901     -0.000330476    -0.000156138        -0.194385       -0.120462
253200                  0.164219       -0.148526      5.85609e-05     -0.00047773         0.964607       -0.143179     -0.000244351    -0.000722106
                     5.95679e-05    -0.000489307         0.161367       -0.150908     -0.000139853    -0.000725605          0.96462       -0.143847
                        0.964594       -0.143183     -0.000139972    -0.000733841        -0.200291      -0.0944421     -0.000343322    -0.000131838
                    -0.000248111     -0.00071683          0.96462       -0.143845     -0.000337029    -0.000146591        -0.198366      -0.0972566
253400                  0.144084       -0.157387      6.78459e-06    -0.000488578         0.947903       -0.236527     -0.000311227    -0.000696382
                     6.45107e-06    -0.000501288         0.141002       -0.159412      -0.00020725    -0.000709409         0.947855       -0.237223
                        0.947891       -0.236528     -0.000207511    -0.000718702        -0.201144      -0.0712599     -0.000348146    -0.000118857
                    -0.000314419    -0.000690333         0.947855       -0.237222     -0.000345177    -0.000136635        -0.199462      -0.0741975
253600                  0.123677       -0.163474     -4.67082e-05      -0.0004929         0.922129       -0.328113     -0.000375197    -0.000664737
                    -4.86847e-05     -0.00050617          0.12042       -0.165114      -0.00027285    -0.000688013         0.922011       -0.328831
                        0.922118       -0.328111     -0.000273326    -0.000697818        -0.199149      -0.0486157     -0.000352729    -0.000105801
                    -0.000377722     -0.00065814         0.922011        -0.32883     -0.000354903    -0.000125038        -0.197722      -0.0516464
253800                  0.103386       -0.166809      -0.00010108    -0.000490442         0.887444       -0.417049     -0.000435825    -0.000627491
                    -0.000104799    -0.000503632         0.100011       -0.168045     -0.000336097    -0.000661633         0.887251       -0.417783
                        0.887436       -0.417046     -0.000337006    -0.000671404        -0.194408      -0.0268657     -0.000357063    -9.26604e-05
                    -0.000437625    -0.000620593         0.887252       -0.417782     -0.000365132    -0.000110525        -0.193243      -0.0299575
254000                 0.0835891       -0.167468     -0.000155459    -0.000481049         0.844097       -0.502463     -0.000492706    -0.000584978
                    -0.000160804    -0.000493521        0.0801565        -0.16829     -0.000396502    -0.000630393         0.843824       -0.503204
                        0.844091       -0.502459      -0.00039817    -0.000639693        -0.187065     -0.00635263     -0.000361142    -7.94279e-05
                    -0.000493768    -0.000578037         0.843824       -0.503204     -0.000373824    -9.29126e-05        -0.186164     -0.00947296
254200                 0.0646555        -0.16558     -0.000208946     -0.00046467         0.792423       -0.583499     -0.000545469    -0.000537543
                    -0.000215597    -0.000475867        0.0612252       -0.165989     -0.000453685     -0.00059438         0.792064       -0.584237
                         0.79242       -0.583494     -0.000456462     -0.00060295        -0.177308          0.0126     -0.000364959    -6.61044e-05
                     -0.00054582     -0.00053082         0.792064       -0.584238     -0.000379361    -7.36918e-05        -0.176669      0.00948367
254400                 0.0469318       -0.161326     -0.000260622    -0.000441362         0.732843       -0.659329     -0.000593766    -0.000485541
                    -0.000268095    -0.000450871        0.0435626       -0.161331     -0.000507352    -0.000553715         0.732394       -0.660056
                        0.732842       -0.659325     -0.000511556    -0.000561489        -0.165368       0.0296931     -0.000368511    -5.26969e-05
                    -0.000593474    -0.000479291         0.732393       -0.660057     -0.000381749    -5.49094e-05        -0.164981       0.0266122
254600                 0.0307373       -0.154936      -0.00030956    -0.000411298          0.66586       -0.729166     -0.000637275    -0.000429337
                    -0.000317264    -0.000418902        0.0274855       -0.154555     -0.000557247    -0.000508568         0.665318       -0.729869
                        0.665861       -0.729162     -0.000563149    -0.000515748        -0.151509       0.0446574     -0.000371797    -3.92199e-05
                    -0.000636439      -0.0004238         0.665318        -0.72987      -0.00038215    -3.77671e-05        -0.151362       0.0416412
254800                  0.016357       -0.146683     -0.000354833    -0.000374775         0.592061       -0.792264     -0.000675693    -0.000369307
                    -0.000362147    -0.000380478        0.0132752       -0.145942     -0.000603116    -0.000459162         0.591424       -0.792933
                        0.592063       -0.792261     -0.000610856    -0.000466508        -0.136031       0.0572577     -0.000374829    -2.56946e-05
                    -0.000674438    -0.000364702         0.591423       -0.792934     -0.000381799     -2.2439e-05        -0.136107       0.0543326
255000                0.00403468       -0.136884     -0.000395536    -0.000332224         0.512107       -0.847935     -0.000708732    -0.000305837
                    -0.000401884    -0.000336248       0.00117093       -0.135816     -0.000644693    -0.000405753         0.511374       -0.848557
                        0.512109       -0.847934     -0.000653137    -0.000415327        -0.119265       0.0672973     -0.000377627    -1.21487e-05
                    -0.000707204     -0.00030236         0.511374       -0.848558     -0.000381515    -8.58233e-06        -0.119541       0.0644863
255200               -0.00603217       -0.125887     -0.000430805    -0.000284209         0.426733       -0.895553     -0.000736119    -0.000239333
                    -0.000435728    -0.000286968      -0.00863531       -0.124531     -0.000681696    -0.000348627         0.425907       -0.896114
                        0.426736       -0.895552     -0.000684563    -0.000359459        -0.101564        0.074622     -0.000380229     1.38537e-06
                    -0.000734473     -0.00023715         0.425906       -0.896115     -0.000381731     4.25582e-06        -0.102018       0.0719437
255400                -0.0136977        -0.11407     -0.000459836    -0.000231434          0.33674       -0.934562     -0.000757593     -0.00017022
                    -0.000463059    -0.000233483        -0.016004       -0.112471     -0.000713826    -0.000288094         0.335824       -0.935048
                        0.336743       -0.934562     -0.000713722    -0.000292078       -0.0833021       0.0791222     -0.000382695     1.48739e-05
                    -0.000755989    -0.000169464         0.335823       -0.935049     -0.000382656     1.64791e-05       -0.0839063       0.0765908
255600                -0.0188717       -0.101832     -0.000481921    -0.000174736          0.24299       -0.964484     -0.000772907     -9.8949e-05
                    -0.000483387    -0.000176699       -0.0208515        -0.10004     -0.000740775    -0.000224495         0.241988       -0.964882
                        0.242992       -0.964484     -0.000742209    -0.000223997       -0.0648659       0.0807363     -0.000385113     2.82873e-05
                    -0.000771497    -9.97164e-05         0.241987       -0.964883     -0.000384388     2.84183e-05        -0.065593       0.0783611
255800                -0.0215221       -0.089585     -0.000496468    -0.000115076         0.146396       -0.984927     -0.000781826    -2.60016e-05
                    -0.000496355    -0.000117564       -0.0231535      -0.0876545     -0.000762225    -0.000158203         0.145314       -0.985222
                        0.146397       -0.984926     -0.000764935    -0.000155169       -0.0466501       0.0794513     -0.000387608     4.16086e-05
                    -0.000780748    -2.83531e-05         0.145313       -0.985223     -0.000386984     4.03509e-05       -0.0474719       0.0772364
256000                -0.0216776      -0.0777482     -0.000503036    -5.35213e-05        0.0479129       -0.995586     -0.000784127     4.81001e-05
                    -0.000501739    -5.70483e-05       -0.0229464      -0.0757352     -0.000777857    -8.96341e-05        0.0467607       -0.995765
                       0.0479136       -0.995585     -0.000781214    -8.47554e-05       -0.0290508       0.0753036     -0.000390344     5.48469e-05
                    -0.000783499     4.41446e-05        0.0467606       -0.995766     -0.000390486     5.25281e-05       -0.0299392       0.0732483
256200                -0.0194278      -0.0667374     -0.000501358     8.78539e-06       -0.0514666       -0.996254     -0.000779606     0.000122788
                    -0.000499447     3.87338e-06       -0.0203281      -0.0647002     -0.000787356    -1.92523e-05       -0.0526783       -0.996304
                      -0.0514664       -0.996252     -0.000790866    -1.28656e-05        -0.012459       0.0683789     -0.000393531     6.80551e-05
                    -0.000779516     0.000117251       -0.0526781       -0.996305     -0.000394936     6.51979e-05       -0.0133874       0.0664775
