! TOUCHSTONE file generated by CST MICROWAVE STUDIO
! Date and time: Sun Sep 28 19:09:22 2025
! Project name: biblioteca3_folgaOK.cst
! Parameters = {H=600; Lx=200; Ly=260; Nedge=44; P=520; mesh_pilar_nm=40; t_air=3800; t_sub=6000}
! Header version: 2018
! Port assignment regex: !\s*Touchstone port\s*([0-9]+)\s*=\s*(CST MWS port|CST DS port)\s*([0-9]+|Zmin|Zmax)\s*\(\"(.*)\"\)(\s*mode\s*([0-9]+))?.*
! Touchstone port assignment:
! Touchstone port 1 = CST MWS port Zmin ("") mode 1
! Touchstone port 2 = CST MWS port Zmin ("") mode 2
! Touchstone port 3 = CST MWS port Zmax ("") mode 1
! Touchstone port 4 = CST MWS port Zmax ("") mode 2
! S-Parameters are not renormalized. Each port impedance will be approximated by the real part at minimum frequency. The values are described via the [Reference] keyword.
! Default impedance is overridden by [Reference]
[Version] 2.0
# GHz S RI R 376.73
[Number of Ports] 4
[Reference]
376.73 376.73 376.73 376.73 
[Number of Frequencies] 401
[Network Data]
250000                  0.312442        0.209816      0.000655413     0.000265361         0.315461        0.870983      0.000634932     0.000830054
                     0.000822222     0.000412972         0.100494       0.0183961      0.000952407    -0.000361721        -0.932959        0.345043
                        0.315358        0.871133      0.000958042    -0.000406262          0.10565        -0.36122      0.000684793    -0.000341405
                     0.000588817     0.000855815        -0.933127        0.345108       0.00100662    -4.34896e-05       -0.0643361       0.0793482
250200                  0.334661        0.176602      0.000675851     0.000218492         0.411729        0.829029      0.000721763     0.000762533
                     0.000865778     0.000278104        0.0981162       0.0208331      0.000923319    -0.000454761        -0.891717        0.441238
                        0.411596        0.829284      0.000962001    -0.000420289        0.0627667       -0.373326      0.000638111    -0.000328253
                     0.000686941     0.000810076         -0.89179        0.441332       0.00098915    -0.000153525       -0.0436202       0.0915026
250400                  0.352479        0.140437      0.000693151     0.000167372         0.502827        0.776702      0.000802901      0.00068452
                     0.000883564     0.000133809        0.0971881       0.0237948      0.000884915    -0.000543264        -0.840426        0.532546
                        0.502684        0.777052       0.00096347    -0.000433198        0.0177105       -0.379247      0.000597997    -0.000315637
                     0.000784488     0.000750046        -0.840406        0.532596       0.00095025    -0.000263234       -0.0206062       0.0992579
250600                  0.365411        0.102032       0.00070657     0.000111927         0.587697        0.714604       0.00087692     0.000596486
                     0.000873314    -1.30293e-05        0.0977632       0.0269495      0.000838288    -0.000626689        -0.779675        0.617893
                        0.587564        0.715039      0.000961769    -0.000444781       -0.0284189        -0.37851       0.00056325    -0.000303803
                     0.000879015     0.000674831        -0.779591        0.617844      0.000889207    -0.000366353       0.00363069        0.102248
250800                  0.373112       0.0621859      0.000715254      5.2168e-05         0.665346        0.643427      0.000942442     0.000499117
                     0.000835202    -0.000155093        0.0998268       0.0299752      0.000784391    -0.000704723        -0.710172        0.696282
                         0.66524        0.643936      0.000956057    -0.000454866       -0.0744127       -0.370881      0.000532923    -0.000292877
                     0.000967683     0.000584028        -0.710067        0.696102      0.000807739     -0.00045621        0.0280131        0.100413
251000                  0.375391       0.0217551      0.000718236    -1.17836e-05         0.734847        0.563948      0.000998173     0.000393307
                     0.000771778    -0.000285668         0.103305       0.0325714       0.00072402    -0.000777211        -0.632735        0.766803
                        0.734782        0.564516      0.000945321     -0.00046336        -0.119018       -0.356389      0.000506267    -0.000282917
                      0.00104738     0.000477878        -0.632656        0.766482      0.000710147    -0.000526917         0.051552       0.0939529
251200                  0.372222      -0.0183842       0.00071443    -7.96533e-05         0.795339        0.477024       0.00104294     0.000280135
                     0.000687423    -0.000399503         0.108074       0.0344678      0.000657805    -0.000844083        -0.548276        0.828647
                         0.79533        0.477635      0.000928368      -0.0004703        -0.161004       -0.335333      0.000482677    -0.000273936
                      0.00111488      0.00035739        -0.548269        0.828195      0.000602769    -0.000574552         0.073403       0.0832614
251400                   0.36374      -0.0573704      0.000702631    -0.000150969         0.846035        0.383592       0.00107571     0.000160851
                     0.000587531    -0.000493257         0.113971       0.0354294      0.000586229    -0.000905301        -0.457788        0.881116
                        0.846093         0.38423      0.000903837    -0.000475922        -0.199231       -0.308259      0.000461668    -0.000265927
                      0.00116713     0.000224409        -0.457892        0.880563       0.00049285    -0.000597879        0.0928886       0.0688571
251600                  0.350229      -0.0943889      0.000681538    -0.000225001         0.886227         0.28467       0.00109563     3.68397e-05
                     0.000477659    -0.000565518         0.120801       0.0352601      0.000509646    -0.000960816        -0.362333        0.923634
                         0.88636        0.285315      0.000870252    -0.000480726        -0.232702       -0.275935       0.00044284    -0.000258868
                      0.00120146     8.15834e-05        -0.362573        0.923016      0.000387236    -0.000598357         0.109495       0.0513221
251800                   0.33211       -0.128699      0.000649776    -0.000300701          0.91529        0.181353       0.00110205     -9.0407e-05
                     0.000362877    -0.000616483         0.128347       0.0338033      0.000428308     -0.00101054        -0.263026        0.955745
                        0.915501        0.181985      0.000826108    -0.000485541        -0.260606       -0.239297      0.000425862    -0.000252733
                      0.00121587    -6.77638e-05        -0.263412        0.955109      0.000291346    -0.000579495          0.12285       0.0312586
252000                  0.309914       -0.159655      0.000605947    -0.000376619         0.932693       0.0748119       0.00109449    -0.000219323
                     0.000247383    -0.000647474         0.136377       0.0309424      0.000342393     -0.00105431        -0.161016        0.977126
                        0.932982        0.075411      0.000770012    -0.000491535         -0.28234       -0.199401       0.00041046    -0.000247493
                      0.00120927     -0.00021987        -0.161545        0.976517      0.000208679    -0.000545905         0.132702       0.0092616
252200                  0.284263       -0.186723      0.000548717    -0.000450829         0.938011      -0.0337061       0.00107268      -0.0003483
                     0.000134382    -0.000660459         0.144649          0.0266       0.00025203      -0.0010919        -0.057476        0.987582
                        0.938372      -0.0331599      0.000700849    -0.000500177        -0.297523        -0.15737        0.0003964    -0.000243122
                      0.00118153    -0.000370835        -0.058129        0.987041      0.000140855    -0.000502392         0.138887      -0.0140934
252400                  0.255843       -0.209484      0.000476931    -0.000520846         0.930932       -0.142885       0.00103656    -0.000475719
                       2.614e-05    -0.000657645         0.152916       0.0207364      0.000157328     -0.00112297        0.0464181        0.987049
                        0.931357        -0.14241      0.000617949    -0.000513081        -0.305985       -0.114347      0.000383482    -0.000239595
                      0.00113347    -0.000516947        0.0456686         0.98661      8.79848e-05    -0.000453317         0.141314      -0.0382535
252600                  0.225384       -0.227644      0.000389791    -0.000583565          0.91128       -0.251344      0.000986242    -0.000599973
                    -7.58553e-05    -0.000641201         0.160932       0.0133492      5.84038e-05     -0.00114711         0.149498        0.975589
                        0.911756       -0.250956      0.000521202    -0.000531773        -0.307759      -0.0714569      0.000371533    -0.000236892
                      0.00106677    -0.000654979         0.148687        0.975275      4.91605e-05    -0.000402272         0.139948      -0.0626845
252800                  0.193638        -0.24103       0.00028708    -0.000635239         0.879022       -0.357651      0.000922023    -0.000719492
                    -0.000170706    -0.000613087         0.168456      0.00447123     -4.45892e-05     -0.00116378         0.250617        0.953391
                        0.879533       -0.357362      0.000411058    -0.000557373        -0.303059      -0.0297732      0.000360401    -0.000234996
                     0.000983679    -0.000782396         0.249785        0.953212      2.29033e-05    -0.000352001         0.134802      -0.0868647
253000                  0.161361       -0.249588      0.000169458    -0.000671516         0.834287       -0.460331      0.000844352    -0.000832756
                    -0.000257916    -0.000574978         0.175256     -0.00583081     -0.000151432     -0.00117235         0.348667         0.92076
                        0.834812       -0.460149      0.000288395    -0.000590293         -0.29226      0.00970278      0.000349949    -0.000233897
                     0.000886761    -0.000897464         0.347852        0.920715      7.50111e-06    -0.000304483         0.125938       -0.110279
253200                  0.129297        -0.25338      3.88021e-05    -0.000687599         0.777377       -0.557887      0.000753824    -0.000938306
                    -0.000337231     -0.00052824          0.18111      -0.0174578     -0.000261812     -0.00117212         0.442584        0.878113
                        0.777897       -0.557815      0.000154284    -0.000630001        -0.275877       0.0460586      0.000340054    -0.000233587
                     0.000778587    -0.000999244         0.441822        0.878191      1.22771e-06    -0.000261065         0.113468       -0.132413
253400                 0.0981619       -0.252576     -0.000101436    -0.000678555         0.708785        -0.64882      0.000651166     -0.00103475
                    -0.000408508    -0.000473956         0.185815      -0.0302803     -0.000375288     -0.00116228         0.531364        0.825973
                        0.709279       -0.648857      9.70337e-06    -0.000674926        -0.254551       0.0784823      0.000330599    -0.000234067
                     0.000661485     -0.00108748         0.530685        0.826153       2.4634e-06    -0.000222625        0.0975613       -0.152757
253600                 0.0686338       -0.247448     -0.000245928    -0.000639837         0.629201       -0.731656      0.000537221     -0.00112078
                    -0.000471612    -0.000412966         0.189187      -0.0441406     -0.000491265     -0.00114199         0.614069        0.764959
                        0.629649       -0.731794     -0.000144683    -0.000722485         -0.22903        0.106272      0.000321475    -0.000235338
                      0.00053735     -0.00116241         0.613494        0.765213      9.74688e-06    -0.000189703        0.0784542       -0.170805
253800                  0.041338       -0.238367     -0.000387326    -0.000568024          0.53952       -0.804973      0.000412942     -0.00119513
                    -0.000526342    -0.000345927         0.191066      -0.0588556      -0.00060896     -0.00111034         0.689838        0.695775
                        0.539903       -0.805201     -0.000308624    -0.000769194        -0.200158        0.128847      0.000312576    -0.000237412
                     0.000407532     -0.00122457         0.689378        0.696074      2.17836e-05    -0.000162614        0.0564578       -0.186066
254000                 0.0168352       -0.225794     -0.000516433     -0.00046175         0.440843       -0.867436      0.000279385     -0.00125664
                     -0.00057237    -0.000273381         0.191318      -0.0742199     -0.000727377     -0.00106647          0.75789        0.619206
                        0.441147       -0.867738     -0.000482217    -0.000810802        -0.168863        0.145755      0.000303794    -0.000240301
                     0.000272808     -0.00127448         0.757547        0.619518      3.74296e-05    -0.000141529        0.0319649       -0.198075
254200                -0.0043908       -0.210274     -0.000622826    -0.000322669         0.334471        -0.91783      0.000137711     -0.00130418
                    -0.000609205    -0.000195831         0.189841      -0.0900094     -0.000845284     -0.00100952         0.817533        0.536104
                        0.334685       -0.918187     -0.000665689    -0.000842397        -0.136145        0.156691       0.00029502    -0.000244027
                      0.00013345     -0.00131246         0.817302          0.5364      5.56628e-05    -0.000126529       0.00545293       -0.206414
254400                -0.0219466       -0.192421     -0.000696025     -0.00015623         0.221895       -0.955097      -1.0812e-05      -0.0013367
                    -0.000636167    -0.000113828         0.186563       -0.105986     -0.000961197     -0.00093875         0.868168        0.447379
                        0.222015       -0.955488     -0.000859039    -0.000858477        -0.103061        0.161508       0.00028614    -0.000248614
                    -1.06193e-05     -0.00133838         0.868034        0.447633      7.55498e-05    -0.000117647       -0.0225174       -0.210731
254600                 -0.035542       -0.172913     -0.000727128     2.80934e-05         0.104778       -0.978369     -0.000164802     -0.00135321
                    -0.000652389    -2.80709e-05         0.181449       -0.121901      -0.00107338     -0.00085359         0.909291         0.35399
                        0.104802       -0.978773      -0.00106158    -0.000853021       -0.0707041        0.160237      0.000277031    -0.000254094
                    -0.000159592     -0.00135152         0.909234        0.354185      9.62118e-05    -0.000114883       -0.0513106       -0.210758
254800                -0.0450021       -0.152473     -0.000710617     0.000217401       -0.0150781       -0.987003     -0.000322748      -0.0013528
                    -0.000656847     6.04798e-05         0.174502       -0.137503      -0.00117986    -0.000753694         0.940498        0.256939
                      -0.0151444         -0.9874      -0.00127139    -0.000819635       -0.0401747        0.153104      0.000267556    -0.000260503
                    -0.000313461     -0.00135051         0.940495        0.257061      0.000116792    -0.000118217       -0.0802312       -0.206334
255000                -0.0502785       -0.131851     -0.000645845     0.000396886        -0.135757       -0.980607     -0.000482999     -0.00133464
                    -0.000648433     0.000150491         0.165758        -0.15254      -0.00127844    -0.000639022         0.961485        0.157253
                       -0.135905       -0.980979      -0.00148477    -0.000751861       -0.0125469        0.140542      0.000257564    -0.000267882
                    -0.000471684     -0.00133339         0.961512        0.157297      0.000136423    -0.000127603        -0.108544       -0.197423
255200                -0.0514566       -0.111798     -0.000537675     0.000552056        -0.255277       -0.959063     -0.000643745     -0.00129797
                    -0.000626079     0.000240143         0.155293       -0.166768      -0.00136678    -0.000509909          0.97205       0.0559826
                       -0.255492       -0.959394      -0.00169568    -0.000643749        0.0111751        0.123197       0.00024688    -0.000276278
                    -0.000632882     -0.00129793         0.972083       0.0559513      0.000154204    -0.000142955        -0.135502       -0.184122
255400                -0.0487589      -0.0930477     -0.000395955     0.000671082        -0.371629        -0.92254     -0.000803003     -0.00124218
                    -0.000588951     0.000327062         0.143218       -0.179956      -0.00144245    -0.000367125         0.972095      -0.0458097
                       -0.371896        -0.92282      -0.00189549    -0.000490755        0.0301069        0.101925      0.000235301     -0.00028574
                    -0.000794671     -0.00124192         0.972112      -0.0459083      0.000169171     -0.00016413        -0.160372       -0.166667
255600                -0.0425433      -0.0762834     -0.000233907     0.000746622         -0.48283       -0.871501     -0.000958599     -0.00116681
                    -0.000536703     0.000408309         0.129678       -0.191888      -0.00150304    -0.000211917         0.961622        -0.14706
                       -0.483132       -0.871723      -0.00207304    -0.000290932        0.0435354        0.077769      0.000222587    -0.000296319
                    -0.000953689     -0.00116372         0.961607       -0.147212      0.000180286    -0.000190889         -0.18247       -0.145427
255800                -0.0332933      -0.0621112     -6.59108e-05      0.00077662         -0.58697       -0.806695      -0.00110816     -0.00107158
                    -0.000469766     0.000480493         0.114847       -0.202374      -0.00154625    -4.60288e-05         0.940738       -0.246709
                        -0.58729       -0.806859      -0.00221547    -4.62186e-05        0.0509696       0.0519318      0.000208453    -0.000308064
                     -0.00110585     -0.00106264         0.940678       -0.246899       0.00018642     -0.00022286        -0.201183       -0.120894
256000                -0.0216031      -0.0510341      9.46949e-05     0.000763995        -0.682259       -0.729148      -0.00124911    -0.000956495
                    -0.000389621     0.000540038        0.0989278       -0.211251      -0.00157004     0.000128316         0.909649       -0.343713
                       -0.682581       -0.729256      -0.00230975      0.00023656        0.0521829       0.0257184       0.00019255    -0.000321016
                      -0.0012468    -0.000939186         0.909537       -0.343921      0.000186357    -0.000259482        -0.216001      -0.0936654
256200               -0.00815397      -0.0434279      0.000237251     0.000715458        -0.767072       -0.640137      -0.00137869    -0.000821859
                    -0.000298958     0.000583595        0.0821439       -0.218387      -0.00157272     0.000308458          0.86866       -0.437051
                       -0.767383       -0.640196      -0.00234483     0.000545491        0.0472414     0.000474477      0.000174456    -0.000335201
                     -0.00137238    -0.000795056         0.868495       -0.437259      0.000178814    -0.000299943        -0.226526      -0.0644169
