! TOUCHSTONE file generated by CST MICROWAVE STUDIO
! Date and time: Sun Sep 28 20:03:48 2025
! Project name: biblioteca3_folgaOK.cst
! Parameters = {H=600; Lx=300; Ly=300; Nedge=20; P=520; mesh_pilar_nm=40; t_air=3500; t_sub=4000}
! Header version: 2018
! Port assignment regex: !\s*Touchstone port\s*([0-9]+)\s*=\s*(CST MWS port|CST DS port)\s*([0-9]+|Zmin|Zmax)\s*\(\"(.*)\"\)(\s*mode\s*([0-9]+))?.*
! Touchstone port assignment:
! Touchstone port 1 = CST MWS port Zmin ("") mode 1
! Touchstone port 2 = CST MWS port Zmin ("") mode 2
! Touchstone port 3 = CST MWS port Zmax ("") mode 1
! Touchstone port 4 = CST MWS port Zmax ("") mode 2
! S-Parameters are not renormalized. Each port impedance will be approximated by the real part at minimum frequency. The values are described via the [Reference] keyword.
! Default impedance is overridden by [Reference]
[Version] 2.0
# GHz S RI R 376.73
[Number of Ports] 4
[Reference]
376.73 376.73 376.73 376.73 
[Number of Frequencies] 401
[Network Data]
250000                  0.218378        0.197888     -0.000641143    -9.42469e-05        -0.183831       -0.937657      2.02639e-05    -0.000132787
                    -0.000717078     -0.00014572         0.217859        0.196035      3.93403e-05    -4.96267e-05        -0.184408       -0.937672
                       -0.183449        -0.93772      0.000200319    -9.43468e-05         0.127502       -0.265706     -0.000648462     0.000447097
                     8.25878e-05    -0.000125494        -0.184502       -0.938152     -0.000514483     0.000386422         0.127452        -0.26393
250200                  0.238158        0.168375     -0.000663637    -2.23725e-05        -0.284834       -0.913018     -2.75841e-05    -0.000174347
                    -0.000734279    -1.14881e-05         0.237449         0.16655      3.32342e-05    -5.71105e-05        -0.285449       -0.913077
                       -0.284533       -0.913134      0.000239245    -0.000148218         0.100214       -0.273932     -0.000614459     0.000444874
                       7.034e-05    -6.37238e-05        -0.285479       -0.913412     -0.000503309      0.00038581          0.10036       -0.272129
250400                  0.253697        0.136824     -0.000675483     5.98488e-05        -0.382749       -0.877606     -7.42893e-05    -0.000200499
                    -0.000715672     0.000120607         0.252785        0.135048      2.59082e-05    -6.64111e-05        -0.383429       -0.877687
                       -0.382516       -0.877758      0.000281661    -0.000288949        0.0723887       -0.279036     -0.000579711      0.00044377
                    -2.01011e-05    -2.43715e-05         -0.38339       -0.877909     -0.000482149     0.000378963        0.0727344       -0.277221
250600                  0.264779        0.103878     -0.000673179      0.00015153        -0.476438       -0.831785     -0.000117767    -0.000213976
                    -0.000667463     0.000239841         0.263658        0.102174      1.68844e-05    -7.86999e-05        -0.477201       -0.831855
                       -0.476262       -0.831959      2.50451e-05     -0.00062713        0.0444062       -0.280982     -0.000544289       0.0004438
                    -8.19079e-05    -8.02559e-05        -0.477091       -0.831999      -0.00044015     0.000372944         0.044956       -0.279172
250800                  0.271292       0.0702001     -0.000652973     0.000250698        -0.564806       -0.776032     -0.000156764    -0.000217242
                    -0.000598119     0.000340719         0.269958       0.0685948      5.55513e-06    -9.65451e-05        -0.565656       -0.776056
                       -0.564675       -0.776223     -0.000339822    -0.000180965        0.0166472       -0.279783     -0.000508259     0.000444966
                    -8.26494e-05     -0.00012328        -0.565476       -0.776156     -0.000378609     0.000392452        0.0174041       -0.277997
251000                  0.273221       0.0364592     -0.000611217     0.000354038        -0.646805       -0.710941     -0.000190596    -0.000212437
                     -0.00051533     0.000422059         0.271677       0.0349807     -8.01672e-06    -0.000126528        -0.647737       -0.710883
                       -0.646711       -0.711145     -0.000162805    -9.16225e-06       -0.0105116       -0.275497     -0.000471681     0.000447253
                    -7.41457e-05    -0.000142002        -0.647491       -0.710974     -0.000332465     0.000445224      -0.00954678       -0.273759
251200                  0.270656      0.00331336     -0.000544921     0.000456756        -0.721452       -0.637213     -0.000218955    -0.000201379
                    -0.000424667     0.000485113          0.26891      0.00199134     -1.45824e-05    -0.000187867        -0.722449       -0.637039
                        -0.72139       -0.637431     -6.90531e-05     1.23658e-05       -0.0367035        -0.26823     -0.000434601     0.000450631
                    -6.75724e-05    -0.000149943        -0.722147       -0.637155     -0.000315474     0.000498934       -0.0355331       -0.266564
251400                  0.263782      -0.0286037     -0.000452438     0.000552699        -0.787837       -0.555653     -0.000241776    -0.000185606
                    -0.000329532     0.000531948         0.261847       -0.029739      7.74043e-05    -0.000293099        -0.788874       -0.555335
                       -0.787806       -0.555885     -1.80019e-05     1.16548e-05       -0.0615775       -0.258132     -0.000397047     0.000455056
                    -6.34624e-05    -0.000153249        -0.788531       -0.555505     -0.000309663     0.000538465       -0.0602076       -0.256563
251600                  0.252876      -0.0586973      -0.00033415     0.000634829        -0.845135       -0.467162      -0.00025915    -0.000166416
                    -0.000231676     0.000564459         0.250772       -0.059616      0.000222227    -0.000163465        -0.846177        -0.46668
                       -0.845133       -0.467406      1.46325e-05     6.24513e-06       -0.0848034       -0.245396     -0.000359019     0.000460463
                    -6.11589e-05    -0.000154429        -0.845814       -0.466928     -0.000303585     0.000567404       -0.0832439       -0.243949
251800                  0.238302      -0.0864249     -0.000192961     0.000696069        -0.892612       -0.372727     -0.000271271    -0.000144916
                    -0.000131819     0.000583901         0.236053      -0.0870988      0.000156437    -7.71191e-05        -0.893623       -0.372072
                       -0.892643       -0.372982      3.81474e-05    -6.09309e-07        -0.106077       -0.230253     -0.000320481     0.000466768
                    -6.01076e-05    -0.000154624        -0.893263       -0.372417     -0.000294258     0.000590435        -0.104342       -0.228952
252000                  0.220499       -0.111308      -3.4356e-05      0.00073039        -0.929642       -0.273416     -0.000278395    -0.000122053
                    -3.01948e-05     0.000590732         0.218137       -0.111712      0.000107168    -6.84735e-05        -0.930581        -0.27259
                       -0.929708       -0.273677      5.66147e-05    -8.26934e-06        -0.125124       -0.212972     -0.000281341     0.000473865
                    -5.99512e-05    -0.000154437        -0.930252       -0.273041     -0.000281455     0.000610124         -0.12323       -0.211839
252200                  0.199973       -0.132945      0.000134088     0.000733872        -0.955707       -0.170364     -0.000280826    -9.86569e-05
                     7.30189e-05     0.000584632         0.197535       -0.133059      7.67705e-05    -7.42586e-05        -0.956537        -0.16938
                       -0.955809       -0.170625      7.20414e-05    -1.67315e-05        -0.141707       -0.193854     -0.000241422     0.000481613
                    -6.04862e-05    -0.000154245        -0.956264       -0.169938     -0.000265512     0.000627639        -0.139674       -0.192908
252400                  0.177284       -0.151017      0.000303656     0.000705389         -0.97041      -0.0647647     -0.000278905    -7.54583e-05
                     0.000177344     0.000564603         0.174812       -0.150827       5.4592e-05     -8.3193e-05        -0.971098       -0.063645
                        -0.97055      -0.0650197      8.54929e-05    -2.61893e-05        -0.155623       -0.173227      -0.00020041      0.00048983
                    -6.16258e-05     -0.00015432        -0.970906      -0.0643055       -0.0002468     0.000643411        -0.153474       -0.172485
252600                  0.153033       -0.165302      0.000465657     0.000646716        -0.973482       0.0421413     -0.000273009    -5.31133e-05
                     0.000281699     0.000529155         0.150571         -0.1648      3.58703e-05    -9.29935e-05        -0.974001       0.0433668
                       -0.973659       0.0419013      9.75413e-05    -3.69224e-05        -0.166716       -0.151445     -0.000157752      0.00049826
                    -6.33828e-05    -0.000154894        -0.973912       0.0426172     -0.000225643     0.000657467        -0.164474       -0.150919
252800                  0.127846       -0.175675      0.000612444     0.000562019        -0.964785        0.149082     -0.000263552    -3.22165e-05
                     0.000384144     0.000476571         0.125438        -0.17486      1.83302e-05    -0.000103065        -0.965119        0.150377
                       -0.964998        0.148865      0.000108457    -4.92707e-05         -0.17487       -0.128878      -0.00011244     0.000506535
                    -6.58687e-05    -0.000156178        -0.965149        0.149557      -0.00020237     0.000669578        -0.172561       -0.128579
253000                  0.102357       -0.182112      0.000738051     0.000456942        -0.944322        0.254765     -0.000250996    -1.33097e-05
                     0.000481705     0.000405294          0.10005       -0.180994      7.00962e-07    -0.000113176        -0.944462        0.256091
                       -0.944566         0.25458      0.000118285    -6.36323e-05         -0.18002        -0.10591     -6.24791e-05      0.00051408
                    -6.93066e-05    -0.000158371        -0.944622        0.255223     -0.000177398     0.000679316        -0.177668       -0.105845
253200                 0.0771938       -0.184697      0.000838402     0.000337577        -0.912233        0.357893     -0.000235858     3.11466e-06
                     0.000570338     0.000314409        0.0750313        -0.18329     -1.78469e-05    -0.000123146        -0.912183        0.359211
                       -0.912504        0.357748      0.000126865    -8.04672e-05        -0.182146      -0.0829321     -3.39911e-06     0.000519978
                     -7.4057e-05    -0.000161646        -0.912475        0.358321     -0.000151371     0.000686088        -0.179779      -0.0831048
253400                 0.0529594       -0.183613      0.000911189     0.000209591        -0.868803         0.45718     -0.000218725     1.66167e-05
                     0.000645122     0.000204188        0.0509813       -0.181938     -3.79308e-05    -0.000132755        -0.868575        0.458454
                       -0.869096        0.457083      0.000133797    -0.000100295        -0.181281      -0.0603378      7.71498e-05     0.000523093
                    -8.06523e-05    -0.000166112        -0.868998        0.457569     -0.000125368     0.000689205        -0.178923      -0.0607496
253600                 0.0302144       -0.179139      0.000955597     7.76654e-05        -0.814461        0.551365     -0.000200266     2.68196e-05
                     0.000700733     7.65674e-05        0.0284573       -0.177224     -6.00534e-05    -0.000141695        -0.814078        0.552567
                        -0.81477        0.551323      0.000138384    -0.000123677        -0.177506      -0.0385147      0.000228034     0.000529654
                     -8.9836e-05    -0.000171751        -0.814621         0.55171     -0.000101215      0.00068809        -0.175184      -0.0391641
253800                0.00946287       -0.171643      0.000971997    -5.46851e-05        -0.749779        0.639227     -0.000181248     3.34288e-05
                     0.000732176    -6.46057e-05       0.00795824       -0.169521     -8.46381e-05    -0.000149544        -0.749268        0.640339
                       -0.750098        0.639251      0.000139525    -0.000151159        -0.170953      -0.0178398      0.000701769     0.000917848
                    -0.000102588    -0.000178288        -0.749915        0.639533     -8.18681e-05     0.000682836         -0.16869      -0.0187229
254000               -0.00886326       -0.161575       0.00096165     -0.00018499        -0.675472        0.719607     -0.000162543     3.62615e-05
                     0.000735632    -0.000213725       -0.0100889       -0.159281     -0.000112029    -0.000155747        -0.674858        0.720623
                       -0.675788        0.719708       0.00013557    -0.000183146        -0.161799      0.00132733     -0.000193926     0.000989171
                    -0.000120101    -0.000185007         -0.67559        0.719885     -7.15221e-05       0.0006755        -0.159622     0.000217099
254200                -0.0244164       -0.149447      0.000926402    -0.000311507        -0.592392        0.791423     -0.000145137     3.52888e-05
                     0.000709184     -0.00036401       -0.0253421       -0.147021     -0.000142464     -0.00015959        -0.591693        0.792346
                       -0.592685        0.791614      0.000124163    -0.000219637        -0.150272       0.0186504     -7.26052e-05     0.000776283
                    -0.000143633    -0.000190497        -0.592485        0.791688     -7.43102e-05     0.000672218        -0.148204        0.017322
254400                -0.0369439       -0.135824      0.000868387    -0.000432869        -0.501517        0.853691     -0.000130121     3.06914e-05
                     0.000653151    -0.000508405       -0.0375542       -0.133306     -0.000176029    -0.000160196        -0.500739        0.854527
                       -0.501757        0.853977       0.00010214    -0.000259755         -0.13664       0.0338225      1.05845e-05     0.000737708
                    -0.000174135    -0.000192394        -0.501567        0.853956      -8.9749e-05     0.000684306        -0.134704       0.0322877
254600                 -0.046296       -0.121306      0.000789752    -0.000547801         -0.40394        0.905547     -0.000118663     2.29284e-05
                     0.000569937    -0.000640515       -0.0465808       -0.118738     -0.000212589    -0.000156533        -0.403077        0.906292
                       -0.404089        0.905915      6.56783e-05    -0.000300974        -0.121213       0.0465717      7.26842e-05     0.000731873
                    -0.000211587     -0.00018734        -0.403916         0.90581     -0.000106525     0.000722942        -0.119431       0.0448447
254800                -0.0524309       -0.106508      0.000692451    -0.000654934        -0.300843        0.946251     -0.000111951     1.28142e-05
                      0.00046345     -0.00075531        -0.052386       -0.103935     -0.000251705    -0.000147453        -0.299889        0.946886
                       -0.300871        0.946668      1.10662e-05    -0.000338138        -0.104334       0.0566663      0.000126066     0.000737391
                    -0.000254137    -0.000171458        -0.300716        0.946489     -0.000105278     0.000787041        -0.102727       0.0547641
255000                -0.0554167      -0.0920448      0.000578141    -0.000752712        -0.193483         0.97519     -0.000111085     1.59226e-06
                     0.000338326    -0.000849405       -0.0550435      -0.0895101     -0.000292552    -0.000131767        -0.192448        0.975685
                       -0.193382        0.975609     -6.34356e-05    -0.000362773        -0.086379       0.0639192      0.000175692     0.000748322
                    -0.000297593     -0.00014162        -0.193243        0.975366     -7.40972e-05     0.000860848       -0.0849658       0.0618613
255200                 -0.055431      -0.0785116      0.000448175    -0.000839344       -0.0831938        0.991882     -0.000116927    -9.01485e-06
                      0.00019921    -0.000920951       -0.0547368      -0.0760594     -0.000333853    -0.000108378       -0.0821007        0.992212
                      -0.0829786        0.992258     -0.000154676    -0.000363946       -0.0677469       0.0681919      0.000224013     0.000762422
                     -0.00033601    -9.71091e-05       -0.0828463        0.991961     -1.60836e-05     0.000927935       -0.0665436       0.0660002
255400                -0.0527566      -0.0664645      0.000303673    -0.000912772        0.0286293         0.99599     -0.000129882    -1.68143e-05
                     5.02542e-05    -0.000969254       -0.0517546      -0.0641377     -0.000373857     -7.6446e-05        0.0297486        0.996138
                       0.0289271         0.99629     -0.000252266    -0.000332017       -0.0488555       0.0693977      0.000272538     0.000778672
                    -0.000363588    -4.05375e-05        0.0290641        0.995944      5.90732e-05     0.000981096       -0.0478756       0.0670963
255600                -0.0477745      -0.0564035      0.000145653     -0.00097063         0.140542        0.987338      -0.00014966    -1.92497e-05
                    -0.000105103    -0.000994287        -0.046484      -0.0542436     -0.000410394    -3.55875e-05         0.141654        0.987296
                        0.140881        0.987543     -0.000340047    -0.000264405       -0.0301341       0.0675036      0.000322403     0.000796539
                    -0.000376804     2.29663e-05         0.141038         0.98715      0.000143588      0.00102025       -0.0293878       0.0651181
255800                -0.0409547      -0.0487564     -2.48036e-05     -0.00101022         0.251071        0.965916      -0.00017504    -1.36428e-05
                    -0.000264117    -0.000996248       -0.0394008      -0.0468024     -0.000441022      1.3945e-05         0.252146        0.965686
                        0.251407        0.966021     -0.000402564    -0.000168736       -0.0120167       0.0625316      0.000374635     0.000815698
                    -0.000375241     8.78106e-05         0.251601        0.965581      0.000233392      0.00104768       -0.0115107       0.0600888
256000                -0.0328434      -0.0438639     -0.000206346     -0.00102848         0.358741        0.931888     -0.000203746     2.42226e-06
                    -0.000424554    -0.000975215       -0.0310571      -0.0421515     -0.000463249     7.11496e-05         0.359755        0.931473
                        0.359028        0.931899     -0.000432006    -5.94736e-05       0.00506508       0.0545589      0.000430287     0.000835882
                    -0.000360804     0.000149723         0.359278        0.931407      0.000326967      0.00106554       0.00532794       0.0520857
256200                -0.0240492      -0.0419671     -0.000397116     -0.00102199         0.462089        0.885588     -0.000232497     3.06217e-05
                    -0.000584416    -0.000930951       -0.0220666      -0.0405277     -0.000474807     0.000134274          0.46303        0.884996
                        0.462283         0.88552     -0.000429745     4.91994e-05        0.0206887       0.0437164      0.000490529     0.000856786
                    -0.000336259     0.000206347          0.46261        0.884972      0.000424087      0.00107522        0.0207092       0.0412397
