! TOUCHSTONE file generated by CST MICROWAVE STUDIO
! Date and time: Sun Sep 28 21:29:15 2025
! Project name: biblioteca3_folgaOK.cst
! Parameters = {H=600; Lx=300; Ly=300; Nedge=4; P=520; mesh_pilar_nm=40; t_air=3500; t_sub=4000}
! Header version: 2018
! Port assignment regex: !\s*Touchstone port\s*([0-9]+)\s*=\s*(CST MWS port|CST DS port)\s*([0-9]+|Zmin|Zmax)\s*\(\"(.*)\"\)(\s*mode\s*([0-9]+))?.*
! Touchstone port assignment:
! Touchstone port 1 = CST MWS port Zmin ("") mode 1
! Touchstone port 2 = CST MWS port Zmin ("") mode 2
! Touchstone port 3 = CST MWS port Zmax ("") mode 1
! Touchstone port 4 = CST MWS port Zmax ("") mode 2
! S-Parameters are not renormalized. Each port impedance will be approximated by the real part at minimum frequency. The values are described via the [Reference] keyword.
! Default impedance is overridden by [Reference]
[Version] 2.0
# GHz S RI R 376.73
[Number of Ports] 4
[Reference]
376.73 376.73 376.73 376.73 
[Number of Frequencies] 401
[Network Data]
250000                  0.209316        0.217247      0.000254868     8.04467e-05         0.167822        0.938523       0.00071447    -0.000238128
                     0.000256784     8.02327e-05         0.211603        0.215827      0.000725733    -0.000170346         0.168143        0.938279
                        0.167824        0.938525      0.000725822    -0.000171735          0.12106       -0.276321     -0.000219592    -0.000355595
                      0.00071359    -0.000235783         0.168146        0.938285     -0.000216825     -0.00035542         0.123489       -0.275876
250200                  0.227591        0.194607      0.000278383     5.45985e-05         0.257117        0.918901       0.00068863    -0.000310477
                     0.000278029     5.24614e-05         0.229774        0.192758      0.000708753    -0.000239793         0.257426        0.918627
                         0.25712        0.918888      0.000706864    -0.000241023        0.0936293       -0.284341     -0.000230872    -0.000340124
                     0.000690049    -0.000308267         0.257408        0.918637     -0.000228796    -0.000332814          0.09619       -0.284057
250400                  0.243159         0.17023      0.000299145       2.461e-05         0.344243        0.890866       0.00065517    -0.000379683
                     0.000296729     2.13603e-05         0.245165        0.167993      0.000684291    -0.000307624         0.344539         0.89057
                        0.344244        0.890844      0.000680939    -0.000308362        0.0656537       -0.289325     -0.000241513     -0.00032494
                     0.000658289    -0.000378132         0.344509        0.890586     -0.000239751    -0.000313694         0.068332        -0.28921
250600                  0.255834        0.144471      0.000316413    -9.20855e-06         0.428422        0.854645      0.000614578    -0.000444882
                     0.000312323     -1.2896e-05         0.257605        0.141894      0.000652606    -0.000372883         0.428705        0.854334
                         0.42842         0.85462      0.000648314    -0.000372957        0.0374947       -0.291237     -0.000251564    -0.000310021
                     0.000618754      -0.0004443         0.428673        0.854355     -0.000249906    -0.000297029        0.0402766         -0.2913
250800                  0.265482        0.117706      0.000329491    -4.64034e-05           0.5089        0.810536      0.000567439    -0.000505304
                     0.000324241    -5.00331e-05         0.266973        0.114839      0.000614103    -0.000434685         0.509172        0.810214
                        0.508895        0.810512       0.00060936    -0.000434065       0.00951555       -0.290082     -0.000261071    -0.000295349
                     0.000572046    -0.000505802         0.509143        0.810237     -0.000259421    -0.000282126        0.0123859       -0.290335
251000                  0.272023       0.0903249      0.000337756    -8.63873e-05         0.584949        0.758903      0.000514421     -0.00056029
                     0.000331929    -8.96688e-05         0.273196       0.0872183      0.000569308    -0.000492238         0.585213         0.75857
                        0.584943        0.758883      0.000564536    -0.000491012       -0.0179248       -0.285913     -0.000270073    -0.000280903
                     0.000518896    -0.000561804          0.58519        0.758593      -0.00026842    -0.000268504       -0.0149832       -0.286369
251200                  0.275425       0.0627187      0.000340689    -0.000128456         0.655875        0.700174      0.000456248    -0.000609291
                     0.000334865     -0.00013131         0.276253       0.0594234      0.000518842    -0.000544859         0.656133        0.699829
                        0.655868        0.700158      0.000514377    -0.000543207       -0.0444768       -0.278824     -0.000278607    -0.000266664
                     0.000460132    -0.000611619         0.656117         0.69985     -0.000276996    -0.000255815       -0.0414842       -0.279495
251400                   0.27571       0.0352783      0.000337893    -0.000171814         0.721022        0.634839       0.00039368    -0.000651872
                     0.000332591    -0.000174354         0.276172       0.0318447      0.000463398    -0.000591984         0.721274        0.634479
                        0.721016        0.634828      0.000459473    -0.000590142       -0.0698057       -0.268952     -0.000286702    -0.000252614
                     0.000396638    -0.000654717         0.721266        0.634495     -0.000285218    -0.000243803       -0.0667854       -0.269851
251600                   0.27295      0.00838537      0.000329111    -0.000215598         0.779778        0.563447      0.000327494    -0.000687707
                     0.000324729    -0.000218095          0.27303      0.00486346      0.000403711    -0.000633173         0.780025        0.563067
                        0.779773        0.563441      0.000400457    -0.000631402       -0.0935961       -0.256474     -0.000294388    -0.000238732
                     0.000329324    -0.000690722         0.780022        0.563078     -0.000293139    -0.000232269       -0.0905749        -0.25761
251800                  0.267264      -0.0175931      0.000314235     -0.00025891         0.831579        0.486604      0.000258466    -0.000716574
                     0.000311009    -0.000261741         0.266952      -0.0211529      0.000340536    -0.000668107         0.831818          0.4862
                        0.831576        0.486602      0.000337986    -0.000666662        -0.115557       -0.241602     -0.000301688    -0.000225003
                     0.000259101      -0.0007194          0.83182        0.486204     -0.000300798    -0.000221059        -0.112564       -0.242981
252000                  0.258816      -0.0423104      0.000293302    -0.000300845         0.875915        0.404968      0.000187361    -0.000738343
                      0.00029129    -0.000304428         0.258107      -0.0458572      0.000274622    -0.000696579         0.876144        0.404535
                        0.875915        0.404968      0.000272726    -0.000695685        -0.135424       -0.224582     -0.000308624    -0.000211409
                      0.00018685    -0.000740647         0.876148        0.404533     -0.000308223    -0.000210048        -0.132491       -0.226206
252200                  0.247813       -0.065445      0.000266494    -0.000340519         0.912335        0.319245      0.000114919    -0.000752972
                     0.000265575    -0.000345249         0.246709       -0.068927      0.000206699    -0.000718481         0.912549        0.318779
                        0.912337        0.319246      0.000205342    -0.000718315        -0.152966        -0.20569     -0.000315215    -0.000197933
                     0.000113409    -0.000754472         0.912553        0.318771     -0.000315434    -0.000199135        -0.150126       -0.207555
252400                  0.234501      -0.0867058      0.000234124    -0.000377086         0.940451        0.230185      4.18488e-05    -0.000760488
                     0.000234023    -0.000383277         0.233008      -0.0900707      0.000137463    -0.000733793         0.940643        0.229682
                        0.940455        0.230187      0.000136485    -0.000734473        -0.167987       -0.185229     -0.000321477    -0.000184559
                     3.95615e-05    -0.000760977         0.940647        0.229671     -0.000322442    -0.000188232        -0.165271       -0.187327
252600                  0.219159       -0.105836       0.00019662    -0.000409766         0.959945        0.138577     -3.11764e-05    -0.000760986
                     0.000196952    -0.000417605         0.217291       -0.109031      6.75659e-05    -0.000742569         0.960107        0.138035
                        0.959949        0.138579       6.6784e-05    -0.000744147        -0.180326       -0.163522     -0.000327425    -0.000171271
                    -3.39741e-05    -0.000760337         0.960109        0.138022     -0.000329251    -0.000177267        -0.177766       -0.165838
252800                  0.202099       -0.122618      0.000154516    -0.000437846         0.970567       0.0452432     -0.000103523    -0.000754611
                     0.000154835    -0.000447366         0.199878       -0.125592     -2.38547e-06     -0.00074492         0.970691        0.044662
                        0.970572       0.0452442     -3.15728e-06    -0.000747385        -0.189865        -0.14091     -0.000333072    -0.000158055
                    -0.000106543    -0.000752784         0.970692       0.0446473     -0.000335861    -0.000166174         -0.18749       -0.143427
253000                  0.183656       -0.136875      0.000108432    -0.000460701         0.972146      -0.0489682     -0.000174597    -0.000741553
                     0.000108291    -0.000471771         0.181113       -0.139579     -7.18345e-05       -0.000741         0.972224      -0.0495877
                         0.97215      -0.0489678      -7.2768e-05    -0.000744284        -0.196527       -0.117749     -0.000338429    -0.000144894
                    -0.000177554    -0.000738594         0.972223      -0.0496016     -0.000342262    -0.000154894        -0.194362       -0.120442
253200                  0.164188       -0.148477      5.90626e-05    -0.000477791         0.964591       -0.143188     -0.000243843    -0.000722042
                     5.80689e-05    -0.000490131          0.16136       -0.150867     -0.000140272       -0.000731         0.964614       -0.143843
                        0.964594       -0.143188      -0.00014151    -0.000734983        -0.200278      -0.0944003     -0.000343504    -0.000131775
                    -0.000246478     -0.00071807         0.964611       -0.143855     -0.000348442    -0.000143375        -0.198344      -0.0972419
253400                  0.144066       -0.157342      7.16272e-06    -0.000488672         0.947891       -0.236533     -0.000310743    -0.000696335
                     5.02442e-06    -0.000501878         0.141001       -0.159379     -0.000207233    -0.000715131          0.94785       -0.237219
                        0.947892       -0.236533     -0.000208878    -0.000719659         -0.20113      -0.0712281     -0.000348308    -0.000118682
                    -0.000312837    -0.000691534         0.947847       -0.237228     -0.000354377    -0.000131567        -0.199443      -0.0741883
253600                  0.123672        -0.16344     -4.64611e-05    -0.000492994          0.92212       -0.328117     -0.000374816    -0.000664715
                    -4.99019e-05    -0.000506581         0.120423       -0.165091     -0.000272292    -0.000693619         0.922009       -0.328828
                         0.92212       -0.328116       -0.0002744    -0.000698514        -0.199137      -0.0485951     -0.000352846    -0.000105603
                    -0.000376203    -0.000659317         0.922006       -0.328833     -0.000360041    -0.000119426        -0.197708      -0.0516419
253800                  0.103389       -0.166789     -0.000100961    -0.000490504          0.88744       -0.417052     -0.000435612    -0.000627487
                    -0.000105711    -0.000503959         0.100014       -0.168034     -0.000335057      -0.0006667          0.88725       -0.417781
                        0.887439       -0.417051     -0.000337636    -0.000671775          -0.1944      -0.0268557     -0.000357126    -9.25221e-05
                    -0.000436189    -0.000621757         0.887249       -0.417784     -0.000365393    -0.000106908        -0.193235      -0.0299563
254000                 0.0835963       -0.167465     -0.000155456    -0.000481053         0.844098       -0.502466     -0.000492708    -0.000584975
                    -0.000161371    -0.000493877        0.0801565        -0.16829     -0.000395166    -0.000634616         0.843824       -0.503204
                        0.844095       -0.502464     -0.000398171    -0.000639688        -0.187065     -0.00635124     -0.000361152    -7.94252e-05
                     -0.00049244    -0.000579194         0.843824       -0.503204     -0.000370387    -9.39746e-05        -0.186164     -0.00947296
254200                 0.0646609       -0.165593      -0.00020904    -0.000464597         0.792428       -0.583503     -0.000545712    -0.000537518
                    -0.000215841    -0.000476357        0.0612198       -0.165998     -0.000452275     -0.00059761         0.792065       -0.584239
                        0.792425         -0.5835     -0.000455619    -0.000602514        -0.177317       0.0125957     -0.000364931    -6.62977e-05
                    -0.000544628    -0.000531965         0.792067       -0.584237     -0.000374959    -8.05887e-05        -0.176676      0.00948447
254400                 0.0469307       -0.161351     -0.000260789    -0.000441204          0.73285       -0.659335     -0.000594252    -0.000485473
                     -0.00026809    -0.000451566        0.0435505       -0.161345     -0.000506059    -0.000555928         0.732394       -0.660059
                        0.732847       -0.659331     -0.000509613    -0.000560528        -0.165384       0.0296865     -0.000368468    -5.31241e-05
                    -0.000592445    -0.000480413         0.732399       -0.660056     -0.000379033    -6.67194e-05        -0.164993       0.0266154
254600                 0.0307273       -0.154968     -0.000309777    -0.000411057         0.665868       -0.729173     -0.000637978    -0.000429211
                    -0.000317123    -0.000419812        0.0274673       -0.154571     -0.000556202    -0.000509822         0.665318       -0.729874
                        0.665866       -0.729168     -0.000559808    -0.000514017        -0.151531       0.0446512     -0.000371767    -3.98884e-05
                      -0.0006356    -0.000424878         0.665324        -0.72987     -0.000382508    -5.23425e-05        -0.151376       0.0416475
254800                 0.0163382       -0.146717     -0.000355083    -0.000374464         0.592068       -0.792272     -0.000676559    -0.000369122
                    -0.000361991    -0.000381538        0.0132529       -0.145956     -0.000602392    -0.000459547         0.591424       -0.792938
                        0.592067       -0.792267     -0.000605872    -0.000463282        -0.136056       0.0572539     -0.000374837    -2.65732e-05
                     -0.00067381     -0.00036571          0.59143       -0.792935     -0.000385259    -3.74456e-05        -0.136122       0.0543419
255000                0.00401049       -0.136912     -0.000395808    -0.000331862         0.512112       -0.847943     -0.000709683    -0.000305614
                     -0.00040181    -0.000337313       0.00114793       -0.135826     -0.000644322    -0.000405369         0.511374       -0.848561
                        0.512112       -0.847939     -0.000647487    -0.000408636        -0.119289       0.0672967     -0.000377682    -1.31594e-05
                      -0.0007068    -0.000303264         0.511381        -0.84856     -0.000387123    -2.20344e-05        -0.119554       0.0644972
255200               -0.00605598       -0.125906       -0.0004311    -0.000283821         0.426736       -0.895559     -0.000737053    -0.000239116
                    -0.000435774    -0.000287825      -0.00865486       -0.124536     -0.000681679    -0.000347568         0.425906       -0.896117
                        0.426738       -0.895557     -0.000684347    -0.000350409        -0.101583       0.0746235     -0.000380314     3.74486e-07
                    -0.000734301    -0.000237913         0.425911       -0.896117     -0.000387889    -6.14579e-06        -0.102027       0.0719539
255400                -0.0137136       -0.114078     -0.000460169    -0.000231042         0.336741       -0.934565     -0.000758391    -0.000170081
                    -0.000463171    -0.000233869       -0.0160157       -0.112472     -0.000714152    -0.000286444         0.335823        -0.93505
                        0.336744       -0.934565     -0.000716154    -0.000288949       -0.0833123       0.0791237     -0.000382744     1.40531e-05
                    -0.000756045    -0.000170045         0.335826       -0.935051     -0.000387282     1.01312e-05       -0.0839107       0.0765975
255600                -0.0188715       -0.101831     -0.000482317    -0.000174356         0.242989       -0.964481     -0.000773434    -9.89888e-05
                    -0.000483398    -0.000176339       -0.0208515        -0.10004     -0.000741421    -0.000222326         0.241987       -0.964882
                        0.242992       -0.964485     -0.000742618    -0.000224627       -0.0648652        0.080734     -0.000384986     2.79055e-05
                    -0.000771768    -0.000100076         0.241987       -0.964883     -0.000384939     2.66168e-05       -0.0655931       0.0783611
255800                -0.0214988      -0.0895817     -0.000496962    -0.000114713         0.146393       -0.984917     -0.000781939    -2.63504e-05
                    -0.000495971    -0.000116216        -0.023139      -0.0876575     -0.000763166    -0.000155573         0.145315        -0.98522
                        0.146396       -0.984924     -0.000763458     -0.00015784       -0.0466376       0.0794409     -0.000387061     4.19666e-05
                    -0.000781211    -2.84538e-05          0.14531        -0.98522     -0.000380379     4.29706e-05       -0.0474691       0.0772268
256000                -0.0216265      -0.0777507     -0.000503667    -5.31628e-05        0.0479107       -0.995568     -0.000783683     4.72886e-05
                     -0.00050055     -5.4557e-05       -0.0229163      -0.0757463     -0.000779065    -8.65901e-05        0.0467644       -0.995761
                       0.0479126       -0.995579       -0.0007784    -8.90177e-05       -0.0290273       0.0752805     -0.000388997     5.62794e-05
                     -0.00078412     4.43353e-05        0.0467545       -0.995759     -0.000372978     5.85591e-05       -0.0299363       0.0732268
256200                -0.0193481      -0.0667564      -0.00050216     9.16948e-06       -0.0514666       -0.996229     -0.000778467     0.000121342
                     -0.00049695     7.53071e-06       -0.0202835       -0.064725       -0.0007888    -1.58318e-05       -0.0526715       -0.996298
                      -0.0514666       -0.996243     -0.000787182    -1.86299e-05       -0.0124272       0.0683388     -0.000390827     7.08982e-05
                    -0.000780254     0.000117758       -0.0526866       -0.996294     -0.000361966     7.22013e-05        -0.013388       0.0664428
