! TOUCHSTONE file generated by CST MICROWAVE STUDIO
! Date and time: Mon Sep 29 00:40:55 2025
! Project name: biblioteca3_folgaOK.cst
! Parameters = {H=600; Lx=300; Ly=300; Nedge=16; P=520; mesh_pilar_nm=30; t_air=3500; t_sub=4000}
! Header version: 2018
! Port assignment regex: !\s*Touchstone port\s*([0-9]+)\s*=\s*(CST MWS port|CST DS port)\s*([0-9]+|Zmin|Zmax)\s*\(\"(.*)\"\)(\s*mode\s*([0-9]+))?.*
! Touchstone port assignment:
! Touchstone port 1 = CST MWS port Zmin ("") mode 1
! Touchstone port 2 = CST MWS port Zmin ("") mode 2
! Touchstone port 3 = CST MWS port Zmax ("") mode 1
! Touchstone port 4 = CST MWS port Zmax ("") mode 2
! S-Parameters are not renormalized. Each port impedance will be approximated by the real part at minimum frequency. The values are described via the [Reference] keyword.
! Default impedance is overridden by [Reference]
[Version] 2.0
# GHz S RI R 376.73
[Number of Ports] 4
[Reference]
376.73 376.73 376.73 376.73 
[Number of Frequencies] 401
[Network Data]
250000                  0.208047        0.219379       -0.0002071    -0.000126916         0.153563        0.940996     -0.000273619     0.000127977
                    -0.000248518      -0.0001216         0.205547        0.221235     -0.000255323      0.00014484         0.153661         0.94085
                        0.153345        0.940676     -0.000295963     0.000163563         0.127568       -0.274094      5.14952e-05     0.000288829
                     -0.00029502     0.000146533         0.153698        0.940882      2.19458e-05     0.000282948         0.124473       -0.275152
250200                  0.226906        0.196735     -0.000235254    -0.000101563         0.242941        0.922635     -0.000254465     0.000143727
                    -0.000251889    -8.20248e-05         0.224434        0.198616     -0.000243069     0.000161498         0.242986        0.922391
                        0.242709        0.922406     -0.000285473     0.000176567         0.100715       -0.282825      5.71706e-05     0.000259393
                    -0.000280165     0.000158364         0.242972         0.92276      3.24295e-05     0.000258948        0.0974253       -0.283675
250400                  0.243056        0.172266     -0.000259977    -5.86542e-05         0.330304        0.895893     -0.000235443      0.00015913
                    -0.000249734    -3.96624e-05         0.240655        0.174336     -0.000230143     0.000177787         0.330317          0.8956
                        0.330082        0.895707     -0.000274215     0.000189661        0.0732156       -0.288639      5.88769e-05     0.000228602
                    -0.000264699     0.000170396         0.330317        0.896142      4.00166e-05      0.00023271        0.0697612       -0.289218
250600                  0.256298        0.146328      -0.00027052     2.58603e-06         0.414873        0.860971     -0.000216459     0.000174179
                    -0.000241043     4.78326e-06         0.254047        0.148696     -0.000216529     0.000193678         0.414876        0.860666
                         0.41467         0.86079     -0.000262139     0.000202821        0.0454127       -0.291478      5.61606e-05     0.000196989
                    -0.000248604     0.000182613         0.414911        0.861242      4.41135e-05     0.000204477        0.0418347       -0.291731
250800                  0.266481        0.119295     -0.000255119     7.44403e-05         0.495887        0.818143     -0.000197421     0.000188864
                    -0.000224854      5.0305e-05         0.264477         0.12202     -0.000202212     0.000209141         0.495904        0.817848
                        0.495701        0.817937     -0.000249191     0.000216016        0.0176537       -0.291324      4.86376e-05     0.000165211
                    -0.000231856     0.000194991         0.495959        0.818351      4.41056e-05      0.00017463        0.0140034       -0.291212
251000                  0.273509       0.0915614     -0.000209358     0.000141022         0.572611        0.767751     -0.000178242     0.000203174
                     -0.00020034     9.55696e-05          0.27185       0.0946515     -0.000187174     0.000224143         0.572663         0.76748
                        0.572432        0.767501     -0.000235316      0.00022921      -0.00971277       -0.288204      3.60274e-05      0.00013404
                    -0.000214431     0.000207503         0.572704        0.767835      3.93876e-05     0.000143709       -0.0133782       -0.287701
251200                  0.277335       0.0635279      -0.00014103     0.000187304         0.644341        0.710207     -0.000158836     0.000217091
                    -0.000166924     0.000138925         0.276109       0.0669501     -0.000171395     0.000238648         0.644445        0.709964
                        0.644156        0.709902     -0.000220452     0.000242361       -0.0363431       -0.282187      1.81875e-05     0.000104348
                    -0.000196302     0.000220115         0.644425        0.710127      2.94044e-05     0.000112435       -0.0399634        -0.28128
251400                  0.277969       0.0355967     -6.43307e-05     0.000207992         0.710412        0.645987     -0.000139116     0.000230596
                    -0.000124393     0.000178449         0.277244       0.0392858     -0.000154855     0.000252615         0.710581         0.64577
                        0.710207        0.645627     -0.000204535     0.000255421       -0.0619039       -0.273384      -4.8556e-06     7.70757e-05
                    -0.000177439     0.000232785         0.710452        0.645727       1.3702e-05     8.17106e-05       -0.0654188       -0.272074
251600                  0.275473      0.00816346       9.3592e-06      0.00020691           0.7702        0.575628     -0.000118995     0.000243663
                    -7.30094e-05     0.000212046         0.275291       0.0120328     -0.000137533     0.000266002         0.770444        0.575429
                        0.769963         0.57522     -0.000187497     0.000268331       -0.0860774       -0.261949     -3.28838e-05     5.31915e-05
                    -0.000157807     0.000245467          0.77016        0.575192      -8.0128e-06     5.26145e-05       -0.0894289       -0.260247
251800                   0.26996      -0.0183891      7.48144e-05        0.000191         0.823132        0.499725     -9.83873e-05     0.000256259
                    -1.35854e-05     0.000237589         0.270334      -0.0144372     -0.000119405      0.00027876         0.823454        0.499535
                        0.822853        0.499282     -0.000169266     0.000281023        -0.108566       -0.248071     -6.54758e-05     3.36471e-05
                    -0.000137369     0.000258101         0.822983        0.499135     -3.58119e-05       2.637e-05          -0.1117       -0.245999
252000                  0.261592       -0.043698      0.000131272     0.000166143         0.868688         0.41893     -7.72044e-05     0.000268344
                     5.24932e-05     0.000253094         0.262506      -0.0397622     -0.000100448     0.000290837         0.869088        0.418737
                        0.868364        0.418466     -0.000149767     0.000293418        -0.129099       -0.231975     -0.000102011     1.93247e-05
                    -0.000116082     0.000270623         0.868409        0.418217     -6.94895e-05     4.29245e-06        -0.131967       -0.229563
252200                  0.250577      -0.0674263      0.000179936     0.000136078         0.906408         0.33394     -5.53563e-05     0.000279869
                     0.000123312     0.000256903         0.251989      -0.0635974     -8.06347e-05     0.000302173          0.90688        0.333731
                         0.90604        0.333475     -0.000128921     0.000305424        -0.147432       -0.213919     -0.000141685     1.09879e-05
                    -9.38985e-05     0.000282955          0.90599        0.333144     -0.000108521    -1.22856e-05        -0.149991       -0.211203
252400                  0.237162      -0.0892682      0.000222454      0.00010277         0.935895        0.245499     -3.27513e-05     0.000290772
                     0.000196544     0.000247844         0.239012      -0.0856221     -5.99389e-05     0.000312702         0.936431        0.245263
                        0.935489        0.245049     -0.000106648     0.000316931        -0.163356       -0.194188      -0.00018355     9.23999e-06
                    -7.07656e-05     0.000295007         0.935342        0.244663     -0.000152048    -2.21068e-05        -0.165569        -0.19121
252600                  0.221636       -0.108954      0.000260281     6.70372e-05          0.95682        0.154389     -9.29522e-06     0.000300982
                     0.000269614     0.000225335         0.223845       -0.105548     -3.83323e-05     0.000322349         0.957409        0.154117
                        0.956387        0.153971     -8.28634e-05     0.000327814        -0.176696        -0.17309     -0.000226548     1.44939e-05
                    -4.66256e-05     0.000306676         0.956148        0.153554     -0.000198894    -2.40881e-05        -0.178534       -0.169897
252800                  0.204315       -0.126256      0.000294496      2.9027e-05         0.968927       0.0614268      1.51085e-05      0.00031041
                     0.000339891     0.000189419         0.206801       -0.123123     -1.57858e-05     0.000331032         0.969555       0.0611105
                        0.968481       0.0610529     -5.74849e-05     0.000337924        -0.187317       -0.150955     -0.000269571      2.6957e-05
                    -2.14156e-05     0.000317844         0.968161       0.0606268     -0.000247618    -1.74128e-05        -0.188756       -0.147595
253000                  0.185545       -0.140989      0.000325805    -1.14865e-05         0.972036       -0.032546      4.05582e-05     0.000318951
                     0.000404876     0.000140727         0.188224       -0.138142       7.7299e-06     0.000338656         0.972686      -0.0329123
                        0.971593      -0.0328674     -3.04303e-05     0.000347089        -0.195124       -0.128126     -0.000311506     4.66318e-05
                     4.93246e-06     0.000328372         0.971208      -0.0332843     -0.000296594    -1.60195e-06        -0.196148        -0.12465
253200                  0.165692       -0.153017      0.000354577    -5.49374e-05         0.966043       -0.126666      6.71539e-05     0.000326478
                      0.00046234     8.03762e-05         0.168485       -0.150447       3.2244e-05     0.000345114         0.966701       -0.127085
                        0.965623       -0.126932      -1.6216e-06     0.000355111        -0.200066       -0.104957     -0.000351281      7.3331e-05
                     3.24906e-05     0.000338102         0.965192       -0.127327     -0.000344115     2.34473e-05        -0.200662       -0.101417
253400                  0.145137       -0.162255      0.000380887    -0.000101875         0.950928       -0.220059      9.49959e-05      0.00033284
                     0.000510418     9.84102e-06         0.147975       -0.159935      5.77846e-05     0.000350286         0.951578        -0.22053
                        0.950549       -0.220269      2.90119e-05     0.000361758        -0.202132      -0.0818037       -0.0003879     0.000106703
                     6.13339e-05     0.000346854         0.950093       -0.220637     -0.000388505     5.74603e-05        -0.202295      -0.0782541
253600                  0.124269       -0.168667      0.000404537    -0.000152912         0.926754        -0.31184      0.000124183     0.000337858
                     0.000547634    -6.91839e-05         0.127099       -0.166559      8.43777e-05     0.000354032          0.92738       -0.312362
                        0.926432       -0.312001      6.15287e-05     0.000366761        -0.201359      -0.0590257     -0.000420471     0.000146267
                     9.15387e-05     0.000354415          0.92597       -0.312342     -0.000428212     9.98211e-05        -0.201089      -0.0555205
253800                  0.103478       -0.172273      0.000425058    -0.000208683         0.893668       -0.401132      0.000154811     0.000341317
                     0.000572885    -0.000154904         0.106264       -0.170328      0.000112045     0.000356195         0.894255       -0.401699
                        0.893417       -0.401254      9.59692e-05     0.000369813        -0.197823      -0.0369749     -0.000448216     0.000191442
                      0.00012318     0.000360545         0.892966       -0.401573      -0.00046189     0.000149635        -0.197126      -0.0335689
254000                 0.0831499       -0.173146      0.000441697    -0.000269809         0.851901       -0.487063      0.000186965     0.000342963
                     0.000585385    -0.000245511         0.085871       -0.171314      0.000140803     0.000356595         0.852437       -0.487669
                        0.851732       -0.487159      0.000132347      0.00037056        -0.191648       -0.015993     -0.000470472     0.000241587
                     0.000156326     0.000364961         0.851305       -0.487467      -0.00048844      0.00020581        -0.190535      -0.0127414
254200                 0.0636563       -0.171409      0.000453385    -0.000336849         0.801772       -0.568781       0.00022072     0.000342496
                     0.000584598    -0.000339233        0.0663107       -0.169642      0.000170659     0.000355024         0.802244       -0.569417
                        0.801691       -0.568867      0.000170639     0.000368598        -0.182995      0.00359384     -0.000486684     0.000296023
                     0.000191034      0.00036734         0.801295       -0.569177     -0.000507032     0.000267134        -0.181486      0.00663598
254400                  0.045351        -0.16724      0.000458704    -0.000410231         0.743682        -0.64546      0.000256127      0.00033956
                     0.000570166    -0.000434348        0.0479501       -0.165494      0.000201605     0.000351246         0.744082       -0.646115
                        0.743691       -0.645554      0.000210772     0.000363469         -0.17207       0.0214801     -0.000496392     0.000354061
                     0.000227345     0.000367307         0.743328       -0.645879      -0.00051709     0.000332356        -0.170189       0.0242585
254600                 0.0285608       -0.160864      0.000455845    -0.000490148         0.678116        -0.71631      0.000293204     0.000333739
                     0.000541855    -0.000529164        0.0311273       -0.159106      0.000233617     0.000344989         0.678437       -0.716973
                        0.678212       -0.716427      0.000252606     0.000354664        -0.159112       0.0373858     -0.000499209     0.000415008
                     0.000265266     0.000364427         0.677877       -0.716782     -0.000518263     0.000400238        -0.156893       0.0398477
254800                 0.0135794        -0.15255       0.00044259    -0.000576413          0.60564       -0.780581      0.000331923     0.000324545
                     0.000499521    -0.000621981        0.0161437       -0.150758      0.000266645     0.000335941         0.605877       -0.781241
                        0.605814       -0.780738      0.000295912     0.000341615        -0.144399       0.0510608     -0.000494806     0.000478178
                     0.000304763     0.000358202         0.605499       -0.781134     -0.000510385     0.000469598         -0.14188        0.053156
255000               0.000661189       -0.142612      0.000416327    -0.000668261         0.526895       -0.837579      0.000372186     0.000311413
                     0.000443098    -0.000711042       0.00325727       -0.140776      0.000300601     0.000323746         0.527045       -0.838222
                        0.527137       -0.837788      0.000340348     0.000323711        -0.128236       0.0622894     -0.000482893     0.000542892
                     0.000345736      0.00034806         0.526826       -0.838233     -0.000493433     0.000539329        -0.125468       0.0639715
255200               -0.00998476       -0.131397      0.000374142    -0.000764108         0.442596       -0.886666        0.0004138     0.000293694
                     0.000372622     -0.00079447      -0.00732301       -0.129519       0.00033535        0.000308         0.442659       -0.887281
                        0.442891       -0.886937      0.000385431     0.000300301         -0.11096       0.0708938     -0.000463199     0.000608465
                     0.000387997     0.000333352         0.442568       -0.887433     -0.000467482     0.000608407        -0.107997       0.0721215
255400                -0.0182001       -0.119285      0.000313029    -0.000861268         0.353526       -0.927274      0.000456442     0.000270656
                     0.000288282    -0.000870227        -0.015442       -0.117377      0.000370694     0.000288243         0.353503       -0.927847
                        0.353855       -0.927614      0.000430504     0.000270725       -0.0929266       0.0767379     -0.000435466       0.0006742
                     0.000431236     0.000313348         0.353501       -0.928157     -0.000432671     0.000675882       -0.0898335       0.0774767
255600                -0.0238815       -0.106677      0.000230279    -0.000955708         0.260525       -0.958908      0.000499614     0.000241491
                     0.000190502    -0.000936075       -0.0210023        -0.10476      0.000406346     0.000263962         0.260422       -0.959428
                        0.260871       -0.959318      0.000474704     0.000234339       -0.0745113       0.0797297     -0.000399436     0.000739363
                     0.000474975     0.000287248         0.260468       -0.959898     -0.000389182     0.000740861       -0.0713585       0.0799536
255800                -0.0269844      -0.0939943      0.000124064     -0.00104191         0.164492       -0.981157      0.000542586      0.00020533
                      8.0049e-05    -0.000989577       -0.0239666      -0.0920927      0.000441905      0.00023459         0.164315       -0.981612
                        0.164836       -0.981634      0.000516927     0.000190575       -0.0561011       0.0798236     -0.000354853     0.000803167
                     0.000518523     0.000254194         0.164368       -0.982235     -0.000337215     0.000802488       -0.0529653       0.0795164
256000                -0.0275254      -0.0816625     -5.80394e-06     -0.00111304        0.0663675       -0.993694      0.000584337     0.000161291
                    -4.18339e-05     -0.00102813       -0.0243597      -0.0798056      0.000476822     0.000199511        0.0661253       -0.994074
                       0.0666923       -0.994232      0.000555812     0.000139001       -0.0380899       0.0770217     -0.000301465     0.000864746
                      0.00056091     0.000213307        0.0661486       -0.994833     -0.000276989     0.000859917       -0.0350521       0.0761789
256200                 -0.025584      -0.0701097     -0.000157081      -0.0011615       -0.0328675       -0.996288      0.000623481     0.000108546
                    -0.000173295     -0.00104908        -0.022269      -0.0683262      0.000510356      0.00015808       -0.0331645       -0.996584
                      -0.0325776       -0.996876      0.000589731     7.94192e-05       -0.0208723       0.0713746     -0.000239042     0.000923127
                     0.000600822     0.000163753       -0.0332034       -0.997452     -0.000208741     0.000912293       -0.0180161       0.0700039
