! TOUCHSTONE file generated by CST MICROWAVE STUDIO
! Date and time: Sun Sep 28 17:20:09 2025
! Project name: biblioteca3_folgaOK.cst
! Parameters = {H=600; Lx=200; Ly=260; Nedge=4; P=520; k=0; mesh_pilar_nm=40; n=0; t_air=3800; t_sub=3000; wavelength_nm=0}
! Header version: 2018
! Port assignment regex: !\s*Touchstone port\s*([0-9]+)\s*=\s*(CST MWS port|CST DS port)\s*([0-9]+|Zmin|Zmax)\s*\(\"(.*)\"\)(\s*mode\s*([0-9]+))?.*
! Touchstone port assignment:
! Touchstone port 1 = CST MWS port Zmin ("") mode 1
! Touchstone port 2 = CST MWS port Zmin ("") mode 2
! Touchstone port 3 = CST MWS port Zmax ("") mode 1
! Touchstone port 4 = CST MWS port Zmax ("") mode 2
! S-Parameters are not renormalized. Each port impedance will be approximated by the real part at minimum frequency. The values are described via the [Reference] keyword.
! Default impedance is overridden by [Reference]
[Version] 2.0
# GHz S RI R 376.73
[Number of Ports] 4
[Reference]
376.73 376.73 376.73 376.73 
[Number of Frequencies] 401
[Network Data]
250000                -0.0189827        0.166881      0.000248187      -0.0013408        -0.564726        0.807939      -0.00121715     -0.00259172
                     0.000211039      -0.0012117         0.237626       0.0227745      0.000418241     -0.00245339        -0.793701       -0.559489
                       -0.564317        0.807941      0.000321035     -0.00237789         0.150168      -0.0752443     -0.000393889     -0.00112385
                     -0.00120329     -0.00258471         -0.79324        -0.55882     -0.000224421      -0.0011566        -0.101329       -0.216175
250200               -0.00542977        0.179769      0.000128578     -0.00131436        -0.490498         0.85256      -0.00143859     -0.00246404
                     0.000140221     -0.00117763          0.23389       0.0134316      0.000227583       -0.002477        -0.833105       -0.501029
                        -0.49036        0.852295      0.000151979     -0.00237995         0.152636      -0.0950942     -0.000481455      -0.0009948
                      -0.0014414     -0.00248331        -0.832547       -0.500466     -0.000314189     -0.00104766        -0.121518       -0.200329
250400                0.00964202        0.191162      1.75894e-05     -0.00127086        -0.412839         0.89031      -0.00164576     -0.00231755
                     6.93968e-05     -0.00113928         0.229692      0.00459716      3.63334e-05     -0.00248741        -0.868263       -0.439686
                       -0.412912        0.889913     -1.76051e-05     -0.00237421         0.152101       -0.116185       -0.0005492    -0.000859542
                     -0.00166864      -0.0023514        -0.867641       -0.439231     -0.000383429    -0.000933124        -0.139649       -0.182453
250600                 0.0260492         0.20091     -8.16548e-05     -0.00121315        -0.332401        0.920948      -0.00183705     -0.00215399
                    -1.01223e-06     -0.00109595         0.225083     -0.00369967      -0.00015479     -0.00248466        -0.898952       -0.375764
                       -0.332615        0.920516     -0.000187661     -0.00236033         0.148324       -0.138024      -0.00059631    -0.000721153
                      -0.0018797     -0.00219116        -0.898294       -0.375412     -0.000432792    -0.000816517        -0.155504       -0.162801
250800                 0.0435948        0.208887     -0.000167093     -0.00114464        -0.249843        0.944298      -0.00201111     -0.00197522
                    -7.03897e-05     -0.00104693         0.220117      -0.0114344     -0.000345079     -0.00246881         -0.92497       -0.309585
                       -0.250129        0.943895      -0.00035808     -0.00233794         0.141154       -0.160084     -0.000622583    -0.000582876
                     -0.00206995     -0.00200598        -0.924302        -0.30933     -0.000463424     -0.00070086        -0.168895       -0.141648
251000                 0.0620715        0.214989     -0.000237756     -0.00106891        -0.165833        0.960245      -0.00216685     -0.00178318
                    -0.000137873    -0.000991468         0.214848      -0.0185875     -0.000533827     -0.00243992        -0.946139       -0.241487
                       -0.166128        0.959908     -0.000528686      -0.0023066         0.130528       -0.181821     -0.000628472    -0.000447968
                     -0.00223577     -0.00180017        -0.945482       -0.241318     -0.000476795     -0.00058868        -0.179668       -0.119291
251200                 0.0812646        0.219139      -0.00029365    -0.000989312       -0.0810369        0.968739      -0.00230341     -0.00157987
                      -0.0002023    -0.000928917         0.209332      -0.0251446     -0.000720322     -0.00239805        -0.962305       -0.171824
                      -0.0812859         0.96848     -0.000699227     -0.00226583         0.116477       -0.202689     -0.000615067    -0.000319541
                     -0.00237473     -0.00157864        -0.961676       -0.171729     -0.000474568    -0.000482033        -0.187703      -0.0960447
251400                  0.100956        0.221286     -0.000335534    -0.000908777       0.00388486        0.969786      -0.00242018     -0.00136728
                    -0.000262159    -0.000858775         0.203628      -0.0310964     -0.000903838     -0.00234327        -0.973338       -0.100962
                      0.00372587        0.969603     -0.000869363     -0.00221513        0.0991118       -0.222156     -0.000584038    -0.000200405
                     -0.00248571     -0.00134651        -0.972751       -0.100929     -0.000458492    -0.000382559        -0.192918      -0.0722362
251600                  0.120925        0.221402     -0.000364681    -0.000829669        0.0882845        0.963453      -0.00251676     -0.00114738
                    -0.000315574     -0.00078085         0.197793      -0.0364391      -0.00108363     -0.00227565        -0.979137      -0.0292826
                       0.0882464        0.963329      -0.00103865     -0.00215394        0.0786271       -0.239714     -0.000537536    -9.29444e-05
                     -0.00256881     -0.00110869        -0.978601      -0.0292975     -0.000430338     -0.00029153        -0.195271      -0.0482009
251800                  0.140954        0.219486     -0.000382641    -0.000753771         0.171531        0.949859      -0.00259297     -0.00092213
                    -0.000360337    -0.000695439         0.191884      -0.0411741      -0.00125893     -0.00219531        -0.979629       0.0428266
                        0.171632        0.949773      -0.00120654     -0.00208171        0.0552889        -0.25489     -0.000478064     9.69911e-07
                     -0.00262518    -0.000869597        -0.979149       0.0427766     -0.000391856    -0.000209917        -0.194757      -0.0242784
252000                  0.160829        0.215557     -0.000391065    -0.000682321         0.253013        0.929179       -0.0026488    -0.000693385
                    -0.000394024    -0.000603533         0.185959      -0.0453082      -0.00142892     -0.00210235        -0.974769        0.114968
                        0.253259        0.929103      -0.00137233     -0.00199787        0.0294299       -0.267255     -0.000408335     8.00261e-05
                     -0.00265675    -0.000632933        -0.974347        0.114896     -0.000344745    -0.000138432        -0.191413     -0.00080756
252200                  0.180343        0.209659     -0.000391564    -0.000616102         0.332145        0.901632      -0.00268442    -0.000462943
                    -0.000414242    -0.000507004         0.180074      -0.0488538      -0.00159279     -0.00199694        -0.964543         0.18674
                        0.332532        0.901541       -0.0015352     -0.00190188       0.00144104       -0.276433     -0.000331137     0.000143475
                     -0.00266598    -0.000401559         -0.96418        0.186656     -0.000290646    -7.75789e-05        -0.185316       0.0218782
252400                  0.199298        0.201857     -0.000385634    -0.000555531          0.40837        0.867485      -0.00270014    -0.000232507
                    -0.000418988    -0.000408701         0.174284      -0.0518281      -0.00174966     -0.00187929        -0.948969        0.257737
                        0.408883        0.867354      -0.00169416     -0.00179323        -0.028236       -0.282104       -0.0002492     0.000191096
                     -0.00265559    -0.000177469        -0.948661         0.25765     -0.000231139    -2.76805e-05        -0.176583       0.0434558
252600                  0.217506        0.192233     -0.000374609    -0.000500751          0.48116        0.827045      -0.00269639    -3.68265e-06
                    -0.000407109    -0.000312366         0.168642      -0.0542538      -0.00189863     -0.00174965        -0.928094        0.327552
                         0.48178        0.826855      -0.00184807     -0.00167146       -0.0591174       -0.284013     -0.000165098     0.000223137
                     -0.00262828     3.81662e-05        -0.927838         0.32747     -0.000167747     1.10941e-05        -0.165369       0.0636169
252800                  0.234793        0.180889     -0.000359648     -0.00045171         0.550021        0.780655      -0.00267373     0.000222027
                    -0.000378739    -0.000222301         0.163197      -0.0561582      -0.00203877     -0.00160835        -0.901999        0.395782
                        0.550723        0.780393      -0.00199561     -0.00153625       -0.0906851       -0.281971     -8.11735e-05      0.00024024
                     -0.00258658       0.0002449        -0.901789         0.39571     -0.000101937     3.87141e-05        -0.151865       0.0820731
253000                  0.250997        0.167942     -0.000341736    -0.000408226         0.614495        0.728696      -0.00263277      0.00044322
                    -0.000335568      -0.0001428         0.157997      -0.0575734      -0.00216911     -0.00145579        -0.870796        0.462026
                        0.615251        0.728354      -0.00213527     -0.00138739        -0.122397       -0.275864      5.12809e-07     0.000243351
                     -0.00253265      0.00044288        -0.870626        0.461968      -3.5132e-05     5.52778e-05        -0.136298       0.0985599
253200                  0.265974        0.153523     -0.000321701    -0.000370034         0.674157        0.671576      -0.00257421     0.000658594
                    -0.000280788    -7.74479e-05         0.153086       -0.058536      -0.00228867     -0.00129246        -0.834629        0.525892
                        0.674938        0.671153      -0.00226541     -0.00122486        -0.153693       -0.265651      7.82036e-05      0.00023364
                     -0.00246821     0.000632699        -0.834492        0.525849      3.12955e-05     6.10083e-05        -0.118923        0.112841
253400                  0.279593        0.137776     -0.000300231    -0.000336824         0.728621        0.609733      -0.00249883     0.000866944
                    -0.000218689    -2.85076e-05         0.148503      -0.0590863      -0.00239646     -0.00111895        -0.793673        0.586996
                        0.729402        0.609233      -0.00238422     -0.00104888         -0.18401       -0.251369      0.000150447     0.000212424
                     -0.00239445     0.000815239        -0.793563        0.586969      9.60171e-05     5.62535e-05        -0.100028        0.124713
253600                  0.291743        0.120855     -0.000277897    -0.000308267          0.77754        0.543626      -0.00240742      0.00106716
                    -0.000153976     3.40868e-06         0.144283      -0.0592687       -0.0024915    -0.000935956        -0.748134        0.644969
                        0.778295        0.543061      -0.00248977    -0.000859958        -0.212788       -0.233131      0.000216085     0.000181101
                     -0.00231198     0.000991505        -0.748046        0.644955      0.000157756     4.14881e-05       -0.0799213        0.134008
253800                  0.302328        0.102922     -0.000255172     -0.00028403         0.820605        0.473738      -0.00230084      0.00125821
                    -9.10495e-05     1.92897e-05         0.140459      -0.0591303       -0.0025728    -0.000744304        -0.698248        0.699455
                        0.821313        0.473122      -0.00258009    -0.000658925        -0.239482       -0.211133      0.000274227       0.0001411
                     -0.00222087      0.00116246        -0.698179         0.69945      0.000215292     1.73161e-05       -0.0589316        0.140595
254000                  0.311273       0.0841446      -0.00023245    -0.000263787         0.857545        0.400568      -0.00217996      0.00143915
                     -3.3439e-05     2.13509e-05         0.137055      -0.0587215      -0.00263942    -0.000544931        -0.644281        0.750116
                        0.858191        0.399919      -0.00265315    -0.000446994        -0.263571       -0.185641      0.000324222      9.3836e-05
                     -0.00212068      0.00132886        -0.644226        0.750117      0.000267477    -1.55262e-05       -0.0374028        0.144387
254200                  0.318518       0.0646969     -0.000210063    -0.000247225          0.88813        0.324634      -0.00204568      0.00160911
                     1.64755e-05     1.25027e-05         0.134094      -0.0580945      -0.00269047    -0.000338905        -0.586526        0.796635
                        0.888702        0.323971      -0.00270704    -0.000225783        -0.284573          -0.157      0.000365625      4.0683e-05
                     -0.00201049      0.00149109        -0.586483        0.796637      0.000313248    -5.61709e-05       -0.0156883        0.145337
254400                  0.324024       0.0447546     -0.000188295    -0.000234043          0.91217        0.246463      -0.00189892      0.00176728
                     5.74671e-05    -4.16622e-06         0.131589      -0.0573035      -0.00272513    -0.000127422          -0.5253        0.838717
                        0.912663        0.245807      -0.00273997     2.66078e-06        -0.302053       -0.125619      0.000398167    -1.70423e-05
                     -0.00188911      0.00164904         -0.52527        0.838715      0.000351644     -0.00010362       0.00585422        0.143446
254600                   0.32777       0.0244942     -0.000167396    -0.000223956         0.929513        0.166596      -0.00174064      0.00191293
                     8.92761e-05    -2.57766e-05         0.129551      -0.0564039      -0.00274267     8.81981e-05        -0.460947        0.876091
                        0.929926        0.165967      -0.00275043     0.000235874        -0.315631      -0.0919719      0.000421724    -7.80928e-05
                     -0.00175521      0.00180197         -0.46093        0.876082      0.000381829    -0.000156753        0.0268686        0.138755
254800                   0.32975      0.00409163     -0.000147588    -0.000216688          0.94005       0.0855801      -0.00157178      0.00204535
                     0.000112343    -4.98826e-05         0.127983      -0.0554516      -0.00274247     0.000306517        -0.393832        0.908516
                        0.940388       0.0849971      -0.00273729     0.000471007        -0.324996      -0.0565853      0.000436295    -0.000141294
                     -0.00160754      0.00194848         -0.39383        0.908495      0.000403108    -0.000214336        0.0470053        0.131352
255000                   0.32998      -0.0162798     -0.000129078    -0.000211967         0.943712      0.00397036      -0.00139333      0.00216392
                     0.000127545    -7.45546e-05         0.126885      -0.0545027      -0.00272406     0.000525992        -0.324339        0.935776
                        0.943982      0.00344966      -0.00269989     0.000704894        -0.329909      -0.0200304      0.000441973    -0.000205543
                     -0.00144521      0.00208656        -0.324357         0.93574      0.000414952    -0.000275039        0.0659276        0.121368
255200                  0.328489      -0.0364511     -0.000112058    -0.000209519         0.940468       -0.077675      -0.00120628      0.00226806
                      0.00013598    -9.83657e-05          0.12625      -0.0536128      -0.00268712     0.000744987        -0.252873         0.95769
                        0.940683      -0.0781202      -0.00263818      0.00093415        -0.330214       0.0170882      0.000438936    -0.000269803
                     -0.00126787      0.00221369        -0.252912        0.957637      0.000417014    -0.000337456        0.0833167        0.108976
255400                  0.325326       -0.056259     -9.67135e-05     -0.00020906         0.930333       -0.158796      -0.00101166      0.00235721
                     0.000138809    -0.000120327         0.126063      -0.0528362      -0.00263148     0.000961799         -0.17985        0.974105
                        0.930508       -0.159156      -0.00255272       0.0011553        -0.325839       0.0541439      0.000427426      -0.0003331
                     -0.00107592      0.00232708        -0.179916        0.974036      0.000409142     -0.00040013        0.0988768       0.0943871
255600                  0.320552      -0.0755476     -8.32198e-05    -0.000210286          0.91336       -0.238833     -0.000810514       0.0024309
                     0.000137164    -0.000139804         0.126306      -0.0522259       -0.0025572      0.00117468          -0.1057        0.984906
                        0.913511       -0.239103       -0.0024448      0.00136495        -0.316804       0.0905014      0.000407749    -0.000394509
                    -0.000870581      0.00242392        -0.105796        0.984819      0.000391398    -0.000461578         0.112341       0.0778498
255800                  0.314246      -0.0941694     -7.17415e-05    -0.000212862         0.889646        -0.31723     -0.000603906      0.00248866
                     0.000132091    -0.000156434         0.126957      -0.0518325      -0.00246451      0.00138185       -0.0308618        0.990008
                        0.889789       -0.317408      -0.00231638      0.00155992        -0.303216        0.125529       0.00038026    -0.000453152
                     -0.00065383      0.00250171       -0.0309923        0.989907      0.000364054     -0.00052033         0.123473       0.0596443
256000                  0.306497       -0.111987     -6.24238e-05     -0.00021641         0.859328       -0.393436     -0.000392944       0.0025301
                     0.000124523    -0.000170056         0.127986      -0.0517038      -0.00235386      0.00158154        0.0442186        0.989366
                        0.859481       -0.393525      -0.00217006      0.00173746        -0.285273        0.158614      0.000345368    -0.000508187
                    -0.000428287      0.00255845        0.0440501        0.989253      0.000327602    -0.000574954         0.132075       0.0400793
256200                  0.297411       -0.128875     -5.53795e-05    -0.000220498         0.822587       -0.466909     -0.000178767      0.00255486
                     0.000115283    -0.000180654         0.129358      -0.0518848      -0.00222588      0.00177205         0.119092        0.982968
                        0.822767       -0.466916      -0.00200901      0.00189536        -0.263259        0.189172      0.000303539    -0.000558805
                    -0.000196966      0.00259284         0.118883        0.982847      0.000282746    -0.000624094          0.13799       0.0194867
