! TOUCHSTONE file generated by CST MICROWAVE STUDIO
! Date and time: Sun Sep 28 19:32:14 2025
! Project name: biblioteca3_folgaOK.cst
! Parameters = {H=600; Lx=200; Ly=260; Nedge=12; P=520; mesh_pilar_nm=40; t_air=3500; t_sub=4000}
! Header version: 2018
! Port assignment regex: !\s*Touchstone port\s*([0-9]+)\s*=\s*(CST MWS port|CST DS port)\s*([0-9]+|Zmin|Zmax)\s*\(\"(.*)\"\)(\s*mode\s*([0-9]+))?.*
! Touchstone port assignment:
! Touchstone port 1 = CST MWS port Zmin ("") mode 1
! Touchstone port 2 = CST MWS port Zmin ("") mode 2
! Touchstone port 3 = CST MWS port Zmax ("") mode 1
! Touchstone port 4 = CST MWS port Zmax ("") mode 2
! S-Parameters are not renormalized. Each port impedance will be approximated by the real part at minimum frequency. The values are described via the [Reference] keyword.
! Default impedance is overridden by [Reference]
[Version] 2.0
# GHz S RI R 376.73
[Number of Ports] 4
[Reference]
376.73 376.73 376.73 376.73 
[Number of Frequencies] 401
[Network Data]
250000                 -0.255607        0.282894      -5.1812e-05    -0.000154924         0.307636       -0.871589       0.00141317      0.00164595
                    -0.000116923    -0.000219595        -0.114738       0.0412628      0.000342186      0.00225059         0.952818        0.277622
                        0.307509       -0.871879      0.000344154      0.00229342        -0.021545       -0.380647      0.000436446     0.000328304
                      0.00152315      0.00151244           0.9527        0.277334      0.000613689     0.000353431        0.0746335       0.0964617
250200                 -0.231161        0.298925     -5.87675e-05    -0.000135498         0.227591       -0.897622       0.00152703      0.00154006
                    -0.000140174    -0.000182333        -0.118896       0.0443211       0.00053892      0.00222365         0.971718          0.1993
                        0.227375       -0.897372      0.000540912      0.00225585       -0.0611185       -0.373287      0.000481851     0.000313491
                      0.00162736      0.00139047         0.972821        0.199425      0.000681555     0.000310757        0.0915101       0.0878795
250400                 -0.205397        0.312389     -6.42622e-05    -0.000113697         0.145076       -0.916484        0.0016358      0.00142282
                    -0.000159869    -0.000140224         -0.12297       0.0481688      0.000734849      0.00218008         0.984109        0.119684
                        0.144879       -0.915835      0.000736265      0.00220052       -0.0993939       -0.361091      0.000532253     0.000294818
                      0.00172537      0.00126117         0.986192        0.119906      0.000748568     0.000259193         0.107326       0.0768512
250600                 -0.178607        0.323153     -6.78804e-05    -8.94114e-05        0.0607156       -0.927924       0.00173833      0.00129434
                    -0.000175051    -9.33447e-05        -0.126863       0.0527946      0.000928546      0.00211952         0.989913       0.0393295
                       0.0606072        -0.92701      0.000928322      0.00212726        -0.135704       -0.344277      0.000588254     0.000270948
                      0.00181652      0.00112458          0.99271       0.0394242      0.000813659     0.000198252         0.121726       0.0635227
250800                 -0.151097        0.331114     -6.91352e-05    -6.25668e-05       -0.0248392       -0.931737       0.00183346      0.00115485
                    -0.000184674     -4.1937e-05        -0.130479       0.0581764       0.00111847      0.00204176         0.989098      -0.0412023
                      -0.0248251        -0.93068       0.00111512      0.00203611         -0.16942        -0.32316      0.000650355     0.000240078
                      0.00190008     0.000980816         0.992344      -0.0413773      0.000875599     0.000127558         0.134378       0.0480942
251000                 -0.123186        0.336206     -6.74627e-05    -3.31461e-05        -0.110916       -0.927772       0.00192001      0.00100475
                    -0.000187629     1.35555e-05        -0.133724       0.0642821       0.00130299      0.00194669         0.981686       -0.121355
                       -0.110773       -0.926677       0.00129469       0.0019274        -0.199969       -0.298143      0.000718806     0.000199821
                      0.00197532     0.000830057         0.985126       -0.121866      0.000933008     4.68888e-05         0.144985       0.0308145
251200                -0.0952002          0.3384     -6.22187e-05    -1.20865e-06        -0.196819        -0.91593       0.00199682     0.000844546
                    -0.000182773     7.24502e-05        -0.136512       0.0710702       0.00148037      0.00183441         0.967741       -0.200579
                       -0.196564       -0.914884       0.00146504      0.00180168        -0.226842       -0.269712      0.000793334     0.000147092
                      0.00204144     0.000672563         0.971149        -0.20143      0.000984367     -4.3782e-05         0.153288       0.0119746
251400                -0.0674731        0.337704     -5.26796e-05     3.30818e-05        -0.281839        -0.89617       0.00206274     0.000674915
                    -0.000168984     0.000133793        -0.138759       0.0784904        0.0016488      0.00170519         0.947377       -0.278337
                       -0.281501       -0.895237       0.00162425       0.0016598        -0.249608       -0.238421      0.000872726     7.80716e-05
                      0.00209762     0.000508681         0.950563       -0.279477       0.00102805    -0.000144243         0.159078      -0.0081004
251600                -0.0403366        0.334166     -3.80494e-05      6.9426e-05        -0.365248       -0.868511       0.00211671     0.000496676
                    -0.000145221     0.000196335         -0.14039       0.0864839       0.00180642      0.00155953          0.92075       -0.354103
                       -0.364869       -0.867736       0.00177049      0.00150285         -0.26792        -0.20488      0.000954247    -1.16388e-05
                      0.00214304     0.000338855         0.923566       -0.355446       0.00106235    -0.000254005         0.162192      -0.0290591
251800                -0.0141186        0.327875     -1.74754e-05     0.000107354         -0.44631       -0.833035       0.00215768     0.000310797
                      -0.0001106     0.000258523        -0.141335       0.0949845       0.00195135      0.00139817          0.88806       -0.427374
                       -0.445935       -0.832442       0.00190208      0.00133217        -0.281523       -0.169741       0.00103293    -0.000126493
                      0.00217685     0.000163637         0.890405       -0.428807       0.00108554    -0.000372262         0.162521      -0.0505324
252000                 0.0108621        0.318959      9.92418e-06     0.000146185        -0.524281       -0.789894       0.00218475     0.000118386
                    -6.44812e-05     0.000318513        -0.141532        0.103919       0.00208171      0.00122211         0.849545       -0.497665
                       -0.523954       -0.789487       0.00201748      0.00114932        -0.290259       -0.133691       0.00110098    -0.000269876
                      0.00219819     -1.6306e-05         0.851362       -0.499064       0.00109595    -0.000497872         0.160012      -0.0721416
252200                 0.0343015        0.307588      4.50185e-05     0.000184995        -0.598419       -0.739306       0.00219708    -7.93102e-05
                    -6.55812e-06      0.00037421        -0.140928        0.113208       0.00219571      0.00103262         0.805482       -0.564517
                       -0.598178       -0.739073       0.00211538     0.000956064         -0.29407      -0.0974291       0.00114778    -0.000442301
                      0.00220624    -0.000200185         0.806759       -0.565756       0.00109203    -0.000629344          0.15466      -0.0935062
252400                 0.0559151        0.293968      8.86049e-05      0.00022258        -0.667985       -0.681565       0.00219398    -0.000280924
                     6.30604e-05     0.000423332        -0.139477        0.122766       0.00229164     0.000831247         0.756181       -0.627496
                       -0.667861       -0.681484       0.00219471     0.000754303        -0.292999      -0.0616605       0.00116119     -0.00063929
                       0.0022002    -0.000387083         0.756944        -0.62846        0.0010724    -0.000764851         0.146514       -0.114251
252600                 0.0754438        0.278345      0.000141331     0.000257443        -0.732254        -0.61704       0.00217487    -0.000484971
                     0.000143782     0.000463511        -0.137142        0.132505       0.00236793     0.000619817         0.701986         -0.6862
                       -0.732268       -0.617077       0.00225463     0.000546076        -0.287193      -0.0270779       0.00113062    -0.000850072
                      0.00217932    -0.000575947         0.702293       -0.686788       0.00103599     -0.00090226         0.135673       -0.134015
252800                 0.0926589        0.260997      0.000203605     0.000287793        -0.790522       -0.546181       0.00213934    -0.000689871
                      0.00023449     0.000492411        -0.133897        0.142332       0.00242324     0.000400401          0.64327       -0.740256
                       -0.790683       -0.546298        0.0022946     0.000333494        -0.276898      0.00565098       0.00105095     -0.00105861
                      0.00214292    -0.000765593         0.643203       -0.740392      0.000982096     -0.00103919          0.12228       -0.152451
253000                  0.107368        0.242234      0.000275486      0.00031158        -0.842116       -0.469514       0.00208713    -0.000893957
                     0.000333542     0.000507865        -0.129726        0.152151       0.00245649     0.000175307          0.58043       -0.789324
                       -0.842422       -0.469671       0.00231432     0.000118707         -0.26246       0.0358987      0.000925401     -0.00124751
                      0.00209041    -0.000954702         0.580091       -0.788959      0.000910412     -0.00117309         0.106521        -0.16924
253200                  0.119418        0.222393      0.000356588     0.000326563          -0.8864       -0.387647       0.00201813      -0.0010955
                     0.000438808     0.000508012         -0.12462        0.161864       0.00246687    -5.29705e-05          0.51389       -0.833099
                       -0.886839       -0.387804        0.0023138    -9.61439e-05        -0.244315       0.0630924      0.000764955     -0.00140319
                      0.00202133     -0.00114183         0.513388       -0.832212      0.000821107     -0.00130132        0.0886203       -0.184088
253400                  0.128702        0.201831      0.000445988     0.000330427        -0.922793       -0.301264       0.00193241     -0.00129271
                     0.000547751     0.000491416        -0.118584        0.171375       0.00245395    -0.000281792         0.444092       -0.871311
                       -0.923342       -0.301388       0.00229326    -0.000308961        -0.222986       0.0867281      0.000584541     -0.00151934
                      0.00193533     -0.00132541         0.443539       -0.869912      0.000714824     -0.00142128        0.0688372       -0.196735
253600                  0.135163        0.180921      0.000542175     0.000320926        -0.950774       -0.211125       0.00183018     -0.00148379
                     0.000657541     0.000457162        -0.111632        0.180584       0.00241765    -0.000508435         0.371496       -0.903728
                       -0.951403       -0.211189       0.00225322    -0.000517727        -0.199071        0.106385      0.000398348     -0.00159696
                      0.00183225     -0.00150377         0.370996       -0.901854      0.000592668      -0.0015305        0.0474598       -0.206955
253800                  0.138792        0.160043      0.000643045     0.000296061        -0.969895        -0.11806       0.00171183      -0.0016669
                     0.000765192     0.000404913        -0.103786        0.189397       0.00235827    -0.000730158         0.296578       -0.930155
                       -0.970569       -0.118045       0.00219438    -0.000720539        -0.173234        0.121737      0.000216746     -0.00164191
                      0.00171209     -0.00167515         0.296224       -0.927867      0.000456168     -0.00162673        0.0248015       -0.214559
254000                  0.139638        0.139578      0.000745959     0.000254261        -0.979793      -0.0229629       0.00157788     -0.00184023
                      0.00086771     0.000334917       -0.0950829        0.197719       0.00227653    -0.000944269         0.219824       -0.950434
                       -0.980473      -0.0228593       0.00211767    -0.000915632        -0.146183        0.132567      4.55278e-05     -0.00166184
                      0.00157506     -0.00183772          0.21969       -0.947817      0.000307207     -0.00170806       0.00119587       -0.219402
254200                    0.1378          0.1199      0.000847876     0.000194534        -0.980197       0.0732204       0.00142904     -0.00200199
                     0.000962222     0.000247979       -0.0855652        0.205461       0.00217352      -0.0011482          0.14173       -0.964446
                       -0.980847        0.073412       0.00202416      -0.0011014        -0.118662        0.138771     -0.000113279       -0.001664
                      0.00142159     -0.00198961         0.141866       -0.961603      0.000147938     -0.00177293       -0.0230083       -0.221377
254400                  0.133432        0.101367      0.000945518     0.000116573        -0.970946        0.169499        0.0012661     -0.00215044
                       0.0010461     0.000145391        -0.075287        0.212536       0.00205067     -0.00133955        0.0627988        -0.97211
                        -0.97153        0.169769       0.00191509      -0.0012764        -0.091425         0.14037     -0.000260095     -0.00165423
                      0.00125235     -0.00212894        0.0632263        -0.96916     -1.93076e-05     -0.00182021       -0.0474519       -0.220425
254600                  0.126739        0.084311       0.00103559     2.07995e-05        -0.951984        0.264853       0.00109002     -0.00228388
                      0.00111703     2.88463e-05       -0.0643111        0.218866       0.00190975     -0.00151619       -0.0164658       -0.973387
                       -0.952473        0.265184       0.00179177     -0.00143939       -0.0652172        0.137508     -0.000396633     -0.00163665
                      0.00106824     -0.00225385       -0.0157576       -0.970456     -0.000192118     -0.00184919       -0.0717706       -0.216527
254800                  0.117973       0.0690344       0.00111495    -9.16841e-05         -0.92338        0.358245      0.000901883     -0.00240073
                      0.00117307    -9.96599e-05       -0.0527087        0.224376        0.0017528     -0.00167626       -0.0955578       -0.968271
                       -0.923751        0.358612       0.00165564      -0.0015893       -0.0407538        0.130454     -0.000525087      -0.0016139
                     0.000870414     -0.00236252        -0.094618       -0.965501     -0.000368089     -0.00185956          -0.0956       -0.209712
255000                  0.107428       0.0557984       0.00118083    -0.000219192        -0.885321        0.448638      0.000702878     -0.00249949
                      0.00121268    -0.000237931       -0.0405591        0.229001       0.00158204     -0.00181825        -0.173974         -0.9568
                       -0.885559        0.449015       0.00150816     -0.00172524        -0.018697        0.119595      -0.00064767     -0.00158743
                      0.00066027     -0.00245324        -0.172898       -0.954346     -0.000544904     -0.00185139        -0.118581       -0.200052
255200                  0.095434       0.0448183       0.00123088    -0.000359606        -0.838119        0.535013      0.000494321     -0.00257879
                      0.00123471    -0.000383658       -0.0279485        0.232683       0.00139988     -0.00194099        -0.251215       -0.939044
                       -0.838218        0.535368       0.00135082     -0.00184651        0.0003651         0.10543     -0.000766368     -0.00155781
                     0.000439444     -0.00252442        -0.250162         -0.9371     -0.000720391     -0.00182507        -0.140364       -0.187662
255400                 0.0823492       0.0362577       0.00126329    -0.000510538         -0.78221        0.616384      0.000277644      -0.0026374
                      0.00123835    -0.000534485       -0.0149693        0.235374       0.00120877     -0.00204368         -0.32679       -0.915116
                       -0.782172        0.616688       0.00118515     -0.00195256        0.0159381       0.0885493     -0.000882846     -0.00152502
                     0.000209794     -0.00257463        -0.326011       -0.913976      -0.00089257     -0.00178124        -0.160617       -0.172703
255600                 0.0685516       0.0302243       0.00127671    -0.000669483        -0.718147        0.691815      5.43981e-05     -0.00267421
                      0.00122312    -0.000688073      -0.00171929        0.237034       0.00101121     -0.00212589        -0.400217        -0.88516
                       -0.717982        0.692041       0.00101263     -0.00204302        0.0276378       0.0696232     -0.000998413     -0.00148857
                    -2.66136e-05     -0.00260263         -0.40009       -0.885454      -0.00105968     -0.00172078        -0.179026       -0.155373
255800                 0.0544296       0.0267675       0.00127021     -0.00083394        -0.646593         0.76044     -0.000173745     -0.00268833
                      0.00118882    -0.000842125        0.0116996        0.237635      0.000809635     -0.00218753        -0.471026        -0.84936
                       -0.646319        0.760564      0.000834725     -0.00211766        0.0352033       0.0493776      -0.00111402     -0.00144771
                    -0.000267536     -0.00260741        -0.471667       -0.852967      -0.00122017      -0.0016447        -0.195304        -0.13591
256000                 0.0403726       0.0258774        0.0012432     -0.00100149        -0.568315        0.821473      -0.00040499     -0.00267899
                      0.00113549    -0.000994416        0.0251822         0.23716      0.000606403     -0.00222883        -0.538763       -0.807932
                       -0.567956        0.821477      0.000652871     -0.00217639        0.0385061       0.0285712      -0.00123029     -0.00140146
                    -0.000510579     -0.00258822        -0.534636       -0.817522      -0.00137273      -0.0015541        -0.209194       -0.114587
256200                 0.0267614       0.0274854       0.00119533     -0.00116983        -0.484168        0.874225     -0.000637418     -0.00264565
                      0.00106341     -0.00114279        0.0386213        0.235601      0.000403727     -0.00225033         -0.60299       -0.761127
                       -0.483749          0.8741      0.000468443     -0.00221923        0.0375532      0.00797106      -0.00134751     -0.00134872
                    -0.000753227     -0.00254457        -0.592896       -0.765647      -0.00151627     -0.00145014        -0.220473      -0.0917082
