! TOUCHSTONE file generated by CST MICROWAVE STUDIO
! Date and time: Fri Sep 26 06:38:31 2025
! Project name: biblioteca3_folgaOK.cst
! Parameters = {H=600; Lx=200; Ly=260; Nedge=20; P=520; k=0; mesh_pilar_nm=40; n=0; t_air=3500; t_sub=2000; wavelength_nm=0}
! Header version: 2018
! Port assignment regex: !\s*Touchstone port\s*([0-9]+)\s*=\s*(CST MWS port|CST DS port)\s*([0-9]+|Zmin|Zmax)\s*\(\"(.*)\"\)(\s*mode\s*([0-9]+))?.*
! Touchstone port assignment:
! Touchstone port 1 = CST MWS port Zmin ("") mode 1
! Touchstone port 2 = CST MWS port Zmin ("") mode 2
! Touchstone port 3 = CST MWS port Zmax ("") mode 1
! Touchstone port 4 = CST MWS port Zmax ("") mode 2
! S-Parameters are not renormalized. Each port impedance will be approximated by the real part at minimum frequency. The values are described via the [Reference] keyword.
! Default impedance is overridden by [Reference]
[Version] 2.0
# GHz S RI R 376.73
[Number of Ports] 4
[Reference]
376.73 376.73 376.73 376.73 
[Number of Frequencies] 401
[Network Data]
250000                  0.219086        0.236949       0.00118498      0.00050739        -0.882706        0.341872       5.4219e-05    -0.000864183
                     0.000943494     0.000275849        -0.064148         0.18862      0.000890053    -0.000826883        -0.437259       -0.877003
                       -0.882732         0.34125       0.00104964    -0.000930831      -0.00273879        0.322688       -0.0012802    -0.000765983
                     4.40795e-05     -0.00092019        -0.437059       -0.876469      -0.00134492    -0.000810504        -0.189227      -0.0622777
250200                  0.227924        0.218097       0.00121539     0.000331954        -0.854561        0.412403     -1.38418e-05     -0.00087736
                     0.000964644     0.000217934       -0.0565671        0.194247      0.000820063    -0.000880933        -0.494759       -0.845171
                       -0.854503        0.411908      0.000934709    -0.000989764        0.0286559        0.314161      -0.00132953    -0.000667342
                    -3.07083e-05    -0.000933318        -0.494386       -0.844777      -0.00138731    -0.000709291        -0.197078      -0.0458404
250400                  0.235027        0.198868       0.00122242     0.000176941        -0.820689        0.480938     -8.50207e-05    -0.000885534
                     0.000983691     0.000150576        -0.048533        0.199489      0.000746954     -0.00092904        -0.549988       -0.809571
                       -0.820599        0.480572      0.000821851     -0.00103473        0.0584797        0.302282         -0.00137    -0.000565004
                    -0.000108018    -0.000940245          -0.5495       -0.809319      -0.00142262    -0.000606535        -0.203371      -0.0285028
250600                  0.240371        0.179432       0.00121304     3.90712e-05        -0.781193         0.54699      -0.00015897    -0.000888157
                      0.00099692     7.46444e-05        -0.040069        0.204309      0.000671356    -0.000970994          -0.6027       -0.770362
                       -0.781108        0.546756      0.000712316     -0.00106751         0.086337         0.28728      -0.00140136    -0.000460089
                    -0.000187356    -0.000940548        -0.602149       -0.770247      -0.00145092    -0.000502642        -0.208006      -0.0104216
250800                  0.243952        0.159962       0.00119166    -8.44968e-05        -0.736223        0.610071     -0.000235254    -0.000884693
                      0.00100164     -7.6947e-06       -0.0312013        0.208671       0.00059391     -0.00100668        -0.652662       -0.727722
                       -0.736166        0.609973      0.000606916     -0.00108977         0.111864        0.269434      -0.00142356    -0.000353711
                     -0.00026816    -0.000933838        -0.652089        -0.72773      -0.00147227    -0.000397977        -0.210898       0.0082351
251000                  0.245782        0.140628       0.00116114    -0.000196073        -0.685972        0.669697     -0.000313344    -0.000874633
                     0.000996417    -9.37717e-05       -0.0219583         0.21254       0.00051525     -0.00103605        -0.699655        -0.68184
                       -0.685953        0.669738      0.000506129     -0.00110305         0.134735        0.249072      -0.00143672     -0.00024694
                    -0.000349801    -0.000919775        -0.699093       -0.681954      -0.00148673    -0.000292869        -0.211982       0.0272901
251200                  0.245892        0.121603       0.00112335    -0.000297479        -0.630682        0.725394     -0.000392616    -0.000857512
                      0.00098093     -0.00018103       -0.0123698        0.215886      0.000435995     -0.00105915        -0.743471       -0.632921
                       -0.630701        0.725574      0.000410185     -0.00110867         0.154669         0.22656      -0.00144111    -0.000140772
                     -0.00043159    -0.000898078        -0.742943        -0.63312      -0.00149432    -0.000187621         -0.21121       0.0465591
251400                   0.24433        0.103053       0.00107957    -0.000390127        -0.570639        0.776701      -0.00047236    -0.000832928
                     0.000955565    -0.000267342       -0.0024661        0.218675      0.000356735     -0.00107611        -0.783915        -0.58118
                        -0.57069        0.777017      0.000319133      -0.0011078         0.171437        0.202299      -0.00143713    -3.61001e-05
                    -0.000512776    -0.000868532        -0.783437       -0.581444      -0.00149504    -8.25197e-05        -0.208556       0.0658528
251600                  0.241164       0.0851409       0.00103065    -0.000475102        -0.506177        0.823176     -0.000551776    -0.000800556
                     0.000921098    -0.000351085       0.00772235        0.220871       0.00027802      -0.0010871        -0.820807       -0.526847
                       -0.506247         0.82362      0.000232901     -0.00110144         0.184861        0.176719       -0.0014253     6.62956e-05
                    -0.000592561    -0.000831008        -0.820389       -0.527155      -0.00148881     2.21439e-05        -0.204011       0.0849792
251800                  0.236474       0.0680203      0.000977189    -0.000553225        -0.437676        0.864402     -0.000629994    -0.000760169
                     0.000878455     -0.00043109        0.0181593        0.222424      0.000200355     -0.00109236        -0.853984       -0.470161
                       -0.437751         0.86496      0.000151332     -0.00109044         0.194826         0.15027      -0.00140619     0.000165762
                    -0.000670105    -0.000785463        -0.853628       -0.470493      -0.00147552      0.00012605        -0.197589        0.103745
252000                  0.230362        0.051837      0.000919617     -0.00062511        -0.365559        0.899991     -0.000706079    -0.000711653
                     0.000828573    -0.000506535        0.0287701        0.223262      0.000124193      -0.0010922        -0.883296       -0.411372
                       -0.365622        0.900646      7.42194e-05     -0.00107549         0.201274        0.123416      -0.00138043     0.000261775
                    -0.000744537     -0.00073196        -0.883001       -0.411712      -0.00145498     0.000228816        -0.189323         0.12196
252200                   0.22294       0.0367253      0.000858243    -0.000691206        -0.290291        0.929587     -0.000779057    -0.000655021
                     0.000772332    -0.000576856         0.039389        0.223366      4.99326e-05     -0.00108692        -0.908609       -0.350738
                       -0.290328        0.930318      1.33003e-06     -0.00105718         0.204213       0.0966226      -0.00134867     0.000353932
                    -0.000814976    -0.000670669        -0.908371       -0.351072      -0.00142695     0.000329944        -0.179265        0.139435
252400                  0.214338       0.0228068      0.000793305    -0.000751825        -0.212378        0.952877     -0.000847932    -0.000590421
                     0.000710534    -0.000641663        0.0499079        0.222899     -2.20847e-05     -0.00107689        -0.929809       -0.288527
                       -0.212375        0.953661     -6.75822e-05       -0.001036         0.203712       0.0703532      -0.00131155      0.00044195
                    -0.000880539    -0.000601874        -0.929618       -0.288843      -0.00139116     0.000428767        -0.167488        0.155989
252600                  0.204698       0.0101883      0.000724991    -0.000807175        -0.132359        0.969591     -0.000911707    -0.000518142
                     0.000643899    -0.000700683        0.0604471        0.221952      -9.1574e-05     -0.00106247        -0.946796       -0.225012
                       -0.132306        0.970401     -0.000132762     -0.00101234         0.199905       0.0450564      -0.00126969     0.000525651
                    -0.000940366    -0.000525978        -0.946644       -0.225303      -0.00134738     0.000524383        -0.154082        0.171447
252800                  0.194172     -0.00103921      0.000653462    -0.000857371       -0.0508056        0.979506     -0.000969414    -0.000438617
                     0.000573075    -0.000753722        0.0710576        0.220427     -0.000158305     -0.00104405         -0.95949       -0.160473
                      -0.0506974        0.980318     -0.000194448     -0.00098653         0.192987       0.0211589      -0.00122368     0.000604948
                    -0.000993639    -0.000443502        -0.959365       -0.160735      -0.00129552     0.000615607        -0.139156        0.185644
253000                  0.182922      -0.0108021      0.000578866     -0.00090246        0.0316837        0.982456      -0.00102013    -0.000352413
                     0.000498652    -0.000800639        0.0816745        0.218254     -0.000222102     -0.00102202        -0.967826      -0.0951968
                       0.0318489        0.983242     -0.000252862    -0.000958829         0.183207    -0.000943416      -0.00117407     0.000679836
                      -0.0010396    -0.000355077         -0.96772      -0.0954267      -0.00123586     0.000700977        -0.122837        0.198426
253200                  0.171117      -0.0190455       0.00050135    -0.000942426          0.11449        0.978327      -0.00106302    -0.000260227
                     0.000421172     -0.00084133        0.0922223        0.215419     -0.000282836    -0.000996746        -0.971761      -0.0294716
                        0.114709        0.979065     -0.000308211    -0.000929443         0.170871      -0.0208937      -0.00112134      0.00075037
                     -0.00107759    -0.000261436        -0.971663      -0.0296704       -0.0011692     0.000778865        -0.105264        0.209651
253400                  0.158931      -0.0257337      0.000421065    -0.000977206         0.196978        0.967068      -0.00109732    -0.000162864
                      0.00034114    -0.000875718         0.102638        0.211929     -0.000340425    -0.000968611        -0.971267       0.0364105
                        0.197244        0.967735      -0.00036068    -0.000898534         0.156331      -0.0383816      -0.00106591      0.00081666
                     -0.00110706    -0.000163396         -0.97117       0.0362403      -0.00109707      0.00084776        -0.086595        0.219193
253600                  0.146543      -0.0308511      0.000338175     -0.00100669         0.278504        0.948687       -0.0011224    -6.12272e-05
                     0.000259033    -0.000903745         0.112869        0.207797     -0.000394829    -0.000937973        -0.966339        0.102156
                        0.278807        0.949267     -0.000410432    -0.000866228         0.139978      -0.0531506      -0.00100816     0.000878852
                     -0.00112756    -6.18268e-05        -0.966236         0.10201      -0.00102174     0.000906689       -0.0669975        0.226942
253800                   0.13413      -0.0344027      0.000252866     -0.00103075         0.358424        0.923257      -0.00113771     4.37097e-05
                     0.000175306    -0.000925372         0.122866        0.203039     -0.000446043    -0.000905174        -0.956988        0.167469
                        0.358749        0.923736     -0.000457608    -0.000832617         0.122238      -0.0650027     -0.000948393     0.000937119
                     -0.00113884     4.23918e-05        -0.956873        0.167344     -0.000945912     0.000955658       -0.0466516        0.232804
254000                  0.121866      -0.0364136      0.000165344     -0.00104922         0.436094        0.890912      -0.00114288     0.000150921
                     9.03983e-05    -0.000940574         0.132584        0.197675     -0.000494098     -0.00087054        -0.943244        0.232059
                        0.436427        0.891283     -0.000502319    -0.000797765         0.103559      -0.0738039     -0.000886864     0.000991653
                     -0.00114075     0.000148428        -0.943113        0.231947     -0.000872136     0.000995872       -0.0257469        0.236703
254200                  0.109924      -0.0369292      7.58441e-05     -0.00106193         0.510887        0.851852      -0.00113761     0.000259349
                     4.73543e-06    -0.000949341          0.14198        0.191728     -0.000539053    -0.000834377        -0.925157        0.295631
                        0.511211        0.852112      -0.00054465    -0.000761714        0.0844014      -0.0794868     -0.000823761      0.00104265
                     -0.00113328     0.000255573         -0.92501        0.295529     -0.000802163      0.00102952      -0.00448062        0.238584
254400                 0.0984659       -0.036014     -1.53674e-05     -0.00106867         0.582191        0.806338      -0.00112177     0.000367928
                    -8.12652e-05     -0.00095168         0.151013        0.185223     -0.000580994    -0.000796969        -0.902796        0.357898
                         0.58249        0.806489     -0.000584651    -0.000724488        0.0652325      -0.0820525     -0.000759222      0.00109031
                     -0.00111639     0.000363317        -0.902631          0.3578      -0.00073654      0.00105921        0.0169441        0.238411
254600                 0.0876474      -0.0337513     -0.000107991     -0.00106926          0.64942        0.754692      -0.00109531     0.000475594
                    -0.000167194     -0.00094761         0.159646        0.178187     -0.000620029    -0.000758579        -0.876248        0.418575
                        0.649679         0.75474     -0.000622331    -0.000686094        0.0465108      -0.0815704     -0.000693334      0.00113483
                     -0.00108989      0.00047135        -0.876066        0.418476     -0.000674668      0.00108723        0.0383203        0.236168
254800                 0.0776108       -0.030241     -0.000201693     -0.00106351         0.712022        0.697291       -0.0010583     0.000581303
                    -0.000252648    -0.000937165         0.167842         0.17065     -0.000656289     -0.00071945        -0.845618        0.477382
                        0.712228        0.697248     -0.000657651    -0.000646533        0.0286785      -0.0781767     -0.000626135      0.00117637
                     -0.00105311     0.000579394        -0.845423         0.47728     -0.000615198       0.0011152        0.0594394        0.231862
255000                 0.0684851       -0.025599       -0.0002961     -0.00105123          0.76948        0.634569       -0.0010109     0.000684035
                    -0.000337227    -0.000920397         0.175568        0.162645     -0.000689922    -0.000679802        -0.811032        0.534048
                        0.769624        0.634448     -0.000690507    -0.000605811        0.0121513      -0.0720711     -0.000557616      0.00121511
                     -0.00100489     0.000686746        -0.810825        0.533939     -0.000556525      0.00114388        0.0800931        0.225519
255200                 0.0603838      -0.0199541     -0.000390803     -0.00103226         0.821324        0.567006      -0.00095335       0.0007828
                    -0.000420536    -0.000897371         0.182792        0.154206     -0.000721098    -0.000639837        -0.772631        0.588305
                        0.821398        0.566826     -0.000720714     -0.00056395      -0.00269194       -0.063512     -0.000487727      0.00125116
                    -0.000943887     0.000791735        -0.772416        0.588189      -0.00049716      0.00117331         0.100076         0.21719
255400                 0.0534032      -0.0134472     -0.000485356     -0.00100648         0.867131        0.495129      -0.00088596     0.000876635
                    -0.000502185    -0.000868171         0.189487        0.145371     -0.000750004    -0.000599734        -0.730575        0.639899
                        0.867133        0.494907     -0.000747973    -0.000521034       -0.0155166      -0.0528104     -0.000416379      0.00128465
                    -0.000869455     0.000891638        -0.730356        0.639776     -0.000435918      0.00120312         0.119187        0.206943
255600                 0.0476218     -0.00622772     -0.000579276    -0.000973774         0.906532        0.419502     -0.000809108     0.000964601
                    -0.000581786    -0.000832897         0.195626        0.136178     -0.000776846    -0.000559652        -0.685041        0.688582
                        0.906463        0.419257     -0.000771843    -0.000477269       -0.0260402      -0.0403219     -0.000343447      0.00131564
                    -0.000782356     0.000983415        -0.684819        0.688453      -0.00037196      0.00123266         0.137232        0.194869
255800                 0.0430985      0.00154786     -0.000672045    -0.000934113         0.939216        0.340722      -0.00072323      0.00104578
                    -0.000658954    -0.000791668         0.201188        0.126668     -0.000801853    -0.000519726        -0.636221         0.73412
                         0.93908        0.340472     -0.000791716    -0.000433118       -0.0340387      -0.0264385     -0.000268772      0.00134417
                    -0.000684556      0.00106473           -0.636        0.733986     -0.000304752      0.00126122         0.154027         0.18108
256000                 0.0398731      0.00971906     -0.000763118    -0.000887519         0.964929        0.259411     -0.000628827      0.00111925
                     -0.00073331    -0.000744619         0.206153        0.116882     -0.000825276    -0.000480066        -0.584325        0.776287
                        0.964735        0.259173     -0.000806854    -0.000389543       -0.0393504      -0.0115788     -0.000192164      0.00137021
                    -0.000578424      0.00113436        -0.584107        0.776152     -0.000234001      0.00128805         0.169398        0.165706
256200                 0.0379654       0.0181238     -0.000851921    -0.000834111         0.983483        0.176211     -0.000526475      0.00118411
                    -0.000804475    -0.000691906         0.210503        0.106865     -0.000847397    -0.000440755        -0.529576        0.814875
                        0.983241        0.176001     -0.000816648    -0.000348389       -0.0418798      0.00382168     -0.000113411      0.00139371
                     -0.00046608      0.00119194        -0.529362        0.814741     -0.000159582       0.0013125         0.183186        0.148896
