! TOUCHSTONE file generated by CST MICROWAVE STUDIO
! Date and time: Sun Sep 28 17:45:57 2025
! Project name: biblioteca3_folgaOK.cst
! Parameters = {H=600; Lx=200; Ly=260; Nedge=8; P=520; k=0; mesh_pilar_nm=40; n=0; t_air=3800; t_sub=6000; wavelength_nm=0}
! Header version: 2018
! Port assignment regex: !\s*Touchstone port\s*([0-9]+)\s*=\s*(CST MWS port|CST DS port)\s*([0-9]+|Zmin|Zmax)\s*\(\"(.*)\"\)(\s*mode\s*([0-9]+))?.*
! Touchstone port assignment:
! Touchstone port 1 = CST MWS port Zmin ("") mode 1
! Touchstone port 2 = CST MWS port Zmin ("") mode 2
! Touchstone port 3 = CST MWS port Zmax ("") mode 1
! Touchstone port 4 = CST MWS port Zmax ("") mode 2
! S-Parameters are not renormalized. Each port impedance will be approximated by the real part at minimum frequency. The values are described via the [Reference] keyword.
! Default impedance is overridden by [Reference]
[Version] 2.0
# GHz S RI R 376.73
[Number of Ports] 4
[Reference]
376.73 376.73 376.73 376.73 
[Number of Frequencies] 401
[Network Data]
250000                  0.295679        0.245414      0.000585086     9.80131e-05         0.251506        0.888358       0.00156244     0.000804733
                     0.000723447     6.57733e-05         0.102396       0.0321319       0.00144289     0.000626158        -0.951947        0.286545
                        0.251727        0.888387       0.00134704     0.000722376         0.123237       -0.364003      0.000261879    -0.000133813
                      0.00138683     0.000778722        -0.951821        0.286448      0.000294012    -0.000170002       -0.0676263       0.0833404
250200                  0.298802        0.245366      0.000580032     6.88257e-05         0.306491        0.869904       0.00160439     0.000686123
                     0.000716884     5.46899e-05        0.0962923       0.0445663       0.00148841     0.000532451        -0.934811        0.338662
                        0.306655        0.869676       0.00140975      0.00064967        0.0791318       -0.378493      0.000110712    -0.000229558
                       0.0014757     0.000711361        -0.934735        0.338474      0.000183949    -0.000313049       -0.0454336       0.0959213
250400                  0.301031        0.244766      0.000573749     3.78449e-05         0.360335        0.848412       0.00163138     0.000576333
                         0.00071     4.51828e-05        0.0900532       0.0568456       0.00152192     0.000427135         -0.91466        0.389693
                         0.36042        0.848052       0.00147137     0.000566604        0.0330008       -0.386616      -2.3532e-05    -0.000232364
                      0.00156541     0.000636721         -0.91464        0.389423      3.59435e-05    -0.000368624       -0.0214341        0.104351
250600                  0.302372        0.243618      0.000565457     4.21909e-06         0.412943        0.823928       0.00164946     0.000477322
                     0.000703061     3.80889e-05        0.0836939        0.068936       0.00153167     0.000310803        -0.891578        0.439451
                        0.412953        0.823534       0.00153154     0.000472188       -0.0141307       -0.388078     -0.000114287    -0.000197428
                      0.00165638     0.000556215        -0.891619         0.43911     -9.08817e-05    -0.000359177       0.00364823        0.108395
250800                  0.302832        0.241925      0.000553184    -3.30909e-05         0.464211        0.796487       0.00166401      0.00038847
                     0.000696507     3.48864e-05        0.0772289       0.0808041       0.00149436      0.00020125        -0.865661        0.487756
                        0.464168        0.796132       0.00159013     0.000365396       -0.0612017       -0.382758     -0.000172174    -0.000154547
                      0.00174914     0.000472914        -0.865766        0.487358     -0.000183969    -0.000321347        0.0290661        0.107946
251000                  0.302414        0.239689      0.000532462    -7.39914e-05         0.514031        0.766117       0.00167904     0.000307507
                     0.000691028     3.85055e-05        0.0706722       0.0924171       0.00141761     0.000174149        -0.837018        0.534436
                        0.513967        0.765846        0.0016474     0.000245241        -0.107143       -0.370711     -0.000209894    -0.000113611
                      0.00184316     0.000392835        -0.837188        0.533996     -0.000250838     -0.00027544        0.0540695        0.103021
251200                  0.301122        0.236914      0.000496831    -0.000112364         0.562283        0.732836       0.00169696     0.000231413
                     0.000687456     5.57345e-05        0.0640369        0.103743       0.00145247      0.00022808         -0.80577        0.579332
                        0.562231        0.732672       0.00170424     0.000110965        -0.150906       -0.352162     -0.000235754    -7.67841e-05
                      0.00193296     0.000325538           -0.806        0.578864     -0.000300696    -0.000229124         0.077926       0.0937559
251400                  0.298959        0.233602      0.000449363    -0.000132825         0.608835        0.696659       0.00171886     0.000157065
                     0.000684182     0.000106139        0.0573358         0.11475       0.00157265     0.000185113        -0.772047        0.622295
                        0.608825        0.696606       0.00176249    -3.75403e-05        -0.191484       -0.327503     -0.000254654    -4.38338e-05
                       0.0020014     0.000278213        -0.772332        0.621812     -0.000340123    -0.000184332        0.0999395        0.080406
251600                  0.295925         0.22976      0.000411002    -0.000132307         0.653537          0.6576       0.00174474     8.16008e-05
                     0.000638012     0.000261733        0.0505808        0.125409       0.00165882     7.18665e-05        -0.735987        0.663187
                        0.653596        0.657646       0.00182501    -0.000198955        -0.227942       -0.297283     -0.000269491    -1.39194e-05
                      0.00202437     0.000237932        -0.736319        0.662701     -0.000373254    -0.000140808         0.119467       0.0633317
251800                   0.29202        0.225394      0.000389889     -0.00012921         0.696227        0.615676       0.00177389     2.58605e-06
                      7.5399e-05     0.000308003        0.0437837        0.135691        0.0017078    -5.89735e-05        -0.697735        0.701884
                        0.696369          0.6158       0.00189524    -0.000369349        -0.259435       -0.262199     -0.000282061     1.38773e-05
                      0.00200179     0.000171724        -0.698105        0.701405     -0.000402572    -9.75296e-05         0.135936       0.0429902
252000                  0.287245        0.220515      0.000376348    -0.000133249         0.736723        0.570911       0.00180506    -8.19345e-05
                      0.00021576    -0.000201217        0.0369557        0.145569       0.00173273    -0.000193039        -0.657445        0.738274
                        0.736952        0.571083        0.0019755    -0.000541099        -0.285232       -0.223081     -0.000293566      4.0435e-05
                      0.00196239      6.6264e-05        -0.657842         0.73781     -0.000429489    -5.31992e-05         0.148855       0.0199226
252200                  0.281596        0.215137       0.00036299    -0.000143089         0.774825        0.523337       0.00183665    -0.000173438
                     0.000352925    -0.000218018        0.0301078        0.155017       0.00174064    -0.000327388         -0.61527        0.772258
                        0.775135        0.523528       0.00206393    -0.000703356        -0.304737        -0.18088     -0.000304901     6.66137e-05
                      0.00192627    -6.43871e-05        -0.615684        0.771813     -0.000454675    -6.39505e-06         0.157826     -0.00526127
252400                  0.275074        0.209278      0.000347345    -0.000155756         0.810316        0.473004       0.00186686    -0.000272943
                     0.000389287    -0.000207752        0.0232509        0.164011       0.00173469    -0.000461324        -0.571371         0.80375
                        0.810689        0.473184        0.0021519    -0.000845741         -0.31751       -0.136642     -0.000316823     9.33306e-05
                      0.00189543    -0.000204291        -0.571792        0.803325     -0.000478188     4.44015e-05         0.162557      -0.0318979
252600                  0.267677        0.202959      0.000328968    -0.000169211         0.842961        0.419979       0.00189372    -0.000381019
                     0.000394155     -0.00020059        0.0163957        0.172528       0.00171632    -0.000594414        -0.525907        0.832675
                        0.843373        0.420126       0.00222558    -0.000964026        -0.323286      -0.0914906     -0.000330074     0.000121686
                      0.00186565    -0.000344958        -0.526326        0.832272     -0.000499477       0.0001008         0.162863      -0.0592876
252800                  0.259405        0.196209      0.000307985    -0.000182226         0.872514        0.364354       0.00191519    -0.000497803
                     0.000385744       -0.000196       0.00955301        0.180549       0.00168619    -0.000726095         -0.47904        0.858971
                        0.872932        0.364454       0.00227222     -0.00106259        -0.321989      -0.0465957     -0.000345471     0.000153167
                      0.00183301    -0.000482821         -0.47945        0.858588     -0.000517267     0.000164452         0.158672      -0.0867121
253000                  0.250261        0.189059      0.000284638    -0.000194023         0.898713        0.306252       0.00192922    -0.000622999
                     0.000370366    -0.000192417       0.00273356        0.188052       0.00164471    -0.000855641        -0.430931        0.882588
                        0.899103        0.306299       0.00228582     -0.00115076        -0.313746     -0.00314341     -0.000363974      0.00019002
                      0.00179511    -0.000616393        -0.431326        0.882223     -0.000529356     0.000236906         0.150029       -0.113452
253200                  0.240248        0.181548      0.000259169    -0.000204055          0.92129        0.245826       0.00193384    -0.000755883
                     0.000350778    -0.000188752      -0.00405171        0.195022       0.00159215    -0.000982194        -0.381739        0.903487
                        0.921619        0.245826       0.00226739     -0.00123701        -0.298893       0.0377007     -0.000386685     0.000235984
                      0.00175072     -0.00074494        -0.382114        0.903135     -0.000532365     0.000319253         0.137089       -0.138806
253400                  0.229377        0.173719      0.000231812    -0.000211891         0.939975        0.183266        0.0019272     -0.00089532
                     0.000328415    -0.000184276       -0.0107917        0.201442       0.00152885     -0.00110481        -0.331621        0.921638
                        0.940211        0.183233       0.00222169     -0.00132601        -0.277976       0.0748305     -0.000414535     0.000297856
                      0.00169941    -0.000867992        -0.331973        0.921297     -0.000521557     0.000411473         0.120116       -0.162107
253600                  0.217658         0.16562      0.000202795    -0.000217161         0.954499        0.118802        0.0019077     -0.00103979
                     0.000304146    -0.000178488       -0.0174751        0.207299       0.00145521     -0.00122249         -0.28073         0.93702
                        0.954617        0.118762       0.00215408     -0.00141881        -0.251742         0.10724     -0.000446539     0.000389073
                      0.00164121    -0.000985186        -0.281058        0.936687     -0.000491023     0.000511397        0.0994754       -0.182738
253800                  0.205112        0.157304      0.000172354    -0.000219527         0.964603       0.0527065       0.00187404     -0.00118742
                     0.000278576    -0.000171024       -0.0240903        0.212579       0.00137178     -0.00133425        -0.229217        0.949623
                        0.964589       0.0526892        0.0020691     -0.00151433        -0.221123        0.134062     -0.000471374       0.0005376
                      0.00157643     -0.00109624         -0.22952        0.949294     -0.000434651     0.000613445         0.075624       -0.200148
254000                  0.191762        0.148829       0.00014075    -0.000218673         0.970044      -0.0147071       0.00182527     -0.00133609
                     0.000252175    -0.000161614       -0.0306255        0.217273        0.0012792     -0.00143913        -0.177226        0.959441
                        0.969894      -0.0146669       0.00197017     -0.00161056        -0.187213        0.154612     -0.000427544     0.000793052
                      0.00150555     -0.00120092        -0.177507        0.959115      -0.00034836     0.000707839        0.0490977       -0.213865
254200                  0.177641        0.140255      0.000108273    -0.000214302         0.970604      -0.0830828       0.00176092     -0.00148348
                     0.000225343    -0.000150059       -0.0370686         0.22137       0.00117827     -0.00153624        -0.124902        0.966477
                        0.970326      -0.0829501       0.00185983     -0.00170535        -0.151229        0.168414     -8.88859e-05      0.00110671
                      0.00142914     -0.00129909         -0.12516        0.966152      -0.00023328     0.000781596        0.0204991       -0.223507
254400                  0.162789        0.131646      7.52528e-05     -0.00020614         0.966097       -0.152025       0.00168098     -0.00162719
                     0.000198448    -0.000136215       -0.0434074        0.224864       0.00106993     -0.00162479       -0.0723792         0.97074
                        0.965711       -0.151767          0.00174     -0.00179674        -0.114469        0.175235      0.000502755     0.000918645
                      0.00134781     -0.00139069       -0.0726165        0.970416     -9.81011e-05      0.00082229      -0.00951808        -0.22879
254600                  0.147255        0.123065      4.20643e-05     -0.00019394         0.956377       -0.221101       0.00158591     -0.00176487
                     0.000171835    -0.000119988       -0.0496293        0.227746      0.000955191     -0.00170413       -0.0197922        0.972241
                        0.955912       -0.220694       0.00161221     -0.00188309       -0.0782662        0.175094      0.000577892     0.000449988
                      0.00126215     -0.00147571       -0.0200098        0.971919       4.2053e-05     0.000823385       -0.0402648       -0.229536
254800                  0.131095        0.114576      9.13123e-06     -0.00017749         0.941347        -0.28985       0.00147665      -0.0018943
                      0.00014584    -0.000101329       -0.0557217        0.230014      0.000835181     -0.00177377        0.0327309        0.970999
                        0.940841       -0.289275       0.00147777     -0.00196311       -0.0439322        0.168277      0.000434259     0.000236663
                      0.00117276     -0.00155422        0.0325322        0.970678      0.000170803     0.000787453       -0.0710334       -0.225675
255000                  0.114377        0.106241     -2.30736e-05    -0.000156629         0.920961       -0.357786       0.00135452     -0.00201353
                     0.000120793    -8.02352e-05       -0.0616715        0.231662      0.000711077     -0.00183339        0.0850653        0.967032
                        0.920457       -0.357038       0.00133781     -0.00203583       -0.0127024        0.155323       0.00031507     0.000164783
                      0.00108018     -0.00162636        0.0848854        0.966715      0.000276434     0.000724573        -0.101114       -0.217246
255200                 0.0971734       0.0981189       -5.403e-05    -0.000131257         0.895235       -0.424407       0.00122117     -0.00212094
                     9.70115e-05     -5.6745e-05       -0.0674661        0.232688      0.000584086     -0.00188285          0.13709        0.960364
                        0.894777       -0.423492       0.00119336     -0.00210055        0.0143161         0.13701      0.000235711     0.000143859
                     0.000984883     -0.00169231         0.136929        0.960052      0.000354551     0.000647436        -0.129812       -0.204398
255400                 0.0795674       0.0902623     -8.31761e-05    -0.000101348         0.864245       -0.489207       0.00107849     -0.00221528
                      7.4806e-05    -3.09393e-05       -0.0730925         0.23309      0.000455411     -0.00192222         0.188687         0.95102
                        0.863876       -0.488145       0.00104534      -0.0021568        0.0361939        0.114324      0.000183539     0.000142113
                     0.000887311      -0.0017523         0.188546        0.950714      0.000406828     0.000566948        -0.156463       -0.187382
255600                 0.0616477       0.0827188     -0.000109918    -6.69651e-05          0.82813       -0.551685      0.000928475     -0.00229572
                     5.44717e-05    -2.93941e-06       -0.0785379        0.232869      0.000326205     -0.00195179         0.239741        0.939026
                        0.827888       -0.550504      0.000894581     -0.00220431        0.0522198       0.0884181      0.000148871     0.000148259
                      0.00078782     -0.00180656         0.239622        0.938726      0.000438091     0.000490335        -0.180448       -0.166551
255800                 0.0435088       0.0755285     -0.000133642    -2.82729e-05         0.787095       -0.611354      0.000773149     -0.00236183
                     3.62868e-05     2.70948e-05       -0.0837896        0.232025      0.000197541     -0.00197201         0.290137        0.924409
                        0.787008       -0.610094      0.000741838     -0.00224293        0.0619316       0.0605619      0.000125827      0.00015788
                     0.000686698     -0.00185539         0.290043        0.924115      0.000453853     0.000421343        -0.201209       -0.142344
256000                 0.0252491       0.0687226     -0.000153734     1.44522e-05           0.7414       -0.667754      0.000614476     -0.00241356
                     2.05074e-05     5.89679e-05       -0.0888353        0.230559      7.03636e-05     -0.00198354         0.339765        0.907198
                        0.741489       -0.666459      0.000587769     -0.00227264        0.0651353       0.0320877      0.000110871     0.000169087
                     0.000584157     -0.00189907         0.339696        0.906909      0.000458983     0.000361271        -0.218261       -0.115286
256200                0.00696963       0.0623238       -0.0001696      6.0815e-05         0.691365       -0.720459      0.000454281     -0.00245117
                     7.36442e-06     9.24522e-05        -0.093663        0.228475     -5.45482e-05     -0.00198721         0.388511        0.887423
                        0.691635       -0.719176      0.000432956      -0.0022935        0.0619117      0.00433289      0.000101817     0.000181012
                     0.000480334     -0.00193789          0.38847        0.887137      0.000457272     0.000310001          -0.2312      -0.0859659
