! TOUCHSTONE file generated by CST MICROWAVE STUDIO
! Date and time: Sun Sep 28 17:20:13 2025
! Project name: biblioteca3_folgaOK.cst
! Parameters = {H=600; Lx=200; Ly=260; Nedge=30; P=520; k=0; mesh_pilar_nm=40; n=0; t_air=3800; t_sub=3000; wavelength_nm=0}
! Header version: 2018
! Port assignment regex: !\s*Touchstone port\s*([0-9]+)\s*=\s*(CST MWS port|CST DS port)\s*([0-9]+|Zmin|Zmax)\s*\(\"(.*)\"\)(\s*mode\s*([0-9]+))?.*
! Touchstone port assignment:
! Touchstone port 1 = CST MWS port Zmin ("") mode 1
! Touchstone port 2 = CST MWS port Zmin ("") mode 2
! Touchstone port 3 = CST MWS port Zmax ("") mode 1
! Touchstone port 4 = CST MWS port Zmax ("") mode 2
! S-Parameters are not renormalized. Each port impedance will be approximated by the real part at minimum frequency. The values are described via the [Reference] keyword.
! Default impedance is overridden by [Reference]
[Version] 2.0
# GHz S RI R 376.73
[Number of Ports] 4
[Reference]
376.73 376.73 376.73 376.73 
[Number of Frequencies] 401
[Network Data]
250000                -0.0182328        0.172241      -0.00126687     0.000229371        -0.542911        0.821579      0.000766411      0.00170319
                      -0.0013135     0.000248558         0.240691       0.0220195     -7.85437e-05      0.00206869        -0.800555       -0.548282
                       -0.543172        0.821816     -0.000109268      0.00208097         0.151268      -0.0842867       0.00100397    -0.000210037
                     0.000713264      0.00174433        -0.800486        -0.54848       0.00103984    -0.000187667        -0.107532       -0.216469
250200               -0.00408121         0.18516      -0.00125141      0.00034899        -0.467476        0.864215      0.000894935      0.00160635
                     -0.00130408     0.000367209            0.237       0.0124111       0.00010554      0.00208372        -0.839177       -0.489307
                       -0.467846        0.864615      7.83725e-05       0.0021133         0.152693       -0.104703       0.00101459    -0.000342781
                     0.000858428      0.00171683        -0.839109       -0.489545       0.00106006     -0.00028615        -0.127493       -0.200131
250400                 0.0115971        0.196525      -0.00122426     0.000465839        -0.388788        0.899876       0.00102674      0.00150648
                     -0.00128202     0.000486645         0.232819       0.0032979      0.000291214      0.00208224        -0.873498       -0.427516
                       -0.389184        0.900401      0.000271777      0.00212594         0.151013       -0.126192       0.00100635    -0.000471887
                      0.00100437      0.00167457        -0.873449       -0.427783       0.00106739     -0.00038974        -0.145363        -0.18182
250600                 0.0286131        0.206183      -0.00118612     0.000578945        -0.307509        0.928334       0.00116061      0.00140506
                     -0.00124715     0.000605124         0.228199     -0.00528779      0.000476971      0.00206403        -0.903306       -0.363219
                       -0.307872         0.92894      0.000468188      0.00211816         0.146021        -0.14826      0.000981716    -0.000594863
                      0.00114936      0.00161714        -0.903289         -0.3635        0.0010613    -0.000496016        -0.160929       -0.161784
250800                 0.0467632        0.214004       -0.0011377     0.000687487        -0.224312        0.949428       0.00129455      0.00130332
                     -0.00119963     0.000720902         0.223189      -0.0133182      0.000661263      0.00202901        -0.928411       -0.296737
                       -0.224607        0.950068      0.000664832      0.00208973          0.13759       -0.170382      0.000943222    -0.000710117
                      0.00129164      0.00154439        -0.928433       -0.297021       0.00104188    -0.000602668        -0.174007       -0.140297
251000                 0.0658336        0.219886      -0.00107971     0.000790772        -0.139876        0.963064       0.00142595      0.00120182
                     -0.00113989     0.000832311         0.217845      -0.0207702      0.000842525      0.00197726        -0.948642       -0.228409
                       -0.140084        0.963692      0.000859056      0.00204093         0.125681       -0.192016      0.000893258    -0.000816786
                      0.00142937      0.00145643        -0.948705       -0.228685       0.00100978    -0.000707699        -0.184447       -0.117655
251200                 0.0856025        0.223752      -0.00101284     0.000888211       -0.0548726        0.969209       0.00155196      0.00110024
                     -0.00106867     0.000937819         0.212221      -0.0276257       0.00101919      0.00190903        -0.963854        -0.15859
                      -0.0549935        0.969787       0.00104842      0.00197243          0.11034       -0.212617      0.000833935    -0.000914564
                      0.00156077      0.00135359        -0.963958       -0.158847      0.000965936    -0.000809553        -0.192132      -0.0941737
251400                  0.105844        0.225552     -0.000937747     0.000979294        0.0300337        0.967895       0.00167001     0.000997373
                    -0.000986906      0.00103608         0.206375      -0.0338719        0.0011897      0.00182473        -0.973926      -0.0876457
                       0.0299889        0.968391       0.00123078      0.00188521        0.0916973       -0.231651      0.000767028     -0.00100352
                      0.00168411      0.00123646        -0.974067      -0.0878755      0.000911439    -0.000907139        -0.196985      -0.0701794
251600                  0.126332         0.22526     -0.000855045      0.00106357         0.114194        0.959209       0.00177811      0.00089147
                    -0.000895712      0.00112599         0.200364       -0.039501       0.00135256      0.00172492        -0.978762      -0.0159528
                        0.114205        0.959603       0.00140425      0.00178042        0.0699647       -0.248608      0.000693967     -0.00108399
                      0.00179777      0.00110585        -0.978936      -0.0161503      0.000847307    -0.000999783        -0.198965      -0.0460088
251800                  0.146841        0.222878     -0.000765326      0.00114063         0.196979        0.943297       0.00187505     0.000780628
                    -0.000796296      0.00120667         0.194246      -0.0445106        0.0015063      0.00161033        -0.978294       0.0561015
                        0.197022        0.943576       0.00156726      0.00165933          0.04543       -0.263014      0.000615855      -0.0011564
                      0.00190024     0.000962767        -0.978494       0.0559399      0.000774371     -0.00108712        -0.198075      -0.0220024
252000                  0.167151        0.218429     -0.000669149      0.00121009         0.277784        0.920353       0.00196025     0.000663179
                    -0.000689909      0.00127748          0.18808      -0.0489036       0.00164955      0.00148185        -0.972485        0.128123
                        0.277832        0.920515       0.00171844      0.00152323        0.0184507       -0.274439      0.000533511     -0.00122129
                       0.0019902     0.000808353        -0.972704        0.127999      0.000693201     -0.00116894        -0.194357      0.00150029
252200                   0.18705        0.211963     -0.000567056      0.00127157         0.356031         0.89062       0.00203352     0.000537899
                     -0.00057779      0.00133799         0.181922      -0.0526885       0.00178105      0.00134048        -0.961322        0.199711
                        0.356059        0.890671       0.00185659      0.00137343       -0.0105547       -0.282511      0.000447502     -0.00127915
                       0.0020665     0.000643885        -0.961554        0.199624      0.000604088     -0.00124509        -0.187894       0.0241656
252400                  0.206332        0.203547     -0.000459583      0.00132468         0.431173        0.854384       0.00209485     0.000404071
                    -0.000461125      0.00138797         0.175829      -0.0558787        0.0018996      0.00118737        -0.944828        0.270463
                        0.431158        0.854338       0.00198066       0.0012112       -0.0411149       -0.286921      0.000358179     -0.00133045
                       0.0021282     0.000470712        -0.945067        0.270411       0.00050707     -0.00131531        -0.178808       0.0456709
252600                  0.224808        0.193272     -0.000347268      0.00136906         0.502695         0.81197        0.0021442     0.000261445
                    -0.000341019      0.00142735         0.169856      -0.0584933       0.00200419      0.00102376        -0.923053        0.339975
                        0.502619        0.811847       0.00208964      0.00103784       -0.0727164       -0.287428       0.00026571     -0.00137562
                      0.00217455     0.000290219        -0.923293        0.339956      0.000402004     -0.00137915        -0.167262       0.0657096
252800                  0.242297        0.181245     -0.000230669      0.00140428         0.570119        0.763738       0.00218141     0.000110157
                    -0.000218482      0.00145615         0.164055      -0.0605559       0.00209389     0.000851002        -0.896081        0.407845
                         0.56997        0.763563       0.00218256     0.000854691        -0.104814        -0.28387      0.000170098     -0.00141499
                      0.00220502     0.000103776        -0.896317        0.407854      0.000288654     -0.00143585        -0.153455       0.0839957
253000                  0.258635         0.16759     -0.000110374      0.00142996         0.633001        0.710083       0.00220616    -4.93596e-05
                      -9.442e-05      0.00147449         0.158476      -0.0620955       0.00216795     0.000670507        -0.864026        0.473675
                        0.632773        0.709879       0.00225853     0.000663152        -0.136839       -0.276159      7.11944e-05     -0.00144881
                      0.00221927     -8.7298e-05        -0.864255        0.473708      0.000166816     -0.00148435        -0.137619        0.100268
253200                  0.273675        0.152444      1.29801e-05      0.00144568         0.690933        0.651426       0.00221795    -0.000216434
                     3.03533e-05      0.00148251         0.153167      -0.0631452       0.00222575     0.000483746        -0.827035        0.537073
                        0.690628        0.651219       0.00231668     0.000464753        -0.168218       -0.264292     -3.13027e-05      -0.0014772
                      0.00221721    -0.000281784        -0.827253        0.537126      3.64537e-05     -0.00152323        -0.120018        0.114297
253400                  0.287284        0.135959      0.000138697      0.00145101         0.743549        0.588212       0.00221617    -0.000390201
                     0.000155107       0.0014804          0.14817      -0.0637428       0.00226682     0.000292221        -0.785284        0.597659
                        0.743171        0.588026       0.00235624     0.000261164        -0.198373       -0.248345     -0.000137862      -0.0015002
                      0.00219902    -0.000478596        -0.785491        0.597726     -0.000102155     -0.00155076        -0.100943        0.125882
253600                  0.299349        0.118296      0.000266005      0.00144556         0.790517         0.52091       0.00220009    -0.000569628
                     0.000279176      0.00146831         0.143525        -0.06393       0.00229083     9.74496e-05        -0.738983        0.655062
                        0.790078        0.520767       0.00237658     5.42096e-05        -0.226744       -0.228476     -0.000249154     -0.00151765
                      0.00216522    -0.000676801        -0.739177        0.655139      -0.00024828     -0.00156499       -0.0807079        0.134863
253800                  0.309774       0.0996229      0.000394046      0.00142894         0.831546        0.450007       0.00216891    -0.000753521
                     0.000401935      0.00144642         0.139268      -0.0637521       0.00229759    -9.90531e-05         -0.68837        0.708928
                        0.831063        0.449924       0.00237728    -0.000154138        -0.252791       -0.204921     -0.000366109     -0.00152917
                      0.00211685    -0.000875569        -0.688552        0.709011     -0.000400619     -0.00156389       -0.0596464        0.141117
254000                  0.318483       0.0801171      0.000521867      0.00140082         0.866383        0.376008       0.00212183    -0.000940529
                     0.000522783      0.00141486          0.13543      -0.0632575       0.00228703    -0.000295788        -0.633713        0.758921
                        0.865875        0.375997       0.00235812    -0.000361787         -0.27601       -0.177989     -0.000490013     -0.00153403
                      0.00205567     -0.00107397        -0.633883        0.759007     -0.000557228     -0.00154555       -0.0381046        0.144565
254200                  0.325418       0.0599588      0.000648411      0.00136092         0.894816         0.29943       0.00205804     -0.00112914
                     0.000641118      0.00137374         0.132036      -0.0624975       0.00225919    -0.000491281        -0.575308        0.804725
                        0.894303        0.299498       0.00231922    -0.000566574        -0.295943       -0.148059     -0.000622647     -0.00153086
                      0.00198434     -0.00127039        -0.575466        0.804811     -0.000715525     -0.00150838       -0.0164377        0.145168
254400                  0.330539       0.0393316      0.000772519      0.00130906          0.91667        0.220803       0.00197679     -0.00131766
                     0.000756324      0.00132319         0.129106      -0.0615259       0.00221415    -0.000684078        -0.513476        0.846045
                        0.916174        0.220952       0.00226096    -0.000766318        -0.312183       -0.115573     -0.000766454     -0.00151716
                      0.00190611     -0.00146146        -0.513624        0.846129     -0.000872384     -0.00145138       0.00499593        0.142933
254600                  0.333828       0.0184196      0.000892932      0.00124519         0.931811        0.140665       0.00187744     -0.00150425
                     0.000867748      0.00126332         0.126657      -0.0603979       0.00215209    -0.000872731        -0.448564        0.882614
                        0.931353        0.140892       0.00218407    -0.000958898        -0.324387      -0.0810276     -0.000924591     -0.00148812
                      0.00182295      -0.0016411        -0.448703        0.882694      -0.00102432     -0.00137431        0.0258406        0.137912
254800                  0.335282     -0.00259374        0.0010083      0.00116942         0.940143       0.0595619       0.00175944     -0.00168687
                     0.000974703      0.00119428         0.124698      -0.0591702       0.00207319     -0.00105576         -0.38094        0.914189
                        0.939743       0.0598579        0.0020896     -0.00114232        -0.332281       -0.044966      -0.00110024     -0.00143434
                      0.00173251     -0.00180195        -0.381071        0.914265      -0.00116773     -0.00127783        0.0457485        0.130201
255000                  0.334919      -0.0235278       0.00111722      0.00108201         0.941611      -0.0219546       0.00162245     -0.00186332
                      0.00107645      0.00111624         0.123232      -0.0579002       0.00197766     -0.00123156        -0.310992         0.94056
                        0.941286      -0.0216026       0.00197887     -0.00131476        -0.335666     -0.00796731      -0.00129278     -0.00133759
                      0.00162769      -0.0019403        -0.311117         0.94063      -0.00129924     -0.00116348        0.0643851        0.119938
255200                  0.332772      -0.0442062       0.00121823     0.000983484           0.9362        -0.10333       0.00146632     -0.00203122
                      0.00117221      0.00102944         0.122258      -0.0566454       0.00186581     -0.00139832        -0.239128        0.961546
                        0.935963       -0.102939       0.00185342     -0.00147467        -0.334424        0.029363      -0.00148391     -0.00116802
                      0.00150195     -0.00205911        -0.239246        0.961609      -0.00141592     -0.00103361         0.081435        0.107304
255400                  0.328895      -0.0644585       0.00130991     0.000874579         0.923935        -0.18401       0.00129115     -0.00218803
                      0.00126117     0.000934204         0.121768       -0.055463       0.00173818     -0.00155389        -0.165769        0.976997
                        0.923796         -0.1836       0.00171498     -0.00162076         -0.32852       0.0664049      -0.00160907    -0.000906633
                      0.00135418      -0.0021642         -0.16588        0.977055      -0.00151555    -0.000891153        0.0966069       0.0925164
255600                  0.323356      -0.0841218       0.00139085     0.000756298         0.904882        -0.26344       0.00109733     -0.00233103
                       0.0013425     0.000830956          0.12175      -0.0544091        0.0015959      -0.0016958       -0.0913467        0.986801
                        0.904846       -0.263033       0.00156539     -0.00175204        -0.318006        0.102535      -0.00158013    -0.000628575
                      0.00118751     -0.00225931       -0.0914523        0.986853      -0.00159674    -0.000739391         0.109638       0.0758307
255800                  0.316237       -0.103042       0.00145981     0.000629909         0.879149       -0.341069      0.000885579     -0.00245736
                      0.00141535     0.000720223         0.122183      -0.0535384       0.00144109     -0.00182146       -0.0163051        0.990879
                        0.879216        -0.34069       0.00140654     -0.00186783        -0.303018        0.137138       -0.0014481    -0.000481174
                      0.00100595      -0.0023452       -0.0164048        0.990924      -0.00165891    -0.000581651         0.120299       0.0575331
256000                  0.307638       -0.121077       0.00151569     0.000496928         0.846883       -0.416353      0.000657019     -0.00256395
                       0.0014789     0.000602659         0.123044      -0.0529035       0.00127712     -0.00192897         0.058907        0.989187
                        0.847048       -0.416025       0.00124029     -0.00196774        -0.283779         0.16962      -0.00136417    -0.000459937
                     0.000812751      -0.0024209        0.0588136        0.989225      -0.00170225    -0.000421084         0.128398       0.0379376
256200                  0.297669       -0.138093       0.00155767     0.000359093         0.808276       -0.488756       0.00041325     -0.00264755
                      0.00153238     0.000479039         0.124302      -0.0525543       0.00110811     -0.00201806         0.133838        0.981718
                        0.808528       -0.488504       0.00106845     -0.00205166         -0.26059        0.199418      -0.00136691     -0.00046511
                     0.000610236     -0.00248486         0.133751         0.98175      -0.00172755    -0.000260487         0.133782       0.0173813
