! TOUCHSTONE file generated by CST MICROWAVE STUDIO
! Date and time: Sun Sep 28 19:09:21 2025
! Project name: biblioteca3_folgaOK.cst
! Parameters = {H=600; Lx=200; Ly=260; Nedge=42; P=520; mesh_pilar_nm=40; t_air=3800; t_sub=6000}
! Header version: 2018
! Port assignment regex: !\s*Touchstone port\s*([0-9]+)\s*=\s*(CST MWS port|CST DS port)\s*([0-9]+|Zmin|Zmax)\s*\(\"(.*)\"\)(\s*mode\s*([0-9]+))?.*
! Touchstone port assignment:
! Touchstone port 1 = CST MWS port Zmin ("") mode 1
! Touchstone port 2 = CST MWS port Zmin ("") mode 2
! Touchstone port 3 = CST MWS port Zmax ("") mode 1
! Touchstone port 4 = CST MWS port Zmax ("") mode 2
! S-Parameters are not renormalized. Each port impedance will be approximated by the real part at minimum frequency. The values are described via the [Reference] keyword.
! Default impedance is overridden by [Reference]
[Version] 2.0
# GHz S RI R 376.73
[Number of Ports] 4
[Reference]
376.73 376.73 376.73 376.73 
[Number of Frequencies] 401
[Network Data]
250000                  0.311448        0.210179     -0.000663773     -0.00055522         0.309901        0.873365      0.000110906     0.000466659
                    -0.000746914    -0.000496791        0.0986286       0.0220126      0.000705291     0.000151411        -0.933328        0.344753
                        0.310214        0.873528      0.000607432     2.80712e-05         0.109359       -0.359454     -0.000944789    -0.000618889
                     7.80495e-05     0.000555071        -0.933051        0.344938     -0.000767511    -0.000466267        -0.060603       0.0808831
250200                  0.333917        0.176973     -0.000747689    -0.000409537         0.406514         0.83179      0.000178087      0.00047253
                    -0.000837296    -0.000339004        0.0970395       0.0248337      0.000738866     7.52382e-05        -0.891953         0.44096
                        0.406773        0.832052      0.000611233     -3.5529e-05        0.0663418       -0.371939     -0.000974833    -0.000591655
                     0.000143971     0.000567941        -0.891332        0.441497     -0.000826389    -0.000454153       -0.0391613       0.0922613
250400                  0.351842        0.141002     -0.000806259    -0.000255388         0.497951        0.779977      0.000249528     0.000469736
                    -0.000888968    -0.000171342         0.096847       0.0279466      0.000765218    -9.57543e-06        -0.840559        0.532251
                        0.498218        0.780221      0.000609033    -0.000100097        0.0214182       -0.378315       -0.0010068    -0.000559185
                     0.000217397     0.000573078        -0.839633        0.532864     -0.000888101     -0.00043561       -0.0161071       0.0995928
250600                  0.364865        0.102987     -0.000838744    -9.67108e-05           0.5832        0.718477      0.000324179     0.000456979
                    -0.000904827    -2.89023e-06        0.0980772        0.031082       0.00078227    -0.000102537        -0.779739        0.617558
                        0.583499        0.718618       0.00060091    -0.000164992       -0.0244032       -0.378238      -0.00104055    -0.000520913
                     0.000297801       0.0005681        -0.778609        0.618059        -0.000952    -0.000409697       0.00784937        0.102682
250800                  0.372752       0.0636922     -0.000844982     6.26001e-05         0.661298        0.647931      0.000400653     0.000433044
                    -0.000888949     0.000159931          0.10071       0.0339708       0.00078785    -0.000202634        -0.710202         0.69589
                        0.661622        0.647914      0.000587075    -0.000229678       -0.0700514       -0.371554      -0.00107584    -0.000476264
                     0.000383957      0.00055041        -0.708994        0.696176      -0.00101719    -0.000375498        0.0319819        0.101454
251000                  0.375394        0.023897     -0.000825328     0.000218754         0.731326        0.569074      0.000477211     0.000396884
                    -0.000845536     0.000312798         0.104678       0.0363518      0.000779832    -0.000308253        -0.632766        0.766344
                        0.731655        0.568867      0.000567844    -0.000293785        -0.114433       -0.358306      -0.00111228    -0.000424671
                     0.000473751     0.000517398        -0.631605        0.766385      -0.00108249    -0.000332192        0.0555686       0.0959552
251200                  0.372805      -0.0156196     -0.000780603     0.000368106         0.792427        0.482726      0.000551773     0.000347719
                    -0.000778404     0.000452802         0.109874       0.0379795      0.000756323    -0.000417138        -0.548341         0.82812
                        0.792733        0.482321      0.000543591    -0.000357167        -0.156475        -0.33874      -0.00114928    -0.000365603
                     0.000564053      0.00046677        -0.547331        0.827943      -0.00114645    -0.000279138        0.0779108       0.0863478
251400                  0.365115       -0.054098     -0.000712047     0.000507173         0.843803        0.389797      0.000621948     0.000285134
                    -0.000690852     0.000577883         0.116148        0.038631      0.000715879     -0.00052642        -0.457919        0.880527
                        0.844058        0.389204      0.000514665    -0.000419982        -0.195158       -0.313288      -0.00118609    -0.000298602
                     0.000650725     0.000396971         -0.45713        0.880198      -0.00120737    -0.000215968          0.09835       0.0729025
251600                  0.352567      -0.0908138     -0.000621294     0.000632648         0.884731        0.291285      0.000685103     0.000209186
                    -0.000585715     0.000686415         0.123316       0.0381127      0.000657721    -0.000632728         -0.36256        0.922996
                         0.88491        0.290524      0.000481261     -0.00048277        -0.229554       -0.282557      -0.00122171    -0.000223333
                     0.000728826      0.00030765        -0.362021        0.922598      -0.00126334    -0.000142682         0.116284       0.0559906
251800                  0.335504       -0.125091     -0.000510362     0.000741408         0.914571        0.188271      0.000738456     0.000120491
                     -0.00046552     0.000776944         0.131167       0.0362647      0.000581914    -0.000732388        -0.263371        0.955079
                        0.914655        0.187374      0.000443191    -0.000546548        -0.258853       -0.247304      -0.00125493    -0.000139641
                     0.000793068      0.00020005        -0.263074        0.954698      -0.00131235    -5.97309e-05         0.131181       0.0360725
252000                  0.314364       -0.156315     -0.000381654     0.000830526         0.932774       0.0819228      0.000779215     2.02977e-05
                    -0.000332655     0.000848052         0.139465        0.032965      0.000489475    -0.000821692        -0.161497        0.976456
                        0.932751       0.0809236      0.000399473    -0.000612863        -0.282386       -0.208416      -0.00128432    -4.76202e-05
                     0.000838469      7.7171e-05        -0.161402        0.976167      -0.00135241     3.19264e-05         0.142592       0.0136849
252200                  0.289671       -0.183944     -0.000237977     0.000897297         0.938897      -0.0265154      0.000804727    -8.94819e-05
                    -0.000189545     0.000898317         0.147959       0.0281322      0.000382363    -0.000897206       -0.0581031        0.986937
                        0.938762        -0.02758      0.000347589    -0.000683657         -0.29964       -0.166877      -0.00130827     5.23159e-05
                     0.000861065    -5.63909e-05       -0.0581471        0.986795       -0.0013817     0.000130817         0.150159      -0.0105729
252400                  0.262021       -0.207519     -8.25674e-05     0.000939285         0.932617       -0.135724      0.000812655    -0.000206277
                     -3.8795e-05      0.00092633          0.15639       0.0217269       0.00026336    -0.000956051        0.0456421        0.986461
                        0.932372       -0.136818      0.000282282     -0.00076049        -0.310275        -0.12375       -0.0013251      0.00015937
                     0.000858504     -0.00019495        0.0455344        0.986492      -0.00139874     0.000234998         0.153628      -0.0360551
252600                  0.232077       -0.226677      8.08878e-05     0.000954392         0.913744       -0.244317      0.000801159    -0.000326918
                     0.000116698      0.00093078         0.164496       0.0137521      0.000135847    -0.000996121         0.148578         0.97509
                        0.913397       -0.245408      0.000194198     -0.00084198        -0.314129      -0.0801378      -0.00133311     0.000272315
                     0.000830318    -0.000332463         0.148484        0.975296      -0.00140251     0.000342165         0.152847       -0.062085
252800                  0.200552       -0.241159      0.000248236     0.000940952         0.882234       -0.350855      0.000769054    -0.000447748
                     0.000273667      0.00091057          0.17202      0.00425211      3.53123e-06      -0.0010162         0.249566        0.953012
                        0.881799       -0.351914      7.08571e-05     -0.00091795        -0.311225      -0.0371659      -0.00133076     0.000389484
                     0.000777823    -0.000463279         0.249556        0.953367      -0.00139254     0.000449794         0.147776      -0.0879723
253000                  0.168193       -0.250817      0.000414869     0.000897855          0.83821       -0.453856      0.000715947    -0.000564779
                     0.000428455     0.000864958         0.178717     -0.00668901     -0.000129836     -0.00101595         0.347504        0.920529
                        0.837702       -0.454859      -9.3294e-05     -0.00096288        -0.301776      0.00405328      -0.00131681     0.000508805
                     0.000703712    -0.000582712         0.347633        0.920989      -0.00136892     0.000555318         0.138485        -0.11303
253200                  0.135768       -0.255624      0.000575767     0.000824687         0.781968       -0.551816      0.000642327    -0.000673893
                     0.000577039     0.000793715         0.184356      -0.0189504     -0.000260694    -0.000995822         0.441336        0.878055
                        0.781408       -0.552746     -0.000276792    -0.000945411         -0.28618       0.0424469      -0.00129042     0.000627892
                      0.00061148    -0.000687329          0.44164        0.878562      -0.00133228     0.000656291         0.125147       -0.136592
253400                  0.104045       -0.255679      0.000725591     0.000721889         0.713997       -0.643231      0.000549597    -0.000771059
                     0.000715114     0.000697278         0.188732      -0.0323778     -0.000385831     -0.00095689         0.530062        0.826106
                        0.713404       -0.644074      -0.00043325    -0.000863387        -0.265022       0.0770134      -0.00125133     0.000744184
                     0.000504875    -0.000774939         0.530556        0.826597      -0.00128359     0.000750526         0.108043       -0.158029
253600                 0.0737689       -0.251206      0.000858832     0.000590901         0.634982       -0.726621      0.000440047    -0.000852565
                     0.000838231     0.000576875         0.191665      -0.0467878     -0.000502451    -0.000900675         0.612749        0.765295
                        0.634377        -0.72737     -0.000534817    -0.000753097        -0.239058        0.106855      -0.00119988     0.000855132
                     0.000387482    -0.000844389         0.613425        0.765707      -0.00122399     0.000836196        0.0875454       -0.176763
253800                 0.0456428       -0.242555      0.000970021     0.000434286         0.545815       -0.800561      0.000316762    -0.000915228
                     0.000941978      0.00043462         0.193004      -0.0619723     -0.000608161     -0.00082899         0.688538        0.696321
                        0.545217       -0.801213     -0.000590921    -0.000649782        -0.209208        0.131209      -0.00113699     0.000958384
                     0.000262485    -0.000895243         0.689369        0.696599      -0.00115453     0.000911915        0.0641136       -0.192282
254000                 0.0203034       -0.230191         0.001054     0.000255802          0.44759       -0.863713      0.000183475    -0.000956583
                       0.0010222     0.000273548         0.192633      -0.0777038     -0.000700909    -0.000743844         0.756649        0.619959
                        0.447018       -0.864269     -0.000623159    -0.000565458        -0.176529        0.149484      -0.00106409      0.00105196
                     0.000132608    -0.000927482         0.757595        0.620061      -0.00107574     0.000976911        0.0382813       -0.204154
254200               -0.00170132       -0.214691       0.00110623      6.0392e-05         0.341603       -0.914858      4.43784e-05    -0.000975014
                      0.00107522     9.75831e-05         0.190469      -0.0937406     -0.000778895    -0.000647415         0.816389        0.537054
                        0.341072       -0.915325     -0.000646615    -0.000497832        -0.142189        0.161286     -0.000983004       0.0011344
                     1.76487e-07    -0.000941239         0.817401        0.536954     -0.000987262      0.00103153        0.0106431       -0.212034
254400                -0.0199324        -0.19672       0.00112313     -0.00014592         0.229336       -0.952934     -9.60984e-05     -0.00096984
                      0.00109808     -8.8557e-05          0.18647       -0.109832     -0.000840504    -0.000542107         0.867159         0.44851
                         0.22886       -0.953322     -0.000668421    -0.000441191        -0.107429        0.166446     -0.000895741      0.00120478
                    -0.000132735    -0.000936638         0.868181        0.448197     -0.000888025      0.00107848       -0.0181603       -0.215676
254600                -0.0340777       -0.177011       0.00110236    -0.000356244         0.112443       -0.977069     -0.000233517    -0.000941333
                       0.0010887    -0.000279518         0.180625       -0.125725     -0.000884312    -0.000430677          0.90845         0.35528
                        0.112031       -0.977389     -0.000691123    -0.000390619       -0.0735136        0.165041     -0.000804351      0.00126278
                    -0.000264118     -0.00091372         0.909429         0.35476     -0.000778568      0.00112433        -0.047457       -0.214935
254800                -0.0439645       -0.156347       0.00104308     -0.00056314      -0.00728249       -0.986612     -0.000363653    -0.000890677
                      0.00104604    -0.000469514         0.172966       -0.141166     -0.000909208    -0.000316391         0.939853        0.258356
                     -0.00762377       -0.986879     -0.000715197    -0.000342684       -0.0416862        0.157397      -0.00071076      0.00130857
                    -0.000391846    -0.000872473         0.940743        0.257651     -0.000666345      0.00117699       -0.0765608       -0.209771
255000                -0.0495682       -0.135524      0.000946106    -0.000759006        -0.127937       -0.981162     -0.000482694    -0.000819869
                      0.00097018    -0.000652561         0.163557       -0.155913     -0.000914687    -0.000203131         0.961059        0.158764
                       -0.128205       -0.981389     -0.000740312    -0.000295133       -0.0131094         0.14409     -0.000616668      0.00134275
                    -0.000513524    -0.000812946         0.961823        0.157904     -0.000564729      0.00123551        -0.104787       -0.200254
255200                -0.0510133       -0.115326      0.000813888    -0.000936512        -0.247547       -0.960588     -0.000587399    -0.000731581
                     0.000862319    -0.000822716         0.152498       -0.169733     -0.000901288     -9.5324e-05         0.971861       0.0575484
                       -0.247742        -0.96079     -0.000765867    -0.000246509        0.0111882        0.125928     -0.000523472      0.00136621
                    -0.000626392    -0.000735449         0.972471       0.0565737     -0.000479358      0.00128871        -0.131469       -0.186556
255400                -0.0485686      -0.0964972      0.000650429     -0.00108902        -0.364112       -0.925043      -0.00067521    -0.000628994
                     0.000724757      -0.0009743          0.13992       -0.182411     -0.000871072     2.44161e-06          0.97215      -0.0442306
                       -0.364239       -0.925234     -0.000791201    -0.000195857        0.0303626        0.103914     -0.000432249      0.00138006
                    -0.000727346    -0.000640797         0.972594      -0.0452776     -0.000404763      0.00132879        -0.155974       -0.168952
255600                -0.0426364      -0.0797094      0.000461024     -0.00121093        -0.475656        -0.87497     -0.000744317     -0.00051561
                     0.000560798      -0.0011021         0.125985       -0.193753     -0.000827901     8.61863e-05         0.961924        -0.14551
                       -0.475722       -0.875163     -0.000815659    -0.000142538        0.0437968       0.0792098     -0.000343757      0.00138546
                    -0.000813075    -0.000530567         0.962201       -0.146587     -0.000334401      0.00135585        -0.177717       -0.147811
255800                -0.0337344      -0.0655401       0.00025194     -0.00129794        -0.580269         -0.8111     -0.000793664    -0.000395076
                     0.000374637     -0.00120153         0.110878       -0.203593     -0.000777202     0.000153527         0.941279       -0.245231
                       -0.580285       -0.811305     -0.000838609     -8.6108e-05         0.051131       0.0530769     -0.000258468      0.00138361
                    -0.000880346      -0.0004073         0.941399       -0.246301     -0.000265105      0.00137289        -0.196176       -0.123589
256000                -0.0224743      -0.0544509       3.0037e-05     -0.00134722        -0.676161       -0.734437     -0.000822922    -0.000271021
                     0.000171231     -0.00126878        0.0948067       -0.211789     -0.000725077     0.000204481         0.910414       -0.342348
                       -0.676139       -0.734661     -0.000859433    -2.62569e-05        0.0522786       0.0268176     -0.000176614      0.00137564
                    -0.000926402    -0.000274564         0.910396       -0.343379      -0.00019599      0.00138264        -0.210905      -0.0968189
256200               -0.00953541      -0.0467725     -0.000197601     -0.00135738        -0.761703       -0.646233     -0.000832423    -0.000146912
                    -4.38433e-05     -0.00130088        0.0779973       -0.218235      -0.00067699     0.000241607         0.869627       -0.435836
                       -0.761655       -0.646481     -0.000877509     3.72365e-05        0.0474269      0.00171335     -9.82304e-05      0.00136261
                    -0.000949403    -0.000136817         0.869496       -0.436807     -0.000127032      0.00138698        -0.221541      -0.0680963
