! TOUCHSTONE file generated by CST MICROWAVE STUDIO
! Date and time: Sun Sep 28 19:32:15 2025
! Project name: biblioteca3_folgaOK.cst
! Parameters = {H=600; Lx=200; Ly=260; Nedge=16; P=520; mesh_pilar_nm=40; t_air=3500; t_sub=4000}
! Header version: 2018
! Port assignment regex: !\s*Touchstone port\s*([0-9]+)\s*=\s*(CST MWS port|CST DS port)\s*([0-9]+|Zmin|Zmax)\s*\(\"(.*)\"\)(\s*mode\s*([0-9]+))?.*
! Touchstone port assignment:
! Touchstone port 1 = CST MWS port Zmin ("") mode 1
! Touchstone port 2 = CST MWS port Zmin ("") mode 2
! Touchstone port 3 = CST MWS port Zmax ("") mode 1
! Touchstone port 4 = CST MWS port Zmax ("") mode 2
! S-Parameters are not renormalized. Each port impedance will be approximated by the real part at minimum frequency. The values are described via the [Reference] keyword.
! Default impedance is overridden by [Reference]
[Version] 2.0
# GHz S RI R 376.73
[Number of Ports] 4
[Reference]
376.73 376.73 376.73 376.73 
[Number of Frequencies] 401
[Network Data]
250000                 -0.254003        0.284943     -0.000263413     0.000937467         0.306944       -0.871752     -0.000415782     0.000103192
                    -0.000179656      0.00100779        -0.113628       0.0403421      0.000308829     8.22492e-05         0.954347        0.273893
                        0.307137       -0.871835      0.000263724     0.000196556       -0.0193826       -0.381256      0.000786375     0.000437761
                    -0.000372758     0.000112173         0.954121        0.273601      0.000879373     0.000490572         0.074905       0.0944539
250200                 -0.229248        0.300789     -0.000169051     0.000928442         0.226775       -0.897676     -0.000402211     0.000128809
                    -8.08661e-05      0.00102381        -0.117928       0.0434086      0.000317624     5.28257e-05         0.972442        0.193923
                        0.226989       -0.897862      0.000313463     0.000161985       -0.0585971       -0.373848      0.000852193     0.000390192
                    -0.000376782     0.000141439         0.972618        0.195413      0.000951042     0.000449999        0.0919335       0.0856221
250400                 -0.203199        0.314029     -7.28551e-05     0.000916139         0.144202       -0.916437     -0.000386586     0.000154378
                      2.3645e-05      0.00103419        -0.122141       0.0472767      0.000324039     2.11722e-05         0.984018        0.113359
                        0.144414       -0.916706      0.000359827     0.000116991        -0.096555       -0.361743      0.000917122     0.000335379
                    -0.000377939     0.000172924         0.984639        0.115919       0.00102177     0.000401063         0.107752        0.074377
250600                  -0.17615        0.324531      2.51742e-05     0.000900183        0.0598349       -0.927794     -0.000368792     0.000179749
                     0.000133614      0.00103827        -0.126166       0.0519367      0.000327628    -1.26204e-05         0.989068       0.0325706
                       0.0600279       -0.928126      0.000400103     6.15009e-05        -0.132618       -0.345128       0.00098042     0.000272994
                    -0.000375643     0.000206385         0.990097       0.0356781       0.00109074     0.000343515         0.122038       0.0608937
250800                 -0.148413        0.332194      0.000125008      0.00088016       -0.0256902       -0.931549     -0.000348717     0.000204747
                     0.000248644      0.00103537        -0.129903       0.0573671      0.000327911     -4.8389e-05         0.987603      -0.0480284
                       -0.025527       -0.931925      0.000431313    -3.71809e-06        -0.166175       -0.324285       0.00104126     0.000202769
                    -0.000369292     0.000241435         0.988958      -0.0447469       0.00115702     0.000277176         0.134495       0.0453893
251000                 -0.120312        0.336955      0.000226584     0.000855615        -0.111714       -0.927553     -0.000326252     0.000229171
                     0.000368185      0.00102479        -0.133255       0.0635351      0.000324381    -8.58841e-05         0.979658       -0.127997
                       -0.111586       -0.927957      0.000450537    -7.68851e-05        -0.196659       -0.299584       0.00109873     0.000124521
                    -0.000358308     0.000277515         0.981236       -0.124796       0.00121967     0.000201946         0.144861       0.0281195
251200                -0.0921782        0.338788      0.000329796     0.000826047        -0.197554       -0.915706     -0.000301298     0.000252791
                     0.000491518      0.00100579        -0.136133       0.0703975       0.00031652    -0.000124754         0.965302       -0.206876
                       -0.197465       -0.916124      0.000455325    -0.000155184        -0.223558       -0.271478       0.00115183     3.81645e-05
                    -0.000342187     0.000313886         0.966996       -0.203918       0.00127765      0.00011782         0.152908      0.00937239
251400                -0.0643498        0.337706      0.000434486     0.000790909        -0.282509       -0.895966     -0.000273769     0.000275344
                     0.000617745     0.000977615        -0.138451        0.077901       0.00030381    -0.000164528         0.944638       -0.284194
                       -0.282459       -0.896384      0.000444139     -0.00023495        -0.246429       -0.240496        0.0011995    -5.62653e-05
                    -0.000320556     0.000349629         0.946347       -0.281569       0.00132988     2.49021e-05         0.158451      -0.0105361
251600                -0.0371631        0.333763      0.000540429     0.000749606        -0.365862       -0.868345     -0.000243595     0.000296531
                     0.000745786     0.000939497        -0.140129       0.0859835      0.000285763    -0.000204609         0.917808       -0.359478
                       -0.365848       -0.868755      0.000416677    -0.000312064        -0.264909       -0.207228       0.00124063    -0.000158598
                    -0.000293243     0.000383673         0.919447       -0.357224       0.00137523    -7.65812e-05         0.161348      -0.0312688
251800                -0.0109499        0.327055      0.000647319     0.000701496        -0.446881       -0.832921     -0.000210737     0.000316014
                     0.000874377      0.00089066        -0.141099       0.0945746      0.000261945    -0.000244259         0.884993       -0.432257
                         -0.4469       -0.833314      0.000373987    -0.000382487        -0.278722       -0.172317       0.00127404    -0.000268508
                    -0.000260332     0.000414846         0.886495       -0.430376       0.00141253    -0.000186265         0.161502      -0.0524725
252000                 0.0139683        0.317717      0.000754751      0.00064589        -0.524826       -0.789835      -0.00017519     0.000333414
                      0.00100208     0.000830349        -0.141297        0.103597      0.000232014      -0.0002826         0.846413       -0.502073
                       -0.524874       -0.790207      0.000318314    -0.000442781        -0.287692       -0.136443       0.00129858    -0.000385505
                     -0.00022221     0.000441949          0.84773       -0.500538       0.00144062    -0.000303631         0.158863      -0.0737854
252200                 0.0372857        0.305927      0.000862204     0.000582057        -0.598955         -0.7393     -0.000136996     0.000348311
                      0.00112732     0.000757865        -0.140669        0.112966       0.00019576    -0.000318617         0.802325       -0.568477
                       -0.599029       -0.739647      0.000252725    -0.000490489        -0.291741       -0.100311       0.00131307    -0.000508918
                    -0.000179582     0.000463857          0.80343       -0.567249        0.0014583    -0.000427996          0.15343       -0.094842
252400                 0.0587175        0.291901      0.000969012     0.000509238        -0.668528       -0.681605     -9.62633e-05     0.000360243
                      0.00124834     0.000672597        -0.139173        0.122592      0.000153143     -0.00035118         0.753025       -0.631046
                       -0.668625       -0.681925      0.000180645    -0.000524292        -0.290899      -0.0646318       0.00131639    -0.000637892
                    -0.000133447     0.000479615         0.753907       -0.630077       0.00146442    -0.000558499         0.145249        -0.11528
252600                 0.0780056        0.275893       0.00107434     0.000426656        -0.732817       -0.617112     -5.31767e-05     0.000368716
                      0.00136333     0.000574079        -0.136774        0.132383      0.000104334    -0.000379071         0.698842       -0.689375
                       -0.732934       -0.617403       0.00010541     -0.00054394        -0.285303      -0.0301105       0.00130749    -0.000771388
                     -8.5044e-05     0.000488534         0.699506       -0.688618       0.00145789    -0.000694096         0.134412       -0.134747
252800                  0.094924         0.25819       0.00117717     0.000333538        -0.791114       -0.546266     -8.02162e-06     0.000373208
                      0.00147034     0.000462036        -0.133448        0.142241      4.97539e-05    -0.000401028         0.640139       -0.743091
                       -0.791248       -0.546529       2.9946e-05    -0.000550025        -0.275196      0.00257297       0.00128541    -0.000908186
                    -3.57532e-05     0.000490254           0.6406         -0.7425       0.00143768    -0.000833553         0.121055       -0.152904
253000                  0.109284        0.239112       0.00127624     0.000229149        -0.842738       -0.469593      3.87974e-05     0.000373189
                      0.00156739      0.00033644        -0.129183        0.152069      -9.9063e-06    -0.000415799         0.577307       -0.791849
                       -0.842888       -0.469826      -4.3398e-05    -0.000543701        -0.260923       0.0327788       0.00124935      -0.0010469
                     1.30086e-05     0.000484769         0.577589       -0.791383        0.0014029    -0.000975455         0.105356       -0.169434
253200                  0.120939        0.219003       0.00137006     0.000112833        -0.887051       -0.387699      8.67368e-05     0.000368146
                      0.00165248     0.000197555        -0.123976        0.161765      -7.3674e-05    -0.000422212         0.510764       -0.835338
                       -0.887215       -0.387901     -0.000112884    -0.000526405        -0.242926       0.0599239       0.00119864       -0.001186
                     5.98984e-05     0.000472413         0.510897       -0.834965        0.0013528     -0.00111821        0.0875336       -0.184043
253400                   0.12979        0.198227       0.00145685    -1.59317e-05        -0.923464       -0.301271      0.000135097     0.000357617
                       0.0017236     4.59804e-05        -0.117836        0.171231     -0.000140304    -0.000419241          0.44095       -0.873281
                        -0.92364       -0.301441     -0.000177325     -0.00049964        -0.221738       0.0834975       0.00113284     -0.00132382
                     0.000103737     0.000453803         0.440966       -0.872976       0.00128683     -0.00126007        0.0678406       -0.196469
253600                  0.135785        0.177163       0.00153455    -0.000157463         -0.95145        -0.21107      0.000183016     0.000341236
                      0.00177882    -0.000117327        -0.110782        0.180368     -0.000208311    -0.000406078         0.368328        -0.90544
                       -0.951637       -0.211207     -0.000235981    -0.000464831        -0.197966        0.103076       0.00105169     -0.00145861
                     0.000143572     0.000429767         0.368258       -0.905186       0.00120466     -0.00139914        0.0465618       -0.206482
253800                  0.138928        0.156197       0.00160081    -0.000311789        -0.970558       -0.117933      0.000229468     0.000318791
                      0.00181629    -0.000291036        -0.102843        0.189081     -0.000276014    -0.000382188         0.293372       -0.931613
                       -0.970753       -0.118035      -0.00028844    -0.000423237        -0.172283        0.118334      0.000955182     -0.00158856
                     0.000178701     0.000401256         0.293247         -0.9314       0.00110622     -0.00153346        0.0240088       -0.213891
254000                  0.139275        0.135712       0.00165302    -0.000478549        -0.980422      -0.0227562      0.000273293     0.000290283
                      0.00183433    -0.000473445       -0.0940581        0.197277     -0.000341607    -0.000347357         0.216573       -0.951639
                       -0.980623      -0.0228215       -0.0003345    -0.000375915        -0.145408         0.12906       0.00084354     -0.00171184
                      0.00020867     0.000369268         0.216419       -0.951463      0.000991691     -0.00166098       0.00051517       -0.218546
254200                  0.136937        0.116084       0.00168836    -0.000656887        -0.980771       0.0735059      0.000313243     0.000255992
                       0.0018315      -0.0006625       -0.0844771        0.204868     -0.000403234    -0.000301713         0.138431       -0.965396
                       -0.980974       0.0734789      -0.00037408    -0.000323724        -0.118091        0.135158      0.000717222     -0.00182662
                      0.00023325     0.000334776         0.138269       -0.965256      0.000861588     -0.00177965       -0.0235684       -0.220338
254400                  0.132079       0.0976689        0.0017039    -0.000845341        -0.971441        0.169857      0.000348056     0.000216526
                      0.00180659    -0.000855831       -0.0741583        0.211771     -0.000459065    -0.000245725        0.0594515       -0.972801
                       -0.971642         0.16987     -0.000407139    -0.000267336         -0.09109        0.136658      0.000576923     -0.00193115
                     0.000252391     0.000298689        0.0592987         -0.9727      0.000716704     -0.00188748       -0.0478798       -0.219205
254600                  0.124915        0.080799        0.0016967     -0.00104175        -0.952382         0.26527      0.000376557     0.000172849
                      0.00175875      -0.0010508       -0.0631686         0.21791     -0.000507367    -0.000180181        -0.019857       -0.973812
                       -0.952575        0.265323     -0.000433616    -0.000207273       -0.0651494        0.133716      0.000423556     -0.00202373
                     0.000266183     0.000261821       -0.0199885       -0.973755      0.000558129     -0.00198256       -0.0720512       -0.215128
254800                  0.115708       0.0657716       0.00166404     -0.00124318        -0.923664        0.358703      0.000397781     0.000126271
                       0.0016875     -0.00124456       -0.0515832        0.223216     -0.000546568    -0.000106152       -0.0989846       -0.968425
                       -0.923844        0.358796     -0.000453389    -0.000143945       -0.0409809         0.12661      0.000258237     -0.00210278
                     0.000274807      0.00022488       -0.0990879       -0.968416      0.000387234     -0.00206314       -0.0957142       -0.208137
255000                  0.104761       0.0528429       0.00160362     -0.00144593        -0.885481        0.449116       0.00041109     7.83896e-05
                      0.00159277     -0.00143414       -0.0394839        0.227627     -0.000575288    -2.49349e-05        -0.177425       -0.956676
                       -0.885641        0.449248     -0.000466234    -7.76862e-05       -0.0192402        0.115737      8.22642e-05     -0.00216688
                     0.000278502     0.000188474        -0.177497       -0.956719      0.000205636     -0.00212765        -0.118506       -0.198306
255200                 0.0924112       0.0422215       0.00151383     -0.00164558         -0.83815        0.535486      0.000416271     3.09845e-05
                      0.00147489      -0.0016165       -0.0269594        0.231092     -0.000592369     6.19961e-05        -0.254675       -0.938638
                       -0.838284        0.535653     -0.000471798    -8.81152e-06     -0.000506436        0.101599      -0.00010291     -0.00221474
                     0.000277534      0.00015311        -0.254718       -0.938736      1.51626e-05     -0.00217479        -0.140076       -0.185755
255400                 0.0790247       0.0340631       0.00139396     -0.00183713        -0.782113        0.616824      0.000413589    -1.41267e-05
                      0.00133468     -0.00178864       -0.0141034        0.233568     -0.000596868     0.000153045        -0.330243       -0.914425
                       -0.782215        0.617023     -0.000469585     6.23339e-05        0.0147359       0.0847919     -0.000295701     -0.00224524
                     0.000272174     0.000119219         -0.33026       -0.914578     -0.000182197     -0.00220352        -0.160087       -0.170648
255600                 0.0649846       0.0284665       0.00124444     -0.00201528         -0.71793        0.692198      0.000403787    -5.52503e-05
                      0.00117335     -0.00194768      -0.00101422        0.235022     -0.000588042      0.00024653        -0.403645       -0.884183
                       -0.717993        0.692423     -0.000458942     0.000135307        0.0261128       0.0659846     -0.000494417     -0.00225745
                     0.000262681     8.71561e-05        -0.403641        -0.88439     -0.000384344     -0.00221311        -0.178228        -0.15319
255800                 0.0506832       0.0254715       0.00106697     -0.00217475        -0.646272        0.760742      0.000388014    -9.09656e-05
                     0.000992515     -0.00209088        0.0122066        0.235431     -0.000565322      0.00034071        -0.474408       -0.848098
                       -0.646292        0.760985     -0.000439062     0.000209488        0.0333727       0.0459001     -0.000697285     -0.00225062
                     0.000249298     5.72161e-05        -0.474392       -0.848354      -0.00058913     -0.00220311        -0.194211       -0.133624
256000                 0.0365122       0.0250582      0.000864496     -0.00231063        -0.567908        0.821674      0.000367709    -0.000120238
                     0.000794152     -0.00221578        0.0254552        0.234783     -0.000528272      0.00043378        -0.542079       -0.806387
                       -0.567882        0.821928     -0.000409016     0.000283989        0.0363944        0.025292      -0.00090247     -0.00222414
                     0.000232252     2.96301e-05        -0.542058       -0.806686     -0.000794406     -0.00217341        -0.207782       -0.112229
256200                 0.0228529        0.027148      0.000641116     -0.00241883          -0.4837        0.874311      0.000344453    -0.000142477
                     0.000580554     -0.00232023        0.0386264        0.233079      -0.00047656     0.000523839        -0.606217       -0.759303
                       -0.483624        0.874567     -0.000367815     0.000357545        0.0351906      0.00492048      -0.00110809     -0.00217763
                     0.000211761      4.5519e-06        -0.606199       -0.759636      -0.00099808     -0.00212419        -0.218722      -0.0893132
