! TOUCHSTONE file generated by CST MICROWAVE STUDIO
! Date and time: Sun Sep 28 19:09:20 2025
! Project name: biblioteca3_folgaOK.cst
! Parameters = {H=600; Lx=200; Ly=260; Nedge=38; P=520; mesh_pilar_nm=40; t_air=3800; t_sub=6000}
! Header version: 2018
! Port assignment regex: !\s*Touchstone port\s*([0-9]+)\s*=\s*(CST MWS port|CST DS port)\s*([0-9]+|Zmin|Zmax)\s*\(\"(.*)\"\)(\s*mode\s*([0-9]+))?.*
! Touchstone port assignment:
! Touchstone port 1 = CST MWS port Zmin ("") mode 1
! Touchstone port 2 = CST MWS port Zmin ("") mode 2
! Touchstone port 3 = CST MWS port Zmax ("") mode 1
! Touchstone port 4 = CST MWS port Zmax ("") mode 2
! S-Parameters are not renormalized. Each port impedance will be approximated by the real part at minimum frequency. The values are described via the [Reference] keyword.
! Default impedance is overridden by [Reference]
[Version] 2.0
# GHz S RI R 376.73
[Number of Ports] 4
[Reference]
376.73 376.73 376.73 376.73 
[Number of Frequencies] 401
[Network Data]
250000                   0.31732        0.207893        0.0011297      0.00192303         0.313268        0.870643       0.00128833     0.000168346
                      0.00119884      0.00176327         0.099588       0.0249775      0.000816821    -0.000111241        -0.935701        0.337638
                        0.313239        0.870517      0.000535847     9.18763e-05         0.112205       -0.362417       0.00235253    -0.000593207
                      0.00127007     5.37889e-05        -0.935634        0.338405       0.00210724    -0.000539047       -0.0606839       0.0827567
250200                  0.339391        0.173756       0.00138864      0.00172734         0.409232        0.829132       0.00130933    -3.44018e-05
                      0.00141295      0.00150201        0.0983376       0.0276792      0.000741094    -0.000255095        -0.894966        0.433924
                        0.409081        0.829542      0.000546519     6.75996e-05        0.0686044       -0.374951       0.00212187    -0.000718756
                      0.00128845    -0.000109819        -0.894251        0.434174       0.00201388    -0.000648059       -0.0392286       0.0943758
250400                  0.356765        0.136978       0.00162271      0.00148543         0.500224        0.777274        0.0012919    -0.000243138
                      0.00160084      0.00122249        0.0984893        0.030631      0.000626095    -0.000349774        -0.844248        0.525418
                        0.500065        0.778017      0.000556817     4.03411e-05        0.0232373       -0.381283       0.00194342    -0.000788086
                      0.00127739    -0.000285086        -0.843236        0.525247       0.00193057     -0.00074366       -0.0160873        0.101977
250600                  0.369121        0.098288       0.00182153      0.00119996         0.585162        0.715627       0.00123411    -0.000447717
                      0.00175709     0.000925459         0.100058       0.0335579      0.000505266    -0.000389427        -0.784111         0.61105
                        0.585046        0.716519      0.000566419      9.0796e-06       -0.0228988       -0.381126       0.00180639    -0.000829897
                      0.00123176    -0.000464374        -0.783036        0.610588       0.00185574    -0.000827582       0.00803255        0.105342
250800                  0.376258       0.0584497        0.0019748     0.000876263         0.663025        0.644848       0.00113757    -0.000637478
                      0.00187628     0.000612851          0.10301       0.0361885      0.000402305    -0.000387773        -0.715241        0.689824
                        0.662952        0.645733      0.000574587    -2.80612e-05       -0.0687598       -0.374367       0.00170026    -0.000858648
                      0.00114914    -0.000637662         -0.71424        0.689204       0.00178799      -0.0009012        0.0324016        0.104375
251000                  0.378091       0.0182394       0.00207305      0.00052248         0.732849        0.565689       0.00100746    -0.000802776
                       0.0019532      0.00028794         0.107269       0.0382629      0.000325689    -0.000363159        -0.638435        0.760828
                        0.732785        0.566445      0.000579188    -7.50079e-05        -0.113287       -0.361075        0.0016169    -0.000881732
                      0.00103107    -0.000793866        -0.637567        0.760168       0.00172608    -0.000965646        0.0562903       0.0991053
251200                  0.374651      -0.0215686       0.00210854     0.000149412         0.793743        0.478993       0.00085179    -0.000936354
                      0.00198306     -4.4531e-05         0.112714       0.0395402      0.000274234    -0.000329679        -0.554586        0.823248
                        0.793631        0.479535       0.00057187    -0.000141187        -0.155439       -0.341501       0.00155037    -0.000903031
                     0.000883424     -0.00092282        -0.553857        0.822641       0.00166885     -0.00102189        0.0789897       0.0896823
251400                  0.366082      -0.0602182        0.0020761    -0.000229949         0.844887        0.385689      0.000680117     -0.00103418
                      0.00196187    -0.000378307         0.119187       0.0398046      0.000243258    -0.000295804        -0.464674        0.876382
                         0.84466        0.385975      0.000503384    -0.000243986        -0.194224        -0.31607       0.00149634    -0.000924635
                     0.000715609     -0.00101729        -0.464052        0.875884       0.00161531     -0.00107082        0.0998296       0.0763679
251600                  0.352638      -0.0969856       0.00197376    -0.000601184         0.885541        0.286797      0.000502122     -0.00109555
                      0.00188679    -0.000705684         0.126498       0.0388712      0.000227837     -0.00026594        -0.369745        0.919644
                        0.885136        0.286814       0.00025022    -0.000124122        -0.228731       -0.285375       0.00145162    -0.000947692
                     0.000538791     -0.00107424        -0.369183         0.91928       0.00156457     -0.00111324         0.118197       0.0595277
251800                  0.334673       -0.131193       0.00180319    -0.000949412         0.915054        0.183417      0.000326432     -0.00112256
                      0.00175658      -0.0010177         0.134429       0.0365899      0.000223914    -0.000242172        -0.270902        0.952572
                        0.914417        0.183187      0.000465758     2.72844e-05        -0.258152       -0.250155       0.00141386    -0.000972846
                     0.000363773     -0.00109495        -0.270348        0.952338       0.00151587     -0.00114993         0.133548       0.0396192
252000                  0.312637       -0.162224       0.00156966     -0.00126035         0.932873       0.0767326      0.000159899     -0.00111928
                      0.00157201     -0.00130447         0.142743       0.0328494      0.000228414    -0.000225421        -0.169284        0.974834
                        0.931968       0.0762975      0.000555036     -4.9224e-05        -0.281811       -0.211283        0.0013812     -0.00100045
                     0.000199318     -0.00108402        -0.168694          0.9747        0.0014686     -0.00118163         0.145424       0.0171779
252200                   0.28707       -0.189533       0.00128177     -0.00152133         0.938555      -0.0319942      7.36898e-06     -0.00109082
                      0.00133613     -0.00155568         0.151189       0.0275786      0.000239057    -0.000216119       -0.0660529        0.986223
                        0.937368      -0.0325764      0.000584062    -0.000116882        -0.299183       -0.169739       0.00135221     -0.00103071
                      5.1327e-05     -0.00104794       -0.0653981        0.986148       0.00142229     -0.00120904          0.15346      -0.0071972
252400                  0.258587       -0.212661      0.000950779     -0.00172206         0.931777        -0.14143     -0.000128191     -0.00104256
                      0.00105457     -0.00176118         0.159509       0.0207482      0.000254103    -0.000214552        0.0376221        0.986667
                         0.93032       -0.142094      0.000595808    -0.000176784        -0.309911       -0.126588       0.00132568     -0.00106372
                    -7.71568e-05    -0.000993673        0.0383551        0.986601       0.00137661     -0.00123281         0.157393      -0.0328597
252600                   0.22787       -0.231246      0.000589847      -0.0018552         0.912355       -0.250179     -0.000245356    -0.000979623
                     0.000735472     -0.00191171         0.167443       0.0123706      0.000272141    -0.000221039          0.14058        0.976216
                         0.91066       -0.250857      0.000599426    -0.000234144        -0.313821      -0.0829481       0.00130061     -0.00109949
                    -0.000185417    -0.000927649         0.141387        0.976111       0.00133133     -0.00125354         0.157064      -0.0591324
252800                  0.195655       -0.245036      0.000213132     -0.00191656         0.880253       -0.356788     -0.000343849    -0.000906619
                     0.000389322     -0.00199959          0.17474      0.00249858      0.000291896    -0.000236013         0.241682        0.955046
                        0.878375       -0.357419      0.000597291    -0.000291634        -0.310931      -0.0399645       0.00127611     -0.00113802
                    -0.000274352    -0.000855245         0.242544        0.954861       0.00128639     -0.00127175         0.152426      -0.0853244
253000                   0.16271       -0.253893     -0.000165015     -0.00190512         0.835601       -0.459767      -0.00042418    -0.000827501
                     2.85464e-05      -0.0020194         0.181159     -0.00877624      0.000312067    -0.000260053         0.339823        0.923449
                        0.833612       -0.460301      0.000589845    -0.000350661         -0.30146      0.00122643       0.00125135     -0.00117921
                    -0.000345811    -0.000780637         0.340709        0.923158       0.00124177     -0.00128792          0.14354       -0.110748
253200                  0.129823       -0.257807     -0.000530736     -0.00182269         0.778707       -0.557605     -0.000487347    -0.000745596
                     -0.00033311     -0.00196845         0.186478      -0.0213266      0.000331171    -0.000293871         0.433943         0.88183
                        0.776689       -0.558005      0.000576761    -0.000411994        -0.285824       0.0395308       0.00122557     -0.00122294
                    -0.000402092     -0.00070688         0.434819        0.881418       0.00119757     -0.00130244         0.130573       -0.134735
253400                 0.0977795       -0.256897     -0.000871196     -0.00167366         0.710071       -0.648791     -0.000534639    -0.000663691
                    -0.000681329     -0.00184712         0.190497      -0.0349927       0.00034738    -0.000338265         0.523041        0.830695
                        0.708111       -0.649034      0.000557288    -0.000476022        -0.264632       0.0739333       0.00119801       -0.001269
                    -0.000445611    -0.000636098         0.523869        0.830164       0.00115395     -0.00131563         0.113795       -0.156653
253600                 0.0673377        -0.25141      -0.00117494     -0.00146449         0.630394       -0.731842     -0.000567504    -0.000584144
                     -0.00100201     -0.00165895         0.193044      -0.0495869      0.000358341    -0.000394014         0.606181        0.770649
                        0.628574       -0.731918      0.000530369     -0.00054283        -0.238675        0.103533       0.00116794     -0.00131709
                     -0.00047871    -0.000569683         0.606925        0.770016       0.00111115     -0.00132778        0.0935705        -0.17592
253800                 0.0392091       -0.241723      -0.00143213     -0.00120335          0.54058        -0.80533     -0.000587507       -0.000509
                     -0.00128204     -0.00141042         0.193976      -0.0648979      0.000360992    -0.000461682         0.682497        0.702381
                        0.538975       -0.805244      0.000494677    -0.000612197        -0.208907         0.12758       0.00113459     -0.00136678
                    -0.000503574    -0.000508486         0.683133        0.701673       0.00106943     -0.00133915        0.0703498        -0.19202
254000                 0.0140334       -0.228332      -0.00163463    -0.000899747         0.441743       -0.867916     -0.000596332    -0.000440093
                     -0.00150996     -0.00111067         0.193186       -0.080696      0.000351393    -0.000541287         0.751209        0.626659
                        0.440407       -0.867682      0.000448643    -0.000683536        -0.176412        0.145504       0.00109721     -0.00141746
                    -0.000522207    -0.000452964         0.751717        0.625912       0.00102912     -0.00134994        0.0446576       -0.204512
254200                -0.0076436       -0.211838       -0.0017761    -0.000564222         0.335194       -0.918384     -0.000595849    -0.000379115
                     -0.00167649    -0.000770948         0.190601      -0.0967385      0.000324657    -0.000631796         0.811618         0.54432
                        0.334163       -0.918026      0.000390491    -0.000755784        -0.142379        0.156947       0.00105507      -0.0014683
                    -0.000536451    -0.000403285          0.81199        0.543574      0.000990609     -0.00136042        0.0170806       -0.213041
254400                -0.0253903       -0.192934      -0.00185204    -0.000208063         0.222437        -0.95568     -0.000588232    -0.000327637
                     -0.00177486    -0.000404057         0.186185       -0.112775      0.000275094    -0.000730411         0.863117         0.45626
                        0.221718       -0.955224      0.000318304    -0.000827263        -0.108052        0.161781       0.00100749     -0.00151812
                    -0.000548026    -0.000359389         0.863357        0.455555      0.000954315     -0.00137084       -0.0117466       -0.217348
254600                -0.0389061       -0.172381      -0.00185981      0.00015691          0.10514       -0.978938     -0.000576107    -0.000287056
                       -0.001801    -2.37521e-05         0.179938       -0.128553      0.000196805    -0.000831722         0.905194        0.363425
                        0.104718       -0.978417      0.000230168      -0.0008955         -0.07469        0.160122      0.000953964      -0.0015653
                    -0.000558569    -0.000321024         0.905313        0.362799      0.000920715     -0.00138157       -0.0411565       -0.217276
254800                -0.0480343       -0.150981      -0.00179866     0.000518567       -0.0148827       -0.987522      -0.00056272    -0.000258424
                     -0.00175357     0.000355825         0.171899       -0.143823      8.49438e-05     -0.00092698          0.93743        0.266803
                      -0.0150456       -0.986966      0.000124412    -0.000957049       -0.0435113        0.152331      0.000894386     -0.00160762
                    -0.000569682    -0.000287734         0.937449        0.266286      0.000890326     -0.00139308       -0.0704645       -0.212772
255000                -0.0527692       -0.129551      -0.00166984     0.000864699        -0.135712       -0.981045     -0.000552073     -0.00024213
                     -0.00163392      0.00072066          0.16214       -0.158345     -6.22725e-05     -0.00100405          0.95951        0.167415
                        -0.13567       -0.980486     -4.98047e-09     -0.00100736       -0.0156468        0.139009      0.000829434     -0.00164218
                     -0.00058296    -0.000258823         0.959451        0.167027      0.000863688     -0.00140602        -0.098985       -0.203889
255200                -0.0532574       -0.108892      -0.00147661      0.00118329         -0.25536       -0.959396     -0.000548907    -0.000237393
                     -0.00144591      0.00105732         0.150771       -0.171891     -0.000241211     -0.00104873         0.971213       0.0663023
                       -0.255176       -0.958861     -0.000142956     -0.00104075       0.00791209        0.120972      0.000761294     -0.00166541
                    -0.000600006    -0.000233287         0.971105       0.0660551      0.000841324     -0.00142132        -0.126048       -0.190786
255400                -0.0497919      -0.0897607      -0.00122429      0.00146281        -0.371817       -0.922752     -0.000558386    -0.000241617
                     -0.00119575      0.00135334         0.137928       -0.184254     -0.000441285      -0.0010479         0.972422       -0.035477
                       -0.371555       -0.922261     -0.000302462     -0.00105068        0.0263573       0.0992254      0.000694765     -0.00167367
                    -0.000622403    -0.000209712         0.972293      -0.0355835      0.000823666     -0.00144022        -0.151012       -0.173722
255600                -0.0428011      -0.0728374     -0.000920276       0.0016926        -0.483097       -0.871581     -0.000585295    -0.000249785
                    -0.000891759      0.00159757         0.123779       -0.195246     -0.000645707    -0.000993677         0.963121        -0.13686
                       -0.482817       -0.871144      -0.00047401      -0.0010304        0.0391017        0.074916      0.000638453      -0.0016651
                    -0.000651632    -0.000186147         0.962995       -0.136835      0.000810922     -0.00146437        -0.173286       -0.153055
255800                -0.0328305      -0.0587042     -0.000573948      0.00186323        -0.587289        -0.80664     -0.000632682    -0.000254275
                    -0.000544155      0.00178047         0.108515       -0.204708     -0.000835131    -0.000886619         0.943395       -0.236787
                       -0.587041       -0.806259     -0.000650104     -0.00097405        0.0458063       0.0492867      0.000604608     -0.00164354
                    -0.000688908    -0.000159977         0.943293       -0.236649      0.000802866      -0.0014959        -0.192335       -0.129229
256000                -0.0205199      -0.0478228     -0.000196504      0.00196694        -0.682606        -0.72896     -0.000700227    -0.000245604
                    -0.000164763      0.00189443        0.0923483       -0.212509     -0.000992786    -0.000735848         0.913428       -0.334211
                       -0.682427       -0.728626     -0.000820417    -0.000878207        0.0463955       0.0236203      0.000604423     -0.00162328
                    -0.000734902    -0.000127822         0.913365       -0.333982      0.000798536     -0.00153736        -0.207699       -0.102769
256200               -0.00657704       -0.040519      0.000199313      0.00199805        -0.767424       -0.639821     -0.000783104    -0.000214332
                     0.000233272      0.00193397        0.0755064       -0.218551      -0.00110842    -0.000555923         0.873505       -0.428102
                       -0.767338       -0.639518     -0.000972832    -0.000743377        0.0410595    -0.000817978      0.000637353     -0.00162826
                    -0.000789335    -8.55544e-05         0.873491        -0.42781      0.000795866     -0.00159149        -0.219001      -0.0742641
