! TOUCHSTONE file generated by CST MICROWAVE STUDIO
! Date and time: Fri Sep 26 06:38:35 2025
! Project name: biblioteca3_folgaOK.cst
! Parameters = {H=600; Lx=200; Ly=260; Nedge=42; P=520; k=0; mesh_pilar_nm=40; n=0; t_air=3500; t_sub=2000; wavelength_nm=0}
! Header version: 2018
! Port assignment regex: !\s*Touchstone port\s*([0-9]+)\s*=\s*(CST MWS port|CST DS port)\s*([0-9]+|Zmin|Zmax)\s*\(\"(.*)\"\)(\s*mode\s*([0-9]+))?.*
! Touchstone port assignment:
! Touchstone port 1 = CST MWS port Zmin ("") mode 1
! Touchstone port 2 = CST MWS port Zmin ("") mode 2
! Touchstone port 3 = CST MWS port Zmax ("") mode 1
! Touchstone port 4 = CST MWS port Zmax ("") mode 2
! S-Parameters are not renormalized. Each port impedance will be approximated by the real part at minimum frequency. The values are described via the [Reference] keyword.
! Default impedance is overridden by [Reference]
[Version] 2.0
# GHz S RI R 376.73
[Number of Ports] 4
[Reference]
376.73 376.73 376.73 376.73 
[Number of Frequencies] 401
[Network Data]
250000                  0.222464        0.234795       0.00150284     0.000395693        -0.884762         0.33616       0.00101036      0.00051782
                      0.00161257     0.000394474       -0.0652798        0.189415     -0.000811071    -0.000484023        -0.437495        -0.87664
                       -0.884358        0.336191      -0.00100947    -0.000443268        -0.010422        0.323284       -0.0014074    -0.000996464
                      0.00109048      0.00055769        -0.437598       -0.876482      -0.00141297    -0.000984751        -0.190634      -0.0617102
250200                  0.231313        0.215587       0.00151473      0.00029931        -0.857249        0.407001       0.00104376     0.000471374
                      0.00163907     0.000292823        -0.057511        0.195233     -0.000838802    -0.000436359        -0.494997       -0.845092
                       -0.849419        0.410594      -0.00105328    -0.000491967        0.0200577        0.316411      -0.00145819    -0.000964422
                      0.00113635     0.000471189        -0.494835       -0.844869      -0.00150482    -0.000876558        -0.198368      -0.0453874
250400                  0.238373        0.195993       0.00152266     0.000200661        -0.823935        0.475879       0.00107706     0.000419814
                      0.00166094     0.000187806       -0.0492955        0.200661     -0.000865388      -0.0003854        -0.550259       -0.809698
                       -0.812315        0.480673       -0.0011001    -0.000557563        0.0494511        0.306186      -0.00151501    -0.000925949
                      0.00117683     0.000379765        -0.549883       -0.809455      -0.00159069    -0.000758463        -0.204629      -0.0281585
250600                  0.243619        0.176188       0.00152635      9.9869e-05        -0.784932        0.542299       0.00110984     0.000362567
                       0.0016778     7.95813e-05       -0.0406549        0.205661     -0.000890506    -0.000330984         -0.60302       -0.770627
                       -0.771487        0.546959      -0.00114852    -0.000647393        0.0773075        0.292744       -0.0015778    -0.000879441
                      0.00121126     0.000283665        -0.602479       -0.770395      -0.00166938    -0.000630565        -0.209306      -0.0101644
250800                  0.247048        0.156353       0.00152557    -2.92486e-06        -0.740394        0.605766        0.0011415     0.000299028
                      0.00168926    -3.16583e-05       -0.0316139        0.210197     -0.000913786    -0.000272965        -0.653035       -0.728061
                       -0.726315        0.609591      -0.00119445    -0.000772695         0.103194        0.276292      -0.00164624    -0.000823047
                      0.00123895     0.000183227        -0.652374       -0.727864      -0.00173966    -0.000493102        -0.212301      0.00843924
251000                  0.248673        0.136664       0.00152004    -0.000107555        -0.690522        0.665791        0.0011713     0.000228576
                      0.00169491    -0.000145678       -0.0222006        0.214236     -0.000934803     -0.00021122        -0.700072       -0.682201
                       -0.676581        0.668466       -0.0012274    -0.000950622         0.126708        0.257104      -0.00171967    -0.000754684
                      0.00125923     7.88894e-05        -0.699332       -0.682052      -0.00180023    -0.000346475        -0.213535       0.0274845
251200                  0.248525        0.117301       0.00150952    -0.000213833        -0.635563        0.721898       0.00119829     0.000150609
                      0.00169436    -0.000262198       -0.0124463        0.217746     -0.000953079    -0.000145659        -0.743915        -0.63326
                       -0.622273        0.723339      -0.00122117     -0.00120571         0.147488        0.235519      -0.00179695     -0.00067206
                      0.00127144    -2.88082e-05        -0.743132       -0.633168       -0.0018498    -0.000191263        -0.212947       0.0467931
251400                  0.246656       0.0984354       0.00149373    -0.000321543        -0.575808        0.773625       0.00122128     6.45798e-05
                       0.0016872    -0.000380894      -0.00238529        0.220697     -0.000968076    -7.62384e-05        -0.784363       -0.581467
                       -0.563511         0.77389      -0.00111227     -0.00156338         0.165227        0.211931      -0.00187628    -0.000572756
                      0.00127493    -0.000139214        -0.783571       -0.581432      -0.00188706    -2.82395e-05        -0.210495       0.0661787
251600                  0.243133       0.0802367       0.00147244    -0.000430444        -0.511596        0.820528       0.00123879    -2.99343e-05
                      0.00167305     -0.00050139       0.00794534        0.223062       -0.0009792    -2.97318e-06        -0.821235       -0.527059
                       -0.500502         0.81976     -0.000764548     -0.00200323         0.179679        0.186777      -0.00195515    -0.000454362
                      0.00126912    -0.000251566        -0.820458       -0.527079      -0.00191074     0.000141618         -0.20616       0.0854491
251800                  0.238043       0.0628653       0.00144537    -0.000540267         -0.44331         0.86219       0.00124908    -0.000133149
                      0.00165153    -0.000623259         0.018506        0.224817     -0.000985799     7.40453e-05        -0.854363       -0.470286
                       -0.433533        0.860574     -6.76585e-06     -0.00230563         0.190669        0.160532      -0.00203009     -0.00031469
                      0.00125349    -0.000364989        -0.853623       -0.470355      -0.00191965     0.000317123        -0.199941        0.104409
252000                  0.231488       0.0464724       0.00141229    -0.000650712        -0.371373        0.898223        0.0012501     -0.00024496
                      0.00162228    -0.000746018        0.0292549        0.225942      -0.00098717     0.000154632        -0.883599       -0.411408
                       -0.362953        0.895961      0.000978531     -0.00200466         0.198095        0.133692      -0.00209667    -0.000152086
                      0.00122761    -0.000478504        -0.882913       -0.411516      -0.00191268     0.000496877        -0.191862        0.122864
252200                  0.223589       0.0311978       0.00137295    -0.000761449        -0.296254        0.928275       0.00123953    -0.000364809
                      0.00158497    -0.000869134        0.0401481        0.226419     -0.000982571      0.00023849        -0.908813       -0.350689
                        -0.28917        0.925565       0.00150887     -0.00113876         0.201932        0.106762      -0.00214947      3.4173e-05
                      0.00119118    -0.000591036        -0.908192       -0.350828       -0.0018889     0.000679283        -0.181967         0.14062
252400                  0.214478       0.0171683       0.00132714     -0.00087212        -0.218455        0.952029       0.00121492    -0.000491536
                       0.0015393    -0.000992014        0.0511402        0.226234     -0.000971235     0.000325187        -0.929892       -0.288406
                       -0.212642        0.949057       0.00145774    -0.000344498         0.202232       0.0802457      -0.00218228     0.000243419
                        0.001144    -0.000701428        -0.929344       -0.288564      -0.00184753     0.000862555        -0.170321        0.157489
252600                  0.204304      0.00449536       0.00127463    -0.000982332        -0.138516        0.969218        0.0011738    -0.000623236
                        0.001485     -0.00111401        0.0621843        0.225376     -0.000952391     0.000414142        -0.946742       -0.224836
                       -0.133876        0.966146       0.00119312     0.000146689         0.199123       0.0546285      -0.00218852     0.000473152
                      0.00108603     -0.00080846        -0.946271       -0.225005      -0.00178805      0.00104475         -0.15701        0.173289
252800                  0.193225     -0.00672589       0.00121525     -0.00109166       -0.0570073        0.979618       0.00111394    -0.000757164
                      0.00142187     -0.00123443        0.0732326         0.22384     -0.000925296     0.000504604        -0.959286       -0.160264
                      -0.0534214        0.976583      0.000927502     0.000423967         0.192801       0.0303705      -0.00216183     0.000718718
                      0.00101743    -0.000910871        -0.958892       -0.160434      -0.00171017      0.00122379         -0.14214        0.187848
253000                  0.181411      -0.0164186       0.00114882     -0.00119965        0.0254754        0.983059       0.00103368    -0.000889723
                      0.00134976     -0.00135253        0.0842367        0.221623     -0.000889266     0.000595644        -0.967468      -0.0949785
                         0.02814         0.98017      0.000713718     0.000587176         0.183529      0.00789368      -0.00209698     0.000973274
                     0.000938485     -0.00100739         -0.96715      -0.0951419       -0.0016139      0.00139753        -0.125833        0.201005
253200                  0.169039      -0.0245252       0.00107518     -0.00130582         0.108315        0.979428      0.000932303     -0.00101659
                      0.00126858      -0.0014675        0.0951477        0.218726     -0.000843726     0.000686153        -0.971248      -0.0292699
                        0.110195        0.976763      0.000552433     0.000692962         0.171627      -0.0124264      -0.00199074      0.00122814
                     0.000849702     -0.00109676        -0.971001      -0.0294198      -0.00149954      0.00156377        -0.108232        0.212613
253400                  0.156292      -0.0310085       0.00099422     -0.00140966         0.190879        0.968668      0.000810341     -0.00113302
                      0.00117831     -0.00157852         0.105917        0.215155      -0.00078825     0.000774848        -0.970605       0.0365697
                         0.19211         0.96628      0.000434141     0.000769787         0.157463      -0.0302684      -0.00184261      0.00147356
                     0.000751754     -0.00117778        -0.970424       0.0364384      -0.00136773      0.00172033       -0.0894918        0.222539
253600                  0.143355      -0.0358525      0.000905843      -0.0015106         0.272525        0.950785      0.000669807     -0.00123431
                      0.00107903     -0.00168472         0.116496        0.210918     -0.000722615     0.000860293        -0.965538        0.102248
                        0.273236        0.948702      0.000349848     0.000831793         0.141445      -0.0453707      -0.00165519      0.00169985
                     0.000645493     -0.00124933        -0.965417        0.102139       -0.0012194      0.00186511       -0.0697819        0.230669
253800                  0.130416      -0.0390627      0.000809982     -0.00160809         0.352609        0.925846      0.000514197     -0.00131638
                     0.000970903     -0.00178521         0.126838        0.206029     -0.000646847     0.000940936        -0.956063        0.167472
                        0.352917        0.924075      0.000292857     0.000886044         0.124011      -0.0575365        -0.001434      0.00189855
                     0.000531933     -0.00131038        -0.955995        0.167387       -0.0010558      0.00199613       -0.0492838        0.236903
254000                  0.117659      -0.0406661      0.000706601     -0.00170151         0.430489        0.893981      0.000348223     -0.00137632
                     0.000854173     -0.00187908         0.136896        0.200504     -0.000561261      0.00101516        -0.942215        0.231951
                        0.430498        0.892514      0.000258533     0.000935984         0.105618      -0.0666359      -0.00118678      0.00206346
                      0.00041223     -0.00136008        -0.942192        0.231892     -0.000878447      0.00211158       -0.0281887        0.241163
254200                  0.105264      -0.0407113      0.000595691     -0.00179023         0.505536        0.855385      0.000177322     -0.00141282
                     0.000729202     -0.00196542         0.146624        0.194365     -0.000466487      0.00108137        -0.924046        0.295398
                        0.505334          0.8542      0.000243742     0.000983081        0.0867353      -0.0726076     -0.000922415      0.00219117
                     0.000287657     -0.00139769        -0.924061        0.295363     -0.000689098      0.00220989      -0.00669553         0.24339
254400                 0.0934033      -0.0392673      0.000477269     -0.00187357         0.577138        0.810311      7.01784e-06     -0.00142631
                     0.000596448     -0.00204334         0.155979        0.187634      -0.00036348      0.00113801        -0.901628        0.357527
                        0.576797         0.80938      0.000246372      0.00102763        0.0678293      -0.0754589     -0.000649882      0.00228111
                     0.000159576     -0.00142269        -0.901675        0.357515     -0.000489718      0.00228973        0.0149909        0.243544
254600                 0.0822392      -0.0364228      0.000351379     -0.00195082         0.644705        0.759078     -0.000157701     -0.00141884
                     0.000456477     -0.00211196          0.16492        0.180339     -0.000253505      0.00118371         -0.87505        0.418058
                        0.644284        0.758366      0.000264958      0.00106917        0.0493579      -0.0752645     -0.000377302      0.00233519
                     2.94097e-05     -0.00143472        -0.875123        0.418066     -0.000282418      0.00235009         0.036662        0.241609
254800                 0.0719221      -0.0322849      0.000218087      -0.0020212         0.707682        0.702058     -0.000312856     -0.00139374
                      0.00030996     -0.00217042         0.173407        0.172511     -0.000138102      0.00121734        -0.844418        0.476717
                        0.707222        0.701529      0.000298385      0.00110667        0.0317597      -0.0721635     -0.000111362       0.0023571
                    -0.000101396     -0.00143362        -0.844511        0.476742     -6.94065e-05      0.00239022        0.0581077        0.237587
255000                 0.0625874      -0.0269772      7.74871e-05     -0.00208386         0.765548         0.63968     -0.000455735     -0.00135509
                     0.000157671     -0.00221795         0.181403        0.164183     -1.90209e-05      0.00123806        -0.809856        0.533234
                        0.765081        0.639298      0.000345658      0.00113871        0.0154453      -0.0663559      0.000142916      0.00235164
                    -0.000231399     -0.00141942        -0.809966        0.533273      0.000147063      0.00240971        0.0791181        0.231504
255200                 0.0543541      -0.0206376     -7.02837e-05     -0.00213781         0.817828        0.572421     -0.000584913      -0.0013073
                      4.7813e-07     -0.00225381         0.188874        0.155392       0.00010185      0.00124538        -0.771507        0.587349
                        0.817373        0.572156      0.000405701      0.00116355      0.000789266      -0.0580978      0.000382106       0.0023241
                    -0.000359185     -0.00139233        -0.771628        0.587398      0.000364743      0.00240843        0.0994861        0.223405
255400                 0.0473229      -0.0134166     -0.000225008     -0.00218192         0.864094        0.500805     -0.000700099      -0.0012547
                    -0.000160657     -0.00227735         0.195787        0.146175      0.000222578      0.00123917        -0.729527         0.63881
                        0.863663         0.50063      0.000477195      0.00117927       -0.0118775      -0.0476952      0.000604135       0.0022798
                    -0.000483401     -0.00135271        -0.729658        0.638865      0.000581442      0.00238656         0.119009        0.213359
255600                  0.041575     -0.00547409     -0.000386314     -0.00221486         0.903971        0.425394     -0.000801889     -0.00120127
                    -0.000324692       -0.002288         0.202114        0.136574      0.000341271      0.00121967        -0.684092        0.687373
                        0.903569        0.425287      0.000558455      0.00118392       -0.0222742      -0.0354976      0.000807926      0.00222379
                    -0.000602766     -0.00130111        -0.684229        0.687431      0.000795061      0.00234451         0.137492        0.201453
255800                 0.0371709      0.00302275     -0.000553553     -0.00223506         0.937142        0.346785     -0.000891478     -0.00115062
                     -0.00049052     -0.00228529         0.207831        0.126632      0.000456165      0.00118745        -0.635391        0.732807
                         0.93677        0.346729      0.000647347      0.00117565       -0.0301757      -0.0218895      0.000993027      0.00216081
                    -0.000716094     -0.00123816        -0.635534        0.732864       0.00100363      0.00228296         0.154747        0.187795
256000                 0.0341502       0.0119025     -0.000725618     -0.00224079         0.963349          0.2656     -0.000970392     -0.00110595
                    -0.000656974     -0.00226887         0.212913        0.116394      0.000565688      0.00114337        -0.583631        0.774889
                        0.963006        0.265584      0.000741286      0.00115296       -0.0354169     -0.00728282       0.00115922       0.0020952
                    -0.000822299     -0.00116465        -0.583778        0.774943       0.00120533      0.00220275         0.170599        0.172514
256200                 0.0325311        0.020992     -0.000900755     -0.00223032         0.982397        0.182483      -0.00104025     -0.00107018
                     -0.00082285     -0.00223848         0.217344        0.105907      0.000668508      0.00108847        -0.529032        0.813412
                        0.982082        0.182501      0.000837294      0.00111484       -0.0378963      0.00789305        0.0013061      0.00203105
                    -0.000920405     -0.00108143        -0.529183        0.813461       0.00139853      0.00210492         0.184884        0.155754
