! TOUCHSTONE file generated by CST MICROWAVE STUDIO
! Date and time: Fri Sep 26 20:22:13 2025
! Project name: biblioteca3_folgaOK.cst
! Parameters = {H=600; Lx=200; Ly=260; Nedge=8; P=520; k=0; mesh_pilar_nm=40; n=0; t_air=3800; t_sub=3000; wavelength_nm=0}
! Header version: 2018
! Port assignment regex: !\s*Touchstone port\s*([0-9]+)\s*=\s*(CST MWS port|CST DS port)\s*([0-9]+|Zmin|Zmax)\s*\(\"(.*)\"\)(\s*mode\s*([0-9]+))?.*
! Touchstone port assignment:
! Touchstone port 1 = CST MWS port Zmin ("") mode 1
! Touchstone port 2 = CST MWS port Zmin ("") mode 2
! Touchstone port 3 = CST MWS port Zmax ("") mode 1
! Touchstone port 4 = CST MWS port Zmax ("") mode 2
! S-Parameters are not renormalized. Each port impedance will be approximated by the real part at minimum frequency. The values are described via the [Reference] keyword.
! Default impedance is overridden by [Reference]
[Version] 2.0
# GHz S RI R 376.73
[Number of Ports] 4
[Reference]
376.73 376.73 376.73 376.73 
[Number of Frequencies] 401
[Network Data]
250000                  0.149635      -0.0682218       -0.0020621     -0.00147066         0.959489       -0.226855     -0.000991022      0.00031584
                     -0.00181632     -0.00145344       -0.0997273       -0.220727     -0.000744137      0.00119051         0.211238        0.946217
                        0.960009       -0.226608      -0.00090943      0.00137637        -0.164331      0.00582682       0.00189598      0.00137621
                    -0.000748586      0.00100006         0.212494        0.946652        0.0019692       0.0011653       0.00398589        0.242143
250200                  0.149831      -0.0897446      -0.00219955      -0.0012289         0.928631       -0.325429     -0.000827917     0.000486244
                     -0.00199932     -0.00124247        -0.112904       -0.209383     -0.000626151      0.00131999         0.295542        0.924717
                        0.929093       -0.325254     -0.000747079        0.001475         -0.17524       0.0228842       0.00201249      0.00118239
                    -0.000659992       0.0010788         0.296566        0.925046        0.0021085     0.000992397        0.0296835        0.236007
250400                    0.1473       -0.112263      -0.00231433    -0.000969887         0.887601        -0.41996     -0.000670483     0.000629886
                     -0.00215622      -0.0010084        -0.124779       -0.197301     -0.000479039      0.00142543         0.377768        0.895608
                        0.887969       -0.419868     -0.000571105      0.00155386        -0.183775       0.0425874        0.0021157     0.000981327
                    -0.000561157      0.00115136         0.378565        0.895892       0.00223285     0.000803852        0.0543308        0.227028
250600                  0.141859       -0.135366      -0.00240385    -0.000696359         0.836946       -0.509393     -0.000516808     0.000750418
                     -0.00228421      -0.0007548        -0.135324       -0.184632     -0.000311138      0.00150106         0.457221        0.859097
                        0.837185       -0.509378     -0.000384397      0.00161071        -0.189463       0.0644915       0.00220503     0.000773251
                    -0.000452393      0.00121627          0.45781        0.859387       0.00234026     0.000601137        0.0775939        0.215355
250800                  0.133397       -0.158563      -0.00246593    -0.000411465         0.777319       -0.592755     -0.000365519     0.000850445
                      -0.0023811    -0.000485534        -0.144523       -0.171526      -0.00013123      0.00154457         0.533228        0.815451
                        0.777401       -0.592797     -0.000190244      0.00164387         -0.19193       0.0880912       0.00227975     0.000558487
                     -0.00033423      0.00127207         0.533638        0.815786       0.00242895     0.000386004        0.0991598        0.201175
251000                  0.121871         -0.1813      -0.00249882     -0.00011868         0.709465       -0.669158     -0.000215646     0.000931804
                     -0.00244522    -0.000204607        -0.152382       -0.158131      5.28121e-05      0.00155645         0.605144        0.764997
                        0.709375       -0.669228      7.77737e-06      0.00165224        -0.190903        0.112842       0.00233905     0.000337498
                    -0.000207433      0.00131728         0.605407        0.765405       0.00249734     0.000160465         0.118741        0.184712
251200                  0.107299       -0.202984      -0.00250128     0.000178286         0.634214       -0.737814     -6.65402e-05      0.00099575
                     -0.00247545      8.3895e-05         -0.15892        -0.14459      0.000234713      0.00153896         0.672354        0.708118
                        0.633947       -0.737877      0.000205934      0.00163536        -0.186198        0.138177       0.00238202     0.000110908
                    -7.30035e-05       0.0013505         0.672505        0.708616       0.00254414    -7.32532e-05          0.13608        0.166227
251400                 0.0897572       -0.223033      -0.00247257     0.000475583         0.552462       -0.798033      8.21836e-05      0.00104309
                     -0.00247117     0.000375872        -0.164171       -0.131038      0.000409893      0.00149522          0.73428        0.645252
                        0.552025       -0.798054      0.000400474      0.00159344        -0.177725         0.16352       0.00240772    -0.000120478
                     6.78243e-05      0.00137044         0.734354        0.645845       0.00256835    -0.000312749         0.150954        0.146008
251600                 0.0693919       -0.240912      -0.00241254     0.000769324         0.465162       -0.849235      0.000230673       0.0010743
                     -0.00243223     0.000667264        -0.168184       -0.117606      0.000575214      0.00142846         0.790384        0.576888
                        0.464573       -0.849178       0.00058776      0.00152734        -0.165477        0.188294       0.00241517    -0.000355651
                     0.000213598      0.00137595         0.790411        0.577573       0.00256931    -0.000555503         0.163177        0.124371
251800                 0.0464297       -0.256159       -0.0023215      0.00105568         0.373313       -0.890945      0.000378854      0.00108956
                      -0.0023589     0.000954084        -0.171022       -0.104413      0.000728571      0.00134169          0.84017         0.50356
                          0.3726       -0.890784      0.000764397      0.00143851         -0.14953        0.211931       0.00240342    -0.000593381
                     0.000362666      0.00136604         0.840178        0.504326       0.00254668    -0.000798927         0.172604        0.101651
252000                 0.0211865       -0.268398       -0.0022003      0.00133094         0.277942         -0.9228      0.000526434      0.00108886
                     -0.00225185      0.00123245        -0.172759      -0.0915685      0.000868506      0.00123749         0.883194        0.425849
                        0.277139       -0.922514       0.00092733      0.00132892        -0.130038        0.233885       0.00237159     -0.00083221
                     0.000513212      0.00133996         0.883202        0.426681        0.0025005     -0.00104043          0.17913       0.0781972
252200               -0.00594115       -0.277338      -0.00205022      0.00159164         0.180097       -0.944548      0.000672901      0.00107201
                     -0.00211215      0.00149858        -0.173481      -0.0791707      0.000993886      0.00111806          0.91906        0.344374
                        0.179244       -0.944125       0.00107394      0.00120098        -0.107228        0.253631       0.00231889     -0.00107045
                     0.000663284       0.0012972         0.919081        0.345255       0.00243111     -0.00127745         0.182696       0.0543708
252400                -0.0344939       -0.282765      -0.00187294      0.00183455        0.0808361       -0.956044       0.00081751      0.00103873
                     -0.00194119      0.00174886        -0.173281      -0.0673043       0.00110368     0.000985314         0.947429        0.259791
                       0.0799725       -0.955482       0.00120208      0.00105742       -0.0814025        0.270682       0.00224472     -0.00130619
                     0.000810839      0.00123749         0.947471        0.260701       0.00233918     -0.00150756         0.183287       0.0305368
252600                -0.0639731       -0.284546      -0.00167046      0.00205675       -0.0187865       -0.957251      0.000959272     0.000988672
                     -0.00174074       0.0019798        -0.172261      -0.0560408       0.00119684     0.000841038         0.968022        0.172788
                      -0.0196209       -0.956559       0.00131015     0.000901222       -0.0529279        0.284594       0.00214869     -0.00153731
                     0.000953783      0.00116087         0.968085         0.17371       0.00222569     -0.00172843         0.180932       0.0070596
252800                -0.0938629       -0.282623      -0.00144508      0.00225564        -0.117727       -0.948236       0.00109694     0.000921468
                     -0.00151288      0.00218807        -0.170529       -0.045437       0.00127225     0.000687034         0.980619        0.084077
                       -0.118497       -0.947432       0.00139705     0.000735448       -0.0222347        0.294974       0.00203067     -0.00176153
                      0.00109001      0.00106763         0.980699        0.084996       0.00209185     -0.00193793         0.175706      -0.0157025
253000                 -0.123649       -0.277011       -0.0011993      0.00242896        -0.214964       -0.929167       0.00122901     0.000836814
                     -0.00126003      0.00237056        -0.168196      -0.0355346       0.00132874     0.000525269         0.985067      -0.0056054
                        -0.21564       -0.928275        0.0014622       0.0005632        0.0101913         0.30149       0.00189086     -0.00197642
                      0.00121744     0.000958335         0.985158     -0.00470057       0.00193909     -0.00213414         0.167726      -0.0374026
253200                 -0.152836       -0.267793     -0.000935777      0.00257476        -0.309505        -0.90031       0.00135369     0.000734514
                    -0.000984957      0.00252434        -0.165376      -0.0263603       0.00136522     0.000357991          0.98128      -0.0955084
                       -0.310065        -0.89936       0.00150552     0.000387502        0.0438164        0.303879       0.00172978      -0.0021795
                      0.00133407     0.000833812         0.981371      -0.0946249       0.00176903     -0.00231538         0.157151      -0.0577106
253400                 -0.180953       -0.255116     -0.000657318      0.00269141        -0.400395       -0.862022       0.00146894     0.000614561
                    -0.000690743      0.00264674        -0.162182      -0.0179249       0.00138076     0.000187796         0.969239       -0.184871
                       -0.400825       -0.861048       0.00152734     0.000211235        0.0780687        0.301954       0.00154837     -0.00236828
                      0.00143798     0.000695137         0.969322       -0.184012       0.00158342     -0.00248018          0.14418      -0.0763179
253600                 -0.207569       -0.239179     -0.000366805      0.00277755        -0.486724       -0.814747       0.00157244     0.000477209
                    -0.000380802      0.00273535        -0.158728      -0.0102243       0.00137477     1.76312e-05            0.949        -0.27293
                       -0.487021       -0.813784       0.00152838     3.70762e-05         0.112349        0.295612       0.00134792     -0.00254031
                      0.00152738     0.000543614         0.949065       -0.272093        0.0013841     -0.00262734         0.129048       -0.092942
253800                 -0.232294        -0.22023     -6.71915e-05      0.00283212        -0.567637       -0.759013       0.00166167     0.000323066
                    -5.88624e-05       0.0027881        -0.155119     -0.00323919       0.00134715    -0.000149263         0.920687       -0.358923
                       -0.567803       -0.758094       0.00150969    -0.000132547         0.146042        0.284834       0.00113014     -0.00269332
                      0.00160061     0.000380753         0.920726       -0.358105       0.00117297     -0.00275589         0.112026       -0.107332
254000                 -0.254783       -0.198557      0.000238515      0.00285429        -0.642334       -0.695421       0.00173395     0.000153172
                     0.000271052       0.0028033         -0.15146      0.00306365       0.00129848    -0.000309488         0.884498       -0.442099
                       -0.642382       -0.694578       0.00147256    -0.000295484         0.178531         0.26969      0.000897053     -0.00282523
                      0.00165617     0.000208261         0.884505       -0.441293      0.000951953      -0.0028651        0.0934126        -0.11927
254200                 -0.274737       -0.174477       0.00054726      0.00284346         -0.71008       -0.624645       0.00178651    -3.09222e-05
                     0.000604645      0.00277966        -0.147844      0.00873096       0.00123003    -0.000459674         0.840701       -0.521726
                       -0.710029       -0.623903       0.00141848    -0.000449876         0.209209        0.250341      0.000651048     -0.00293427
                      0.00169275     2.80184e-05         0.840675       -0.520923      0.000722951     -0.00295445        0.0735317       -0.128578
254400                 -0.291906       -0.148336      0.000855938      0.00279925        -0.770211       -0.547421       0.00181663    -0.000227083
                      0.00093739      0.00271638        -0.144357       0.0138215       0.00114384    -0.000596706         0.789636       -0.597094
                       -0.770084         -0.5468       0.00134908    -0.000594162         0.237494        0.227033      0.000394748     -0.00301902
                       0.0017092     -0.00015793         0.789579       -0.596285      0.000487843     -0.00302363        0.0527289        -0.13512
254600                 -0.306088       -0.120497       0.00116139      0.00272148        -0.822135       -0.464544       0.00182174    -0.000432556
                      0.00126457      0.00261317        -0.141074       0.0184049       0.00104261    -0.000717951          0.73171       -0.667525
                       -0.821961       -0.464057       0.00126606    -0.000727065         0.262841        0.200099      0.000130975     -0.00307843
                      0.00170458    -0.000347386         0.731626       -0.666702      0.000248449     -0.00307251        0.0313646       -0.138803
254800                 -0.317128      -0.0913389       0.00146039       0.0026102        -0.865341        -0.37686       0.00179961    -0.000643959
                      0.00158136      0.00247031        -0.138056       0.0225596      0.000929561    -0.000821444         0.667397        -0.73238
                       -0.865148        -0.37651       0.00117115    -0.000847582         0.284754        0.169945     -0.000137338      -0.0031119
                      0.00167817     -0.00053801         0.667293       -0.731537       6.5217e-06      -0.0031011       0.00980938       -0.139579
255000                 -0.324919      -0.0612485       0.00174963      0.00246567        -0.899398       -0.285256       0.00174851    -0.000857316
                      0.00188287      0.00228869        -0.135354       0.0263718      0.000808216    -0.000906019         0.597231       -0.791067
                       -0.899215       -0.285042       0.00106609    -0.000954957         0.302798        0.137049     -0.000407227     -0.00311925
                      0.00162947    -0.000727325         0.597116       -0.790198     -0.000236271     -0.00310959       -0.0115624       -0.137449
255200                   -0.3294      -0.0306181       0.00202574      0.00228841        -0.923962       -0.190659       0.00166738     -0.00106815
                      0.00216423      0.00206982        -0.133001       0.0299328      0.000682158    -0.000971341         0.521806       -0.843042
                       -0.923816       -0.190571      0.000952544     -0.00104865         0.316608        0.101949     -0.000675774     -0.00310073
                      0.00155823     -0.00091273          0.52169       -0.842147     -0.000478349     -0.00309825        -0.032378       -0.132459
255400                 -0.330557     0.000160234       0.00228523      0.00207919        -0.938778       -0.094022       0.00155598     -0.00127161
                      0.00242071      0.00181586        -0.131018       0.0333374      0.000554794     -0.00101786         0.441765       -0.887822
                       -0.938693      -0.0940443      0.000832148     -0.00112832         0.325898       0.0652306     -0.000940185     -0.00305696
                      0.00146451     -0.00109151         0.441659       -0.886901      -0.00071822     -0.00306746       -0.0522728       -0.124704
255600                 -0.328422       0.0306986       0.00252454      0.00183912        -0.943681      0.00367754       0.00141503     -0.00146268
                      0.00264778      0.00152959        -0.129409       0.0366817      0.000429169     -0.00104671         0.357799       -0.924985
                       -0.943674      0.00356595      0.000706438     -0.00119377         0.330465       0.0275182      -0.00119785     -0.00298894
                      0.00134866     -0.00126087         0.357713       -0.924042     -0.000954488     -0.00301771       -0.0708958       -0.114325
255800                 -0.323071       0.0606181       0.00274003      0.00156965          -0.9386         0.10145       0.00124623     -0.00163643
                      0.00284122      0.00121444        -0.128166       0.0400612      0.000307832     -0.00105951          0.27064       -0.954179
                       -0.938684        0.101273      0.000576868     -0.00124492         0.330199        -0.01054      -0.00144638     -0.00289796
                      0.00121141     -0.00141794         0.270582        -0.95322      -0.00118584     -0.00294952       -0.0879159       -0.101507
256000                 -0.314627       0.0895535       0.00292801      0.00127267        -0.923557          0.1983       0.00105227     -0.00178819
                       0.0029972     0.000874418        -0.127262        0.043568      0.000192766     -0.00105824         0.181051       -0.975122
                       -0.923738        0.198085      0.000444807     -0.00128178         0.325078      -0.0482837      -0.00168366     -0.00278554
                      0.00105385     -0.00155983         0.181027       -0.974155      -0.00141106     -0.00286347        -0.103027      -0.0864741
256200                 -0.303253        0.117158       0.00308477     0.000950507        -0.898673        0.293233      0.000836772     -0.00191388
                       0.0031124     0.000514067        -0.126658       0.0472896      8.53848e-05     -0.00104501        0.0898211       -0.987607
                       -0.898949        0.293006      0.000311546     -0.00130441         0.315174      -0.0850541      -0.00190786     -0.00265341
                     0.000877528     -0.00168368        0.0898364        -0.98664      -0.00162898     -0.00276019        -0.115955      -0.0694915
