! TOUCHSTONE file generated by CST MICROWAVE STUDIO
! Date and time: Sun Sep 28 17:45:58 2025
! Project name: biblioteca3_folgaOK.cst
! Parameters = {H=600; Lx=200; Ly=260; Nedge=12; P=520; k=0; mesh_pilar_nm=40; n=0; t_air=3800; t_sub=6000; wavelength_nm=0}
! Header version: 2018
! Port assignment regex: !\s*Touchstone port\s*([0-9]+)\s*=\s*(CST MWS port|CST DS port)\s*([0-9]+|Zmin|Zmax)\s*\(\"(.*)\"\)(\s*mode\s*([0-9]+))?.*
! Touchstone port assignment:
! Touchstone port 1 = CST MWS port Zmin ("") mode 1
! Touchstone port 2 = CST MWS port Zmin ("") mode 2
! Touchstone port 3 = CST MWS port Zmax ("") mode 1
! Touchstone port 4 = CST MWS port Zmax ("") mode 2
! S-Parameters are not renormalized. Each port impedance will be approximated by the real part at minimum frequency. The values are described via the [Reference] keyword.
! Default impedance is overridden by [Reference]
[Version] 2.0
# GHz S RI R 376.73
[Number of Ports] 4
[Reference]
376.73 376.73 376.73 376.73 
[Number of Frequencies] 401
[Network Data]
250000                  0.295679        0.245414      0.000585086     9.80122e-05         0.251506        0.888358       0.00156244     0.000804733
                     0.000723447     6.57728e-05         0.102396       0.0321319       0.00144289     0.000626149        -0.951947        0.286545
                        0.251727        0.888387       0.00134704     0.000722375         0.123237       -0.364003      0.000261879    -0.000133813
                      0.00138683     0.000778722        -0.951821        0.286448      0.000294008    -0.000170001       -0.0676263       0.0833404
250200                  0.298833        0.245379      0.000580736     6.46068e-05          0.30652        0.869867        0.0015815     0.000715637
                     0.000717218     5.94173e-05        0.0962942       0.0445811       0.00146289     0.000510837        -0.934812        0.338637
                        0.306759        0.869814       0.00141579     0.000637533        0.0792938        -0.37859      0.000148695     -0.00016323
                       0.0014773     0.000725639        -0.934772        0.338423      0.000171358    -0.000278572       -0.0455277       0.0959348
250400                  0.301068        0.244779         0.000574     3.14515e-05         0.360368        0.848364       0.00160328     0.000615596
                     0.000710716     5.22043e-05        0.0900562       0.0568629       0.00147729     0.000402072        -0.914665        0.389664
                         0.36056        0.848207       0.00147915     0.000549545        0.0331739       -0.386769      3.75331e-05    -0.000175617
                      0.00156998     0.000658659        -0.914691        0.389365      3.93062e-05    -0.000329701       -0.0215432        0.104386
250600                  0.302397        0.243625      0.000564825    -1.20326e-06         0.412962        0.823893       0.00163018     0.000505713
                     0.000703851     4.40549e-05        0.0836963       0.0689473       0.00148741     0.000299136        -0.891583        0.439432
                        0.413056        0.823631       0.00153722      0.00045874       -0.0140339       -0.388203     -6.98812e-05    -0.000172301
                      0.00166208     0.000575111        -0.891657        0.439075     -8.13372e-05    -0.000338707       0.00357985        0.108431
250800                  0.302832        0.241925      0.000553184    -3.30911e-05         0.464211        0.796487       0.00166402     0.000388468
                     0.000696507     3.48861e-05        0.0772289       0.0808041       0.00149437     0.000201265        -0.865661        0.487756
                        0.464168        0.796132       0.00159013     0.000365396       -0.0612017       -0.382758     -0.000172173    -0.000154542
                      0.00174914     0.000472914        -0.865766        0.487358     -0.000183955    -0.000321331        0.0290661        0.107946
251000                  0.302384        0.239683      0.000539079    -6.39329e-05         0.514012        0.766167       0.00170528     0.000267352
                     0.000688539      2.4614e-05        0.0706678       0.0924033       0.00149908     0.000107662        -0.837007        0.534461
                        0.513809        0.765743       0.00163805     0.000269742        -0.107203       -0.370505     -0.000268211    -0.000123486
                      0.00182506     0.000351662         -0.83713        0.534034     -0.000269015    -0.000288568        0.0541386        0.102946
251200                   0.30106        0.236904      0.000522547    -9.34406e-05          0.56225        0.732946       0.00175269     0.000145979
                     0.000679766     1.31572e-05        0.0640266        0.103715       0.00150228      1.7488e-05         -0.80574        0.579382
                        0.561876        0.732484       0.00168112     0.000171954         -0.15095       -0.351707     -0.000357009    -8.01425e-05
                      0.00188295     0.000213897        -0.805872        0.578935       -0.0003393    -0.000246893        0.0780434       0.0935774
251400                  0.298867        0.233591      0.000503657    -0.000121322         0.608796        0.696834       0.00180347     2.71087e-05
                     0.000669962     4.44487e-07        0.0573183        0.114709       0.00150458    -7.01484e-05        -0.771992        0.622367
                        0.608254        0.696365       0.00171953      7.2157e-05         -0.19142         -0.3268     -0.000437627    -2.53991e-05
                      0.00191699     6.57922e-05        -0.772125        0.621904     -0.000397763    -0.000199722          0.10007        0.080108
251600                  0.295808        0.229751      0.000482517    -0.000147288         0.653504         0.65784       0.00185414    -8.79049e-05
                     0.000658849    -1.35757e-05        0.0505558        0.125358       0.00150643    -0.000156212        -0.735904        0.663275
                        0.652807        0.657395       0.00175346    -2.95793e-05        -0.227683        -0.29638     -0.000509097     3.99451e-05
                      0.00192485    -8.37098e-05        -0.736033        0.662801     -0.000446816    -0.000148629         0.119571       0.0629168
251800                  0.291884         0.22539      0.000459271    -0.000171053         0.696209        0.615974       0.00190133    -0.000199046
                     0.000646089    -2.89197e-05        0.0437512        0.135632       0.00150815    -0.000241764        -0.697623        0.701982
                         0.69538        0.615582       0.00178308    -0.000133244         -0.25892        -0.26118      -0.00057035      0.00011512
                      0.00190903    -0.000225494        -0.697747        0.701497     -0.000488168    -9.41297e-05         0.135976        0.042478
252000                  0.287095        0.220518      0.000434098    -0.000192347         0.736728        0.571257        0.0019424     -0.00030717
                     0.000631276    -4.55471e-05        0.0369166        0.145506       0.00150982    -0.000327973        -0.657303        0.738373
                        0.735798        0.570938       0.00180859    -0.000238891        -0.284438       -0.222052      -0.00062017     0.000199305
                      0.00187601    -0.000353263        -0.657424         0.73788     -0.000522862    -3.61499e-05         0.148803        0.019346
252200                  0.281441        0.215147      0.000407216    -0.000210919          0.77486        0.523718       0.00197551    -0.000413464
                     0.000613936    -6.33315e-05        0.0300633        0.154953       0.00151129    -0.000416127        -0.615104         0.77235
                        0.773863        0.523487       0.00183019    -0.000346655        -0.303683       -0.179947      -0.00065716     0.000291523
                      0.00183367    -0.000465048        -0.615223        0.771851     -0.000551326     2.57014e-05         0.157669     -0.00586121
252400                   0.27492        0.209295      0.000378869    -0.000226542         0.810385        0.473403       0.00199952    -0.000519054
                     0.000593533    -8.20231e-05        0.0232028        0.163949       0.00151201    -0.000507596        -0.571185        0.803828
                        0.809357        0.473268       0.00184809    -0.000456761        -0.316256       -0.135898     -0.000679753     0.000390512
                      0.00178864    -0.000562625        -0.571306        0.803326     -0.000573409     9.19463e-05         0.162296      -0.0324784
252600                  0.267529        0.202983      0.000349335    -0.000239016         0.843064         0.42038        0.0020138    -0.000624797
                     0.000569493    -0.000101203         0.016346        0.172471       0.00151101     -0.00060376        -0.525711        0.832735
                        0.842041         0.42034       0.00186248    -0.000569557        -0.321919      -0.0909995     -0.000686266     0.000494576
                      0.00174507    -0.000649767        -0.525838        0.832232     -0.000588387     0.000163081         0.162513      -0.0598099
252800                   0.25927        0.196237       0.00031891     -0.00024818         0.872646        0.364741       0.00201802    -0.000731216
                     0.000541246    -0.000120233       0.00950384        0.180498       0.00150669     -0.00070585        -0.478842        0.859009
                        0.871661        0.364788       0.00187359    -0.000685545        -0.320614      -0.0463824     -0.000675028     0.000601438
                      0.00170461    -0.000730587        -0.478979         0.85851     -0.000594956       0.0002394         0.158263      -0.0871467
253000                  0.250142        0.189091      0.000287913    -0.000253908         0.898867        0.306607       0.00201203    -0.000838513
                     0.000508306    -0.000138218       0.00268707         0.18801       0.00149685    -0.000814692        -0.430741        0.882605
                         0.89795        0.306728       0.00188161    -0.000805439        -0.312468     -0.00319176     -0.000644587     0.000708108
                      0.00166715    -0.000808557        -0.430891        0.882114     -0.000591242     0.000320774         0.149594       -0.113782
253200                  0.240149         0.18158      0.000256671    -0.000256116         0.921456        0.246136       0.00199577    -0.000946614
                     0.000470378    -0.000153987       -0.0040935        0.194988       0.00147873    -0.000930379        -0.381566        0.903484
                        0.920629        0.246312       0.00188671    -0.000930247        -0.297799       0.0374443      -0.00059402     0.000810832
                      0.00163157     -0.00088616        -0.381733        0.903007     -0.000574873     0.000406352         0.136667       -0.139028
253400                  0.229298        0.173749      0.000225517    -0.000254759         0.940139         0.18352        0.0019692     -0.00105522
                     0.000427502    -0.000166125        -0.010827        0.201417       0.00144928     -0.00105192        -0.331473        0.921619
                        0.939418         0.18373         0.001889     -0.00106139        -0.277127       0.0744474     -0.000523314     0.000905166
                      0.00159633    -0.000964928        -0.331659        0.921162     -0.000543204     0.000494215         0.119743        -0.16223
253600                  0.217601        0.165645      0.000194784    -0.000249839         0.954646        0.118993       0.00193236     -0.00116386
                     0.000380192    -0.000173088       -0.0175026        0.207281       0.00140569     -0.00117704        -0.280614        0.936993
                         0.95404        0.119215       0.00188839     -0.00120089         -0.25116        0.106826     -0.000433758     0.000986248
                      0.00155984     -0.00104562         -0.28082        0.936561     -0.000493767     0.000581051        0.0991793       -0.182783
253800                  0.205076        0.157322      0.000164794    -0.000241395         0.964716       0.0528311       0.00188529     -0.00127194
                     0.000329543    -0.000173396        -0.024109        0.212569       0.00134601     -0.00130226        -0.229137        0.949595
                        0.964227       0.0530416       0.00188444     -0.00135164        -0.220795        0.133715      -0.00032824       0.0010493
                      0.00152062      -0.0011284        -0.229363        0.949194     -0.000425002     0.000662011        0.0754233       -0.200145
254000                  0.191745        0.148838      0.000135859    -0.000229509         0.970108      -0.0146476        0.0018281     -0.00137873
                     0.000277226    -0.000165901       -0.0306349        0.217268        0.0012698     -0.00142336        -0.177187        0.959422
                         0.96973       -0.014468       0.00187588     -0.00151781        -0.187087        0.154411     -0.000211311       0.0010903
                       0.0014774     -0.00121306         -0.17743        0.959057     -0.000337189        0.000731        0.0489997       -0.213847
254200                  0.177641        0.140255      0.000108268    -0.000214297         0.970604      -0.0830828       0.00176092     -0.00148348
                     0.000225343    -0.000150059       -0.0370686         0.22137       0.00117827     -0.00153623        -0.124902        0.966477
                        0.970326      -0.0829501       0.00185982     -0.00170535        -0.151229        0.168414      -8.8889e-05      0.00110672
                      0.00142914     -0.00129909         -0.12516        0.966152     -0.000233276     0.000781598        0.0204991       -0.223507
254400                  0.162804        0.131635      8.22888e-05     -0.00019591          0.96602       -0.152075       0.00168398     -0.00158536
                     0.000176136      -0.0001261       -0.0433984        0.224866       0.00107411     -0.00163766       -0.0724157        0.970768
                        0.965828          -0.152       0.00182986     -0.00192259        -0.114506        0.175457      3.23902e-05      0.00109807
                      0.00137504     -0.00138581       -0.0726857        0.970486     -0.000119118     0.000808545      -0.00943523       -0.228836
254600                   0.14728        0.123044      5.81595e-05    -0.000174529         0.956215       -0.221189       0.00159755     -0.00168354
                     0.000131628    -9.50383e-05       -0.0496121         0.22775      0.000960781      -0.0017258       -0.0198598        0.972307
                        0.956091       -0.221177       0.00177235     -0.00218008       -0.0782532        0.175525       0.00014607      0.00106607
                      0.00131449     -0.00147242       -0.0201372        0.972071     -2.70811e-06      0.00080931       -0.0401224        -0.22965
254800                  0.131129        0.114545      3.60878e-05    -0.000150357         0.941094        -0.28996       0.00150202     -0.00177718
                     9.33047e-05     -5.8489e-05       -0.0556974        0.230017      0.000841786     -0.00180029          0.03264         0.97111
                        0.941019        -0.29001       0.00165939     -0.00248718       -0.0437938        0.168871      0.000246758      0.00101441
                      0.00124712     -0.00155807        0.0323599        0.970919      0.000107503     0.000784978       -0.0708598       -0.225869
255000                  0.114415        0.106201       1.6248e-05    -0.000123619         0.920617       -0.357902       0.00139783     -0.00186548
                      6.1949e-05    -1.83591e-05       -0.0616416        0.231663       0.00072007      -0.0018619        0.0849608        0.967194
                        0.920575       -0.358008       0.00143954     -0.00283759       -0.0123876        0.156014      0.000330763      0.00094811
                      0.00117269     -0.00164186        0.0846833        0.967048      0.000204524     0.000739932        -0.100939       -0.217522
255200                 0.0972139       0.0980711     -1.21994e-06    -9.45551e-05         0.894803       -0.424513        0.0012855     -0.00194764
                     3.76435e-05     2.34763e-05       -0.0674321        0.232686      0.000597742     -0.00191209         0.136983         0.96058
                        0.894779       -0.424663        0.0010437     -0.00317116        0.0148289        0.137718      0.000396325     0.000872643
                      0.00109117     -0.00172293         0.136713        0.960477      0.000284112     0.000680531        -0.129664       -0.204748
255400                 0.0796076       0.0902087     -1.62111e-05    -6.34153e-05         0.863732       -0.489287       0.00116567     -0.00202296
                     1.99178e-05     6.54221e-05        -0.073056        0.233086      0.000476059     -0.00195251         0.188589        0.951289
                        0.863717       -0.489468      0.000460151     -0.00333519        0.0368961        0.114972      0.000443465     0.000793244
                      0.00100263     -0.00180043         0.188332        0.951227      0.000345016     0.000613452        -0.156365       -0.187792
255600                 0.0616856       0.0826614     -2.86555e-05    -3.04559e-05          0.82755       -0.551726         0.001039     -0.00209079
                     7.95744e-06     0.000106291       -0.0785006        0.232861      0.000355574     -0.00198475         0.239665        0.939347
                        0.827538       -0.551922     -0.000140574     -0.00318853        0.0530761       0.0889387      0.000473572     0.000714356
                     0.000907277     -0.00187354         0.239425        0.939319      0.000388356      0.00054443        -0.180417       -0.166998
255800                  0.043543       0.0754691     -3.85175e-05     4.06511e-06         0.786461       -0.611346      0.000906242     -0.00215057
                     8.05061e-07     0.000145323        -0.083753        0.232013      0.000236338     -0.00201012         0.290094        0.924776
                        0.786453        -0.61154     -0.000522097     -0.00282504        0.0628876       0.0609079      0.000488899      0.00063938
                     0.000805435     -0.00194153         0.289876        0.924778      0.000416658     0.000477658        -0.201254       -0.142805
256000                 0.0252787       0.0686632     -4.57946e-05     3.98928e-05         0.740731        -0.66769        0.0007682     -0.00220183
                    -2.48541e-06      0.00018213       -0.0888007        0.230544      0.000118088     -0.00202959         0.339765        0.907603
                        0.740732       -0.667869     -0.000657858     -0.00246761        0.0661265       0.0322361      0.000492098     0.000570653
                     0.000697495      -0.0020037         0.339571        0.907628      0.000432973     0.000415757        -0.218382       -0.115735
256200                0.00699414       0.0622662     -5.05162e-05     7.67798e-05         0.690679       -0.720336      0.000625707      -0.0022442
                    -2.75298e-06     0.000216611       -0.0936316        0.228458      4.01014e-07     -0.00204384         0.388563        0.887855
                        0.690697        -0.72049     -0.000665957     -0.00221977        0.0628734      0.00428499      0.000485864      0.00050957
                     0.000583922     -0.00205946         0.388395        0.887897      0.000440284     0.000360066        -0.231391      -0.0863817
