! TOUCHSTONE file generated by CST MICROWAVE STUDIO
! Date and time: Fri Sep 26 05:54:28 2025
! Project name: biblioteca3_folgaOK.cst
! Parameters = {H=600; Lx=200; Ly=260; Nedge=16; P=520; k=0; mesh_pilar_nm=40; n=0; t_air=3500; t_sub=2000; wavelength_nm=0}
! Header version: 2018
! Port assignment regex: !\s*Touchstone port\s*([0-9]+)\s*=\s*(CST MWS port|CST DS port)\s*([0-9]+|Zmin|Zmax)\s*\(\"(.*)\"\)(\s*mode\s*([0-9]+))?.*
! Touchstone port assignment:
! Touchstone port 1 = CST MWS port Zmin ("") mode 1
! Touchstone port 2 = CST MWS port Zmin ("") mode 2
! Touchstone port 3 = CST MWS port Zmax ("") mode 1
! Touchstone port 4 = CST MWS port Zmax ("") mode 2
! S-Parameters are not renormalized. Each port impedance will be approximated by the real part at minimum frequency. The values are described via the [Reference] keyword.
! Default impedance is overridden by [Reference]
[Version] 2.0
# GHz S RI R 376.73
[Number of Ports] 4
[Reference]
376.73 376.73 376.73 376.73 
[Number of Frequencies] 401
[Network Data]
250000                  0.214394        0.237915     -0.000447911     0.000348267        -0.878129        0.355072     -3.67104e-05    -0.000308802
                    -0.000445327     0.000354416       -0.0669382        0.174122      0.000377661    -0.000279471        -0.436637       -0.880172
                       -0.878208        0.355085      0.000334993    -0.000205273        0.0112353        0.320071     -6.44011e-05     0.000505841
                     2.39336e-06    -0.000402797        -0.436434       -0.880036      2.40513e-05     0.000478887        -0.179105      -0.0521276
250200                  0.223728        0.219554     -0.000443178      0.00034573         -0.84923          0.4258     -5.32425e-05    -0.000313606
                     -0.00042194     0.000379098       -0.0605751        0.179718      0.000360608    -0.000308224        -0.494448       -0.848619
                        -0.84746        0.425846      0.000333348    -0.000230342        0.0419533        0.314927     -2.17403e-05     0.000494615
                    -2.20463e-05    -0.000412271        -0.493912       -0.848715      5.40943e-05     0.000472348        -0.186252      -0.0364178
250400                   0.23144        0.200686     -0.000437364      0.00034271        -0.814444        0.494364     -7.07831e-05     -0.00031787
                    -0.000396176     0.000402433       -0.0537717         0.18504      0.000340994    -0.000337006        -0.550027       -0.813195
                       -0.811258        0.494136      0.000329928    -0.000257393        0.0720692        0.305778       1.6953e-05     0.000481319
                    -4.82477e-05    -0.000420556        -0.549252       -0.813524      8.39431e-05     0.000463068        -0.191928      -0.0197813
250600                   0.23748        0.181463     -0.000430323     0.000339251        -0.773922        0.560259     -8.93724e-05    -0.000321493
                     -0.00036809     0.000424078       -0.0465412        0.190053      0.000318656    -0.000365593         -0.60311       -0.774065
                       -0.769734        0.559555      0.000324307    -0.000286498         0.100905        0.292684      5.21103e-05     0.000466377
                    -7.62221e-05    -0.000427422        -0.602179       -0.774617      0.000113286     0.000450965        -0.196014     -0.00237151
250800                   0.24181        0.162046     -0.000421897     0.000335416        -0.727859        0.622992     -0.000109047    -0.000324364
                    -0.000337793     0.000443675       -0.0388997        0.194723      0.000293446    -0.000393726        -0.653446       -0.731412
                       -0.723048        0.621703      0.000315974    -0.000317679         0.127788        0.275846      8.40998e-05     0.000450095
                    -0.000105955    -0.000432617        -0.652431       -0.732167      0.000141785     0.000435996        -0.198406        0.015642
251000                   0.24441        0.142601     -0.000411922     0.000331297         -0.67649        0.682078     -0.000129838    -0.000326359
                    -0.000305462     0.000460862       -0.0308664        0.199014      0.000265234    -0.000421106          -0.7008       -0.685434
                       -0.671395        0.680172      0.000304329    -0.000350877         0.152091        0.255605      0.000113228     0.000432687
                    -0.000137403    -0.000435873        -0.699761       -0.686365       0.00016908      0.00041816        -0.199023       0.0340763
251200                  0.245279        0.123299     -0.000400228     0.000327013        -0.620096         0.73705     -0.000151768    -0.000327336
                    -0.000271346     0.000475286       -0.0224635        0.202895      0.000233917    -0.000447398        -0.744951       -0.636344
                       -0.615008        0.734559      0.000288678    -0.000385915          0.17326        0.232425      0.000139745     0.000414304
                    -0.000170482    -0.000436905        -0.743937       -0.637421      0.000194796     0.000397506        -0.197806       0.0527383
251400                  0.244433        0.104313     -0.000386648     0.000322714        -0.558999        0.787462     -0.000174851    -0.000327141
                    -0.000235767     0.000486618       -0.0137159        0.206334      0.000199429    -0.000472228        -0.785695        -0.58437
                       -0.554156        0.784463      0.000268247    -0.000422452         0.190848        0.206877       0.00016385     0.000395053
                    -0.000205072    -0.000435418        -0.784743        -0.58556      0.000218549     0.000374136        -0.194718        0.071428
251600                   0.24191       0.0858159     -0.000371014     0.000318587        -0.493563        0.832888     -0.000199087      -0.0003256
                    -0.000199118     0.000494571      -0.00465144        0.209301      0.000161744    -0.000495186        -0.822843       -0.529753
                       -0.489147        0.829495      0.000242208    -0.000459925         0.204534        0.179606      0.000185695     0.000375007
                    -0.000240999    -0.000431109        -0.821982        -0.53102      0.000239956     0.000348211         -0.18975       0.0899415
251800                  0.237765       0.0679769     -0.000353169     0.000314849         -0.42419        0.872932      -0.00022446    -0.000322523
                    -0.000161863     0.000498917       0.00469978         0.21177      0.000120894    -0.000515833        -0.856225       -0.472742
                       -0.420333        0.869278      0.000209731    -0.000497491         0.214131        0.151297      0.000205391     0.000354218
                     -0.00027804    -0.000423682        -0.855474       -0.474053      0.000258642      0.00031995        -0.182914        0.108075
252000                  0.232074       0.0509611      -0.00033296     0.000311755        -0.351324        0.907229     -0.000250931    -0.000317705
                     -0.00012452     0.000499505        0.0143051        0.213715      7.69722e-05    -0.000533705        -0.885689       -0.413599
                       -0.348106        0.903456      0.000170079    -0.000533971         0.219595        0.122645      0.000223012     0.000332725
                    -0.000315917    -0.000412848        -0.885059       -0.414923      0.000274253     0.000289633        -0.174246        0.125626
252200                  0.224933       0.0349255     -0.000310243     0.000309597        -0.275442        0.935449     -0.000278438    -0.000310922
                    -8.76515e-05     0.000496276        0.0241298        0.215113      3.01429e-05    -0.000548325          -0.9111       -0.352595
                       -0.272897          0.9317      0.000122731    -0.000567832         0.221009       0.0943222      0.000238599      0.00031056
                     -0.00035429    -0.000398343        -0.910593       -0.353902      0.000286465     0.000257598        -0.163807        0.142398
252400                  0.216456       0.0200169     -0.000284881     0.000308705        -0.197058        0.957302     -0.000306887    -0.000301935
                    -5.18423e-05     0.000489273        0.0341371        0.215944     -1.93495e-05    -0.000559212        -0.932343       -0.290007
                       -0.195178        0.953708      6.75528e-05    -0.000597205         0.218576       0.0669499      0.000252161     0.000287751
                    -0.000392763    -0.000379939        -0.931957       -0.291272      0.000294995     0.000224236        -0.151677        0.158205
252600                  0.206773      0.00636911     -0.000256726     0.000309454        -0.116713        0.972541     -0.000336145    -0.000290495
                    -1.76765e-05     0.000478651        0.0442885        0.216192     -7.11772e-05      -0.0005659        -0.949319       -0.226119
                       -0.115459        0.969219      4.96818e-06    -0.000619998         0.212595       0.0410824      0.000263678     0.000264333
                    -0.000430885    -0.000357452        -0.949047       -0.227321       0.00029961     0.000189988        -0.137959        0.172868
252800                  0.196031     -0.00589887     -0.000225613      0.00031228       -0.0349804        0.980966     -0.000366039    -0.000276342
                     1.42863e-05     0.000464676         0.054544        0.215841     -0.000124926     -0.00056795        -0.961952        -0.16122
                      -0.0342847        0.978012     -6.38922e-05      -0.0006341         0.203441       0.0171924      0.000273105     0.000240345
                    -0.000468157    -0.000330762        -0.961783       -0.162342      0.000300136     0.000155333        -0.122772        0.186223
253000                  0.184391      -0.0166852      -0.00019133     0.000317712        0.0475477        0.982428     -0.000396343    -0.000259216
                     4.35363e-05     0.000447718        0.0648624         0.21488     -0.000180099     -0.00056497        -0.970183      -0.0956036
                       0.0477712        0.979912     -0.000137139    -0.000637676         0.191542     -0.00433592      0.000280373     0.000215842
                    -0.000504038    -0.000299822        -0.970103      -0.0966328      0.000296464     0.000120785        -0.106253        0.198119
253200                  0.172026      -0.0259072     -0.000153581     0.000326429         0.130258        0.976831     -0.000426777    -0.000238864
                     6.96354e-05      0.00042824        0.0752013          0.2133     -0.000236118    -0.000556635        -0.973971      -0.0295647
                        0.130108        0.974798     -0.000212221    -0.000629507         0.177361       -0.023207       0.00028539     0.000190893
                    -0.000537963    -0.000264669        -0.973967      -0.0304937      0.000288559      8.6875e-05       -0.0885559        0.208422
253400                  0.159116      -0.0335024     -0.000111945     0.000339372         0.212525        0.964137        -0.000457    -0.000215045
                     9.22356e-05     0.000406777        0.0855175        0.211098     -0.000292342      -0.0005427        -0.973298       0.0365987
                        0.212103        0.962606     -0.000286198    -0.000609263         0.161378      -0.0392116      0.000288045     0.000165591
                    -0.000569358    -0.000225433        -0.973353       0.0357738      0.000276455     5.41437e-05       -0.0698437        0.217014
253600                  0.145852      -0.0394303      -6.5815e-05     0.000357956         0.293714        0.944365     -0.000486606    -0.000187551
                     0.000111092      0.00038392        0.0957676         0.20827     -0.000348073    -0.000523021        -0.968161        0.102589
                        0.293123        0.943331     -0.000356142    -0.000577638         0.144075      -0.0522208      0.000288212     0.000140056
                    -0.000597656     -0.00018234        -0.968261        0.101868      0.000260266     2.31293e-05       -0.0502926        0.223795
253800                  0.132425      -0.0436729     -1.43644e-05      0.00038448         0.373189        0.917596     -0.000515123    -0.000156217
                      0.00012607     0.000360288         0.105907        0.204819     -0.000402584    -0.000497561        -0.958579        0.168108
                        0.372522         0.91703     -0.000419561    -0.000536262         0.125922      -0.0621788      0.000285752     0.000114438
                    -0.000622321    -0.000135711         -0.95871        0.167488      0.000240175    -5.64448e-06       -0.0300872        0.228685
254000                  0.119029       -0.046235      4.33803e-05     0.000422959         0.450317        0.883969     -0.000542017    -0.000120939
                     0.000137144     0.000336506         0.115893        0.200748     -0.000455136      -0.0004664        -0.944589        0.232862
                        0.449659        0.883828     -0.000474741    -0.000487422         0.107373      -0.0690948      0.000280516      8.8928e-05
                    -0.000642866    -8.59607e-05        -0.944739        0.232337      0.000216438    -3.16792e-05      -0.00941929        0.231621
254200                  0.105855      -0.0471447      0.000107952     0.000480866         0.524478        0.843688     -0.000566695    -8.16934e-05
                     0.000144396     0.000313182         0.125681        0.196067        -0.000505    -0.000429737        -0.926248        0.296556
                        0.523897        0.843911     -0.000520887    -0.000433673        0.0888602      -0.0730351      0.000272356     6.37577e-05
                    -0.000658872    -3.35814e-05        -0.926406        0.296118      0.000189376    -5.45115e-05        0.0115143        0.232561
254400                 0.0930904      -0.0464524      0.000176739     0.000572776         0.595067        0.797016     -0.000588521    -3.85552e-05
                     0.000147999     0.000290893         0.135227        0.190785     -0.000551487    -0.000387885         -0.90363        0.358904
                        0.594615        0.797534     -0.000558084    -0.000377457        0.0707839      -0.0741165       0.00026113     3.92091e-05
                    -0.000670005     2.08685e-05        -0.903788        0.358543      0.000159366    -7.37217e-05        0.0325137        0.231484
254600                 0.0809139      -0.0442305      0.000232682     0.000726301         0.661505        0.744275     -0.000606833     8.28445e-06
                     0.000148214     0.000270164         0.144489        0.184919     -0.000593964    -0.000341259         -0.87683         0.41962
                        0.661215        0.745015     -0.000587105    -0.000320823        0.0535163      -0.0724992       0.00024671     1.56174e-05
                    -0.000676027      7.6784e-05        -0.876981        0.419325      0.000126838    -8.89405e-05        0.0533772        0.228386
254800                 0.0694939      -0.0405721       0.00020371     0.000973738         0.723242        0.685846     -0.000620966     5.85051e-05
                     0.000145366     0.000251461         0.153426        0.178486     -0.000631875    -0.000290365        -0.845958        0.478428
                        0.723131        0.686732     -0.000609164    -0.000265281        0.0373963      -0.0683818         0.000229     -6.6255e-06
                    -0.000676805     0.000133535        -0.846098        0.478188      9.22652e-05    -9.98551e-05         0.073904        0.223286
255000                  0.058986      -0.0355891     -7.79922e-05      0.00121546         0.779766        0.622163     -0.000630283     0.000111649
                     0.000139836     0.000235188         0.161995        0.171506     -0.000664756     -0.00023578        -0.811143        0.535057
                        0.779833        0.623122     -0.000625673    -0.000211764        0.0227291      -0.0619965      0.000207942    -2.70692e-05
                     -0.00067231     0.000190488         -0.81127        0.534862      5.61537e-05    -0.000106212        0.0938951         0.21622
255200                 0.0495306       -0.029411     -0.000487311      0.00109175         0.830606        0.553707     -0.000634208      0.00016712
                     0.000132042     0.000221679          0.17016        0.164004     -0.000692243    -0.000178129        -0.772533        0.589246
                        0.830838        0.554675     -0.000638052    -0.000160691       0.00978445      -0.0536054      0.000183541    -4.52065e-05
                    -0.000662616     0.000247026        -0.772648        0.589084      1.90366e-05    -0.000107822         0.113156        0.207247
255400                 0.0412505      -0.0221822     -0.000587746     0.000770467         0.875342         0.48101      -0.00063226     0.000224194
                     0.000122431     0.000211205          0.17788        0.156006     -0.000714075    -0.000118065        -0.730292        0.640741
                        0.875711         0.48193     -0.000647601     -0.00011205      -0.00120428      -0.0434968      0.000155878    -6.04787e-05
                    -0.000647891     0.000302569        -0.730395        0.640603     -1.85354e-05    -0.000104557         0.131498        0.196441
255600                 0.0342501      -0.0140598     -0.000503355     0.000569625         0.913606        0.404638     -0.000624089     0.000282042
                     0.000111467      0.00020397         0.185122        0.147544     -0.000730094    -5.62494e-05        -0.684598        0.689301
                        0.914075        0.405467     -0.000655428    -6.54967e-05       -0.0100421      -0.0319821       0.00012513     -7.2286e-05
                    -0.000628388     0.000356592        -0.684694        0.689177     -5.60018e-05    -9.63561e-05         0.148739        0.183899
255800                 0.0286132     -0.00521116     -0.000395788     0.000474147         0.945086        0.325195     -0.000609501     0.000339752
                     9.96222e-05     0.000200122          0.19185        0.138649     -0.000740238     6.66871e-06        -0.635648        0.734693
                        0.945426        0.325837     -0.000662408    -2.04435e-05       -0.0165744      -0.0193926      9.15903e-05    -8.00043e-05
                    -0.000604426     0.000408632         -0.63574        0.734578     -9.27991e-05    -8.32199e-05         0.164707        0.169733
256000                 0.0244026      0.00418899     -0.000302079     0.000430611         0.969532         0.24331     -0.000588479     0.000396378
                     8.73712e-05     0.000199756         0.198034        0.129358     -0.000744532     7.00683e-05        -0.583653        0.776699
                        0.969823        0.243812     -0.000669174     2.38757e-05       -0.0206886     -0.00607597      5.56856e-05    -8.30083e-05
                    -0.000576381       0.0004583        -0.583747        0.776587     -0.000128368    -6.52122e-05         0.179243        0.154075
256200                 0.0216593       0.0139611     -0.000223978     0.000411682         0.986758        0.159634      -0.00056119     0.000450973
                     7.51897e-05     0.000202913         0.203645        0.119707     -0.000743075     0.000133369        -0.528838        0.815114
                        0.987113        0.160026     -0.000676105     6.83522e-05       -0.0223172       0.0076078      1.79859e-05    -8.07014e-05
                    -0.000544668     0.000505286        -0.528939        0.815001      -0.00016216    -4.24572e-05         0.192197         0.13707
