! TOUCHSTONE file generated by CST MICROWAVE STUDIO
! Date and time: Sun Sep 28 21:29:18 2025
! Project name: biblioteca3_folgaOK.cst
! Parameters = {H=600; Lx=300; Ly=300; Nedge=28; P=520; mesh_pilar_nm=40; t_air=3500; t_sub=4000}
! Header version: 2018
! Port assignment regex: !\s*Touchstone port\s*([0-9]+)\s*=\s*(CST MWS port|CST DS port)\s*([0-9]+|Zmin|Zmax)\s*\(\"(.*)\"\)(\s*mode\s*([0-9]+))?.*
! Touchstone port assignment:
! Touchstone port 1 = CST MWS port Zmin ("") mode 1
! Touchstone port 2 = CST MWS port Zmin ("") mode 2
! Touchstone port 3 = CST MWS port Zmax ("") mode 1
! Touchstone port 4 = CST MWS port Zmax ("") mode 2
! S-Parameters are not renormalized. Each port impedance will be approximated by the real part at minimum frequency. The values are described via the [Reference] keyword.
! Default impedance is overridden by [Reference]
[Version] 2.0
# GHz S RI R 376.73
[Number of Ports] 4
[Reference]
376.73 376.73 376.73 376.73 
[Number of Frequencies] 401
[Network Data]
250000                  0.209316        0.217245      0.000257359     7.92924e-05         0.167821        0.938523      0.000712284    -0.000237157
                     0.000256013     8.06294e-05         0.211605        0.215825      0.000725735      -0.0001716         0.168142        0.938279
                        0.167822        0.938526      0.000723637    -0.000171816         0.121061       -0.276321      -0.00021574    -0.000355321
                     0.000712795    -0.000238176         0.168144        0.938285     -0.000219822     -0.00035439          0.12349       -0.275874
250200                  0.227538        0.194498      0.000280008     4.69989e-05         0.257098        0.918859      0.000692001    -0.000309156
                     0.000279039     4.58896e-05         0.229708        0.192712      0.000709928     -0.00024061         0.257404        0.918607
                        0.257099        0.918856      0.000708594    -0.000246377        0.0935599       -0.284341     -0.000233852    -0.000336443
                     0.000690863    -0.000310619         0.257404        0.918608     -0.000231968      -0.0003337         0.096124       -0.284012
250400                  0.243052        0.170071      0.000299132     1.36555e-05         0.344207        0.890803       0.00066171    -0.000380248
                     0.000298197     1.06615e-05         0.245051        0.167937      0.000686345    -0.000308202         0.344502        0.890542
                        0.344207        0.890798      0.000688275    -0.000315234        0.0655457       -0.289312     -0.000247007    -0.000317903
                     0.000659873    -0.000380534           0.3445        0.890541     -0.000242645    -0.000315651        0.0682374        -0.28913
250600                  0.255686        0.144307      0.000314627    -2.12292e-05         0.428375        0.854578      0.000621753    -0.000447842
                     0.000313398    -2.55017e-05         0.257467        0.141848      0.000655234    -0.000373359          0.42866        0.854308
                        0.428374        0.854573      0.000659131    -0.000377375        0.0373736       -0.291207     -0.000257035    -0.000300956
                      0.00062048    -0.000446673         0.428658        0.854305     -0.000252315    -0.000299561        0.0401799       -0.291196
250800                  0.265313        0.117565      0.000326235    -5.78672e-05         0.508847        0.810475      0.000573443    -0.000509947
                     0.000324502    -6.28285e-05          0.26683        0.114813      0.000617006    -0.000435131         0.509126        0.810193
                        0.508846        0.810471       0.00062022    -0.000435452       0.00939993       -0.290038     -0.000265404    -0.000285692
                     0.000573494    -0.000507974         0.509124        0.810189     -0.000261275    -0.000284942        0.0123031       -0.290222
251000                  0.271853       0.0902194      0.000333597    -9.62482e-05         0.584896        0.758854      0.000518445    -0.000565435
                     0.000331312    -0.000101373         0.273066       0.0872123      0.000572206    -0.000492669          0.58517        0.758556
                        0.584895        0.758851      0.000573743    -0.000490592        -0.018023       -0.285861     -0.000272997    -0.000271755
                     0.000519834    -0.000563576         0.585168        0.758552     -0.000269724    -0.000271428       -0.0150449        -0.28626
251200                  0.275273       0.0626521      0.000336307     -0.00013617         0.655828        0.700138      0.000458297    -0.000613873
                     0.000333581     -0.00014104         0.276146       0.0594331      0.000521493    -0.000545239         0.656097        0.699821
                        0.655827        0.700137      0.000521598     -0.00054206       -0.0445516       -0.278772     -0.000280268    -0.000258715
                     0.000460474    -0.000612812         0.656096        0.699818     -0.000277797    -0.000258744       -0.0415241       -0.279401
251400                  0.275591       0.0352449      0.000333952    -0.000177255         0.720984        0.634816      0.000394226    -0.000655209
                     0.000331029    -0.000181596         0.276094       0.0318624      0.000465603    -0.000592241         0.721248        0.634475
                        0.720984        0.634815      0.000464871    -0.000588874       -0.0698562       -0.268908     -0.000287411    -0.000246213
                     0.000396409      -0.0006552         0.721248        0.634472     -0.000285589    -0.000246673        -0.066807       -0.269778
251600                  0.272871      0.00837456      0.000326157    -0.000218967         0.779752        0.563435      0.000327164     -0.00068953
                     0.000323366    -0.000222677         0.272982      0.00488119      0.000405324     -0.00063321         0.780008        0.563067
                        0.779752        0.563435      0.000404305    -0.000630295       -0.0936248       -0.256442     -0.000294484    -0.000233977
                      0.00032862    -0.000690426         0.780009        0.563064     -0.000293166    -0.000235043       -0.0905841       -0.257562
251800                  0.267227      -0.0175937      0.000312623    -0.000260629         0.831565          0.4866      0.000257843     -0.00071694
                     0.000310319    -0.000263791          0.26693      -0.0211421      0.000341462    -0.000667814          0.83181          0.4862
                        0.831566          0.4866      0.000340551    -0.000665821        -0.115568       -0.241586     -0.000301475    -0.000221819
                     0.000258051    -0.000718323         0.831813        0.486197     -0.000300574    -0.000223713        -0.112567       -0.242957
252000                  0.258816      -0.0423123      0.000293169    -0.000301449         0.875912        0.404968      0.000186881    -0.000737519
                     0.000291658     -0.00030432         0.258106      -0.0458578      0.000274821    -0.000695846         0.876144        0.404534
                        0.875914        0.404969      0.000274247    -0.000695122        -0.135425       -0.224582     -0.000308345    -0.000209612
                     0.000185592    -0.000738843         0.876147         0.40453     -0.000307845    -0.000212568        -0.132494       -0.226202
252200                  0.247842       -0.065457      0.000267754    -0.000340553         0.912342        0.319246      0.000114844    -0.000751318
                     0.000267235    -0.000343531         0.246721       -0.068941      0.000206178    -0.000717212         0.912554        0.318776
                        0.912344        0.319247      0.000206027    -0.000717999        -0.152961       -0.205705      -0.00031504    -0.000197279
                     0.000112066    -0.000752041         0.912558        0.318772     -0.000314998    -0.000201506        -0.150132       -0.207568
252400                  0.234548      -0.0867327      0.000236508    -0.000377021         0.940466        0.230186      4.22802e-05    -0.000758383
                     0.000237014    -0.000380591         0.233026      -0.0900973      0.000136271    -0.000731912         0.940652        0.229677
                        0.940467        0.230187      0.000136518    -0.000734352        -0.167981       -0.185256     -0.000321508    -0.000184776
                     3.82299e-05    -0.000758047         0.940656        0.229672     -0.000322044    -0.000190441        -0.165284        -0.18735
252600                  0.219213       -0.105878      0.000199733    -0.000409933         0.959963        0.138576      -3.0268e-05    -0.000758765
                     0.000201103    -0.000414591          0.21731       -0.109068      6.57888e-05    -0.000740027         0.960117        0.138028
                        0.959964        0.138577      6.63327e-05    -0.000744163        -0.180323       -0.163557       -0.0003277    -0.000172083
                    -3.52285e-05    -0.000757052         0.960121        0.138023     -0.000328985    -0.000179295        -0.177785       -0.165867
252800                  0.202149       -0.122672       0.00015791    -0.000438412         0.970586       0.0452404     -0.000102257    -0.000752537
                     0.000159787    -0.000444582         0.199892       -0.125634     -4.63792e-06      -0.0007417         0.970702       0.0446531
                        0.970586       0.0452405     -3.93905e-06    -0.000747482        -0.189866       -0.140949     -0.000333575    -0.000159204
                    -0.000107688    -0.000749291         0.970705       0.0446479     -0.000335814    -0.000167999        -0.187514       -0.143455
253000                  0.183696       -0.136936      0.000111678    -0.000461662         0.972164      -0.0489725     -0.000173143    -0.000739806
                     0.000113543    -0.000469614         0.181121       -0.139621     -7.44354e-05     -0.00073712         0.972234      -0.0495974
                        0.972164      -0.0489724     -7.37357e-05    -0.000744414        -0.196532       -0.117787       -0.0003391    -0.000146153
                    -0.000178588    -0.000735027         0.972236      -0.0496022     -0.000342517    -0.000156487        -0.194388       -0.120466
253200                  0.164213       -0.148537      6.18149e-05    -0.000479008         0.964606       -0.143193     -0.000242389    -0.000720714
                      6.3052e-05    -0.000488792         0.161362       -0.150905     -0.000143086    -0.000726512         0.964621       -0.143852
                        0.964604       -0.143192     -0.000142527    -0.000735108        -0.200286      -0.0944334     -0.000344254    -0.000132957
                    -0.000247422    -0.000714547         0.964623       -0.143856     -0.000349072    -0.000144698         -0.19837      -0.0972603
253400                  0.144076       -0.157394      9.20292e-06    -0.000489916         0.947902       -0.236538     -0.000309468    -0.000695443
                       9.189e-06    -0.000501325         0.140998       -0.159409     -0.000210126    -0.000710118         0.947855       -0.237227
                        0.947899       -0.236537     -0.000209815    -0.000719754        -0.201139      -0.0712546     -0.000349028    -0.000119648
                    -0.000313731     -0.00068815         0.947856       -0.237231     -0.000355446    -0.000132576        -0.199464      -0.0742002
253600                   0.12367       -0.163477     -4.52048e-05    -0.000494009         0.922127       -0.328119     -0.000373871    -0.000664217
                    -4.69993e-05    -0.000506581         0.120418       -0.165111     -0.000275137    -0.000688196         0.922011       -0.328833
                        0.922124       -0.328118     -0.000275136    -0.000698568        -0.199145      -0.0486139     -0.000353422    -0.000106264
                    -0.000377097    -0.000656141         0.922012       -0.328836     -0.000361596    -0.000120067        -0.197724       -0.051648
253800                   0.10338       -0.166808     -0.000100421    -0.000491072         0.887443       -0.417052     -0.000435105    -0.000627296
                    -0.000104334    -0.000504131          0.10001       -0.168043     -0.000337741    -0.000661008         0.887251       -0.417784
                        0.887439        -0.41705     -0.000338056    -0.000671794        -0.194405       -0.026867     -0.000357451    -9.28421e-05
                    -0.000437136    -0.000618833         0.887251       -0.417785     -0.000367462    -0.000107122        -0.193243      -0.0299583
254000                 0.0835859       -0.167465     -0.000155455    -0.000481047         0.844097       -0.502463     -0.000492702    -0.000584976
                    -0.000161554    -0.000493777        0.0801565        -0.16829     -0.000397596    -0.000628813         0.843824       -0.503204
                        0.844093        -0.50246     -0.000398173    -0.000639691        -0.187065      -0.0063562     -0.000361143    -7.94199e-05
                    -0.000493489    -0.000576541         0.843824       -0.503204     -0.000372969    -9.36981e-05        -0.186164     -0.00947296
254200                 0.0646546       -0.165576     -0.000209343    -0.000464019         0.792424       -0.583495     -0.000546221    -0.000537588
                    -0.000217381    -0.000475571        0.0612253       -0.165991     -0.000454383    -0.000591871         0.792064       -0.584236
                        0.792421       -0.583492      -0.00045511    -0.000602537        -0.177311       0.0125952     -0.000364536    -6.60298e-05
                    -0.000545821    -0.000529585         0.792065       -0.584235     -0.000378019    -7.97619e-05        -0.176668      0.00948427
254400                 0.0469327       -0.161322     -0.000261165    -0.000440198         0.732845       -0.659324     -0.000595247    -0.000485494
                    -0.000270572     -0.00044981        0.0435623       -0.161334     -0.000507804    -0.000550437         0.732394       -0.660054
                        0.732843       -0.659321     -0.000508516     -0.00056062        -0.165373       0.0296883     -0.000367682    -5.26981e-05
                    -0.000593814    -0.000478287         0.732395       -0.660053     -0.000382483     -6.5297e-05         -0.16498       0.0266133
254600                 0.0307394       -0.154933     -0.000310058    -0.000409905         0.665864        -0.72916     -0.000639391    -0.000429081
                    -0.000319982    -0.000417011        0.0274845       -0.154558     -0.000557571    -0.000504763         0.665319       -0.729867
                        0.665862       -0.729156     -0.000558059    -0.000514242        -0.151516       0.0446533     -0.000370645    -3.94411e-05
                    -0.000637161    -0.000422978          0.66532       -0.729865     -0.000386201    -5.03148e-05         -0.15136       0.0416427
254800                 0.0163595       -0.146682     -0.000355225    -0.000373551         0.592065       -0.792258     -0.000678296    -0.000368764
                    -0.000364607    -0.000377878        0.0132735       -0.145946     -0.000603406      -0.0004551         0.591425       -0.792931
                        0.592064       -0.792255     -0.000603426    -0.000463713        -0.136039       0.0572548     -0.000373499     -2.6263e-05
                    -0.000675565    -0.000363999         0.591427       -0.792929     -0.000388964    -3.48747e-05        -0.136105       0.0543344
255000                0.00403708       -0.136883     -0.000395936    -0.000331622          0.51211        -0.84793     -0.000711631    -0.000304983
                    -0.000403614    -0.000333258       0.00116885       -0.135819     -0.000645031    -0.000401701         0.511376       -0.848555
                         0.51211       -0.847927     -0.000644319    -0.000409355        -0.119272       0.0672957     -0.000376329     -1.3153e-05
                    -0.000708736    -0.000301704         0.511378       -0.848553     -0.000390517    -1.91166e-05         -0.11954       0.0644881
255200               -0.00603018       -0.125887     -0.000431525    -0.000284669         0.426736       -0.895548     -0.000739089    -0.000238199
                    -0.000436358    -0.000284089      -0.00863724       -0.124533     -0.000682164    -0.000344827         0.425908       -0.896112
                        0.426736       -0.895547     -0.000680453    -0.000351506        -0.101569        0.074621     -0.000379228    -8.18553e-08
                     -0.00073639    -0.000236464          0.42591       -0.896112     -0.000390559    -3.31672e-06        -0.102017       0.0719453
255400                 -0.013696        -0.11407     -0.000461388    -0.000233298         0.336741       -0.934558     -0.000760396    -0.000168899
                    -0.000462383    -0.000231352       -0.0160049       -0.112472     -0.000714519    -0.000284755         0.335824       -0.935047
                        0.336742       -0.934558     -0.000711552    -0.000290514       -0.0833044        0.079121     -0.000382295     1.30005e-05
                    -0.000758248    -0.000168674         0.335826       -0.935048     -0.000388774     1.20263e-05       -0.0839057        0.076592
255600                -0.0188696       -0.101832      -0.00048498    -0.000178169         0.242988       -0.964481     -0.000775299    -9.75914e-05
                    -0.000481412    -0.000176033       -0.0208506        -0.10004     -0.000741801    -0.000221777         0.241987       -0.964881
                        0.242989       -0.964482      -0.00073735     -0.00022675       -0.0648647       0.0807334     -0.000385633     2.61686e-05
                    -0.000774037    -9.87566e-05         0.241989       -0.964884     -0.000384932     2.60661e-05       -0.0655931       0.0783614
255800                -0.0215188      -0.0895859     -0.000501811    -0.000119999          0.14639       -0.984923     -0.000783574    -2.48134e-05
                    -0.000493321    -0.000119083       -0.0231497       -0.087654     -0.000763708    -0.000156219         0.145312       -0.985221
                        0.146391       -0.984926     -0.000757588    -0.000160606       -0.0466455       0.0794452     -0.000389348     3.95249e-05
                     -0.00078349     -2.7169e-05         0.145312       -0.985226     -0.000379147     3.74759e-05       -0.0474731       0.0772357
256000                -0.0216719        -0.07775     -0.000511454    -5.95609e-05        0.0479035       -0.995581     -0.000785024     4.88712e-05
                    -0.000498124    -6.13982e-05       -0.0229389      -0.0757351     -0.000779928    -8.84412e-05        0.0467571       -0.995765
                       0.0479035       -0.995587     -0.000772017    -9.25012e-05       -0.0290432       0.0752929     -0.000393546     5.32035e-05
                    -0.000786351     4.55919e-05         0.046756       -0.995771     -0.000372394     4.44509e-05        -0.029942       0.0732463
256200                 -0.019419      -0.0667414     -0.000513546     2.31023e-06       -0.0514799       -0.996248     -0.000779478     0.000122866
                    -0.000495936    -3.80224e-06       -0.0203166      -0.0647018     -0.000790147    -1.88509e-05       -0.0526835       -0.996304
                      -0.0514812       -0.996255     -0.000780397     -2.2891e-05       -0.0124498       0.0683622     -0.000398326     6.73746e-05
                    -0.000782378     0.000118982       -0.0526869       -0.996311     -0.000367291       4.525e-05       -0.0133923       0.0664741
