! TOUCHSTONE file generated by CST MICROWAVE STUDIO
! Date and time: Fri Sep 26 07:21:57 2025
! Project name: biblioteca3_folgaOK.cst
! Parameters = {H=600; Lx=200; Ly=260; Nedge=10; P=520; k=0; mesh_pilar_nm=40; n=0; t_air=3500; t_sub=2000; wavelength_nm=0}
! Header version: 2018
! Port assignment regex: !\s*Touchstone port\s*([0-9]+)\s*=\s*(CST MWS port|CST DS port)\s*([0-9]+|Zmin|Zmax)\s*\(\"(.*)\"\)(\s*mode\s*([0-9]+))?.*
! Touchstone port assignment:
! Touchstone port 1 = CST MWS port Zmin ("") mode 1
! Touchstone port 2 = CST MWS port Zmin ("") mode 2
! Touchstone port 3 = CST MWS port Zmax ("") mode 1
! Touchstone port 4 = CST MWS port Zmax ("") mode 2
! S-Parameters are not renormalized. Each port impedance will be approximated by the real part at minimum frequency. The values are described via the [Reference] keyword.
! Default impedance is overridden by [Reference]
[Version] 2.0
# GHz S RI R 376.73
[Number of Ports] 4
[Reference]
376.73 376.73 376.73 376.73 
[Number of Frequencies] 401
[Network Data]
250000                 -0.291376       -0.112714      0.000532046     -0.00124446         0.650753       -0.692062      0.000530905      0.00163414
                     0.000566435     -0.00128927       -0.0143004        -0.19666     -0.000667793      0.00170461         0.762533        0.616156
                        0.650614        -0.69208     -0.000691269      0.00165557         -0.13045       -0.283892      0.000146052    -0.000815579
                     0.000542381      0.00167972         0.762747        0.616062      8.07147e-05    -0.000870863          0.19525      -0.0272907
250200                 -0.290712      -0.0925765      0.000415718     -0.00126633         0.595918       -0.743016      0.000634788      0.00160639
                     0.000448744     -0.00132198       -0.0229978       -0.198884     -0.000557626      0.00178565         0.800447        0.565103
                        0.596042       -0.742925     -0.000574863      0.00174637        -0.153484       -0.263695      0.000110712    -0.000840575
                     0.000652985      0.00164346         0.800647        0.565013       4.2878e-05    -0.000891688         0.195125       -0.044799
250400                 -0.288374      -0.0728321      0.000298047     -0.00128054         0.536904       -0.789742      0.000738484      0.00157313
                     0.000327878     -0.00134522       -0.0319438       -0.200614     -0.000436164      0.00185924         0.834964        0.511681
                        0.537242       -0.789607     -0.000446277      0.00182772         -0.17377       -0.241396      7.25719e-05    -0.000864808
                     0.000762089      0.00160181         0.835156        0.511598      2.41268e-06    -0.000911509          0.19332      -0.0624551
250600                 -0.284407      -0.0536398      0.000179429     -0.00128688         0.474024       -0.831884      0.000841787      0.00153415
                     0.000204639     -0.00135859       -0.0411072       -0.201828       -0.0003039      0.00192373         0.865939        0.456121
                        0.474523       -0.831752     -0.000306484      0.00189783        -0.191092       -0.217358      3.14991e-05    -0.000888055
                     0.000869558      0.00155462         0.866126        0.456044     -4.07863e-05    -0.000930097         0.189809       -0.080084
250800                 -0.278873      -0.0351548      6.02886e-05     -0.00128517         0.407622       -0.869106      0.000944457      0.00148922
                     7.98869e-05     -0.00136177       -0.0504546       -0.202509     -0.000161606      0.00197748         0.893238        0.398659
                        0.408229        -0.86901     -0.000156763      0.00195508        -0.205284        -0.19197     -1.26315e-05     -0.00091006
                     0.000975223      0.00150176         0.893424        0.398587     -8.68146e-05    -0.000947195         0.184587      -0.0975081
251000                 -0.271848      -0.0175264     -5.89107e-05     -0.00127521         0.338073       -0.901097       0.00104621      0.00143814
                    -4.54755e-05      -0.0013545       -0.0599513       -0.202639     -1.03366e-05      0.00201893         0.916749        0.339539
                         0.33874       -0.901051      1.34103e-06      0.00199803        -0.216229       -0.165636     -5.99351e-05    -0.000930538
                      0.00107888      0.00144308         0.916935        0.339471     -0.000135755    -0.000962519         0.177669        -0.11455
251200                 -0.263427    -0.000895815     -0.000177667     -0.00125682          0.26578       -0.927569       0.00114673      0.00138068
                    -0.000170507     -0.00133663        -0.069561       -0.202206      0.000148584      0.00204666          0.93637        0.279012
                        0.266464       -0.927578      0.000166058      0.00202552        -0.223861       -0.138771     -0.000110513     -0.00094917
                      0.00118027      0.00137843         0.936558        0.278947     -0.000187674     -0.00097575          0.16909       -0.131034
251400                 -0.253718       0.0146048     -0.000295436     -0.00122984         0.191178       -0.948264       0.00124566      0.00131664
                    -0.000294237      -0.0013081        -0.079246       -0.201196      0.000313587      0.00205944         0.952021        0.217333
                        0.191841       -0.948322      0.000335457      0.00203669         -0.22817       -0.111796     -0.000164448    -0.000965599
                      0.00127911      0.00130766         0.952211        0.217269     -0.000242613    -0.000986539         0.158902       -0.146791
251600                 -0.242843       0.0288546     -0.000411627     -0.00119415         0.114724       -0.962956       0.00134257      0.00124582
                    -0.000415678     -0.00126893       -0.0889676       -0.199602      0.000482896      0.00205628         0.963635        0.154762
                         0.11534        -0.96305      0.000507506      0.00203097        -0.229199      -0.0851306     -0.000221798    -0.000979433
                      0.00137506      0.00123063         0.963826        0.154697     -0.000300588    -0.000994502         0.147177       -0.161654
251800                 -0.230939       0.0417456     -0.000525607     -0.00114964        0.0369051       -0.971455       0.00143701      0.00116805
                    -0.000533838     -0.00121926       -0.0986861       -0.197417      0.000654582      0.00203649         0.971164       0.0915616
                       0.0374534       -0.971567      0.000680146      0.00200815        -0.227042      -0.0591835     -0.000282587    -0.000990239
                      0.00146776      0.00114723         0.971355       0.0914941     -0.000361577     -0.00099922         0.134003        -0.17547
252000                 -0.218151       0.0531841     -0.000636694     -0.00109626       -0.0417716       -0.973609       0.00152849      0.00108318
                    -0.000647726     -0.00115933        -0.108361       -0.194638      0.000826618      0.00199967         0.974574       0.0279964
                      -0.0413016       -0.973719      0.000851348      0.00196831         -0.22185      -0.0343491     -0.000346803    -0.000997544
                      0.00155676      0.00105735         0.974764       0.0279253     -0.000425517     -0.00100024         0.119484       -0.188092
252200                 -0.204638       0.0630923     -0.000744163     -0.00103401        -0.120778       -0.969308       0.00161644     0.000991097
                    -0.000756371     -0.00108948        -0.117952       -0.191263      0.000996943      0.00194572          0.97385      -0.0356676
                        -0.12039       -0.969396       0.00101917      0.00191183        -0.213821      -0.0109989     -0.000414382     -0.00100084
                       0.0016416     0.000960915         0.974037      -0.0357432      -0.00049229    -0.000997088         0.103739       -0.199386
252400                 -0.190565       0.0714094     -0.000847247    -0.000962942        -0.199571       -0.958486       0.00170026     0.000891717
                    -0.000858831     -0.00101015        -0.127416       -0.187295       0.00116352      0.00187487         0.968993      -0.0991645
                        -0.19926       -0.958534       0.00118182      0.00183933        -0.203203        0.010525     -0.000485203    -0.000999574
                      0.00172176     0.000857882         0.969175      -0.0992453     -0.000561719    -0.000989245        0.0868986       -0.209231
252600                 -0.176105       0.0780927     -0.000945145    -0.000883195        -0.277593       -0.941127        0.0017793     0.000785015
                    -0.000954205    -0.000921898        -0.136713        -0.18274       0.00132441      0.00178765          0.96002       -0.162229
                       -0.277349        -0.94112       0.00133764      0.00175164        -0.190287       0.0299166     -0.000559077    -0.000993171
                      0.00179669     0.000748252         0.960196       -0.162315     -0.000633555    -0.000976183         0.069107       -0.217519
252800                 -0.161435       0.0831184      -0.00103702    -0.000794984        -0.354279       -0.917263       0.00185287     0.000671024
                     -0.00104165    -0.000825346        -0.145802       -0.177606       0.00147779      0.00168482         0.946966       -0.224598
                        -0.35409        -0.91719       0.00148519      0.00164975        -0.175404       0.0469117     -0.000635732    -0.000981024
                      0.00186577     0.000632077         0.947133        -0.22469     -0.000707469    -0.000957353         0.050517       -0.224159
253000                 -0.146733       0.0864825      -0.00112203    -0.000698615        -0.429062        -0.88698       0.00192024     0.000549841
                     -0.00112037    -0.000721228        -0.154642       -0.171904       0.00162201      0.00156737         0.929879       -0.286011
                        -0.42891       -0.886834       0.00162321      0.00153476        -0.158915       0.0612938     -0.000714804    -0.000962507
                      0.00192836     0.000509466         0.930036       -0.286107     -0.000783038    -0.000932207        0.0312901       -0.229073
253200                  -0.13218       0.0882011      -0.00119931      -0.0005945        -0.501376       -0.850415       0.00198063     0.000421642
                     -0.00118968    -0.000610349        -0.163191       -0.165649       0.00175562      0.00143649         0.908828        -0.34621
                       -0.501243       -0.850195       0.00175064      0.00140787        -0.141211       0.0728982     -0.000795827    -0.000936992
                      0.00198378     0.000380597         0.908972       -0.346311     -0.000859741    -0.000900204         0.011595         -0.2322
253400                 -0.117953       0.0883103        -0.001268    -0.000483157        -0.570663       -0.807761       0.00203326     0.000286687
                     -0.00124894    -0.000493588        -0.171411       -0.158858       0.00187738      0.00129345         0.883892       -0.404942
                       -0.570532       -0.807471       0.00186659      0.00127028        -0.122702       0.0816166     -0.000878219    -0.000903857
                      0.00203133     0.000245724         0.884022       -0.405047     -0.000936947    -0.000860829      -0.00839421       -0.233497
253600                 -0.104224       0.0868661      -0.00132727    -0.000365218        -0.636379       -0.759264        0.0020773     0.000145331
                     -0.00129762    -0.000371887        -0.179264       -0.151552       0.00198627      0.00113965         0.855171       -0.461962
                       -0.636233       -0.758912       0.00197034      0.00112325        -0.103807       0.0873991     -0.000961274     -0.00086251
                      0.00207028     0.000105185         0.855285       -0.462069      -0.00101391    -0.000813616       -0.0284998       -0.232937
253800                -0.0911584       0.0839442      -0.00137632    -0.000241434        -0.697999       -0.705225       0.00211195    -1.96876e-06
                      -0.0013353    -0.000246236        -0.186711       -0.143755       0.00208144     0.000976501         0.822775       -0.517026
                       -0.697825       -0.704822       0.00206132      0.00096797       -0.0849481        0.090256      -0.00104416    -0.000812409
                      0.00209988    -4.05884e-05         0.822873       -0.517135      -0.00108978    -0.000758166       -0.0485415       -0.230509
254000                -0.0789117       0.0796387      -0.00141441    -0.000112671        -0.755024       -0.645996       0.00213638    -0.000154648
                     -0.00136164    -0.000117663        -0.193718       -0.135492       0.00216225     0.000805444         0.786834       -0.569901
                       -0.754812       -0.645557       0.00213908     0.000805654       -0.0665425       0.0902579       -0.0011259     -0.00075309
                      0.00211941    -0.000191064         0.786914       -0.570012      -0.00116358    -0.000694175       -0.0683386       -0.226222
254200                -0.0676283       0.0740612      -0.00144089     2.00905e-05        -0.806988       -0.581978       0.00214982    -0.000312029
                     -0.00137642     1.27765e-05        -0.200251       -0.126793       0.00222824     0.000627902         0.747487       -0.620361
                       -0.806732       -0.581519       0.00220327      0.00063746       -0.0489906       0.0875346      -0.00120542    -0.000684192
                      0.00212815    -0.000345604          0.74755       -0.620472      -0.00123423    -0.000621461       -0.0877113       -0.220102
254400                -0.0574381       0.0673392       -0.0014552     0.000155767         -0.85346        -0.51362       0.00215151    -0.000473318
                     -0.00137953     0.000144015        -0.206278       -0.117689       0.00227907     0.000445263         0.704892       -0.668188
                       -0.853158       -0.513158       0.00225364     0.000464515       -0.0326694       0.0822721      -0.00128148    -0.000605491
                       0.0021254    -0.000503463         0.704936       -0.668298      -0.00130058    -0.000539989        -0.106482       -0.212191
254600                -0.0484553       0.0596146      -0.00145688      0.00029318        -0.894055       -0.441413       0.00214075    -0.000637606
                     -0.00137097     0.000274986        -0.211769       -0.108215       0.00231454     0.000258878         0.659218       -0.713173
                       -0.893709       -0.440964       0.00228999      0.00028791       -0.0179233       0.0747088      -0.00135277    -0.000516932
                      0.00211052    -0.000663785         0.659242       -0.713282       -0.0013614    -0.000449901        -0.124478       -0.202551
254800                -0.0407766       0.0510413      -0.00144562     0.000431073        -0.928432       -0.365886       0.00211693    -0.000803872
                     -0.00135082     0.000404631        -0.216696      -0.0984079       0.00233455     7.00443e-05         0.610646        -0.75512
                       -0.928048       -0.365464       0.00231218     0.000108709      -0.00505707       0.0651304       -0.0014179    -0.000418655
                      0.00208294    -0.000825602          0.61065       -0.755227      -0.00141542    -0.000351534        -0.141531       -0.191257
255000                -0.0344794       0.0417832      -0.00142126     0.000568131        -0.956305         -0.2876       0.00207951    -0.000970988
                      -0.0013193     0.000531918        -0.221036      -0.0883053       0.00233909    -0.000119983         0.559371       -0.793841
                       -0.955892       -0.287218       0.00232012    -7.20423e-05       0.00567128       0.0538628      -0.00147543    -0.000311023
                      0.00204215    -0.000987842         0.559356       -0.793945      -0.00146137     -0.00024544        -0.157482       -0.178404
255200                -0.0296212       0.0320115      -0.00138381     0.000703004        -0.977442       -0.207144       0.00202809     -0.00113773
                     -0.00127671     0.000655849        -0.224765      -0.0779487        0.0023282    -0.000309993           0.5056       -0.829162
                       -0.977011       -0.206811       0.00231376    -0.000253314        0.0140558        0.041265       -0.0015239    -0.000194642
                      0.00198776     -0.00114934         0.505565       -0.829262      -0.00149804    -0.000132391        -0.172179       -0.164102
255400                -0.0262383       0.0219025      -0.00133342      0.00083433        -0.991669       -0.125127       0.00196236     -0.00130279
                     -0.00122344      0.00077547        -0.227866      -0.0673808         0.002302    -0.000498808         0.449551       -0.860918
                       -0.991233       -0.124849       0.00229309    -0.000434077         0.019947       0.0277206      -0.00156191    -7.03698e-05
                      0.00191951     -0.00130883         0.449495       -0.861014      -0.00152429    -1.33841e-05        -0.185483       -0.148476
255600                -0.0243459       0.0116344      -0.00127043     0.000960762        -0.998872      -0.0421719       0.00188219     -0.00146479
                     -0.00115997      0.00088988        -0.230321      -0.0566459       0.00226065    -0.000685279         0.391452       -0.888962
                       -0.998445      -0.0419515       0.00225814    -0.000613295        0.0232549       0.0136287      -0.00158817     6.06829e-05
                      0.00183724     -0.00146499         0.391374       -0.889053      -0.00153912     0.000110377        -0.197266       -0.131665
255800                -0.0239376      0.00138496      -0.00119534        0.001081        -0.998999       0.0410903       0.00178759     -0.00162232
                     -0.00108685     0.000998238        -0.232119      -0.0457898       0.00220437    -0.000868271         0.331541       -0.913156
                       -0.998595       0.0412554       0.00220897    -0.000789918        0.0239499     -0.00060496       -0.0016015     0.000197165
                      0.00174099     -0.00161645         0.331442       -0.913242      -0.00154171     0.000237502        -0.207412       -0.113821
256000                -0.0249861     -0.00867154      -0.00110882       0.0011938         -0.99206        0.124029       0.00167874     -0.00177391
                      -0.0010047      0.00109977        -0.233249      -0.0348595       0.00213342     -0.00104666         0.270064       -0.933381
                       -0.991689        0.124144       0.00214571    -0.000962879        0.0220636      -0.0145775      -0.00160096     0.000337515
                      0.00163091     -0.00176177         0.269944       -0.933461      -0.00153147     0.000366451        -0.215823      -0.0951077
256200                -0.0274437      -0.0183666      -0.00101168      0.00129803        -0.978122         0.20602       0.00155598     -0.00191812
                    -0.000914199      0.00119378        -0.233707      -0.0239031       0.00204813     -0.00121931         0.207279       -0.949529
                       -0.977796        0.206092       0.00206856     -0.00113109        0.0176865       -0.027898      -0.00158582     0.000479992
                      0.00150737     -0.00189954         0.207136       -0.949602      -0.00150804     0.000495576        -0.222416      -0.0757002
