! TOUCHSTONE file generated by CST MICROWAVE STUDIO
! Date and time: Fri Sep 26 06:38:29 2025
! Project name: biblioteca3_folgaOK.cst
! Parameters = {H=600; Lx=200; Ly=260; Nedge=10; P=520; k=0; mesh_pilar_nm=40; n=0; t_air=3500; t_sub=2000; wavelength_nm=0}
! Header version: 2018
! Port assignment regex: !\s*Touchstone port\s*([0-9]+)\s*=\s*(CST MWS port|CST DS port)\s*([0-9]+|Zmin|Zmax)\s*\(\"(.*)\"\)(\s*mode\s*([0-9]+))?.*
! Touchstone port assignment:
! Touchstone port 1 = CST MWS port Zmin ("") mode 1
! Touchstone port 2 = CST MWS port Zmin ("") mode 2
! Touchstone port 3 = CST MWS port Zmax ("") mode 1
! Touchstone port 4 = CST MWS port Zmax ("") mode 2
! S-Parameters are not renormalized. Each port impedance will be approximated by the real part at minimum frequency. The values are described via the [Reference] keyword.
! Default impedance is overridden by [Reference]
[Version] 2.0
# GHz S RI R 376.73
[Number of Ports] 4
[Reference]
376.73 376.73 376.73 376.73 
[Number of Frequencies] 401
[Network Data]
250000                  0.219086        0.236949       0.00118497     0.000507389        -0.882706        0.341872      5.42169e-05    -0.000864185
                     0.000943494     0.000275849        -0.064148         0.18862      0.000890053    -0.000826883        -0.437259       -0.877003
                       -0.882732         0.34125       0.00104964    -0.000930832      -0.00273879        0.322688       -0.0012802    -0.000765986
                     4.40793e-05    -0.000920189        -0.437059       -0.876469      -0.00134492    -0.000810504        -0.189227      -0.0622777
250200                  0.227915        0.218087       0.00120667     0.000371182        -0.854578        0.412463      -1.4449e-05    -0.000877482
                     0.000965198      0.00020549       -0.0565762        0.194275      0.000821391    -0.000882312        -0.494752       -0.845174
                       -0.854536        0.411968      0.000929703     -0.00100261        0.0286999        0.314137      -0.00132887    -0.000665884
                    -1.35082e-05    -0.000945138        -0.494388       -0.844781      -0.00138842    -0.000708628        -0.197089      -0.0458338
250400                  0.235009        0.198853       0.00121198     0.000237559        -0.820712        0.481046     -8.61962e-05    -0.000885695
                     0.000980166     0.000130936       -0.0485377        0.199549       0.00074929    -0.000931495        -0.549975       -0.809576
                       -0.820679        0.480699      0.000809302     -0.00105651        0.0585381        0.302233      -0.00136843    -0.000562474
                    -8.71375e-05    -0.000973179        -0.549504       -0.809322       -0.0014244    -0.000604613        -0.203388      -0.0284888
250600                  0.240345        0.179416       0.00120249     0.000108665        -0.781214        0.547136     -0.000160666    -0.000888279
                     0.000987831     5.30903e-05       -0.0400519        0.204398      0.000674462    -0.000974246        -0.602684       -0.770368
                       -0.781241        0.546951      0.000691116     -0.00109446        0.0863873        0.287213      -0.00139875    -0.000456892
                     -0.00018739    -0.000982552        -0.602152       -0.770245      -0.00145281    -0.000499025        -0.208025      -0.0104006
250800                  0.243918        0.159946       0.00118002    -1.38987e-05        -0.736236        0.610244     -0.000237413    -0.000884704
                     0.000987778    -2.70694e-05       -0.0311415        0.208779      0.000597615     -0.00101048        -0.652644       -0.727728
                       -0.736349        0.610234      0.000577043      -0.0011186         0.111892         0.26936       -0.0014199    -0.000350234
                    -0.000279281    -0.000953326        -0.652091       -0.727721      -0.00147361    -0.000392417        -0.210915      0.00826191
251000                  0.245743        0.140615       0.00114642    -0.000129042        -0.685973        0.669887     -0.000315896     -0.00087447
                     0.000979757    -0.000108528       -0.0218366        0.212642      0.000519434     -0.00104019        -0.699635       -0.681846
                        -0.68618         0.67006       0.00046832     -0.00113104         0.134733        0.249003      -0.00143207     -0.00024353
                    -0.000346537     -0.00092107        -0.699091       -0.681938       -0.0014868    -0.000285328        -0.211995        0.027321
251200                   0.24585        0.121594       0.00110353    -0.000236124        -0.630669        0.725593     -0.000395486    -0.000857124
                     0.000963675    -0.000190261       -0.0121821        0.215936      0.000440576     -0.00106348        -0.743449       -0.632925
                       -0.630963        0.725949       0.00036565     -0.00113377         0.154638        0.226507      -0.00143562    -0.000137715
                      -0.0004096    -0.000895674        -0.742937       -0.633096      -0.00149239    -0.000178285        -0.211219       0.0465922
251400                  0.244288        0.103049       0.00105301    -0.000334873        -0.570611        0.776902     -0.000475462    -0.000832274
                     0.000939593    -0.000271271      -0.00224498        0.218619      0.000361651     -0.00108051        -0.783892       -0.581184
                       -0.570974        0.777435      0.000269333     -0.00112856         0.171381        0.202272        -0.001431    -3.36165e-05
                    -0.000475585    -0.000870562        -0.783425       -0.581413      -0.00149042    -7.18126e-05        -0.208558       0.0658862
251600                  0.241121        0.085142      0.000996366    -0.000425304        -0.506136        0.823372     -0.000555023    -0.000799611
                      0.00090771    -0.000350605       0.00789629        0.220681       0.00028322     -0.00109148        -0.820784        -0.52685
                       -0.506542         0.82407      0.000179384     -0.00111692         0.184789        0.176725      -0.00141875     6.80609e-05
                    -0.000544631    -0.000841445        -0.820371       -0.527118      -0.00148092      3.3559e-05        -0.204008        0.085011
251800                  0.236434       0.0680262      0.000934872    -0.000507642        -0.437623        0.864588     -0.000633294    -0.000758924
                     0.000868346    -0.000427381        0.0181838        0.222145      0.000205789     -0.00109669         -0.85396       -0.470163
                       -0.438045        0.865431      9.56204e-05     -0.00110016         0.194747         0.15031      -0.00139946     0.000166735
                    -0.000615644    -0.000806197        -0.853605       -0.470452      -0.00146396     0.000137283        -0.197581        0.103774
252000                  0.230325       0.0518471      0.000869603    -0.000582252        -0.365496        0.900162     -0.000709344    -0.000710115
                     0.000821921    -0.000500802        0.0285951         0.22303      0.000129805     -0.00109644        -0.883271       -0.411373
                       -0.365905        0.901126      1.77349e-05     -0.00107934         0.201199        0.123489      -0.00137374     0.000261945
                    -0.000687401    -0.000763647        -0.882972       -0.411668      -0.00143961     0.000238781         -0.18931        0.121985
252200                  0.222907       0.0367388      0.000801421    -0.000649584        -0.290222        0.929742     -0.000782202    -0.000653212
                      0.00076893    -0.000570161        0.0391195        0.223333      5.56591e-05     -0.00109107        -0.908585       -0.350739
                        -0.29059        0.930796      -5.4649e-05     -0.00105534          0.20415       0.0967236      -0.00134222     0.000353345
                    -0.000758677    -0.000713078        -0.908336       -0.351027      -0.00140799     0.000337427        -0.179249        0.139456
252400                   0.21431       0.0228226      0.000731004     -0.00071013        -0.212304        0.953014      -0.00085088    -0.000588378
                     0.000709929    -0.000634852        0.0497351        0.223031     -1.63187e-05     -0.00108095        -0.929785       -0.288528
                       -0.212611        0.954126     -0.000121942     -0.00102885         0.203668       0.0704745      -0.00130552     0.000440694
                    -0.000828221    -0.000654045         -0.92958       -0.288799      -0.00136926     0.000432538         -0.16747        0.156005
252600                  0.204675       0.0102054      0.000658857    -0.000764387        -0.132284        0.969709     -0.000914394    -0.000515916
                      0.00064551    -0.000694363        0.0604047        0.222103     -8.58522e-05     -0.00106645        -0.946772       -0.225013
                       -0.132511        0.970844     -0.000184562     -0.00100045         0.199884       0.0451895       -0.0012642     0.000523844
                    -0.000894739    -0.000586321        -0.946603        -0.22526      -0.00132368     0.000523362        -0.154063        0.171458
252800                  0.194153     -0.00102165      0.000585341     -0.00081283       -0.0507319        0.979606     -0.000971789    -0.000436269
                     0.000576284    -0.000748274        0.0710827        0.220534     -0.000152718     -0.00104795        -0.959467       -0.160475
                      -0.0508699         0.98073     -0.000242916     -0.00097055         0.192989       0.0212948      -0.00121883     0.000602728
                    -0.000956893     -0.00050989        -0.959323       -0.160695      -0.00127167     0.000609095        -0.139138         0.18565
253000                  0.182907       -0.010785      0.000510684    -0.000855898        0.0317538        0.982537      -0.00102216    -0.000350012
                      0.00050287    -0.000796252        0.0817202        0.218317     -0.000216742     -0.00102582        -0.967804      -0.0951992
                        0.031709        0.983618     -0.000297391    -0.000939505         0.183232    -0.000812977       -0.0011699     0.000677346
                     -0.00101331    -0.000424956        -0.967677      -0.0953912      -0.00121383     0.000688908         -0.12282        0.198427
253200                  0.171106      -0.0190295      0.000435011    -0.000893969         0.114554        0.978393      -0.00106469    -0.000257843
                      0.00042588    -0.000838042        0.0922676        0.215452     -0.000277793     -0.00100044        -0.971741      -0.0294747
                          0.1146        0.979399      -0.00034835    -0.000907566         0.170914      -0.0207755      -0.00111786     0.000747752
                     -0.00106263    -0.000331956        -0.971621      -0.0296392      -0.00115103     0.000762025        -0.105249         0.20965
253400                  0.158924      -0.0257194      0.000358352    -0.000927359         0.197036        0.967119      -0.00109863     -0.00016057
                     0.000345913    -0.000873457         0.102676        0.211942     -0.000335784    -0.000972171         -0.97125       0.0364068
                        0.197163        0.968027      -0.00039612    -0.000874921         0.156387      -0.0382805      -0.00106311     0.000814043
                     -0.00110352    -0.000231569         -0.97113       0.0362668      -0.00108441     0.000827827       -0.0865824         0.21919
253600                  0.146539      -0.0308388      0.000280665    -0.000956303         0.278555        0.948725      -0.00112336    -5.90866e-05
                     0.000263548    -0.000902368         0.112898          0.2078      -0.00039066    -0.000941356        -0.966324        0.102151
                         0.27875        0.949514     -0.000441002    -0.000841705         0.140042      -0.0530692        -0.001006     0.000876351
                     -0.00113473    -0.000124711        -0.966199        0.102032      -0.00101536     0.000886003       -0.0669874        0.226937
253800                  0.134127      -0.0343925      0.000201851    -0.000980952         0.358466        0.923284      -0.00113836     4.56405e-05
                      0.00017934      -0.0009247         0.122886        0.203037     -0.000442403    -0.000908333        -0.956975        0.167465
                        0.358712         0.92394     -0.000483262    -0.000808005         0.122304      -0.0649415     -0.000946794     0.000934827
                     -0.00115514     -1.2531e-05         -0.95684        0.167361     -0.000945418     0.000936686       -0.0466439        0.232798
254000                  0.121865      -0.0364056      0.000121768     -0.00100136         0.436129        0.890931      -0.00114326     0.000152598
                      9.3819e-05    -0.000940417         0.132597        0.197671     -0.000491022    -0.000873422        -0.943233        0.232054
                        0.436406        0.891445     -0.000523135    -0.000773872          0.10362      -0.0737616     -0.000885746     0.000989639
                     -0.00116382      0.00010362        -0.943085         0.23196     -0.000876048     0.000980537       -0.0257414        0.236698
254200                  0.109924      -0.0369231      4.02502e-05     -0.00101748         0.510914        0.851865      -0.00113779     0.000260745
                     7.48804e-06    -0.000949518         0.141988        0.191724     -0.000536554    -0.000836926        -0.925149        0.295627
                        0.511201        0.852237     -0.000560825    -0.000739325        0.0844558      -0.0794606     -0.000823036      0.00104096
                     -0.00116006     0.000222222        -0.924986        0.295538     -0.000808403      0.00101872      -0.00447705        0.238579
254400                 0.0984667      -0.0360097      -4.2871e-05     -0.00102915         0.582211        0.806346       -0.0011218     0.000369031
                    -7.91739e-05    -0.000952032         0.151019        0.185219     -0.000579061    -0.000799135        -0.902789        0.357894
                        0.582487         0.80658     -0.000596501    -0.000704354        0.0652767      -0.0820389       -0.0007588      0.00108896
                     -0.00114338     0.000341631        -0.902612        0.357806     -0.000743109      0.00105271        0.0169462        0.238407
254600                 0.0876483      -0.0337484     -0.000127746     -0.00103609         0.649434        0.754696      -0.00109525      0.00047641
                    -0.000165711    -0.000948009         0.159649        0.178184     -0.000618628     -0.00076032        -0.876243        0.418572
                        0.649681        0.754803     -0.000630303    -0.000668924        0.0465438      -0.0815654     -0.000693127      0.00113382
                     -0.00111361     0.000460136        -0.876053         0.41848     -0.000680163      0.00108408        0.0383213        0.236165
254800                 0.0776116      -0.0302394     -0.000214478     -0.00103789         0.712031        0.697293       -0.0010582     0.000581853
                    -0.000251689    -0.000937519         0.167844        0.170648     -0.000655363     -0.00072074        -0.845615         0.47738
                        0.712231        0.697288      -0.00066233    -0.000632974        0.0287007      -0.0781766     -0.000626064      0.00117568
                     -0.00107083     0.000576015        -0.845413        0.477282     -0.000618994      0.00111413        0.0594398         0.23186
255000                 0.0684857      -0.0255981     -0.000303086     -0.00103401         0.769485         0.63457      -0.00101081     0.000684355
                    -0.000336692    -0.000920649         0.175569        0.162644     -0.000689396    -0.000680634         -0.81103        0.534046
                        0.769627         0.63447     -0.000692635    -0.000596422        0.0121638      -0.0720729     -0.000557614       0.0012147
                     -0.00101543     0.000687588         -0.81082         0.53394     -0.000558636      0.00114378        0.0800932        0.225518
255200                  0.060384      -0.0199538     -0.000393469      -0.0010238         0.821326        0.567006     -0.000953294     0.000782934
                     -0.00042032    -0.000897496         0.182792        0.154206     -0.000720884     -0.00064023         -0.77263        0.588305
                          0.8214        0.566834     -0.000721214    -0.000559155      -0.00268683      -0.0635136     -0.000487743      0.00125099
                    -0.000948019     0.000793275        -0.772414         0.58819     -0.000497969      0.00117346         0.100076        0.217189
255400                 0.0534032      -0.0134472     -0.000485355     -0.00100647         0.867131        0.495129     -0.000885962     0.000876636
                    -0.000502185     -0.00086817         0.189487        0.145371     -0.000750004    -0.000599734        -0.730575        0.639899
                        0.867133        0.494907     -0.000747973    -0.000521036       -0.0155166      -0.0528104     -0.000416379      0.00128465
                    -0.000869455     0.000891638        -0.730356        0.639776     -0.000435919      0.00120312         0.119187        0.206943
255600                 0.0476216     -0.00622786     -0.000578257    -0.000981197         0.906531        0.419502      -0.00080917     0.000964521
                     -0.00058191    -0.000832795         0.195626        0.136178     -0.000776965    -0.000559334        -0.685041        0.688583
                        0.906462        0.419252     -0.000772677    -0.000481901        -0.026043      -0.0403201     -0.000343411      0.00131576
                    -0.000780768     0.000981412        -0.684821        0.688453     -0.000371586      0.00123243         0.137232        0.194869
255800                 0.0430983      0.00154769     -0.000671415    -0.000947085         0.939214        0.340722      -0.00072334      0.00104566
                    -0.000659129    -0.000791501         0.201188        0.126668     -0.000802007    -0.000519196        -0.636221         0.73412
                        0.939078        0.340465     -0.000794845    -0.000441587       -0.0340424      -0.0264352     -0.000268699      0.00134434
                    -0.000683133      0.00106153        -0.636003        0.733986     -0.000304307      0.00126081         0.154027        0.181081
256000                 0.0398728      0.00971894     -0.000763762    -0.000903297         0.964928        0.259411      -0.00062896      0.00111914
                    -0.000733478    -0.000744433         0.206153        0.116883     -0.000825401    -0.000479454        -0.584325        0.776288
                        0.964732        0.259166     -0.000813535    -0.000400029       -0.0393537      -0.0115749     -0.000192068      0.00137038
                    -0.000577818      0.00113113         -0.58411        0.776152     -0.000233648       0.0012876         0.169399        0.165707
256200                 0.0379651       0.0181237     -0.000853896    -0.000849121         0.983482        0.176211     -0.000526597      0.00118404
                    -0.000804601    -0.000691746         0.210504        0.106865     -0.000847459    -0.000440205        -0.529576        0.814876
                        0.983239        0.175996     -0.000826917    -0.000357651       -0.0418819      0.00382512     -0.000113315      0.00139384
                    -0.000466147      0.00118956        -0.529365        0.814741     -0.000159375      0.00131213         0.183187        0.148896
