! TOUCHSTONE file generated by CST MICROWAVE STUDIO
! Date and time: Sun Sep 28 17:46:00 2025
! Project name: biblioteca3_folgaOK.cst
! Parameters = {H=600; Lx=200; Ly=260; Nedge=24; P=520; k=0; mesh_pilar_nm=40; n=0; t_air=3800; t_sub=6000; wavelength_nm=0}
! Header version: 2018
! Port assignment regex: !\s*Touchstone port\s*([0-9]+)\s*=\s*(CST MWS port|CST DS port)\s*([0-9]+|Zmin|Zmax)\s*\(\"(.*)\"\)(\s*mode\s*([0-9]+))?.*
! Touchstone port assignment:
! Touchstone port 1 = CST MWS port Zmin ("") mode 1
! Touchstone port 2 = CST MWS port Zmin ("") mode 2
! Touchstone port 3 = CST MWS port Zmax ("") mode 1
! Touchstone port 4 = CST MWS port Zmax ("") mode 2
! S-Parameters are not renormalized. Each port impedance will be approximated by the real part at minimum frequency. The values are described via the [Reference] keyword.
! Default impedance is overridden by [Reference]
[Version] 2.0
# GHz S RI R 376.73
[Number of Ports] 4
[Reference]
376.73 376.73 376.73 376.73 
[Number of Frequencies] 401
[Network Data]
250000                  0.295679        0.245414      0.000585086     9.80122e-05         0.251506        0.888358       0.00156244     0.000804732
                     0.000723448     6.57722e-05         0.102396       0.0321319       0.00144289     0.000626153        -0.951947        0.286545
                        0.251727        0.888387       0.00134704     0.000722375         0.123237       -0.364003      0.000261878    -0.000133814
                      0.00138683     0.000778722        -0.951821        0.286448       0.00029401    -0.000170001       -0.0676263       0.0833404
250200                  0.298799        0.245365      0.000581949     7.09432e-05         0.306484        0.869904       0.00160941     0.000681405
                     0.000716708      5.3946e-05         0.096292       0.0445665       0.00148762     0.000531804        -0.934809        0.338664
                        0.306653        0.869688       0.00140942     0.000648807        0.0791253       -0.378491      0.000104077    -0.000233594
                      0.00147388      0.00070979        -0.934732        0.338465      0.000192459    -0.000335746       -0.0454314       0.0959195
250400                  0.301028        0.244765      0.000577873     4.06275e-05         0.360328        0.848412        0.0016353     0.000569308
                     0.000709674     4.39277e-05        0.0900528       0.0568459        0.0015207     0.000426671        -0.914657        0.389696
                         0.36042        0.848067        0.0014709      0.00056533        0.0329934       -0.386613     -3.08217e-05    -0.000232956
                      0.00156251     0.000633808        -0.914638        0.389412       2.9818e-05    -0.000393461       -0.0214319        0.104348
250600                  0.302371        0.243618      0.000570208     5.45938e-06         0.412938        0.823928       0.00165059     0.000472309
                     0.000702718     3.68422e-05        0.0836936       0.0689362         0.001531     0.000310957        -0.891575        0.439453
                        0.412954        0.823544       0.00153116     0.000471125       -0.0141353       -0.388074     -0.000118057      -0.0001965
                      0.00165389     0.000553018        -0.891619        0.439103     -9.99299e-05     -0.00036999       0.00364942        0.108393
250800                  0.302832        0.241925      0.000553184    -3.30913e-05         0.464211        0.796487         0.001664     0.000388483
                     0.000696507     3.48867e-05        0.0772289       0.0808041       0.00149437     0.000201259        -0.865661        0.487756
                        0.464168        0.796132       0.00159013     0.000365396       -0.0612017       -0.382758     -0.000172182    -0.000154571
                      0.00174914     0.000472914        -0.865766        0.487358     -0.000183961    -0.000321338        0.0290661        0.107946
251000                  0.302416         0.23969      0.000524134    -6.56843e-05         0.514038        0.766116       0.00168066      0.00031324
                     0.000692198     4.31041e-05        0.0706725       0.0924168       0.00141685     0.000179885        -0.837023        0.534436
                        0.513963        0.765833       0.00164801     0.000247465        -0.107139       -0.370717     -0.000207043    -0.000115839
                      0.00184523     0.000404691        -0.837186        0.534005      -0.00023841    -0.000271892        0.0540689        0.103023
251200                  0.301127        0.236915      0.000492637    -8.53178e-05         0.562297        0.732832       0.00170255     0.000241719
                     0.000691012     7.62046e-05        0.0640375        0.103742       0.00147114     0.000235716         -0.80578        0.579332
                        0.562219        0.732646       0.00170548     0.000116948          -0.1509       -0.352177     -0.000230974    -8.16875e-05
                      0.00192381     0.000360648        -0.805995        0.578883     -0.000276813    -0.000227444        0.0779257       0.0937621
251400                  0.298966        0.233603      0.000467091    -9.79285e-05         0.608854        0.696651       0.00172965     0.000169862
                     0.000677007     0.000196684        0.0573366        0.114749       0.00159653     0.000171517        -0.772062        0.622295
                        0.608802        0.696569       0.00176386     -2.5908e-05        -0.191479       -0.327528     -0.000248667    -5.15406e-05
                      0.00195235      0.00032648        -0.772321         0.62184      -0.00030703    -0.000187826        0.0999406       0.0804153
251600                  0.295934         0.22976      0.000446394    -0.000110037         0.653562        0.657589       0.00176085     9.46396e-05
                     0.000108457     0.000388373        0.0505819        0.125408         0.001673     4.65869e-05        -0.736008         0.66319
                         0.65356        0.657601         0.001825    -0.000179684        -0.227942       -0.297317     -0.000262833     -2.4441e-05
                       0.0019338     0.000258591        -0.736301        0.662737      -0.00033336    -0.000151441         0.119471       0.0633435
251800                  0.292031        0.225394      0.000427403    -0.000123372         0.696257         0.61566       0.00179456      1.3928e-05
                     0.000284371    -0.000228962        0.0437849         0.13569       0.00171231    -8.75059e-05        -0.697761        0.701891
                        0.696319        0.615751       0.00189099     -0.00034109        -0.259443        -0.26224     -0.000275146     5.42222e-07
                      0.00190679     0.000148188         -0.69808        0.701446     -0.000358187    -0.000116503         0.135942       0.0430036
252000                  0.287256        0.220515      0.000408244    -0.000137613         0.736755         0.57089         0.001829    -7.36838e-05
                     0.000413749    -0.000214395        0.0369569        0.145567       0.00172982    -0.000221207        -0.657473        0.738287
                        0.736888        0.571035       0.00196292    -0.000504433         -0.28525       -0.223126      -0.00028674     2.42534e-05
                      0.00188796     1.69891e-05        -0.657808        0.737852     -0.000382858    -8.12692e-05         0.148864       0.0199362
252200                  0.281608        0.215136      0.000388061    -0.000152095         0.774858        0.523312       0.00186229    -0.000169062
                     0.000439369    -0.000199741        0.0301091        0.155015       0.00173222    -0.000353544        -0.615301        0.772276
                        0.775058        0.523484       0.00203922    -0.000662026        -0.304765       -0.180924      -0.00029849     4.74937e-05
                      0.00187403     -0.00011963        -0.615644        0.771854     -0.000408092    -4.39888e-05         0.157838      -0.0052485
252400                  0.275086        0.209276      0.000366491    -0.000166228         0.810349        0.472975        0.0018926     -0.00027264
                     0.000438024    -0.000193341        0.0232521        0.164009       0.00172229    -0.000484592        -0.571401        0.803773
                        0.810604        0.473149       0.00211415    -0.000806285        -0.317548       -0.136682     -0.000311186     7.11064e-05
                       0.0018592    -0.000255717        -0.571746        0.803363     -0.000434126    -2.78916e-06         0.162571       -0.031887
252600                  0.267689        0.202957      0.000343393    -0.000179532         0.842993        0.419948        0.0019181    -0.000384489
                     0.000425766    -0.000190751        0.0163969        0.172527       0.00170122    -0.000614279        -0.525935        0.832703
                        0.843283        0.420102       0.00217841    -0.000932946        -0.323331      -0.0915223     -0.000325661     9.61053e-05
                      0.00183974    -0.000389263        -0.526278        0.832305      -0.00046068     4.44483e-05         0.162878      -0.0592793
252800                  0.259416        0.196206      0.000318726    -0.000191607         0.872542        0.364322       0.00193702    -0.000504348
                     0.000407761    -0.000189518       0.00955404        0.180547        0.0016696    -0.000742284        -0.479065        0.859003
                        0.872843        0.364443       0.00222239     -0.00104306        -0.322037      -0.0466174     -0.000342907     0.000123885
                      0.00181368    -0.000519451        -0.479401        0.858615     -0.000486755     0.000100177         0.158688      -0.0867066
253000                   0.25027        0.189056       0.00029251    -0.000202102         0.898737        0.306221       0.00194766    -0.000631646
                     0.000386202    -0.000188302       0.00273443        0.188051       0.00162773    -0.000868087        -0.430951        0.882622
                        0.899019        0.306299       0.00223987      -0.0011418        -0.313794      -0.0031544     -0.000364206     0.000156613
                      0.00178015    -0.000645757        -0.431278        0.882242     -0.000510239     0.000167172         0.150044        -0.11345
253200                  0.240256        0.181545        0.0002648    -0.000210688          0.92131        0.245796        0.0019484    -0.000765508
                     0.000362225    -0.000186291      -0.00405099         0.19502       0.00157587    -0.000991032        -0.381754         0.90352
                        0.921544        0.245836       0.00222937      -0.0012353        -0.298936       0.0376994     -0.000391245     0.000198032
                      0.00173894    -0.000767721         -0.38207        0.903149     -0.000527283     0.000248243         0.137102       -0.138806
253400                  0.229383        0.173716      0.000235686    -0.000217054          0.93999         0.18324        0.0019378    -0.000904765
                     0.000336526    -0.000182952       -0.0107911        0.201441       0.00151428     -0.00111038         -0.33163        0.921668
                        0.940149        0.183251       0.00219297     -0.00132797        -0.278012       0.0748365     -0.000426009     0.000255293
                       0.0016902    -0.000884909        -0.331936        0.921304      -0.00053154     0.000345381         0.120127       -0.162109
253600                  0.217663        0.165617      0.000205294    -0.000220894         0.954509        0.118781        0.0019146     -0.00104797
                     0.000309607    -0.000177904       -0.0174747        0.207298       0.00144328     -0.00122536        -0.280734        0.937046
                        0.954571        0.118782       0.00213433     -0.00142179        -0.251768        0.107249     -0.000469298     0.000343431
                      0.00163431    -0.000996931        -0.281029        0.936689     -0.000513687     0.000457889        0.0994833        -0.18274
253800                  0.205115        0.157302      0.000173784    -0.000221908         0.964608       0.0526915        0.0018778     -0.00119345
                     0.000281868     -0.00017087         -0.02409        0.212578       0.00136327     -0.00133517        -0.229217        0.949641
                         0.96456       0.0527071        0.0020572     -0.00151679        -0.221139        0.134072     -0.000511326     0.000496324
                      0.00157177     -0.00110346          -0.2295        0.949294     -0.000462408     0.000579346        0.0756289        -0.20015
254000                  0.191763        0.148828      0.000141359    -0.000219802         0.970046       -0.014715       0.00182669     -0.00133929
                     0.000253669    -0.000161639       -0.0306254        0.217272       0.00127473     -0.00143904        -0.177225        0.959451
                        0.969881      -0.0146558       0.00196483     -0.00161184         -0.18722        0.154618     -0.000478971     0.000778869
                      0.00150318     -0.00120424        -0.177497        0.959113     -0.000368639     0.000694713        0.0490999       -0.213866
254200                  0.177641        0.140255      0.000108266    -0.000214294         0.970604      -0.0830829       0.00176092     -0.00148348
                     0.000225343    -0.000150059       -0.0370686         0.22137       0.00117824     -0.00153623        -0.124902        0.966477
                        0.970326      -0.0829501       0.00185982     -0.00170535        -0.151229        0.168414     -8.88846e-05      0.00110671
                      0.00142914     -0.00129909         -0.12516        0.966152     -0.000233262     0.000781603        0.0204991       -0.223507
254400                  0.162788        0.131647      7.47997e-05    -0.000205117         0.966096       -0.152017       0.00168052     -0.00162392
                     0.000197219    -0.000136027       -0.0434075        0.224864       0.00107447     -0.00162607       -0.0723835        0.970729
                        0.965721       -0.151782       0.00174425     -0.00179566        -0.114465        0.175226      0.000466527     0.000839873
                      0.00135029     -0.00138795        -0.072626        0.970419     -7.28167e-05     0.000819507      -0.00951959       -0.228788
254600                  0.147253        0.123067      4.13079e-05    -0.000192029         0.956376       -0.221086       0.00158589     -0.00175854
                     0.000169616    -0.000119485       -0.0496295        0.227747       0.00096414     -0.00170796        -0.019804        0.972222
                        0.955927       -0.220725       0.00161982     -0.00188129       -0.0782625        0.175077      0.000486347     0.000429921
                      0.00126722     -0.00147078       -0.0200278        0.971926      8.53845e-05     0.000802337        -0.040267       -0.229532
254800                  0.131093        0.114579      8.19041e-06    -0.000174822         0.941348       -0.289827       0.00147783     -0.00188538
                     0.000142856    -0.000100417       -0.0557218        0.230015      0.000848071      -0.0017814        0.0327085        0.970971
                        0.940856       -0.289323       0.00148796     -0.00196097       -0.0439318        0.168252      0.000364361     0.000257247
                      0.00118048     -0.00154766        0.0325072        0.970692      0.000217424     0.000741782       -0.0710355       -0.225668
255000                  0.114374        0.106245     -2.41002e-05    -0.000153336         0.920965       -0.357756       0.00135748     -0.00200264
                     0.000117251    -7.88542e-05       -0.0616717        0.231663      0.000727115     -0.00184597        0.0850296        0.966999
                        0.920468       -0.357102       0.00134991      -0.0020337       -0.0127083        0.155291      0.000268548     0.000195015
                      0.00109059     -0.00161871        0.0848549        0.966736      0.000312869     0.000658166        -0.101116       -0.217238
255200                 0.0971703       0.0981237     -5.50622e-05    -0.000127469         0.895242       -0.424371       0.00122625     -0.00210881
                     9.31079e-05    -5.48652e-05       -0.0674663        0.232689       0.00060217     -0.00190138         0.137039         0.96033
                        0.894779        -0.42357       0.00120679     -0.00209872        0.0143023        0.136976      0.000204417     0.000173812
                     0.000997996      -0.0016841         0.136895        0.960081      0.000373709     0.000569407        -0.129812       -0.204388
255400                 0.0795644       0.0902677     -8.41504e-05    -9.71928e-05         0.864256       -0.489168        0.0010858     -0.00220267
                     7.07217e-05    -2.85607e-05       -0.0730927        0.233091      0.000474151     -0.00194747         0.188619        0.950988
                        0.863865       -0.488231       0.00105959      -0.0021555        0.0361715         0.11429      0.000161851     0.000169229
                     0.000903072     -0.00174405         0.188511         0.95075       0.00040779     0.000486397        -0.156461       -0.187372
255600                  0.061645       0.0827247     -0.000110786     -6.2566e-05         0.828146       -0.551643      0.000937916     -0.00228333
                      5.0371e-05    -8.93924e-08        -0.078538         0.23287      0.000343982     -0.00198416         0.239657           0.939
                        0.827862       -0.550596      0.000909211     -0.00220368        0.0521895       0.0883879      0.000133438     0.000172131
                     0.000806128     -0.00179881         0.239587        0.938769      0.000423562     0.000413818        -0.180444        -0.16654
255800                 0.0435064       0.0755345     -0.000134371    -2.37466e-05         0.787115       -0.611311      0.000784451     -0.00235028
                     3.23143e-05     3.03646e-05       -0.0837897        0.232026       0.00021257     -0.00201154         0.290038        0.924395
                        0.786966       -0.610185       0.00075646     -0.00224306         0.061895       0.0605377       0.00011463     0.000178709
                     0.000707392     -0.00184864          0.29001        0.924165       0.00042782     0.000352583        -0.201204       -0.142334
256000                 0.0252472       0.0687287     -0.000154303     1.89973e-05         0.741424       -0.667711      0.000627238     -0.00240333
                     1.67857e-05     6.25853e-05       -0.0888353        0.230561      8.07927e-05      -0.0020298         0.339653          0.9072
                        0.741432       -0.666545      0.000602058     -0.00227355        0.0650948       0.0320713      0.000102645     0.000187214
                     0.000607013     -0.00189381         0.339667        0.906965      0.000425352     0.000301826        -0.218253       -0.115276
256200                0.00696822       0.0623297     -0.000170001     6.52804e-05         0.691392       -0.720418      0.000468026     -0.00244258
                     3.99133e-06     9.63291e-05        -0.093663        0.228477     -5.05235e-05     -0.00203926          0.38839        0.887444
                        0.691566       -0.719252       0.00044664     -0.00229514          0.06187      0.00432504      9.57337e-05      0.00019678
                     0.000505054      -0.0019346         0.388446        0.887197      0.000419301     0.000260058        -0.231191      -0.0859576
