! TOUCHSTONE file generated by CST MICROWAVE STUDIO
! Date and time: Sun Sep 28 19:09:18 2025
! Project name: biblioteca3_folgaOK.cst
! Parameters = {H=600; Lx=200; Ly=260; Nedge=32; P=520; mesh_pilar_nm=40; t_air=3800; t_sub=6000}
! Header version: 2018
! Port assignment regex: !\s*Touchstone port\s*([0-9]+)\s*=\s*(CST MWS port|CST DS port)\s*([0-9]+|Zmin|Zmax)\s*\(\"(.*)\"\)(\s*mode\s*([0-9]+))?.*
! Touchstone port assignment:
! Touchstone port 1 = CST MWS port Zmin ("") mode 1
! Touchstone port 2 = CST MWS port Zmin ("") mode 2
! Touchstone port 3 = CST MWS port Zmax ("") mode 1
! Touchstone port 4 = CST MWS port Zmax ("") mode 2
! S-Parameters are not renormalized. Each port impedance will be approximated by the real part at minimum frequency. The values are described via the [Reference] keyword.
! Default impedance is overridden by [Reference]
[Version] 2.0
# GHz S RI R 376.73
[Number of Ports] 4
[Reference]
376.73 376.73 376.73 376.73 
[Number of Frequencies] 401
[Network Data]
250000                  0.304063        0.215541     -0.000962047    -0.000195767         0.301102        0.877689       0.00123542     0.000635128
                    -0.000737736    -0.000317776         0.105565       0.0177054       0.00178275      0.00103477        -0.936412        0.334278
                        0.301192        0.877866       0.00156106      0.00124497         0.107671       -0.356839      -0.00116109     -0.00110037
                      0.00141083     0.000744219        -0.936433        0.334026     -0.000848166     -0.00101377       -0.0705209       0.0805439
250200                  0.327154         0.18352     -0.000950618    -0.000108008         0.398041         0.83736       0.00132748      0.00051872
                    -0.000744908    -0.000243882         0.103021       0.0196602       0.00188534     0.000845362        -0.896315        0.430668
                        0.398411        0.837127       0.00170792      0.00107277        0.0650628       -0.369258      -0.00127612      -0.0010576
                      0.00148819     0.000614249         -0.89638        0.430201     -0.000950239    -0.000966572       -0.0492025       0.0925434
250400                  0.345984         0.14861     -0.000929013    -2.37561e-05         0.490005        0.786583       0.00141239     0.000390007
                    -0.000745361    -0.000168573         0.101778       0.0220854       0.00197215     0.000640745        -0.846161        0.522373
                        0.490494        0.786031       0.00184225     0.000873003        0.0205429       -0.375731      -0.00139431    -0.000986494
                      0.00155568     0.000473376        -0.846301        0.521804      -0.00105224    -0.000903113       -0.0261595        0.100648
250600                  0.360143        0.111467     -0.000897951     5.59454e-05          0.57592        0.725936       0.00148842     0.000248819
                    -0.000738504    -9.26252e-05         0.101889       0.0247195       0.00204021     0.000422136        -0.786507        0.608306
                        0.576419        0.725162       0.00195806     0.000645537       -0.0249386       -0.375892      -0.00150629    -0.000884741
                      0.00161181     0.000322181         -0.78672        0.607726      -0.00115103    -0.000822372      -0.00206355        0.104602
250800                  0.369334       0.0728092     -0.000858183     0.000130186         0.654778        0.656088       0.00155363     9.51882e-05
                     -0.00072381    -1.69769e-05         0.103359       0.0272985       0.00208658     0.000191355        -0.718031        0.687449
                        0.655218        0.655187       0.00204869      0.00039171       -0.0703559       -0.369551      -0.00160162    -0.000754327
                      0.00165505     0.000161414        -0.718295        0.686925        -0.001243    -0.000724058        0.0223752        0.104268
251000                  0.373381       0.0333929     -0.000810475     0.000198161          0.72563        0.577798       0.00160591    -7.05872e-05
                    -0.000700857     5.72634e-05         0.106152       0.0295633       0.00210845    -4.91347e-05        -0.641525        0.758872
                        0.725978        0.576855       0.00210724      0.00011471        -0.114643       -0.356702      -0.00167132    -0.000601896
                      0.00168391    -7.98924e-06        -0.641806        0.758447      -0.00132428    -0.000608811        0.0464308       0.0996334
251200                  0.372235     -0.00600722     -0.000755594     0.000259147         0.787598        0.491912       0.00164294    -0.000247879
                     -0.00066937      0.00012882         0.110186       0.0312668       0.00210336    -0.000296222        -0.557881        0.821744
                        0.787846        0.490994       0.00212719    -0.000180179        -0.156733       -0.337536       -0.0017102    -0.000437366
                       0.0016969    -0.000184908        -0.558143        0.821437        -0.001391     -0.00047833        0.0693847        0.090814
251400                  0.365968      -0.0446205     -0.000694311     0.000312473         0.839878        0.399357       0.00166229    -0.000435653
                    -0.000629274      0.00019626         0.115343       0.0321807       0.00206929    -0.000546192        -0.468079        0.875345
                        0.840034        0.398517       0.00210315    -0.000485569        -0.195595       -0.312434      -0.00171792    -0.000271382
                      0.00169256    -0.000368019        -0.468287        0.875154      -0.00143968    -0.000335383        0.0905483       0.0780454
251600                  0.354775      -0.0817002     -0.000627403     0.000357502         0.881742        0.301146       0.00166144    -0.000632396
                    -0.000580747     0.000258025         0.121467       0.0321011       0.00200491    -0.000794816         -0.37317        0.919073
                        0.881827        0.300414       0.00203164    -0.000792285         -0.23027       -0.281964      -0.00169826    -0.000112853
                      0.00166949     -0.00055578        -0.373297         0.91898      -0.00146759    -0.000183682         0.109284       0.0616768
251800                  0.338964       -0.116542     -0.000555666     0.000393603         0.912549        0.198366       0.00163791    -0.000836046
                    -0.000524271     0.000312469         0.128372       0.0308535       0.00190966     -0.00103749         -0.27426        0.952452
                        0.912588        0.197761        0.0019118     -0.00109003        -0.259911        -0.24686      -0.00165734     3.24086e-05
                      0.00162632    -0.000746412        -0.274292        0.952429        -0.001473    -2.76149e-05         0.125024       0.0421591
252000                  0.318949       -0.148501     -0.000479943     0.000420142         0.931756       0.0921868       0.00158932     -0.00104393
                    -0.000460676     0.000357923         0.135848       0.0282969       0.00178385     -0.00126944        -0.172497        0.975134
                        0.931772       0.0917109       0.00174573     -0.00136835        -0.283805       -0.208001      -0.00160178     0.000161767
                      0.00156179    -0.000937869        -0.172431        0.975148      -0.00145537     0.000128107         0.137286       0.0200304
252200                  0.295236       -0.177006     -0.000401142     0.000436468         0.938923      -0.0161505       0.00151358     -0.00125273
                    -0.000391181      0.00039277         0.143665       0.0243272       0.00162877     -0.00148591       -0.0690515        0.986904
                        0.938936      -0.0165052       0.00153848     -0.00161771        -0.301401        -0.16638      -0.00153747     0.000275043
                      0.00147475     -0.00112781       -0.0688988         0.98692      -0.00141537     0.000278844         0.145684     -0.00410114
252400                  0.268411       -0.201571     -0.000320275     0.000441914         0.933728       -0.125334       0.00140904     -0.00145849
                      -0.0003174     0.000415548          0.15158       0.0188787        0.0014466      -0.0016824        0.0348966        0.987677
                        0.933751       -0.125583       0.00129752     -0.00183045        -0.312328       -0.123078      -0.00146895     0.000373573
                      0.00136422     -0.00131358        0.0351144        0.987666      -0.00135475     0.000420377         0.149938      -0.0295749
252600                   0.23913       -0.221811     -0.000238498     0.000435799          0.91598       -0.233991        0.0012747     -0.00165666
                    -0.000241337     0.000425046         0.159345       0.0119255       0.00124037     -0.00185491         0.138174        0.977499
                         0.91602       -0.234151       0.00103188     -0.00200151        -0.316407        -0.07923      -0.00139945     0.000459406
                      0.00122948     -0.00149215         0.138426        0.977437      -0.00127611     0.000549173         0.149884      -0.0556968
252800                  0.208097       -0.237443     -0.000157151     0.000417451         0.885633       -0.340694       0.00111038      -0.0018422
                     -0.00016534      0.00042042         0.166709      0.00348183       0.00101381     -0.00200006         0.239629        0.956539
                        0.885689       -0.340785      0.000751137     -0.00212862        -0.313657      -0.0359883      -0.00133104     0.000534764
                      0.00107014     -0.00166016         0.239879        0.956414      -0.00118262     0.000662524          0.14547      -0.0817585
253000                  0.176054       -0.248301     -7.78075e-05     0.000386236           0.8428       -0.443978      0.000916926     -0.00200975
                    -9.20297e-05     0.000401292         0.173429     -0.00639924      0.000771129      -0.0021153         0.338143        0.925087
                        0.842865       -0.444015      0.000464458     -0.00221217        -0.304297      0.00550902      -0.00126493     0.000601739
                     0.000886232     -0.00181387         0.338352        0.924897      -0.00107774     0.000758578         0.136759       -0.107056
253200                  0.143762       -0.254336     -2.32739e-06     0.000341617         0.787764       -0.542355      0.000696306      -0.0021539
                    -2.41914e-05     0.000367828         0.179272      -0.0176274      0.000516872     -0.00219891         0.432644        0.883549
                        0.787829       -0.542351       0.00017985      -0.0022547        -0.288744        0.044173      -0.00120175     0.000662156
                     0.000678398     -0.00194923         0.432773        0.883302     -0.000964973     0.000836271         0.123924       -0.130907
253400                  0.111979       -0.255622      6.71015e-05     0.000283227         0.720996       -0.634334      0.000451705     -0.00226945
                     3.53574e-05     0.000320796         0.184023      -0.0300775      0.000255653     -0.00225004         0.522115        0.832435
                        0.721048       -0.634294     -9.62764e-05     -0.00226021        -0.267599       0.0789972      -0.00114172     0.000717535
                      0.00044798     -0.00206192         0.522132        0.832151      -0.00084772     0.000895215         0.107245       -0.152668
253600                 0.0814471       -0.252355      0.000127929     0.000210981         0.643158       -0.718448       0.00018749     -0.00235173
                     8.39129e-05     0.000261577          0.18749      -0.0435932     -8.02003e-06     -0.00226868         0.605607        0.772353
                        0.643185       -0.718373     -0.000359263     -0.00223357        -0.241637         0.10909      -0.00108482     0.000769104
                     0.000197185     -0.00214753         0.605485         0.77206     -0.000729171     0.000935559        0.0870967       -0.171751
253800                 0.0528668        -0.24485      0.000177232     0.000125217         0.555113       -0.793277     -9.09128e-05     -0.00239694
                     0.000119033     0.000192138         0.189505      -0.0579908     -0.000269902     -0.00225549         0.682247        0.704002
                        0.555106       -0.793162     -0.000606124     -0.00217987        -0.211787        0.133705      -0.00103092     0.000817833
                    -7.07903e-05      -0.0022017         0.681969        0.703734     -0.000612287     0.000957865         0.063941       -0.187634
254000                 0.0268799       -0.233539      0.000211751     2.68651e-05         0.457928       -0.857485     -0.000377249     -0.00240244
                     0.000138675     0.000114965          0.18993      -0.0730635     -0.000526133     -0.00221177          0.75124        0.628158
                        0.457882       -0.857322     -0.000835322     -0.00210398        -0.179105         0.15227     -0.000979781     0.000864471
                    -0.000351685     -0.00222039           0.7508        0.627953     -0.000499812     0.000963008        0.0383137       -0.199876
254200                0.00404805       -0.218956       0.00022798    -8.23457e-05         0.352865        -0.90985      -0.00066474      -0.0023669
                     0.000141304     3.29572e-05         0.188661      -0.0885866     -0.000773307     -0.00213926         0.811882         0.54567
                        0.352781       -0.909627      -0.00104648      -0.0020103        -0.144744        0.164408     -0.000931172     0.000909584
                    -0.000640156     -0.00220017         0.811284        0.545566     -0.000394316     0.000952128        0.0108116       -0.208125
254400                -0.0151659       -0.201729      0.000222356    -0.000199689         0.241374       -0.949296     -0.000946451     -0.00229043
                     0.000125975    -5.06962e-05         0.185629       -0.104322      -0.00100851     -0.00204001         0.863561        0.457445
                        0.241261       -0.949004       -0.0012401     -0.00190254        -0.109917        0.169961     -0.000884842     0.000953586
                    -0.000929868     -0.00213859         0.862819        0.457478     -0.000298254     0.000926616        -0.017922       -0.212124
254600                -0.0304151       -0.182559      0.000191546    -0.000321261         0.125079       -0.974933      -0.00121566     -0.00217457
                     9.23686e-05    -0.000132654         0.180797       -0.120025      -0.00122929     -0.00191626         0.905762        0.364442
                        0.124947       -0.974563      -0.00141727     -0.00178366       -0.0758591        0.169001      -0.00084056     0.000996755
                     -0.00121369     -0.00203443           0.9049        0.364644     -0.000214003     0.000888158       -0.0472127       -0.211723
254800                 -0.041483       -0.162198      0.000132853    -0.000441894        0.0057441       -0.986083      -0.00146619     -0.00202214
                     4.08001e-05    -0.000209561         0.174168       -0.135448      -0.00143366     -0.00177035         0.938066         0.26766
                      0.00561244       -0.985632      -0.00157946     -0.00165587       -0.0437791        0.161838      -0.00079811      0.00103925
                     -0.00148404     -0.00188806         0.937117        0.268055     -0.000143874     0.000838805       -0.0763708       -0.206874
255000                -0.0482932        -0.14143      4.47191e-05     -0.00055521        -0.114748       -0.982312      -0.00169269       -0.001837
                     -2.7813e-05    -0.000278167         0.165781       -0.150346      -0.00162001     -0.00160461          0.96016         0.16813
                       -0.114859       -0.981782      -0.00172829     -0.00152065       -0.0148142         0.14901     -0.000757297      0.00108114
                     -0.00173327     -0.00170153         0.959162        0.168734     -9.00786e-05     0.000781089        -0.104707       -0.197636
255200                 -0.050914       -0.121034     -7.27415e-05    -0.000653898        -0.234439       -0.963451       -0.0018908     -0.00162382
                       -0.000112    -0.000335436         0.155706       -0.164484      -0.00178709     -0.00142134         0.971832        0.066904
                       -0.234509        -0.96285      -0.00186546     -0.00137875        0.0100184        0.131276     -0.000717937      0.00112235
                     -0.00195421     -0.00147865         0.970825        0.067724     -5.46236e-05      0.00071814        -0.131549       -0.184175
255400                -0.0495581       -0.101767     -0.000217282    -0.000730246        -0.351338       -0.929613      -0.00205724     -0.00138773
                    -0.000209803    -0.000378628         0.144051       -0.177636      -0.00193387      -0.0012227         0.972971      -0.0349537
                       -0.351347       -0.928956      -0.00199252     -0.00123028        0.0298667        0.109588     -0.000679847      0.00116273
                     -0.00214059     -0.00122482         0.971999      -0.0339212       -3.912e-05     0.000653788        -0.156256       -0.166758
255600                 -0.044575      -0.0843257     -0.000384272    -0.000776905        -0.463467       -0.881198      -0.00218981     -0.00113409
                    -0.000318852    -0.000405361         0.130952       -0.189599      -0.00205954     -0.00101078         0.963573       -0.136375
                       -0.463399       -0.880506      -0.00211082     -0.00107467        0.0440837       0.0850545     -0.000642824        0.001202
                     -0.00228754    -0.000946698         0.962676       -0.135143     -4.45055e-05     0.000592612        -0.178235       -0.145746
255800                -0.0364381      -0.0693257      -0.00056678    -0.000787783        -0.568909       -0.818893      -0.00228725    -0.000868229
                    -0.000436433    -0.000413651         0.116574       -0.200187      -0.00216346     -0.00078755         0.943735       -0.236296
                       -0.568753       -0.818194      -0.00222135    -0.000910761        0.0522597       0.0588981     -0.000606619      0.00123978
                     -0.00239181    -0.000651811          0.94295       -0.234887     -7.06905e-05     0.000539862        -0.196954       -0.121591
256000                -0.0257254      -0.0572766     -0.000756058    -0.000758896        -0.665853       -0.743663      -0.00234917    -0.000595258
                    -0.000559558    -0.000401942         0.101105       -0.209243      -0.00224502     -0.00055487         0.913655       -0.333669
                       -0.665605       -0.742984      -0.00232456    -0.000736806        0.0542441        0.032401     -0.000570894      0.00127555
                     -0.00245196    -0.000348013         0.913013       -0.332112     -0.000116177     0.000501218        -0.211953      -0.0948212
256200                -0.0130956      -0.0485632     -0.000942388    -0.000688954        -0.752645       -0.656726      -0.00237583    -0.000319994
                    -0.000685031    -0.000369127        0.0847543       -0.216636       -0.0023037    -0.000314546         0.873632       -0.427469
                       -0.752309       -0.656098      -0.00242019    -0.000550531        0.0501543      0.00684917     -0.000535175       0.0013087
                     -0.00246828    -4.30017e-05         0.873158         -0.4258     -0.000177738     0.000482341        -0.222861      -0.0660314
