! TOUCHSTONE file generated by CST MICROWAVE STUDIO
! Date and time: Fri Sep 26 06:38:33 2025
! Project name: biblioteca3_folgaOK.cst
! Parameters = {H=600; Lx=200; Ly=260; Nedge=34; P=520; k=0; mesh_pilar_nm=40; n=0; t_air=3500; t_sub=2000; wavelength_nm=0}
! Header version: 2018
! Port assignment regex: !\s*Touchstone port\s*([0-9]+)\s*=\s*(CST MWS port|CST DS port)\s*([0-9]+|Zmin|Zmax)\s*\(\"(.*)\"\)(\s*mode\s*([0-9]+))?.*
! Touchstone port assignment:
! Touchstone port 1 = CST MWS port Zmin ("") mode 1
! Touchstone port 2 = CST MWS port Zmin ("") mode 2
! Touchstone port 3 = CST MWS port Zmax ("") mode 1
! Touchstone port 4 = CST MWS port Zmax ("") mode 2
! S-Parameters are not renormalized. Each port impedance will be approximated by the real part at minimum frequency. The values are described via the [Reference] keyword.
! Default impedance is overridden by [Reference]
[Version] 2.0
# GHz S RI R 376.73
[Number of Ports] 4
[Reference]
376.73 376.73 376.73 376.73 
[Number of Frequencies] 401
[Network Data]
250000                  0.219372        0.236767       0.00136164      0.00092271        -0.882158        0.344191       0.00132111     -0.00102245
                      0.00130799     0.000900032       -0.0694997        0.179886      0.000228973     -0.00180941        -0.440716       -0.876766
                       -0.881545        0.343612      0.000185496     -0.00185275       -0.0011816        0.322785      -0.00205217     -0.00110081
                      0.00145071     -0.00100866        -0.440552       -0.876906      -0.00204316    -0.000910715        -0.185826      -0.0516227
250200                  0.228407         0.21774       0.00143081      0.00081774        -0.853867        0.414815       0.00126248     -0.00112926
                      0.00137493     0.000797842        -0.062585        0.186025      7.00378e-05     -0.00182123        -0.498214       -0.844653
                       -0.853507        0.414221      2.89476e-05     -0.00188238        0.0299201        0.314174      -0.00214449    -0.000934154
                      0.00139093     -0.00115253        -0.498136       -0.844771      -0.00215366    -0.000755182        -0.193089      -0.0352987
250400                  0.235688        0.198305       0.00148818     0.000704814        -0.819813        0.483383       0.00119592     -0.00123709
                      0.00143265     0.000688735       -0.0551777        0.191817     -8.65921e-05     -0.00181959        -0.553431       -0.808748
                       -0.819663        0.482823      -0.00012834     -0.00189764        0.0594313        0.302265      -0.00222483    -0.000755445
                      0.00131514     -0.00129211        -0.553394       -0.808852      -0.00224812    -0.000581324         -0.19879      -0.0181115
250600                  0.241186         0.17863       0.00153272     0.000585799        -0.780117        0.549412       0.00112089     -0.00134532
                      0.00148026     0.000573747       -0.0473003        0.197223     -0.000240256     -0.00180536        -0.606114       -0.769218
                        -0.78013        0.548918     -0.000285033     -0.00189896        0.0869671         0.28729      -0.00229128    -0.000565544
                      0.00122377     -0.00142533        -0.606085       -0.769318      -0.00232278    -0.000391721        -0.202833    -0.000220205
250800                   0.24489        0.158887       0.00156377     0.000462695        -0.734939        0.612417       0.00103687     -0.00145319
                      0.00151703     0.000454051       -0.0389782        0.202208     -0.000390416     -0.00177929        -0.656023       -0.726242
                       -0.735072        0.612012      -0.00043993     -0.00188686         0.112175         0.26953      -0.00234193    -0.000365659
                      0.00111759     -0.00155021        -0.655978       -0.726356      -0.00237455    -0.000189911        -0.205139       0.0182059
251000                  0.246805         0.13925       0.00158111     0.000337537        -0.684487        0.671922      0.000943362     -0.00155982
                      0.00154241     0.000330924         -0.03024        0.206735     -0.000536607     -0.00174199        -0.702931       -0.680016
                       -0.684698        0.671616     -0.000591961     -0.00186194         0.134738        0.249308      -0.00237496    -0.000157366
                     0.000997645     -0.00166491        -0.702857       -0.680162      -0.00240129      1.9852e-05        -0.205647       0.0369894
251200                  0.246955        0.119893       0.00158486       0.0002123        -0.629009        0.727461      0.000839938     -0.00166421
                      0.00155604     0.000205713       -0.0211167        0.210773     -0.000678395     -0.00169397        -0.746627       -0.630752
                        -0.62926        0.727254     -0.000740183     -0.00182487         0.154386        0.226989      -0.00238875     5.73969e-05
                     0.000865238     -0.00176782         -0.74652       -0.630947      -0.00240202     0.000232945        -0.204315       0.0559468
251400                  0.245382        0.100988       0.00157549     8.88186e-05        -0.568799         0.77858      0.000726244     -0.00176517
                      0.00155777     7.98009e-05       -0.0116418         0.21429     -0.000815346     -0.00163567        -0.786914       -0.578672
                       -0.569057        0.778466     -0.000883773     -0.00177635         0.170896        0.202969      -0.00238192     0.000276344
                     0.000721855     -0.00185756        -0.786777        -0.57893       -0.0023769     0.000444764         -0.20112       0.0748901
251600                  0.242143       0.0827054       0.00155376    -3.12705e-05        -0.504193        0.824848      0.000602036     -0.00186141
                      0.00154764    -4.54374e-05      -0.00185106        0.217259     -0.000947004     -0.00156745        -0.823611       -0.524014
                       -0.504435        0.824814      -0.00102202      -0.0017171         0.184097        0.177672      -0.00235344     0.000496883
                     0.000569127       -0.001933        -0.823455       -0.524345      -0.00232719      0.00065109        -0.196058       0.0936293
251800                  0.237318        0.065207       0.00152062     -0.00014657        -0.435574        0.865852      0.000467212     -0.00195146
                      0.00152591    -0.000168666       0.00821772        0.219656      -0.00107288     -0.00148966        -0.856555       -0.467024
                       -0.435779        0.865883      -0.00115432     -0.00164784         0.193879        0.151543       -0.0023027      0.00071618
                     0.000408766      -0.0019933        -0.856395       -0.467432      -0.00225496     0.000848356        -0.189146        0.111974
252000                  0.231002       0.0486482       0.00147719    -0.000255941        -0.363363        0.901213      0.000321846     -0.00203373
                        0.001493    -0.000288625        0.0185248        0.221457      -0.00119246     -0.00140263        -0.885597       -0.407957
                        -0.36352         0.90129      -0.00128015     -0.00156929         0.200188        0.125039      -0.00222957     0.000931241
                     0.000242518     -0.00203785        -0.885452       -0.408442       -0.0021628       0.0010338         -0.18042        0.129737
252200                  0.223306       0.0331741       0.00142464    -0.000358497        -0.288024        0.930581      0.000166228     -0.00210653
                       0.0014495    -0.000404157         0.029029        0.222645      -0.00130515     -0.00130671         -0.91061        -0.34708
                       -0.288128        0.930687      -0.00139909     -0.00148218         0.203034        0.098621      -0.00213443      0.00113902
                     7.21145e-05     -0.00206629        -0.910498       -0.347633      -0.00205353      0.00120551        -0.169934        0.146732
252400                  0.214359       0.0189177       0.00136417    -0.000453595         -0.21006        0.953646      8.93123e-07     -0.00216805
                      0.00139614    -0.000514228        0.0396876        0.223202      -0.00141037     -0.00120226        -0.931481       -0.284665
                        -0.21011        0.953763      -0.00151076     -0.00138719          0.20249       0.0727445      -0.00201821      0.00133651
                    -0.000100759      -0.0020785         -0.93142       -0.285271      -0.00192996      0.00136229        -0.157764        0.162782
252600                  0.204305      0.00599788       0.00129697    -0.000540811        -0.130006        0.970141     -0.000173339     -0.00221646
                      0.00133375    -0.000617947        0.0504566        0.223116      -0.00150745     -0.00108972        -0.948117       -0.220991
                       -0.130007        0.970255      -0.00161487     -0.00128502         0.198689       0.0478534      -0.00188236       0.0015209
                    -0.000274494     -0.00207453        -0.948124       -0.221629      -0.00179468      0.00150362           -0.144        0.177714
252800                  0.193299     -0.00548264       0.00122415    -0.000619904       -0.0484306        0.979845      -0.00035534     -0.00224992
                      0.00126323     -0.00071457        0.0612914        0.222377      -0.00159576    -0.000969592        -0.960442       -0.156341
                      -0.0483909        0.979944      -0.00171119     -0.00117634         0.191827       0.0243689      -0.00172878      0.00168964
                    -0.000447572     -0.00205458         -0.96053       -0.156985      -0.00164994      0.00162937        -0.128753        0.191368
253000                  0.181509      -0.0154389       0.00114675    -0.000690789        0.0340719        0.982591     -0.000543653     -0.00226667
                      0.00118554    -0.000803504        0.0721463        0.220979      -0.00167461    -0.000842442        -0.968402      -0.0910045
                        0.034142        0.982666      -0.00179954     -0.00106178         0.182154      0.00268217      -0.00155982      0.00184056
                    -0.000618578       -0.002019        -0.968576      -0.0916226      -0.00149767      0.00173973        -0.112149        0.203591
253200                  0.169113      -0.0238052       0.00106572    -0.000753501         0.116885        0.978263     -0.000736488     -0.00226509
                      0.00110165    -0.000884306        0.0829753        0.218919      -0.00174336    -0.000708938        -0.971957      -0.0252719
                        0.116974        0.978311      -0.00187979    -0.000941989         0.169975      -0.0168548       -0.0013781      0.00197192
                      -0.0007862     -0.00196824        -0.972218      -0.0258284      -0.00133941      0.00183499       -0.0943299        0.214247
253400                  0.156293      -0.0305364      0.000981902    -0.000808168         0.199376        0.966809     -0.000931735     -0.00224374
                      0.00101255    -0.000956674        0.0937322        0.216196      -0.00180139    -0.000569842         -0.97109       0.0405633
                        0.199471        0.966827      -0.00195186    -0.000817593         0.155641      -0.0339362      -0.00118649      0.00208251
                    -0.000949227     -0.00190282        -0.971429       0.0401067      -0.00117645       0.0019155       -0.0754507        0.223212
253600                   0.14324       -0.035609      0.000896038    -0.000854982         0.280902        0.948232      -0.00112699     -0.00220151
                     0.000919178     -0.00102044         0.104371        0.212814      -0.00184811    -0.000426007        -0.965801        0.106207
                        0.280993        0.948225      -0.00201574    -0.000689204         0.139546      -0.0483094     -0.000987933      0.00217158
                     -0.00110654     -0.00182332        -0.966202         0.10589      -0.00100984      0.00198154       -0.0556801        0.230377
253800                  0.130141      -0.0390214       0.00080877    -0.000894179         0.360817        0.922603      -0.00131961     -0.00213765
                      0.00082245     -0.00107553         0.114844        0.208781      -0.00188303    -0.000278382        -0.956109        0.171365
                        0.360895        0.922576      -0.00207147     -0.00055743         0.122111      -0.0597813     -0.000785378      0.00223893
                      -0.0012571     -0.00173038        -0.956547        0.171228     -0.000840517      0.00203328       -0.0351975        0.235651
254000                  0.117188      -0.0407945      0.000720651    -0.000926015         0.438478        0.890053      -0.00150678     -0.00205182
                     0.000723225     -0.00112202         0.125108        0.204107      -0.00190572    -0.000127997        -0.942053        0.235743
                        0.438535        0.890014       -0.0021192    -0.000422877         0.103786      -0.0682219     -0.000581675      0.00228479
                     -0.00139994     -0.00162465        -0.942491        0.235827     -0.000669341      0.00207082       -0.0141919        0.238963
254200                  0.104565      -0.0409712      0.000632149    -0.000950756         0.513253        0.850779       -0.0016856     -0.00194418
                       0.0006223     -0.00116002         0.135117        0.198805      -0.00191589     2.40463e-05        -0.923691        0.299049
                        0.513285        0.850736      -0.00215913    -0.000286149        0.0850314      -0.0735686     -0.000379495      0.00230982
                     -0.00153414     -0.00150685        -0.924084        0.299393     -0.000497192      0.00209417       0.00714015        0.240258
254400                 0.0924503      -0.0396159      0.000543657    -0.000968663         0.584526         0.80504      -0.00185318     -0.00181539
                     0.000520406     -0.00118975         0.144826        0.192893      -0.00191334     0.000176589          -0.9011        0.360991
                        0.584533        0.805002      -0.00219164    -0.000147856        0.0663116      -0.0758271     -0.000181274      0.00231502
                     -0.00165886     -0.00137768         -0.90139        0.361634     -0.000325007      0.00210327        0.0285964        0.239502
254600                 0.0810132      -0.0368139      0.000455498    -0.000979985         0.651709        0.753156      -0.00200677     -0.00166661
                     0.000418197     -0.00121147         0.154194        0.186391      -0.00189804      0.00032844        -0.874379         0.42128
                         0.65169        0.753134      -0.00221725    -8.61448e-06        0.0480844       -0.075072      1.08258e-05      0.00230168
                     -0.00177326     -0.00123792        -0.874497        0.422263     -0.000153816      0.00209807        0.0499709        0.236683
254800                 0.0704108      -0.0326694      0.000367935    -0.000984947         0.714241        0.695507      -0.00214382     -0.00149949
                     0.000316254     -0.00122551         0.163179        0.179321      -0.00187006     0.000478393        -0.843643         0.47962
                        0.714201        0.695507      -0.00223674     0.000130946        0.0307902      -0.0714445      0.000194935      0.00227126
                     -0.00187655     -0.00108835        -0.843508        0.480995      1.52425e-05      0.00207858        0.0710561        0.231808
255000                 0.0607859      -0.0273043      0.000281176    -0.000983754         0.771603        0.632527      -0.00226212      -0.0013161
                     0.000215083     -0.00123219          0.17174        0.171711      -0.00182966     0.000625251         -0.80903        0.535708
                        0.771548        0.632556      -0.00225126     0.000270171         0.014842      -0.0651498      0.000369476      0.00222538
                     -0.00196797    -0.000929822         -0.80855         0.53755       0.00018093      0.00204488         0.091645        0.224908
255200                 0.0522646       -0.020856      0.000195373    -0.000976578         0.823319        0.564701      -0.00235983     -0.00111886
                     0.000115108     -0.00123191         0.179841        0.163591      -0.00177721     0.000767855        -0.770685         0.58921
                        0.823256        0.564764      -0.00226252     0.000408359      0.000615684      -0.0564518      0.000533147      0.00216571
                     -0.00204678    -0.000763219        -0.769765        0.591656      0.000341929      0.00199723         0.111533        0.216033
255400                 0.0449552       -0.013475      0.000110631    -0.000963564         0.868961        0.492559      -0.00243559    -0.000910434
                     1.66789e-05     -0.00122504         0.187445        0.154992      -0.00171323     0.000905099        -0.728714        0.639712
                        0.868898        0.492657      -0.00227316     0.000544715       -0.0115583      -0.0456667      0.000684896      0.00209395
                     -0.00211226    -0.000589495        -0.727318        0.643048       0.00049688      0.00193604         0.130522        0.205254
255600                 0.0389461     -0.00532252      2.69945e-05    -0.000944826         0.908157        0.416672      -0.00248849    -0.000693672
                    -7.99422e-05     -0.00121199         0.194519        0.145949      -0.00163837      0.00103596         -0.68295        0.686692
                        0.908104        0.416804      -0.00228737     0.000678236       -0.0214023      -0.0331555      0.000823887      0.00201174
                     -0.00216374    -0.000409673        -0.681393        0.691471      0.000644433      0.00186194         0.148418        0.192665
255800                  0.034305      0.00343211     -5.55521e-05    -0.000920455         0.940593        0.337643      -0.00251812    -0.000471463
                    -0.000174581     -0.00119315         0.201032          0.1365      -0.00155337       0.0011595        -0.632383        0.730262
                        0.940557        0.337807      -0.00231227     0.000807405       -0.0286978      -0.0193147      0.000949453      0.00192065
                     -0.00220058    -0.000224852        -0.632195        0.736683      0.000783293      0.00177577          0.16504        0.178377
256000                 0.0310782       0.0126144     -0.000137101    -0.000890521         0.966016        0.256104       -0.0025245    -0.000246661
                    -0.000267165     -0.00116889         0.206955        0.126686      -0.00145908      0.00127491        -0.577712        0.772917
                        0.966004        0.256294      -0.00236089     0.000929306         -0.03329      -0.0045676       0.00106106      0.00182213
                     -0.00222222    -3.62152e-05        -0.579948        0.778453      0.000912275      0.00167857         0.180216        0.162523
256200                 0.0292904       0.0220474     -0.000217841    -0.000855098         0.984237        0.172704       -0.0025081    -2.19961e-05
                     -0.00035774     -0.00113955         0.212263        0.116547      -0.00135641      0.00138149        -0.522482        0.813189
                        0.984255        0.172913      -0.00245989      0.00103657       -0.0350904       0.0106469       0.00115824      0.00171747
                     -0.00222813      0.00015497        -0.524895        0.816571       0.00103035      0.00157154         0.193789        0.145253
