! TOUCHSTONE file generated by CST MICROWAVE STUDIO
! Date and time: Fri Sep 26 20:22:15 2025
! Project name: biblioteca3_folgaOK.cst
! Parameters = {H=600; Lx=200; Ly=260; Nedge=12; P=520; k=0; mesh_pilar_nm=40; n=0; t_air=3800; t_sub=3000; wavelength_nm=0}
! Header version: 2018
! Port assignment regex: !\s*Touchstone port\s*([0-9]+)\s*=\s*(CST MWS port|CST DS port)\s*([0-9]+|Zmin|Zmax)\s*\(\"(.*)\"\)(\s*mode\s*([0-9]+))?.*
! Touchstone port assignment:
! Touchstone port 1 = CST MWS port Zmin ("") mode 1
! Touchstone port 2 = CST MWS port Zmin ("") mode 2
! Touchstone port 3 = CST MWS port Zmax ("") mode 1
! Touchstone port 4 = CST MWS port Zmax ("") mode 2
! S-Parameters are not renormalized. Each port impedance will be approximated by the real part at minimum frequency. The values are described via the [Reference] keyword.
! Default impedance is overridden by [Reference]
[Version] 2.0
# GHz S RI R 376.73
[Number of Ports] 4
[Reference]
376.73 376.73 376.73 376.73 
[Number of Frequencies] 401
[Network Data]
250000                  0.149635      -0.0682218      -0.00206204     -0.00147072         0.959489       -0.226855     -0.000991009     0.000315873
                     -0.00181632     -0.00145344       -0.0997273       -0.220727     -0.000744134      0.00119052         0.211238        0.946217
                        0.960009       -0.226608     -0.000909438      0.00137634        -0.164331      0.00582681       0.00189599      0.00137619
                    -0.000748588      0.00100006         0.212494        0.946652        0.0019692      0.00116529       0.00398589        0.242143
250200                  0.151506      -0.0908093      -0.00222983     -0.00121786         0.928609       -0.325449      -0.00081452     0.000464697
                     -0.00199512     -0.00124731        -0.112898       -0.209393     -0.000629165      0.00128911         0.295562         0.92441
                        0.928792       -0.325277     -0.000767145      0.00146896        -0.174862       0.0230851       0.00200393       0.0011959
                    -0.000658418      0.00107842         0.296598        0.924922       0.00210299     0.000992328        0.0297398        0.235998
250400                  0.149953       -0.114195      -0.00236168    -0.000946497         0.887565       -0.419988     -0.000652136     0.000596737
                     -0.00215058     -0.00101706        -0.124772       -0.197317     -0.000494503       0.0013766         0.377753        0.895143
                        0.887509       -0.419855     -0.000606713      0.00154827        -0.183155       0.0427841       0.00210301       0.0010036
                     -0.00055863       0.0011505           0.3786        0.895701       0.00222396     0.000804424        0.0544158        0.227005
250600                  0.144872       -0.137814      -0.00245666    -0.000662778         0.836902       -0.509421     -0.000498761     0.000713086
                      -0.0022791     -0.00076573        -0.135318       -0.184651     -0.000341127      0.00144824         0.457155         0.85859
                        0.836683       -0.509311     -0.000429303      0.00161005        -0.188756       0.0645831       0.00219155     0.000799818
                    -0.000449482      0.00121497         0.457832        0.859174       0.00232996     0.000602603        0.0776855        0.215318
250800                  0.136262       -0.161109        -0.002515    -0.000372351         0.777274       -0.592778     -0.000350715     0.000814511
                     -0.00237759    -0.000496939         -0.14452       -0.171544     -0.000171419      0.00149922         0.533121        0.814987
                        0.776942       -0.592685     -0.000237244      0.00165001         -0.19127       0.0880598       0.00226777     0.000585298
                    -0.000331422      0.00127047         0.533643        0.815586       0.00241889     0.000388245        0.0992422        0.201129
251000                   0.12421       -0.183543      -0.00253787    -8.01646e-05         0.709426       -0.669174     -0.000205339     0.000901427
                     -0.00244359    -0.000214765        -0.152381       -0.158146      1.07399e-05      0.00152522          0.60502        0.764629
                        0.709012       -0.669099     -3.41554e-05       0.0016642        -0.190382        0.112725       0.00232992     0.000361063
                      -0.0002051      0.00131564         0.605399        0.765242       0.00248883     0.000163075         0.118804        0.184666
251200                  0.108883       -0.204618      -0.00252702     0.000209625         0.634185       -0.737823     -6.07417e-05     0.000973906
                      -0.0024753     7.63898e-05         -0.15892         -0.1446      0.000200106      0.00152294         0.672244        0.707874
                        0.633706       -0.737762      0.000175086      0.00164946        -0.185861        0.138037       0.00237627     0.000128404
                    -7.13898e-05      0.00134911         0.672492        0.708504        0.0025381    -7.08634e-05         0.136121         0.16619
251400                  0.090514       -0.223876      -0.00248452     0.000493658         0.552446       -0.798037      8.43497e-05       0.0010317
                     -0.00247164     0.000371943        -0.164172       -0.131043       0.00039046      0.00149064         0.734214        0.645137
                        0.551911       -0.797984      0.000384563      0.00160391        -0.177573        0.163424       0.00240519    -0.000111113
                     6.86157e-05      0.00136961         0.734343         0.64579       0.00256527    -0.000311241         0.150972        0.145987
251600                 0.0693919       -0.240912      -0.00241253     0.000769302         0.465162       -0.849235      0.000230673       0.0010743
                     -0.00243223     0.000667265        -0.168184       -0.117606      0.000575214      0.00142846         0.790384        0.576888
                        0.464573       -0.849178      0.000587754      0.00152733        -0.165477        0.188294       0.00241517    -0.000355652
                     0.000213598      0.00137595         0.790411        0.577573       0.00256931    -0.000555502         0.163177        0.124371
251800                 0.0458503       -0.255373      -0.00231312      0.00103454         0.373328       -0.890944      0.000378477      0.00110096
                     -0.00235736     0.000957803         -0.17102       -0.104408      0.000748112      0.00133842          0.84025        0.503651
                        0.372688       -0.890867      0.000778118      0.00142141        -0.149629        0.212056       0.00240493    -0.000603128
                     0.000362024      0.00136708         0.840195        0.504376       0.00254952    -0.000800932         0.172592        0.101675
252000                 0.0202592       -0.266959      -0.00218813      0.00128783         0.277971       -0.922802      0.000527533      0.00111075
                     -0.00224791      0.00123918        -0.172754      -0.0915606      0.000903884      0.00122418         0.883357        0.426001
                        0.277285       -0.922684      0.000949775      0.00128967        -0.130176        0.234136       0.00237342    -0.000851238
                     0.000512164      0.00134215         0.883239         0.42677       0.00250567     -0.00104473         0.179114       0.0782437
252200               -0.00698284       -0.275428      -0.00203914      0.00152796         0.180138       -0.944555      0.000677138      0.00110268
                     -0.00210531      0.00150728        -0.173473      -0.0791609       0.00103871       0.0010905         0.919299        0.344555
                        0.179416       -0.944373       0.00109812      0.00113719        -0.107355        0.253989       0.00231989      -0.0010975
                     0.000662115      0.00130051          0.91914        0.345371       0.00243791     -0.00128409         0.182682       0.0544365
252400                -0.0354557       -0.280591      -0.00186737      0.00175392        0.0808845       -0.956056      0.000826107      0.00107574
                     -0.00193143       0.0017583         -0.17327       -0.067294        0.0011504     0.000942633         0.947728        0.259973
                       0.0801424       -0.955791       0.00122029     0.000970123       -0.0814786        0.271108       0.00224394     -0.00133932
                     0.000809835      0.00124177         0.947549        0.260832       0.00234682     -0.00151629          0.18328       0.0306159
252600                 -0.064724       -0.282317       -0.0016737      0.00196476       -0.0187347       -0.957269      0.000972778      0.00102899
                     -0.00172852      0.00198875        -0.172248      -0.0560313       0.00123833     0.000785744         0.968355        0.172946
                      -0.0194753       -0.956903       0.00131537     0.000795022       -0.0529349        0.285042       0.00214555     -0.00157402
                     0.000953183      0.00116582         0.968177        0.173843       0.00223338     -0.00173874         0.180936      0.00714476
252800                -0.0943431        -0.28053      -0.00145868      0.00215943        -0.117676        -0.94826       0.00111503     0.000961732
                     -0.00149913      0.00219553        -0.170515      -0.0454291       0.00130316      0.00062443         0.980959       0.0841981
                        -0.11839       -0.947782       0.00138446     0.000618288       -0.0221731        0.295397       0.00202507     -0.00179896
                      0.00108996      0.00107286         0.980799       0.0851219       0.00209888     -0.00194907          0.17572      -0.0156191
253000                 -0.123865       -0.275212      -0.00122259      0.00233668        -0.214919       -0.929194       0.00125031     0.000873597
                     -0.00124605      0.00237584        -0.168182       -0.035529       0.00134646     0.000462449         0.985385     -0.00552786
                       -0.215575       -0.928601        0.0014305     0.000445655        0.0103043         0.30185       0.00188326     -0.00201155
                      0.00121797     0.000963378         0.985256     -0.00459155       0.00194492     -0.00214518         0.167748      -0.0373283
253200                 -0.152847       -0.266402     -0.000965465      0.00249492        -0.309468       -0.900337       0.00137575     0.000764673
                    -0.000972274      0.00252726        -0.165364       -0.026357       0.00137032     0.000302606         0.981547      -0.0954717
                       -0.310039       -0.899634       0.00145817     0.000281835        0.0439517        0.304151       0.00172124     -0.00220936
                      0.00133504     0.000838179         0.981459      -0.0945393       0.00177333     -0.00232525         0.157177      -0.0576514
253400                 -0.180853       -0.254194      -0.00068722      0.00263212        -0.400369       -0.862045       0.00148823     0.000635618
                    -0.000680937      0.00264763        -0.162174      -0.0179235       0.00137701     0.000146777         0.969433       -0.184865
                       -0.400826       -0.861246       0.00147397     0.000130247        0.0781914        0.302127       0.00154049     -0.00239019
                       0.0014391     0.000698371         0.969389       -0.183954       0.00158608     -0.00248778         0.144204      -0.0762777
253600                 -0.207467       -0.238737     -0.000387767      0.00274563        -0.486712       -0.814761       0.00158457     0.000487747
                    -0.000375326       0.0027351        -0.158723      -0.0102241       0.00136868     -3.9787e-06         0.949102       -0.272937
                       -0.487032       -0.813889       0.00148683     -7.4298e-06         0.112425         0.29569       0.00134278     -0.00255206
                      0.00152822     0.000545345         0.949102       -0.272065       0.00138525     -0.00263162         0.129064      -0.0929224
253800                 -0.232294        -0.22023     -6.71916e-05      0.00283212        -0.567637       -0.759013       0.00166168     0.000323063
                    -5.88629e-05       0.0027881        -0.155119     -0.00323919       0.00134715    -0.000149263         0.920687       -0.358923
                       -0.567803       -0.758094       0.00150969    -0.000132546         0.146042        0.284834       0.00113013     -0.00269332
                      0.00160061     0.000380753         0.920726       -0.358105       0.00117297     -0.00275589         0.112026       -0.107332
254000                 -0.254973       -0.198924      0.000273996      0.00288745        -0.642345       -0.695402       0.00171677     0.000144243
                     0.000264896      0.00280532        -0.151465       0.0030647       0.00131381    -0.000289159         0.884394        -0.44207
                       -0.642348       -0.694472       0.00156301    -0.000254042         0.178436        0.269639      0.000904753     -0.00281266
                      0.00165472      0.00020648         0.884461       -0.441319      0.000951357     -0.00286004        0.0933909       -0.119286
254200                 -0.275177       -0.175112      0.000634541       0.0029066          -0.7101       -0.624603       0.00174752    -4.54344e-05
                     0.000592246       0.0027857        -0.147854      0.00873429       0.00126945    -0.000424036           0.8405       -0.521645
                       -0.709938       -0.623696       0.00167936    -0.000405272         0.209013        0.250271      0.000668991     -0.00290911
                      0.00168921     2.46157e-05         0.840581       -0.520971      0.000722453     -0.00294376        0.0734838       -0.128605
254400                 -0.292622       -0.149127       0.00101203      0.00288375        -0.770235       -0.547353       0.00175227     -0.00024223
                     0.000919322      0.00272849        -0.144372       0.0138283       0.00121423    -0.000554339         0.789352       -0.596943
                       -0.769918       -0.546506       0.00188164    -0.000702142         0.237201        0.226977      0.000425242     -0.00298204
                        0.001703    -0.000162584         0.789431        -0.59635      0.000488224     -0.00300701        0.0526522        -0.13515
254600                 -0.307072       -0.121333       0.00140236      0.00281238        -0.822158       -0.464449       0.00173006    -0.000442116
                      0.00124209      0.00263321        -0.141092        0.018416       0.00114762    -0.000680339         0.731362        -0.66729
                       -0.821704       -0.463693       0.00193809      -0.0013815         0.262466        0.200083      0.000175909     -0.00303115
                      0.00169528    -0.000352723         0.731424       -0.666778      0.000250522     -0.00304991        0.0312592       -0.138829
254800                 -0.318343      -0.0921206       0.00179919      0.00268574        -0.865358       -0.376736       0.00168072    -0.000640981
                      0.00155632      0.00249975        -0.138076       0.0225757       0.00106841    -0.000801817         0.667009       -0.732054
                       -0.864792       -0.376101       0.00127239     -0.00197868         0.284321        0.169991     -7.66512e-05     -0.00305647
                      0.00166551    -0.000543304         0.667038       -0.731616      1.10666e-05     -0.00307277       0.00967782       -0.139593
255000                 -0.326304      -0.0618984       0.00219338      0.00249753        -0.899403       -0.285105       0.00160487     -0.00083483
                      0.00185762      0.00232842        -0.135375       0.0263931      0.000974849    -0.000917671         0.596829       -0.790648
                       -0.898758       -0.284613      0.000624475     -0.00186657         0.302336        0.137168     -0.000330177     -0.00305829
                      0.00161344    -0.000731748         0.596811       -0.790275      -0.00022856     -0.00307601       -0.0117152       -0.137443
255200                 -0.330881      -0.0310843       0.00257261      0.00224303         -0.92395       -0.190483       0.00150376     -0.00101996
                      0.00214143      0.00211998        -0.133021       0.0299592      0.000864999     -0.00102546         0.521414       -0.842536
                       -0.923263       -0.190148       0.00034823     -0.00164262         0.316145        0.102141     -0.000582532     -0.00303715
                       0.0015391    -0.000915431         0.521339       -0.842214     -0.000466912     -0.00306015       -0.0325451        -0.13243
255400                 -0.332054    -9.82329e-05       0.00292146      0.00192061        -0.938744      -0.0938262       0.00137922     -0.00119308
                      0.00240308      0.00187572        -0.131037       0.0333685      0.000737414     -0.00112105         0.441408       -0.887243
                       -0.938054      -0.0936515      0.000216285     -0.00149606         0.325461       0.0654885     -0.000831731     -0.00299379
                      0.00144283      -0.0010917         0.441268       -0.886954     -0.000702676     -0.00302579       -0.0524459       -0.124648
255600                 -0.329858       0.0306453       0.00322225      0.00153351        -0.943622      0.00388744       0.00123346     -0.00135142
                      0.00263781      0.00159758        -0.129426       0.0367167      0.000592262     -0.00119855         0.357496       -0.924351
                       -0.942968      0.00390708      0.000127401     -0.00140631         0.330077       0.0278265      -0.00107596     -0.00292909
                      0.00132525     -0.00125792         0.357291       -0.924077     -0.000934663     -0.00297354        -0.071066       -0.114242
255800                 -0.324383        0.060745       0.00345686       0.0010914        -0.938514        0.101667       0.00106893     -0.00149274
                      0.00284092      0.00128817        -0.128178       0.0400988      0.000432633     -0.00125109         0.270405       -0.953513
                       -0.937932        0.101546      5.19628e-05     -0.00134744         0.329872      -0.0102013      -0.00131357     -0.00284409
                      0.00118731     -0.00141144         0.270139       -0.953232      -0.00116179     -0.00290407       -0.0880746       -0.101398
256000                 -0.315766       0.0898192       0.00360964     0.000611144        -0.923446        0.198517      0.000888163     -0.00161529
                      0.00300782     0.000950841         -0.12727        0.043607      0.000265423     -0.00127263         0.180892       -0.974448
                       -0.922966        0.198279      -1.8687e-05     -0.00130461          0.32482      -0.0479365      -0.00154309     -0.00273989
                      0.00103025     -0.00154972         0.180573       -0.974143      -0.00138309     -0.00281802        -0.103167      -0.0863454
256200                 -0.304191        0.117512       0.00367088     0.000116029        -0.898537        0.293444      0.000693674     -0.00171778
                      0.00313421     0.000589743        -0.126662       0.0473286      0.000100827     -0.00126046        0.0897397       -0.986951
                       -0.898185        0.293117     -8.70683e-05     -0.00126983         0.314984      -0.0847195      -0.00176323     -0.00261764
                     0.000855661     -0.00167024        0.0893818       -0.986605      -0.00159764     -0.00271603         -0.11607      -0.0693491
