! TOUCHSTONE file generated by CST MICROWAVE STUDIO
! Date and time: Sun Sep 28 21:29:19 2025
! Project name: biblioteca3_folgaOK.cst
! Parameters = {H=600; Lx=300; Ly=300; Nedge=32; P=520; mesh_pilar_nm=40; t_air=3500; t_sub=4000}
! Header version: 2018
! Port assignment regex: !\s*Touchstone port\s*([0-9]+)\s*=\s*(CST MWS port|CST DS port)\s*([0-9]+|Zmin|Zmax)\s*\(\"(.*)\"\)(\s*mode\s*([0-9]+))?.*
! Touchstone port assignment:
! Touchstone port 1 = CST MWS port Zmin ("") mode 1
! Touchstone port 2 = CST MWS port Zmin ("") mode 2
! Touchstone port 3 = CST MWS port Zmax ("") mode 1
! Touchstone port 4 = CST MWS port Zmax ("") mode 2
! S-Parameters are not renormalized. Each port impedance will be approximated by the real part at minimum frequency. The values are described via the [Reference] keyword.
! Default impedance is overridden by [Reference]
[Version] 2.0
# GHz S RI R 376.73
[Number of Ports] 4
[Reference]
376.73 376.73 376.73 376.73 
[Number of Frequencies] 401
[Network Data]
250000                  0.209317        0.217246      0.000254835     7.95591e-05         0.167822        0.938525      0.000712115    -0.000238091
                     0.000255431     8.07063e-05         0.211604        0.215825      0.000725387    -0.000169801         0.168141         0.93828
                        0.167822        0.938523      0.000722867    -0.000171569         0.121059       -0.276323     -0.000218394    -0.000355542
                     0.000712391    -0.000237525         0.168141        0.938284     -0.000220596    -0.000355069         0.123489       -0.275873
250200                  0.227493        0.194578      0.000275547     5.10879e-05         0.257084        0.918872      0.000690382    -0.000309678
                     0.000275793     5.37318e-05         0.229664        0.192769      0.000707341    -0.000238103         0.257397        0.918613
                         0.25708        0.918871      0.000704965    -0.000238917        0.0936189       -0.284338     -0.000230943    -0.000336534
                     0.000688475    -0.000308094         0.257385        0.918625     -0.000228368    -0.000335704        0.0961966       -0.284013
250400                  0.242994        0.170205      0.000293821     1.97337e-05         0.344187        0.890824      0.000659682    -0.000379302
                     0.000294029     2.34229e-05         0.244994        0.168035      0.000682449     -0.00030499         0.344495        0.890552
                         0.34418        0.890825      0.000680189    -0.000305061        0.0656383       -0.289319     -0.000242207    -0.000319237
                     0.000656821    -0.000376512         0.344476         0.89057     -0.000236936    -0.000317993        0.0683502       -0.289144
250600                  0.255637        0.144469      0.000309153    -1.43898e-05         0.428354        0.854604      0.000620471    -0.000445526
                     0.000309544    -1.01448e-05         0.257415        0.141969      0.000650814    -0.000369611         0.428655        0.854318
                        0.428347        0.854606      0.000648636    -0.000369116        0.0374781       -0.291226     -0.000252487    -0.000303279
                     0.000617678    -0.000441733         0.428635         0.85434     -0.000245948    -0.000301696        0.0403067       -0.291227
250800                  0.265284        0.117732      0.000321018    -5.10827e-05         0.508829        0.810503      0.000573481    -0.000507089
                     0.000321706    -4.67836e-05         0.266794        0.114939      0.000612673     -0.00043113         0.509124        0.810203
                        0.508823        0.810506      0.000610544    -0.000430215       0.00950035       -0.290069     -0.000261998    -0.000288372
                     0.000571466    -0.000502764         0.509105        0.810226     -0.000255155    -0.000286577        0.0124248       -0.290267
251000                  0.271844       0.0903739      0.000328883    -9.00463e-05         0.584883         0.75888      0.000519646    -0.000562962
                     0.000329874    -8.61774e-05         0.273047       0.0873302      0.000568391    -0.000488749         0.585171        0.758564
                        0.584878        0.758884      0.000566289    -0.000487542       -0.0179369       -0.285899     -0.000270892    -0.000274288
                     0.000518767    -0.000558696         0.585155        0.758587     -0.000264389    -0.000272421       -0.0149405       -0.286311
251200                  0.275282       0.0627804      0.000332226    -0.000130873          0.65582         0.70016      0.000460021    -0.000612373
                     0.000333422    -0.000127869         0.276143        0.059532       0.00051845    -0.000541735           0.6561        0.699826
                        0.655816        0.700165       0.00051637    -0.000540355       -0.0444852        -0.27881      -0.00027928    -0.000260847
                     0.000460296    -0.000608735         0.656088        0.699847     -0.000273533    -0.000259039       -0.0414431       -0.279453
251400                  0.275608       0.0353399       0.00033056     -0.00017304          0.72098        0.634833      0.000395705    -0.000654808
                     0.000331779    -0.000171256         0.276101       0.0319361      0.000463435    -0.000589441         0.721252        0.634478
                        0.720979        0.634836      0.000461385    -0.000588006       -0.0698103       -0.268941     -0.000287244    -0.000247903
                     0.000396879    -0.000652224         0.721244        0.634494     -0.000282508    -0.000246267        -0.066751       -0.269823
251600                  0.272889      0.00843439      0.000323461    -0.000215909         0.779751        0.563445      0.000327773    -0.000689978
                     0.000324459    -0.000215592         0.272992      0.00492785      0.000404015    -0.000631321         0.780012        0.563067
                        0.779751        0.563448      0.000402013    -0.000629962       -0.0935975       -0.256466     -0.000294843    -0.000235335
                     0.000329414    -0.000688658         0.780008        0.563078      -0.00029126    -0.000233961       -0.0905507       -0.257594
251800                  0.267238      -0.0175663      0.000310597    -0.000258732         0.831565        0.486604      0.000257232    -0.000717787
                     0.000311109     -0.00026001         0.266938      -0.0211209       0.00034092    -0.000666942         0.831813          0.4862
                        0.831567        0.486606      0.000338983    -0.000665806        -0.115556       -0.241597     -0.000302121    -0.000223044
                      0.00025884    -0.000717692         0.831813        0.486204     -0.000299752    -0.000222002        -0.112552       -0.242974
252000                  0.258815      -0.0423112      0.000291754    -0.000300665         0.875913        0.404967      0.000184991    -0.000738281
                     0.000291534    -0.000303541         0.258106      -0.0458578      0.000274917    -0.000695991         0.876145        0.404533
                        0.875915        0.404967      0.000273052    -0.000695246        -0.135422        -0.22458      -0.00030911    -0.000210945
                       0.0001861    -0.000739136         0.876146        0.404532     -0.000307959    -0.000210285        -0.132492       -0.226203
252200                  0.247826      -0.0654745      0.000266868    -0.000340794         0.912342        0.319242       0.00011185    -0.000751609
                     0.000265729     -0.00034516         0.246711      -0.0689563      0.000206784    -0.000718273         0.912554        0.318776
                        0.912344         0.31924      0.000204977    -0.000718104        -0.152964       -0.205692     -0.000315831    -0.000198966
                     0.000112119    -0.000752943         0.912556        0.318768     -0.000315861     -0.00019872        -0.150138       -0.207554
252400                  0.234517      -0.0867605      0.000236045    -0.000378162         0.940464        0.230179      3.85008e-05    -0.000757976
                     0.000233893     -0.00038383         0.233005      -0.0901215      0.000137293    -0.000733709          0.94065         0.22968
                        0.940466        0.230176      0.000135497    -0.000734313        -0.167984       -0.185233     -0.000322298    -0.000187047
                     3.77705e-05    -0.000759198         0.940653        0.229666     -0.000323444    -0.000187231        -0.165291       -0.187324
252600                   0.21917       -0.105909      0.000199573    -0.000411813         0.959959        0.138569     -3.44582e-05    -0.000757616
                     0.000196426    -0.000418551         0.217279       -0.109095      6.71847e-05    -0.000742325         0.960115        0.138034
                        0.959961        0.138564       6.5312e-05    -0.000743898        -0.180325       -0.163529     -0.000328518    -0.000175132
                    -3.61368e-05    -0.000758092         0.960116        0.138015     -0.000330693    -0.000175748        -0.177792       -0.165833
252800                  0.202098         -0.1227      0.000157923    -0.000440829         0.970581       0.0452328     -0.000106508    -0.000750769
                     0.000153915    -0.000448411         0.199856       -0.125659      -2.8433e-06     -0.00074424         0.970699       0.0446626
                        0.970583       0.0452277     -4.92619e-06     -0.00074696        -0.189865       -0.140919     -0.000334494    -0.000163174
                    -0.000108873    -0.000749907         0.970699       0.0446395     -0.000337595    -0.000164214        -0.187517       -0.143417
253000                  0.183643       -0.136957      0.000111746    -0.000464376         0.972159      -0.0489789     -0.000177186    -0.000737665
                     0.000107107     -0.00047262         0.181082       -0.139641     -7.21521e-05    -0.000739649         0.972232      -0.0495837
                        0.972159      -0.0489845     -7.46227e-05    -0.000743665        -0.196528       -0.117758     -0.000340223    -0.000151131
                    -0.000179795    -0.000734987         0.972229      -0.0496098     -0.000344136    -0.000152573        -0.194388       -0.120429
253200                  0.164164       -0.148551      6.18441e-05    -0.000481745         0.964601       -0.143197     -0.000246068    -0.000718518
                     5.68692e-05    -0.000490547         0.161326       -0.150918     -0.000140169    -0.000728812         0.964621       -0.143834
                          0.9646       -0.143203     -0.000143242    -0.000734217         -0.20028      -0.0944086     -0.000345697    -0.000138965
                    -0.000248346    -0.000713723         0.964616       -0.143862     -0.000350299    -0.000140777        -0.198366      -0.0972266
253400                  0.144036         -0.1574      9.14495e-06     -0.00049238         0.947897        -0.23654     -0.000312749    -0.000693525
                     4.14421e-06    -0.000501728         0.140968       -0.159415     -0.000206392    -0.000712033         0.947858       -0.237206
                        0.947895       -0.236545     -0.000210308     -0.00071885        -0.201132      -0.0712358     -0.000350907    -0.000126641
                    -0.000314056    -0.000686529          0.94785       -0.237235     -0.000356067    -0.000128782         -0.19946      -0.0741729
253600                  0.123642       -0.163478      -4.5341e-05    -0.000495905         0.922124       -0.328119     -0.000376825    -0.000662869
                    -5.00929e-05    -0.000505872         0.120397       -0.165113     -0.000270394    -0.000689644         0.922017        -0.32881
                        0.922121       -0.328124     -0.000275398    -0.000697811        -0.199139      -0.0486018     -0.000355836    -0.000114127
                    -0.000376533    -0.000653829         0.922007       -0.328838     -0.000361417    -0.000116546        -0.197719      -0.0516284
253800                  0.103366       -0.166808     -0.000100562    -0.000492132         0.887442        -0.41705     -0.000437883    -0.000626735
                    -0.000104873    -0.000502841        0.0999992       -0.168043     -0.000331818    -0.000661994         0.887261       -0.417759
                        0.887438       -0.417055     -0.000338132    -0.000671345        -0.194402      -0.0268614     -0.000360466    -0.000101393
                    -0.000435457     -0.00061604         0.887249       -0.417786     -0.000366325    -0.000104028        -0.193241      -0.0299466
254000                 0.0835856       -0.167467     -0.000155469    -0.000481061         0.844098       -0.502459     -0.000495493    -0.000585313
                    -0.000159262    -0.000492634        0.0801565        -0.16829      -0.00039038    -0.000629433         0.843837       -0.503179
                        0.844094       -0.502463     -0.000398171    -0.000639689        -0.187066     -0.00635591     -0.000364775    -8.84114e-05
                    -0.000490568    -0.000573563         0.843824       -0.503204     -0.000370761    -9.11893e-05        -0.186166      -0.0094683
254200                  0.064666       -0.165583     -0.000209053    -0.000462864         0.792428       -0.583491     -0.000549197    -0.000538818
                     -0.00021238    -0.000475353        0.0612348       -0.165994     -0.000445858    -0.000592296          0.79208       -0.584213
                        0.792424       -0.583494     -0.000455194    -0.000603067        -0.177318       0.0125919     -0.000368736     -7.5156e-05
                    -0.000541659    -0.000526772         0.792067       -0.584235     -0.000374694    -7.79901e-05        -0.176675      0.00948356
254400                 0.0469525       -0.161336     -0.000260378    -0.000437867         0.732852        -0.65932     -0.000598517    -0.000487502
                    -0.000263408    -0.000451173        0.0435786       -0.161342     -0.000498095    -0.000550898         0.732412       -0.660034
                        0.732847       -0.659323     -0.000508892    -0.000561683        -0.165384       0.0296833     -0.000372316     -6.1601e-05
                    -0.000588561     -0.00047601         0.732399       -0.660052     -0.000378085    -6.43903e-05        -0.164992       0.0266093
254600                 0.0307632       -0.154953     -0.000308606    -0.000406522         0.665872       -0.729157     -0.000642954    -0.000431671
                    -0.000311577    -0.000420309        0.0275044       -0.154571     -0.000546986    -0.000505517         0.665338        -0.72985
                        0.665868       -0.729158     -0.000558953    -0.000515724        -0.151531       0.0446485     -0.000375481    -4.77214e-05
                    -0.000631131    -0.000421584         0.665325       -0.729865     -0.000380891    -5.03475e-05        -0.151376       0.0416374
254800                 0.0163829       -0.146707     -0.000353008    -0.000369373         0.592073       -0.792256     -0.000681999    -0.000371697
                    -0.000356152    -0.000382991        0.0132934       -0.145963     -0.000592479    -0.000456384         0.591443       -0.792918
                         0.59207       -0.792258     -0.000605043    -0.000465364        -0.136056       0.0572517     -0.000378189     -3.3492e-05
                    -0.000669245    -0.000363761         0.591432       -0.792929     -0.000383063    -3.58163e-05        -0.136123       0.0543296
255000                0.00405635        -0.13691     -0.000392972    -0.000327031         0.512119        -0.84793     -0.000715145    -0.000308032
                    -0.000396399    -0.000339446       0.00118558       -0.135837     -0.000634569    -0.000403673         0.511392       -0.848546
                        0.512116       -0.847931     -0.000646794    -0.000410774        -0.119288        0.067295     -0.000380392     -1.8887e-05
                    -0.000702783    -0.000302768         0.511383       -0.848554     -0.000384547    -2.07463e-05        -0.119558        0.064485
255200                -0.0060174       -0.125909     -0.000427998    -0.000280145         0.426743        -0.89555     -0.000741906    -0.000241214
                    -0.000431541     -0.00028989      -0.00862595        -0.12455     -0.000673293    -0.000347479          0.42592       -0.896108
                         0.42674       -0.895552     -0.000683791    -0.000352137        -0.101583       0.0746227     -0.000382036    -3.87912e-06
                    -0.000731616    -0.000238788         0.425914       -0.896113     -0.000385282     -5.0806e-06        -0.102031       0.0719441
255400                -0.0136902       -0.114083     -0.000457694    -0.000229376         0.336746       -0.934561     -0.000761832    -0.000171874
                    -0.000460698    -0.000234535           -0.016       -0.112483     -0.000708733    -0.000287802          0.33583       -0.935046
                        0.336744       -0.934563     -0.000715556    -0.000289667       -0.0833125       0.0791241     -0.000383059     1.15615e-05
                    -0.000755593    -0.000171964         0.335827       -0.935048     -0.000385199     1.12464e-05       -0.0839141        0.076592
255600                -0.0188692       -0.101829     -0.000481757    -0.000175383          0.24299       -0.964485     -0.000774536    -0.000100731
                    -0.000482822     -0.00017363       -0.0208514        -0.10004     -0.000741012    -0.000224508         0.241987       -0.964882
                        0.242988       -0.964487     -0.000741547    -0.000223641       -0.0648657       0.0807364     -0.000383389     2.74689e-05
                     -0.00077453    -0.000102397         0.241987       -0.964883     -0.000384223     2.83123e-05       -0.0655933        0.078361
255800                  -0.02152      -0.0895619     -0.000499962    -0.000118804         0.146388       -0.984926     -0.000779713    -2.85913e-05
                    -0.000496607    -0.000107533       -0.0231539      -0.0876387     -0.000770296    -0.000157281         0.145304       -0.985223
                        0.146385        -0.98493     -0.000761153    -0.000154432        -0.046638       0.0794456     -0.000382942     4.38833e-05
                    -0.000788185    -3.01482e-05         0.145308       -0.985222     -0.000382273     4.62102e-05       -0.0474633       0.0772325
256000                -0.0216691      -0.0777011     -0.000512146     -6.0256e-05        0.0478969       -0.995584     -0.000777162     4.36675e-05
                    -0.000500408    -3.68579e-05       -0.0229427      -0.0757013       -0.0007968    -8.55364e-05        0.0467416       -0.995766
                        0.047894       -0.995588     -0.000773707    -8.25512e-05        -0.029027       0.0752879     -0.000381622     6.08543e-05
                    -0.000796239     4.47596e-05        0.0467494       -0.995764     -0.000379263     6.50535e-05       -0.0299215       0.0732374
256200                 -0.019405      -0.0666657     -0.000518188    -3.23312e-07       -0.0514909       -0.996248     -0.000766804     0.000115115
                     -0.00049218     3.72803e-05       -0.0203148      -0.0646476     -0.000820783    -8.27393e-06        -0.052707       -0.996302
                      -0.0514945       -0.996253     -0.000778519     -8.7001e-06       -0.0124254       0.0683493     -0.000379319     7.84453e-05
                    -0.000798266     0.000122335       -0.0526957         -0.9963       -0.0003751     8.49823e-05       -0.0133614       0.0664563
