! TOUCHSTONE file generated by CST MICROWAVE STUDIO
! Date and time: Sun Sep 28 19:09:11 2025
! Project name: biblioteca3_folgaOK.cst
! Parameters = {H=600; Lx=200; Ly=260; Nedge=10; P=520; mesh_pilar_nm=40; t_air=3800; t_sub=6000}
! Header version: 2018
! Port assignment regex: !\s*Touchstone port\s*([0-9]+)\s*=\s*(CST MWS port|CST DS port)\s*([0-9]+|Zmin|Zmax)\s*\(\"(.*)\"\)(\s*mode\s*([0-9]+))?.*
! Touchstone port assignment:
! Touchstone port 1 = CST MWS port Zmin ("") mode 1
! Touchstone port 2 = CST MWS port Zmin ("") mode 2
! Touchstone port 3 = CST MWS port Zmax ("") mode 1
! Touchstone port 4 = CST MWS port Zmax ("") mode 2
! S-Parameters are not renormalized. Each port impedance will be approximated by the real part at minimum frequency. The values are described via the [Reference] keyword.
! Default impedance is overridden by [Reference]
[Version] 2.0
# GHz S RI R 376.73
[Number of Ports] 4
[Reference]
376.73 376.73 376.73 376.73 
[Number of Frequencies] 401
[Network Data]
250000                  0.315883        0.218796       0.00059139     4.68059e-05         0.289898        0.876582       0.00159596     0.000736029
                     0.000726426      2.6681e-06         0.104801       0.0231137       0.00146875     0.000562825        -0.938587        0.327668
                         0.29012        0.876601       0.00137718     0.000663117         0.123237       -0.364003      0.000261877    -0.000133816
                      0.00141938     0.000717681        -0.938464        0.327566      0.000294013    -0.000170002       -0.0676263       0.0833404
250200                  0.339341        0.185928      0.000602233    -4.42189e-06         0.386774        0.837693       0.00162961     0.000581713
                     0.000676987    -0.000111263         0.102843       0.0256763       0.00153342     0.000438007        -0.899087        0.424311
                        0.387337        0.836994       0.00141826     0.000506324         0.080145       -0.378164      0.000202694    -0.000300029
                       0.0015093     0.000620187        -0.899663        0.424628      0.000253513    -0.000193434       -0.0460052       0.0961171
250400                  0.358393        0.150063       0.00060843    -6.13367e-05          0.47877        0.788353       0.00165455     0.000423208
                     0.000612801    -0.000206862         0.102345       0.0286832       0.00158878     0.000301254        -0.849468        0.516331
                        0.479381        0.787156       0.00144799      0.00034441        0.0348123       -0.386369     -1.56719e-05    -0.000433547
                      0.00159526     0.000505689        -0.850427         0.51706      0.000207731    -0.000214438        -0.022326        0.104832
250600                  0.372613        0.111907      0.000608303    -0.000124046         0.564833        0.729148       0.00167007     0.000260737
                     0.000539491    -0.000283623          0.10336       0.0318277        0.0016327     0.000152877        -0.790286        0.602622
                        0.565318        0.727673       0.00146555     0.000178069       -0.0118134        -0.38818      -0.00028713    -0.000351317
                      0.00167411     0.000373218        -0.791379        0.603693      0.000156363    -0.000231979       0.00265491        0.109166
250800                  0.381701       0.0722252       0.00059978    -0.000192272         0.643974        0.660751       0.00167541     9.46029e-05
                     0.000461713     -0.00034245         0.105884       0.0348026       0.00166286    -6.43662e-06        -0.722223        0.682149
                        0.644254         0.65919       0.00147016     8.10731e-06       -0.0586923       -0.383331     -0.000394602    -0.000153448
                      0.00174211     0.000222413        -0.723271        0.683457      9.92547e-05    -0.000244791        0.0281391        0.108947
251000                  0.385495       0.0318169      0.000580425    -0.000265111         0.715267        0.583912       0.00166975    -7.47949e-05
                     0.000383029    -0.000385048         0.109857       0.0373101       0.00167689    -0.000175555        -0.646077        0.753969
                        0.715334         0.58242       0.00146106    -0.000164553        -0.104728       -0.371748      -0.00038694     -5.3986e-06
                       0.0017951     5.37564e-05        -0.646968        0.755394      3.64925e-05    -0.000251371        0.0533177        0.104157
251200                  0.383964     -0.00850982      0.000547575    -0.000340742         0.777856        0.499458       0.00165221    -0.000246942
                     0.000305977    -0.000413455         0.115169       0.0390715       0.00167243    -0.000352839        -0.562751        0.817243
                        0.777745        0.498146       0.00143755    -0.000338872        -0.148805       -0.353559     -0.000351298     8.25046e-05
                      0.00182869    -0.000131202        -0.563431        0.818666     -3.14821e-05    -0.000249997        0.0774006       0.0949221
251400                  0.377209      -0.0479606      0.000498663    -0.000416098          0.83095        0.408291       0.00162188    -0.000421187
                     0.000232262    -0.000429736         0.121663        0.039835        0.0016472    -0.000536097        -0.473234        0.871244
                        0.830721        0.407224       0.00139901    -0.000513694        -0.189834       -0.329098     -0.000317492     0.000135189
                      0.00183855    -0.000329693        -0.473697        0.872563      -0.00010374    -0.000238794        0.0996425       0.0815047
251600                  0.365455       -0.085775      0.000431809    -0.000486656         0.873832        0.311391        0.0015778    -0.000596721
                     0.000162954    -0.000435807         0.129146        0.039382       0.00159919    -0.000722566        -0.378589        0.915371
                        0.873552        0.310592       0.00134489    -0.000687751        -0.226789       -0.298894     -0.000291532      0.00016938
                      0.00182089    -0.000537686        -0.378863        0.916507     -0.000178729    -0.000215872         0.119364       0.0642873
251800                  0.349037       -0.121244       0.00034666    -0.000546505         0.905861        0.209809         0.001519     -0.00077255
                     9.86737e-05    -0.000433357         0.137389       0.0375327       0.00152682    -0.000908925         -0.27993        0.949149
                        0.905595        0.209272       0.00127477     -0.00085967        -0.258744        -0.26366      -0.00027345     0.000193973
                      0.00177282    -0.000750011        -0.280067        0.950053     -0.000254168    -0.000179533         0.135971       0.0437562
252000                  0.328395       -0.153725      0.000245314    -0.000588962         0.926484        0.104676       0.00144452    -0.000947472
                     3.97427e-05    -0.000423828         0.146141       0.0341488       0.00142902     -0.00109136        -0.178414        0.972238
                        0.926282        0.104367       0.00118837     -0.00102799        -0.284907       -0.224269     -0.000262254     0.000213777
                       0.0016928    -0.000960658        -0.178472        0.972889     -0.000327023     -0.00012857         0.148963       0.0204825
252200                  0.304055       -0.182654      0.000132934    -0.000607855         0.935245     -0.00280407       0.00135346     -0.00112005
                     -1.3705e-05    -0.000408427         0.155133        0.029137       0.00130549     -0.00126567       -0.0752142        0.984429
                        0.935139     -0.00293155       0.00108554     -0.00119117        -0.304651       -0.181728     -0.000257079     0.000231663
                      0.00158088     -0.00116323       -0.0752554        0.984834     -0.000393607    -6.26139e-05         0.157948     -0.00489704
252400                  0.276622       -0.207557      1.75187e-05    -0.000599227         0.931795       -0.111355       0.00124496     -0.00128859
                    -6.16387e-05    -0.000388154         0.164086       0.0224489       0.00115674     -0.00142745        0.0284874        0.985647
                        0.931798       -0.111355      0.000966329     -0.00134764        -0.317529       -0.137143     -0.000257394     0.000249648
                      0.00143875      -0.0013515        0.0284118        0.985835     -0.000449868      1.7536e-05         0.162646      -0.0316989
252600                  0.246763       -0.228057     -9.14417e-05    -0.000562812         0.915908       -0.219633       0.00111832     -0.00145112
                    -0.000104074    -0.000363844         0.172719       0.0140819      0.000984203     -0.00157229          0.13152        0.975949
                        0.916017       -0.219557      0.000830938     -0.00149578        -0.323294      -0.0916893     -0.000262993     0.000269504
                      0.00126963      -0.0015199         0.131372        0.975961     -0.000491852     0.000109702         0.162888      -0.0592115
252800                  0.215194       -0.243887     -0.000185095    -0.000502456         0.887498       -0.326235      0.000973035     -0.00160539
                     -0.00014103      -0.0003362         0.180757      0.00407742      0.000790255     -0.00169597         0.232738        0.955513
                        0.887692       -0.326127      0.000679776     -0.00163402        -0.321906      -0.0465731     -0.000273916     0.000293186
                      0.00107791     -0.00166401         0.232496        0.955402     -0.000516283     0.000210348         0.158623      -0.0867128
253000                  0.182663       -0.254891     -0.000257218    -0.000425167         0.846629       -0.429711      0.000808855     -0.00174885
                    -0.000172509    -0.000305834         0.187934     -0.00748046      0.000578144     -0.00179479         0.331032        0.924638
                         0.84688       -0.429602      0.000513445     -0.00176083        -0.313536     -0.00299598     -0.000290328     0.000323269
                     0.000868699     -0.00178075          0.33069        0.924457     -0.000521112     0.000314891         0.149911       -0.113487
253200                  0.149937       -0.261035       -0.0003052    -0.000339253         0.793537       -0.528578       0.00062589     -0.00187868
                    -0.000198471    -0.000273303         0.194002      -0.0204681      0.000351866     -0.00186568          0.42534        0.883734
                         0.79381       -0.528487      0.000332733     -0.00187482        -0.298564       0.0378813     -0.000312227     0.000363539
                     0.000647311     -0.00186845         0.424909        0.883532      -0.00050589     0.000418261         0.136922       -0.138843
253400                  0.117779       -0.262404     -0.000329784    -0.000252461         0.728641       -0.621342      0.000424689     -0.00199183
                    -0.000218831    -0.000239145         0.198735      -0.0347257      0.000115978     -0.00190645         0.514662        0.833315
                        0.728903       -0.621272        0.0001386     -0.00197477        -0.277572       0.0749745     -0.000338685     0.000419884
                     0.000418879     -0.00192671         0.514165        0.833134     -0.000471814     0.000515582         0.119926       -0.162124
253600                 0.0869337       -0.259209     -0.000334004    -0.000170804         0.652554        -0.70652      0.000206338      -0.0020851
                    -0.000233458    -0.000203917         0.201933      -0.0500613     -0.000124639     -0.00191586         0.598064        0.773989
                        0.652777       -0.706462     -6.78543e-05     -0.00205969        -0.251326         0.10731     -0.000365855     0.000501498
                     0.000188025     -0.00195615         0.597533        0.773858     -0.000421472     0.000602782        0.0992914       -0.182728
253800                 0.0581031       -0.251781     -0.000321958    -9.82088e-05         0.566094        -0.78267     -2.74571e-05     -0.00215518
                    -0.000242179    -0.000168237         0.203431      -0.0662555     -0.000365027     -0.00189368         0.674687         0.70645
                         0.56626       -0.782607     -0.000285436     -0.00212898        -0.220763        0.134061     -0.000381871     0.000621454
                    -4.13172e-05     -0.00195816         0.674157        0.706386     -0.000358349     0.000676987        0.0754719       -0.200117
254000                 0.0319271        -0.24057     -0.000297859     -3.6764e-05         0.470287       -0.848424     -0.000274292     -0.00219884
                    -0.000244798    -0.000132823         0.203094      -0.0830665     -0.000600392     -0.00184059         0.743754        0.631467
                        0.470387       -0.848333     -0.000512931     -0.00218248        -0.186962        0.154571     -0.000356045     0.000791281
                    -0.000265952     -0.00193453         0.743261        0.631473     -0.000286275     0.000736633        0.0489969       -0.213827
254200                0.00896204       -0.226128     -0.000265483      1.2794e-05         0.366362       -0.902521     -0.000531022     -0.00221304
                     -0.00024113    -9.85393e-05         0.200828       -0.100236      -0.00082631     -0.00175815         0.804575        0.549876
                          0.3664       -0.902378     -0.000749205     -0.00222067        -0.151115        0.168391     -0.000229501      0.00099289
                    -0.000483385     -0.00188723          0.80415        0.549943     -0.000208945     0.000781346        0.0204595       -0.223483
254400                -0.0103397       -0.209101     -0.000227955     5.05838e-05         0.255746       -0.943843     -0.000793753     -0.00219515
                    -0.000231055    -6.64396e-05         0.196576       -0.117493      -0.00103888     -0.00164856         0.856551        0.462569
                        0.255738       -0.943627     -0.000993347     -0.00224494        -0.114489        0.175294      3.88882e-05      0.00112669
                    -0.000691719     -0.00181826         0.856219        0.462681     -0.000129586     0.000811672      -0.00949664       -0.228803
254600                -0.0256474       -0.190209      -0.00018775     7.71856e-05         0.140046       -0.971452      -0.00105789     -0.00214314
                    -0.000214597    -3.78023e-05         0.190322       -0.134562      -0.00123483     -0.00151457         0.899176        0.370487
                        0.140015       -0.971151      -0.00124488     -0.00225794       -0.0783834        0.175294      0.000349596      0.00107309
                    -0.000889525     -0.00172944          0.89895        0.370618     -5.08062e-05     0.000828767       -0.0401922       -0.229606
254800                -0.0367662        -0.17022     -0.000146788     9.33734e-05        0.0210203       -0.984625      -0.00131822     -0.00205575
                    -0.000192045    -1.41437e-05         0.182089       -0.151169      -0.00141156     -0.00135925         0.932039        0.274607
                       0.0209955       -0.984235      -0.00150406      -0.0022643       -0.0440845        0.168655      0.000542464     0.000884088
                      -0.0010757     -0.00162241         0.931926        0.274732      2.54395e-05     0.000834111       -0.0709273       -0.225817
255000                -0.0436465       -0.149925     -0.000106574     9.99559e-05       -0.0994457       -0.982882      -0.00156913     -0.00193274
                    -0.000164097     2.81183e-06         0.171941       -0.167045       -0.0015671     -0.00118583         0.954829        0.175939
                      -0.0994342        -0.98241       -0.0017723     -0.00227197       -0.0128139        0.155887       0.00060378      0.00069265
                     -0.00124933     -0.00149857         0.954823         0.17603      9.77813e-05     0.000829287        -0.100997       -0.217468
255200                -0.0463879       -0.130108      -6.8327e-05     9.76942e-05        -0.219385       -0.966013      -0.00180477     -0.00177493
                    -0.000132043     1.12368e-05          0.15998       -0.181931      -0.00170015    -0.000997553         0.967333        0.075509
                        -0.21931       -0.965477      -0.00205278      -0.0022949        0.0143214        0.137735       0.00059778     0.000551041
                      -0.0014096     -0.00135911         0.967418       0.0755432      0.000165333     0.000815834        -0.129709       -0.204699
255400                -0.0452361       -0.111519     -3.30995e-05     8.72739e-05        -0.336789       -0.934092      -0.00201939     -0.00158436
                    -9.79259e-05     9.41368e-06         0.146343       -0.195588       -0.0018099    -0.000797574         0.969434      -0.0256406
                       -0.336629       -0.933519      -0.00235095     -0.00235916        0.0363776        0.115157       0.00056929      0.00045552
                     -0.00155567     -0.00120506         0.969591       -0.025681       0.00022758     0.000795159        -0.156397       -0.187754
255600                -0.0405734      -0.0948423     -1.87235e-06     6.93124e-05        -0.449659       -0.887487      -0.00220757     -0.00136422
                    -6.46342e-05    -3.92355e-06         0.131202       -0.207798      -0.00189604    -0.000588869         0.961117       -0.126465
                       -0.449403       -0.886912       -0.0026731     -0.00251833        0.0526179       0.0892815      0.000537368     0.000391784
                     -0.00168662     -0.00103733         0.961319       -0.126591      0.000284271     0.000768499        -0.180438       -0.166977
255800                -0.0329031      -0.0806694      2.43658e-05     4.43915e-05        -0.556053       -0.826862      -0.00236456     -0.00111878
                    -3.58241e-05    -2.91416e-05         0.114757        -0.21837      -0.00195861    -0.000374177         0.942465       -0.225925
                         -0.5557       -0.826319      -0.00301076     -0.00289715        0.0625485       0.0613716      0.000508476     0.000348538
                     -0.00180141     -0.00085679         0.942683       -0.226136      0.000335332      0.00073691        -0.201269       -0.142804
256000                -0.0228274      -0.0694784      4.45572e-05     1.31113e-05        -0.654137       -0.753158      -0.00248649     -0.00085315
                    -1.55752e-05     -6.5252e-05        0.0972337       -0.227142      -0.00199795    -0.000155975         0.913658        -0.32299
                       -0.653698       -0.752682      -0.00321819     -0.00382055        0.0659432       0.0327641      0.000484228      0.00031849
                     -0.00189887    -0.000664366         0.913864       -0.323282      0.000380801     0.000701281        -0.218396       -0.115755
256200                -0.0110217      -0.0616161      5.75314e-05    -2.38364e-05        -0.742229       -0.667579      -0.00257057    -0.000573107
                    -7.76028e-06    -0.000109624        0.0788795       -0.233989      -0.00201459     6.35433e-05          0.87497       -0.416651
                       -0.741725         -0.6672      -0.00207543     -0.00581284        0.0628552       0.0048132      0.000464564     0.000297138
                     -0.00197765    -0.000461099         0.875141       -0.417009      0.000420771     0.000662353         -0.23141      -0.0864203
