! TOUCHSTONE file generated by CST MICROWAVE STUDIO
! Date and time: Fri Sep 26 07:22:00 2025
! Project name: biblioteca3_folgaOK.cst
! Parameters = {H=600; Lx=200; Ly=260; Nedge=24; P=520; k=0; mesh_pilar_nm=40; n=0; t_air=3500; t_sub=2000; wavelength_nm=0}
! Header version: 2018
! Port assignment regex: !\s*Touchstone port\s*([0-9]+)\s*=\s*(CST MWS port|CST DS port)\s*([0-9]+|Zmin|Zmax)\s*\(\"(.*)\"\)(\s*mode\s*([0-9]+))?.*
! Touchstone port assignment:
! Touchstone port 1 = CST MWS port Zmin ("") mode 1
! Touchstone port 2 = CST MWS port Zmin ("") mode 2
! Touchstone port 3 = CST MWS port Zmax ("") mode 1
! Touchstone port 4 = CST MWS port Zmax ("") mode 2
! S-Parameters are not renormalized. Each port impedance will be approximated by the real part at minimum frequency. The values are described via the [Reference] keyword.
! Default impedance is overridden by [Reference]
[Version] 2.0
# GHz S RI R 376.73
[Number of Ports] 4
[Reference]
376.73 376.73 376.73 376.73 
[Number of Frequencies] 401
[Network Data]
250000                 -0.291376       -0.112714      0.000532046     -0.00124446         0.650753       -0.692062      0.000530905      0.00163414
                     0.000566436     -0.00128927       -0.0143004        -0.19666     -0.000667793      0.00170461         0.762533        0.616156
                        0.650614        -0.69208      -0.00069127      0.00165557         -0.13045       -0.283892      0.000146052    -0.000815579
                     0.000542382      0.00167972         0.762747        0.616062      8.07147e-05    -0.000870863          0.19525      -0.0272907
250200                 -0.290694      -0.0925998       0.00042067      -0.0012651         0.596368       -0.743143      0.000634002      0.00160713
                     0.000450513     -0.00132198       -0.0230528       -0.198839      -0.00055594      0.00179138         0.800406        0.565067
                        0.595922       -0.742774     -0.000577152       0.0017483        -0.153125       -0.264272      0.000109814     -0.00084231
                     0.000652631      0.00164387          0.80074        0.564987      4.22856e-05    -0.000890538         0.195059      -0.0448182
250400                 -0.288348      -0.0728749      0.000306953     -0.00127895         0.537645       -0.790039      0.000737253      0.00157441
                      0.00033097     -0.00134563        -0.032032       -0.200538     -0.000432086      0.00186956         0.834892        0.511626
                        0.537061       -0.789332     -0.000450174      0.00183187        -0.173282       -0.242462      7.07468e-05    -0.000867913
                     0.000761518      0.00160248         0.835311        0.511544      1.34584e-06    -0.000909268         0.193203      -0.0624742
250600                  -0.28438      -0.0536973      0.000191302      -0.0012856         0.474919       -0.832361      0.000840378      0.00153576
                      0.00020859     -0.00135968       -0.0412117       -0.201734     -0.000297004      0.00193743         0.865844        0.456059
                        0.474328       -0.831386     -0.000311273      0.00190433        -0.190647       -0.218793      2.87514e-05    -0.000892167
                     0.000868872      0.00155544         0.866317        0.455965     -4.22152e-05    -0.000926837         0.189658      -0.0800901
250800                  -0.27885      -0.0352216      7.41803e-05     -0.00128466         0.408557       -0.869745      0.000943063      0.00149096
                     8.42325e-05     -0.00136369       -0.0505631       -0.202405     -0.000151752      0.00199335          0.89313        0.398599
                        0.408052       -0.868584     -0.000161729      0.00196389        -0.204995       -0.193635      -1.6265e-05    -0.000914829
                     0.000974491      0.00150261         0.893632        0.398488     -8.85007e-05    -0.000942998         0.184419       -0.097494
251000                 -0.271834      -0.0175971     -4.38891e-05     -0.00127577         0.338962       -0.901861       0.00104496      0.00143982
                    -4.11713e-05      -0.0013573       -0.0600552       -0.202534      2.34051e-06      0.00203583         0.916635        0.339487
                        0.338599       -0.900599     -3.13847e-06      0.00200895        -0.216155       -0.167394     -6.43847e-05    -0.000935629
                      0.00107814      0.00144387         0.917143        0.339359     -0.000137602    -0.000957476         0.177498       -0.114513
251200                 -0.263422    -0.000965582     -0.000162324     -0.00125858         0.266562       -0.928409        0.0011457      0.00138213
                    -0.000166633     -0.00134025       -0.0696548       -0.202104      0.000163708      0.00206359         0.936259        0.278971
                         0.26637       -0.927128       0.00016264      0.00203819        -0.224015       -0.140496     -0.000115676    -0.000954267
                      0.00117955      0.00137907         0.936757        0.278827     -0.000189596    -0.000969963         0.168929       -0.130977
251400                 -0.253722       0.0145401     -0.000280481     -0.00123281         0.191817       -0.949129       0.00124486       0.0013177
                     -0.00029112      -0.0013124       -0.0793266       -0.201103      0.000330592      0.00207559         0.951917        0.217304
                        0.191796       -0.947899      0.000333553      0.00205064        -0.228526       -0.113385     -0.000170191    -0.000970413
                      0.00127842      0.00130809         0.952392        0.217149     -0.000244538    -0.000980117          0.15876       -0.146717
251600                 -0.242854       0.0287983      -0.00039766      -0.0011982         0.115206       -0.963797       0.00134198      0.00124638
                    -0.000413567      -0.0012737       -0.0890338       -0.199519      0.000501089      0.00207108         0.963544        0.154745
                        0.115337       -0.962674      0.000507425      0.00204568        -0.229705      -0.0865067     -0.000227957    -0.000983708
                      0.00137438      0.00123082         0.963987        0.154583     -0.000302457    -0.000987559         0.147061       -0.161572
251800                 -0.230955       0.0416998     -0.000513102     -0.00115455        0.0372333       -0.972227       0.00143658      0.00116803
                    -0.000532897     -0.00122427       -0.0987381       -0.197346      0.000673212      0.00204959         0.971089       0.0915548
                       0.0374847       -0.971252      0.000682043      0.00202303        -0.227634      -0.0603028     -0.000288973    -0.000993756
                      0.00146707      0.00114713         0.971493        0.091392     -0.000363345    -0.000991876         0.133916       -0.175386
252000                 -0.218171         0.05315     -0.000625996     -0.00110175       -0.0415806       -0.974278       0.00152813      0.00108253
                    -0.000648033      -0.0011643          -0.1084       -0.194579      0.000844944      0.00201096         0.974517       0.0279976
                      -0.0412489       -0.973472      0.000855225       0.0019828        -0.222456      -0.0351967     -0.000353206     -0.00100013
                      0.00155604      0.00105695          0.97488       0.0278385     -0.000427156    -0.000992616         0.119427       -0.188013
252200                 -0.204658         0.06307     -0.000735485     -0.00103974        -0.120699       -0.969849       0.00161605     0.000989805
                    -0.000757921     -0.00109415        -0.117979       -0.191218        0.0010143      0.00195532         0.973812      -0.0356612
                       -0.120329        -0.96922        0.0010249      0.00192541        -0.214377      -0.0115862     -0.000420579     -0.00100237
                      0.00164083     0.000960205         0.974133      -0.0358122     -0.000493789    -0.000989296         0.103709       -0.199319
252400                 -0.190583        0.071398     -0.000840672    -0.000968587        -0.199572       -0.958888       0.00169973     0.000889819
                     -0.00086154     -0.00101429        -0.127434       -0.187262       0.00117936      0.00188306         0.968973      -0.0991556
                       -0.199203       -0.958427       0.00118913      0.00185155        -0.203655       0.0101654     -0.000490963    -0.000999985
                      0.00172091     0.000856879         0.969253       -0.099295     -0.000563083    -0.000981399        0.0868916       -0.209181
252600                 -0.176119       0.0780907     -0.000940632    -0.000888418        -0.277642       -0.941388       0.00177853     0.000782581
                    -0.000957926    -0.000925277        -0.136724       -0.182719       0.00133834      0.00179482         0.960018        -0.16222
                       -0.277309       -0.941075       0.00134621      0.00176215        -0.190597       0.0297378     -0.000564173    -0.000992451
                      0.00179572     0.000746979          0.96026       -0.162346     -0.000634803    -0.000968386        0.0691173        -0.21749
252800                 -0.161444       0.0831239      -0.00103442    -0.000799487        -0.354347       -0.917392       0.00185176      0.00066816
                     -0.00104618    -0.000827816        -0.145807       -0.177595       0.00148958      0.00169144         0.946978       -0.224591
                       -0.354073       -0.917198       0.00149462      0.00165832        -0.175552       0.0468593     -0.000639951    -0.000979222
                      0.00186466     0.000630565         0.947185       -0.224702     -0.000708633    -0.000949697        0.0505382       -0.224151
253000                 -0.146737       0.0864933       -0.0011211    -0.000702156        -0.429123       -0.886991       0.00191871     0.000546682
                     -0.00112548    -0.000722687        -0.154643       -0.171902       0.00163162      0.00157391         0.929905       -0.286008
                       -0.428923       -0.886883       0.00163308      0.00154126        -0.158901       0.0613125     -0.000717961    -0.000959732
                       0.0019271     0.000507756          0.93008       -0.286103     -0.000784161    -0.000924766        0.0313162       -0.229086
253200                 -0.132178       0.0882148      -0.00119972    -0.000596905         -0.50141       -0.850331       0.00197864     0.000418347
                     -0.00119511    -0.000610761         -0.16319       -0.165654       0.00176315      0.00144339         0.908863       -0.346212
                       -0.501289       -0.850272       0.00176052      0.00141229         -0.14105        0.072938     -0.000797775    -0.000933407
                      0.00198237     0.000378734         0.909011       -0.346292     -0.000860872    -0.000893038        0.0116203       -0.232232
253400                 -0.117945       0.0883248      -0.00126939    -0.000484338        -0.570657       -0.807605       0.00203079     0.000283429
                     -0.00125444    -0.000492979        -0.171409       -0.158869       0.00188305      0.00130108         0.883934        -0.40495
                        -0.57061       -0.807563        0.0018761      0.00127271         -0.12242       0.0816367     -0.000878866    -0.000899673
                      0.00202976     0.000243757         0.884058       -0.405018     -0.000938137    -0.000853978      -0.00837427       -0.233544
253600                 -0.104211       0.0868797      -0.00132924    -0.000365174        -0.636326       -0.759062       0.00207438      0.00014229
                     -0.00130296    -0.000370339        -0.179262       -0.151567       0.00199038      0.00114827         0.855216       -0.461975
                        -0.63634       -0.759008       0.00197913      0.00112385        -0.103441       0.0873711     -0.000960591    -0.000857975
                      0.00206855     0.000103163          0.85532       -0.462032      -0.00101521    -0.000807101       -0.0284884       -0.232994
253800                -0.0911418       0.0839554      -0.00137848    -0.000240254          -0.6979          -0.705       0.00210863    -4.61924e-06
                     -0.00134027    -0.000243881         -0.18671       -0.143772       0.00208437     0.000986264         0.822822       -0.517044
                       -0.697954       -0.704911       0.00206911     0.000966984       -0.0845373        0.090165      -0.00104219    -0.000807793
                      0.00209803    -4.26168e-05         0.822907       -0.517094      -0.00109123    -0.000751991       -0.0485405       -0.230572
254000                -0.0788933       0.0796466       -0.0014164    -0.000110526        -0.754885       -0.645769       0.00213277    -0.000156748
                     -0.00136608    -0.000114671        -0.193718        -0.13551       0.00216438     0.000816395         0.786878       -0.569924
                       -0.754956       -0.645631       0.00214566     0.000803368       -0.0661245       0.0901018      -0.00112278    -0.000748662
                      0.00211746    -0.000193055         0.786947       -0.569969       -0.0011652    -0.000688329       -0.0683482       -0.226285
254200                -0.0676095       0.0740653      -0.00144239     2.29584e-05        -0.806818       -0.581766       0.00214603    -0.000313444
                     -0.00138021     1.62115e-05        -0.200252       -0.126811       0.00222993     0.000639976         0.747528       -0.620386
                       -0.806882       -0.581574       0.00220851     0.000634187       -0.0485986       0.0873225      -0.00120134    -0.000680205
                      0.00212612     -0.00034752         0.747581        -0.62043      -0.00123605    -0.000615924       -0.0877304       -0.220161
254400                -0.0574203       0.0673396      -0.00145595     0.000159062        -0.853273       -0.513435       0.00214771    -0.000473951
                     -0.00138261     0.000147688         -0.20628       -0.117706       0.00228064     0.000458309         0.704928       -0.668215
                       -0.853305        -0.51319       0.00225748      0.00046058       -0.0323284       0.0820214      -0.00127674    -0.000602156
                      0.00212334    -0.000505274         0.704966        -0.66826      -0.00130258    -0.000534736        -0.106508       -0.212243
254600                -0.0484399       0.0596117      -0.00145673     0.000296574        -0.893862       -0.441262       0.00213711    -0.000637403
                     -0.00137332     0.000278695        -0.211771        -0.10823       0.00231625     0.000272674         0.659247         -0.7132
                       -0.893844       -0.440973       0.00229245     0.000283632       -0.0176492       0.0744422      -0.00134771    -0.000514393
                      0.00210848    -0.000665469         0.659269        -0.71325      -0.00136357    -0.000444908        -0.124509       -0.202592
254800                -0.0407644       0.0510359       -0.0014445     0.000434233        -0.928248       -0.365771       0.00211364    -0.000802829
                     -0.00135249     0.000408192        -0.216699      -0.0984206       0.00233657     8.43305e-05         0.610668       -0.755145
                       -0.928164       -0.365453       0.00231335     0.000104386      -0.00485579       0.0648719      -0.00141292    -0.000416969
                      0.00208095     -0.00082715         0.610674       -0.755201      -0.00141772    -0.000346785        -0.141563       -0.191286
255000                 -0.034471       0.0417762       -0.0014192     0.000570744        -0.956141        -0.28752       0.00207674    -0.000969156
                     -0.00132037     0.000535176        -0.221039      -0.0883155       0.00234151    -0.000105483         0.559386       -0.793863
                       -0.955983        -0.28719       0.00232014    -7.61479e-05       0.00580297       0.0536346      -0.00147092    -0.000310148
                      0.00204027    -0.000989255         0.559374       -0.793926      -0.00146376     -0.00024093        -0.157511       -0.178422
255200                -0.0296168       0.0320041      -0.00138091     0.000704802        -0.977307       -0.207093       0.00202599     -0.00113521
                     -0.00127728     0.000658687        -0.224768      -0.0779564       0.00233104    -0.000295547         0.505609       -0.829178
                       -0.977073       -0.206772       0.00231283    -0.000256982        0.0141286       0.0410851      -0.00152026    -0.000194428
                      0.00198603     -0.00115063         0.505578        -0.82925      -0.00150047     -0.00012813        -0.172203       -0.164109
255400                -0.0262378       0.0218956      -0.00132988     0.000835115        -0.991569       -0.125099       0.00196106     -0.00129974
                     -0.00122365     0.000777814        -0.227868       -0.067386       0.00230522    -0.000484654         0.449554       -0.860929
                       -0.991263       -0.124804       0.00229144     -0.00043714        0.0199769       0.0276006      -0.00155947    -7.05653e-05
                      0.00191796     -0.00131002         0.449501       -0.861009      -0.00152673    -9.39304e-06        -0.185499       -0.148474
255600                -0.0243486       0.0116288      -0.00126651     0.000960425        -0.998809      -0.0421578       0.00188177     -0.00146141
                     -0.00115995     0.000891705        -0.230323      -0.0566488       0.00226415    -0.000671608         0.391449       -0.888967
                       -0.998445      -0.0419075       0.00225602    -0.000615642          0.02326       0.0135733      -0.00158715     6.04127e-05
                      0.00183591     -0.00146611         0.391374       -0.889053      -0.00154157     0.000114073        -0.197271       -0.131656
255800                -0.0239429      0.00138125      -0.00119134      0.00107953        -0.998973       0.0410989       0.00178805     -0.00161882
                     -0.00108673     0.000999567        -0.232119      -0.0457908       0.00220803    -0.000855215         0.331534       -0.913155
                       -0.998565       0.0412926       0.00220666    -0.000791498        0.0239487    -0.000598453      -0.00160202     0.000197206
                      0.00173989     -0.00161752         0.331434       -0.913247      -0.00154417     0.000240883        -0.207407       -0.113809
256000                 -0.024993     -0.00867294      -0.00110505      0.00119131        -0.992066         0.12404       0.00168001     -0.00177054
                     -0.00100461      0.00110067        -0.233249       -0.034859       0.00213709     -0.00103429         0.270056       -0.933373
                       -0.991636        0.124169       0.00214348    -0.000963701        0.0220715      -0.0145179      -0.00160296     0.000338256
                      0.00163006     -0.00176285          0.26993       -0.933468      -0.00153399     0.000369519        -0.215809      -0.0950956
256200                -0.0274512      -0.0183656      -0.00100845      0.00129473        -0.978156        0.206038       0.00155793     -0.00191512
                    -0.000914229      0.00119436        -0.233705      -0.0239015       0.00205168     -0.00120763          0.20727       -0.949516
                       -0.977724        0.206102       0.00206666     -0.00113122        0.0177147      -0.0277989      -0.00158909     0.000481774
                      0.00150676     -0.00190068         0.207117       -0.949612      -0.00151069     0.000498376        -0.222394      -0.0756905
