! TOUCHSTONE file generated by CST MICROWAVE STUDIO
! Date and time: Sun Sep 28 19:32:14 2025
! Project name: biblioteca3_folgaOK.cst
! Parameters = {H=600; Lx=200; Ly=260; Nedge=8; P=520; mesh_pilar_nm=40; t_air=3500; t_sub=4000}
! Header version: 2018
! Port assignment regex: !\s*Touchstone port\s*([0-9]+)\s*=\s*(CST MWS port|CST DS port)\s*([0-9]+|Zmin|Zmax)\s*\(\"(.*)\"\)(\s*mode\s*([0-9]+))?.*
! Touchstone port assignment:
! Touchstone port 1 = CST MWS port Zmin ("") mode 1
! Touchstone port 2 = CST MWS port Zmin ("") mode 2
! Touchstone port 3 = CST MWS port Zmax ("") mode 1
! Touchstone port 4 = CST MWS port Zmax ("") mode 2
! S-Parameters are not renormalized. Each port impedance will be approximated by the real part at minimum frequency. The values are described via the [Reference] keyword.
! Default impedance is overridden by [Reference]
[Version] 2.0
# GHz S RI R 376.73
[Number of Ports] 4
[Reference]
376.73 376.73 376.73 376.73 
[Number of Frequencies] 401
[Network Data]
250000                 -0.255607        0.282894      -5.1812e-05    -0.000154924         0.307636       -0.871589       0.00141317      0.00164596
                    -0.000116922    -0.000219595        -0.114738       0.0412628      0.000342184      0.00225059         0.952818        0.277622
                        0.307509       -0.871879      0.000344154      0.00229342        -0.021545       -0.380647      0.000436449     0.000328295
                      0.00152315      0.00151244           0.9527        0.277334      0.000613701     0.000353424        0.0746334       0.0964617
250200                 -0.231127        0.299001     -5.87257e-05    -0.000131305         0.227346       -0.897478       0.00149451      0.00150113
                    -0.000137859    -0.000172479        -0.118847       0.0443887      0.000564315      0.00218031         0.971671        0.199361
                        0.226863       -0.897764      0.000526425      0.00227323       -0.0607701       -0.373038      0.000488148     0.000335137
                      0.00164211      0.00139211         0.971583        0.198808      0.000676733     0.000309701        0.0917268       0.0875884
250400                 -0.205323        0.312511     -6.36445e-05    -0.000105714         0.144683         -0.9162       0.00157702      0.00135356
                    -0.000154199    -0.000122047        -0.122877       0.0482718      0.000771583      0.00210297         0.984041        0.119792
                        0.143952       -0.916419      0.000712255      0.00223557       -0.0987357       -0.360756      0.000549958     0.000336357
                      0.00175162      0.00126215          0.98393        0.119054      0.000739401     0.000258003         0.107627       0.0763098
250600                 -0.178495        0.323293     -6.62054e-05    -7.81539e-05        0.0602536       -0.927519        0.0016592      0.00120322
                     -0.00016526    -6.86002e-05        -0.126736       0.0529085      0.000966457      0.00201805         0.989841       0.0394715
                       0.0593751       -0.927635      0.000899649      0.00217915        -0.134807        -0.34398      0.000622525     0.000328921
                      0.00185107      0.00112332         0.989677       0.0386208      0.000800809     0.000197739         0.122013       0.0627933
250800                 -0.150953        0.331253     -6.60027e-05     -4.8669e-05       -0.0253097       -0.931239       0.00173955       0.0010499
                    -0.000170335    -1.25558e-05        -0.130328       0.0582842       0.00115065      0.00192491         0.989036      -0.0410408
                      -0.0262497       -0.931244       0.00108629      0.00210296        -0.168376       -0.322982      0.000705773     0.000308982
                      0.00193986     0.000976401         0.988805      -0.0419391      0.000859891     0.000128386         0.134587       0.0472495
251000                 -0.123021        0.336328     -6.25875e-05    -1.73507e-05         -0.11135       -0.927214       0.00181663     0.000893343
                    -0.000168711     4.55379e-05        -0.133562       0.0643733       0.00132527      0.00182281         0.981639       -0.121187
                       -0.112282       -0.927117       0.00126959       0.0020063        -0.198872       -0.298126      0.000798421     0.000271971
                      0.00201748     0.000822154         0.981343       -0.122079      0.000915399      4.9527e-05         0.145081        0.029928
251200                -0.0950269        0.338496     -5.54667e-05      1.5648e-05         -0.19719       -0.915349       0.00188901     0.000733241
                    -0.000159686     0.000104986         -0.13635       0.0711397       0.00149087      0.00171096         0.967712       -0.200416
                       -0.198059       -0.915171       0.00144669      0.00188887        -0.225781        -0.26986      0.000897425     0.000212944
                      0.00208346     0.000661354         0.967363       -0.201259      0.000965904    -3.91005e-05         0.153267       0.0111125
251400                -0.0673031        0.337771     -4.41056e-05     5.00975e-05        -0.282131         -0.8956       0.00195534     0.000569306
                    -0.000142596     0.000164936        -0.138608       0.0785371       0.00164758      0.00158862         0.947365       -0.278186
                       -0.282902       -0.895371       0.00161461      0.00175087        -0.248654       -0.238709      0.000997479     0.000127317
                      0.00213734     0.000494776         0.946982        -0.27895       0.00100981    -0.000137553         0.158953     -0.00888451
251600                -0.0401803        0.334205      -2.7932e-05     8.56746e-05        -0.365458       -0.867982       0.00201426     0.000401304
                    -0.000116845     0.000224365        -0.140256         0.08651       0.00179507      0.00145506         0.920753       -0.353973
                       -0.366113       -0.867737       0.00177026      0.00159298        -0.267123       -0.205262       0.00109087     1.20118e-05
                      0.00217872     0.000323197         0.920358       -0.354637       0.00104536    -0.000245625         0.161992      -0.0297275
251800                -0.0139844         0.32789     -6.34486e-06     0.000121943        -0.446445       -0.832574       0.00206446     0.000229093
                    -8.19412e-05      0.00028208        -0.141223        0.094994       0.00193263       0.0013097         0.888072       -0.427267
                       -0.446976       -0.832343       0.00191064      0.00141647        -0.280909       -0.170165         0.001168    -0.000133175
                      0.00220719     0.000147405         0.887689       -0.427823       0.00107072    -0.000362791         0.162282      -0.0510643
252000                 0.0109689        0.318957      2.12726e-05     0.000158334        -0.524353       -0.789517       0.00210463     5.26556e-05
                    -3.75375e-05     0.000336719        -0.141446        0.103917       0.00205917      0.00115208         0.849563       -0.497583
                        -0.52477       -0.789329       0.00203286      0.00122314        -0.289829         -0.1341        0.0012188    -0.000304459
                      0.00222236    -3.17963e-05         0.849214       -0.498031         0.001084    -0.000488156          0.15977      -0.0725322
252200                 0.0343785        0.307576      5.55334e-05      0.00019412        -0.598445       -0.739024       0.00213347    -0.000127873
                     1.65245e-05     0.000386763        -0.140867          0.1132       0.00217331     0.000982027           0.8055       -0.564459
                       -0.598762       -0.738901       0.00213435      0.00101528        -0.293806      -0.0977753       0.00123487    -0.000493868
                      0.00222388    -0.000213579         0.805204       -0.564807       0.00108335    -0.000620414         0.154448      -0.0937645
252400                 0.0559629        0.293954      9.70192e-05     0.000228396        -0.667985       -0.681382        0.0021497     -0.00031218
                     8.01699e-05     0.000430564        -0.139439        0.122757       0.00227333     0.000799648         0.756196       -0.627461
                       -0.668224       -0.681336       0.00221289     0.000795632        -0.292867      -0.0619067       0.00121146     -0.00069037
                      0.00221137    -0.000397083         0.755969       -0.627721       0.00106705    -0.000757837         0.146359       -0.114397
252600                 0.0754653        0.278335      0.000146244     0.000260059        -0.732246       -0.616953       0.00215207    -0.000499756
                     0.000153047     0.000466376        -0.137125        0.132499       0.00235732     0.000605452         0.701995       -0.686185
                       -0.732433       -0.616991       0.00226673     0.000567273         -0.28715      -0.0272033       0.00114865    -0.000882067
                       0.0021845    -0.000581406         0.701845       -0.686373       0.00103367    -0.000898272         0.135592       -0.134073
252800                 0.0926589        0.260997      0.000203606     0.000287791        -0.790522       -0.546181       0.00213934    -0.000689871
                      0.00023449     0.000492411        -0.133897        0.142332       0.00242324       0.0004004          0.64327       -0.740256
                       -0.790683       -0.546298        0.0022946     0.000333492        -0.276898      0.00565098       0.00105095     -0.00105861
                      0.00214292    -0.000765593         0.643203       -0.740392      0.000982098     -0.00103919          0.12228       -0.152451
253000                  0.107352        0.242247      0.000269331     0.000310052        -0.842138       -0.469588       0.00211035    -0.000881561
                     0.000323489     0.000506897        -0.129738        0.152159         0.002469      0.00018597         0.580421       -0.789335
                       -0.842296       -0.469773       0.00229569     9.76512e-05        -0.262461       0.0360132      0.000925719     -0.00121282
                      0.00208632    -0.000948625         0.580436       -0.789438      0.000911729     -0.00117778         0.106601        -0.16921
253200                  0.119393         0.22242      0.000343402     0.000325087        -0.886455       -0.387778         0.002064     -0.00107362
                      0.00041868     0.000508152        -0.124641        0.161881       0.00249264    -3.58149e-05         0.513871       -0.833117
                       -0.886628       -0.388014        0.0022696    -0.000136952        -0.244283       0.0632983      0.000781294     -0.00134119
                      0.00201442     -0.00112941         0.513964       -0.833206      0.000822505     -0.00131102        0.0887706       -0.184054
253400                  0.128674        0.201871      0.000425478     0.000330951        -0.922885       -0.301435       0.00199933     -0.00126457
                     0.000518343      0.00049467         -0.11861        0.171399       0.00249243    -0.000262388         0.444064       -0.871333
                       -0.923086       -0.301699       0.00221613    -0.000367244        -0.222899       0.0869943      0.000625365     -0.00144327
                      0.00192699     -0.00130677         0.444226       -0.871424      0.000714981     -0.00143587        0.0690425       -0.196716
253600                  0.135137        0.180972      0.000514816     0.000325557        -0.950903       -0.211317       0.00191553     -0.00145271
                     0.000620426     0.000465195        -0.111658        0.180615       0.00246709    -0.000490685         0.371462       -0.903751
                       -0.951138       -0.211587       0.00213494     -0.00059054        -0.198919        0.106677      0.000464117     -0.00152076
                      0.00182383     -0.00147945          0.37168       -0.903856      0.000590335     -0.00154937        0.0477012       -0.206963
253800                  0.138772        0.160102      0.000610188     0.000306755        -0.970057       -0.118257       0.00181199     -0.00163608
                     0.000722595     0.000418811        -0.103811        0.189433       0.00241586     -0.00071724         0.296539       -0.930175
                       -0.970325       -0.118509       0.00202487    -0.000804808        -0.173019        0.122022       0.00030198     -0.00157639
                      0.00170484     -0.00164607           0.2968       -0.930306      0.000450329     -0.00164886        0.0250587       -0.214603
254000                  0.139626         0.13964      0.000709814     0.000272447         -0.97998      -0.0231496       0.00168837      -0.0018125
                      0.00082229     0.000355004       -0.0951034        0.197758       0.00233869    -0.000938332         0.219783        -0.95045
                       -0.980272      -0.0233607       0.00188225     -0.00100925        -0.145919        0.132817      0.000141804     -0.00161325
                      0.00157001     -0.00180518         0.220072       -0.950613      0.000297228     -0.00173205       0.00144949        -0.21948
254200                  0.137797        0.119962       0.00081132     0.000220724          -0.9804       0.0730552       0.00154463     -0.00197959
                      0.00091682     0.000273724       -0.0855808          0.2055       0.00223628     -0.00115016         0.141689       -0.964457
                       -0.980702       0.0729021       0.00169649     -0.00120631         -0.11837        0.138968     -1.48101e-05     -0.00163423
                      0.00141946     -0.00195519         0.141992       -0.964654      0.000133687     -0.00179719       -0.0227748       -0.221484
254400                  0.133438        0.101423      0.000911736     0.000150047         -0.97115        0.169363       0.00138107     -0.00213483
                      0.00100345     0.000175411       -0.0752973        0.212573       0.00211011     -0.00134906        0.0627602       -0.972118
                       -0.971444         0.16928       0.00143362     -0.00141214       -0.0911282        0.140504      -0.00016714     -0.00164185
                      0.00125343     -0.00209446        0.0630623       -0.972348     -3.73896e-05     -0.00184307        -0.047251       -0.220551
254600                  0.126751       0.0843596       0.00100755     5.94254e-05        -0.952179         0.26475       0.00119841     -0.00227561
                       0.0010795      6.1008e-05       -0.0643166        0.218899       0.00196237     -0.00153168       -0.0164999        -0.97339
                       -0.952443        0.264742      0.000954664     -0.00175853       -0.0649408         0.13758     -0.000315039     -0.00163809
                      0.00107238     -0.00222122       -0.0162111        -0.97365     -0.000212985     -0.00186911         -0.07161        -0.21666
254800                  0.117988       0.0690728       0.00109484    -5.13976e-05        -0.923552        0.358174      0.000997782     -0.00239928
                      0.00114245    -6.80551e-05       -0.0527104        0.224404       0.00179589     -0.00169521        -0.095586       -0.968271
                       -0.923764        0.358241       0.00164554     -0.00368051       -0.0405188        0.130474     -0.000458694      -0.0016245
                     0.000876941     -0.00233365       -0.0953204       -0.968555     -0.000390104     -0.00187532       -0.0954824       -0.209838
255000                  0.107444       0.0558258       0.00116941    -0.000181796         -0.88546        0.448597      0.000780795     -0.00250328
                      0.00119004    -0.000209904       -0.0405582        0.229022       0.00161397     -0.00183746        -0.173995       -0.956797
                       -0.885599         0.44873       0.00200562     -0.00203914       -0.0185182         0.11958     -0.000598461     -0.00160216
                     0.000668016     -0.00242987         -0.17376       -0.957097     -0.000565875     -0.00186224        -0.118504       -0.200159
255200                 0.0954469       0.0448349        0.0012271    -0.000330165        -0.838217        0.534995      0.000549499     -0.00258518
                      0.00122032    -0.000362276       -0.0279464        0.232697       0.00142014     -0.00195701        -0.251229       -0.939041
                       -0.838265        0.535179       0.00154773     -0.00195145      0.000480743          0.1054     -0.000734753     -0.00157181
                      0.00044676       -0.002508        -0.251029       -0.939348     -0.000737629     -0.00183097        -0.140323        -0.18774
255400                 0.0823567       0.0362649       0.00126398    -0.000493902        -0.782261         0.61638      0.000306397     -0.00264277
                      0.00123173      -0.0005226       -0.0149676         0.23538       0.00121805     -0.00205315        -0.326796       -0.915113
                       -0.782206        0.616596       0.00125417     -0.00199225        0.0159917       0.0885249     -0.000867965     -0.00153388
                     0.000214627     -0.00256618        -0.326634       -0.915418     -0.000902943     -0.00178309        -0.160601       -0.172744
255600                 0.0685516       0.0302243       0.00127671    -0.000669483        -0.718147        0.691815      5.44026e-05     -0.00267421
                      0.00122312    -0.000688072      -0.00171929        0.237034       0.00101121     -0.00212589        -0.400217        -0.88516
                       -0.717982        0.692041       0.00101263     -0.00204302        0.0276378       0.0696232     -0.000998425     -0.00148857
                     -2.6614e-05     -0.00260263         -0.40009       -0.885454      -0.00105967     -0.00172078        -0.179026       -0.155373
255800                 0.0544209        0.026763       0.00126271    -0.000852622        -0.646544        0.760435     -0.000203213     -0.00267807
                      0.00119375    -0.000855749        0.0116967        0.237629      0.000802878     -0.00217587        -0.471021       -0.849363
                       -0.646268        0.760644      0.000793378     -0.00208601         0.035164       0.0494158      -0.00112637     -0.00143586
                    -0.000274868     -0.00261568        -0.470926       -0.849639      -0.00120607     -0.00164705        -0.195308       -0.135869
256000                 0.0403551       0.0258713       0.00122037     -0.00103851         -0.56822        0.821453     -0.000462899      -0.0026534
                      0.00114334     -0.00102262        0.0251755         0.23715      0.000595939     -0.00220423        -0.538753       -0.807939
                        -0.56784        0.821623      0.000586331     -0.00211692        0.0384452       0.0286555      -0.00125192     -0.00137563
                    -0.000527718      -0.0026039        -0.538685       -0.808192      -0.00134118     -0.00156632        -0.209191       -0.114507
256200                 0.0267358       0.0274804       0.00114919     -0.00122207        -0.484033        0.874183     -0.000720919     -0.00259986
                      0.00107198     -0.00118571        0.0386103        0.235588      0.000392834     -0.00221245        -0.602976       -0.761139
                       -0.483561         0.87429      0.000387536     -0.00213464        0.0374894      0.00810231      -0.00137507      -0.0013076
                    -0.000782434     -0.00256608        -0.602927       -0.761365       -0.0014666     -0.00148543        -0.220455      -0.0915969
