! TOUCHSTONE file generated by CST MICROWAVE STUDIO
! Date and time: Sun Sep 28 20:03:46 2025
! Project name: biblioteca3_folgaOK.cst
! Parameters = {H=600; Lx=300; Ly=300; Nedge=8; P=520; mesh_pilar_nm=40; t_air=3500; t_sub=4000}
! Header version: 2018
! Port assignment regex: !\s*Touchstone port\s*([0-9]+)\s*=\s*(CST MWS port|CST DS port)\s*([0-9]+|Zmin|Zmax)\s*\(\"(.*)\"\)(\s*mode\s*([0-9]+))?.*
! Touchstone port assignment:
! Touchstone port 1 = CST MWS port Zmin ("") mode 1
! Touchstone port 2 = CST MWS port Zmin ("") mode 2
! Touchstone port 3 = CST MWS port Zmax ("") mode 1
! Touchstone port 4 = CST MWS port Zmax ("") mode 2
! S-Parameters are not renormalized. Each port impedance will be approximated by the real part at minimum frequency. The values are described via the [Reference] keyword.
! Default impedance is overridden by [Reference]
[Version] 2.0
# GHz S RI R 376.73
[Number of Ports] 4
[Reference]
376.73 376.73 376.73 376.73 
[Number of Frequencies] 401
[Network Data]
250000                  0.222309        0.192769     -0.000468029     0.000148983        -0.178377       -0.938931      -0.00138096     3.00479e-07
                    -0.000571315     0.000139268         0.219374        0.194346      -0.00128683     0.000338933        -0.175171       -0.939785
                       -0.178136       -0.938994      -0.00134952     0.000328707          0.13612       -0.260877      -0.00102781    -0.000260456
                     -0.00141145    -1.64931e-05        -0.175341       -0.939858      -0.00109735    -0.000247957         0.134601       -0.260397
250200                  0.241624        0.163429      -0.00045079     0.000206763        -0.280171       -0.915858      -0.00130682     0.000412939
                    -0.000561499     0.000225741         0.239096        0.165475      -0.00132506     0.000474369        -0.276014       -0.916552
                       -0.279302       -0.915652       -0.0013087     0.000479477         0.109857       -0.269937      -0.00106218    -0.000187278
                     -0.00141574      0.00013197        -0.276083       -0.917779      -0.00112705    -0.000169467         0.107708       -0.269511
250400                  0.256784        0.131906     -0.000424856     0.000265609        -0.378966       -0.881532      -0.00113527     0.000646719
                    -0.000536207     0.000315818         0.254743        0.134357      -0.00134594     0.000632931        -0.374071       -0.882421
                       -0.377606        -0.88128       -0.0012468      0.00062443         0.082816        -0.27606      -0.00109102    -0.000109947
                     -0.00140193     0.000283391        -0.374312       -0.884507         -0.00115    -8.65377e-05        0.0802459       -0.275581
250600                  0.267503       0.0988517     -0.000389302     0.000324226        -0.473522       -0.836396     -0.000975608     0.000774787
                    -0.000493415     0.000406366         0.266016        0.101627      -0.00134001     0.000814008        -0.468143       -0.837728
                       -0.471829       -0.836248      -0.00116531     0.000759934         0.055367       -0.279149      -0.00111381    -2.89443e-05
                     -0.00136916     0.000435212        -0.468719       -0.840371      -0.00116558     5.20129e-08        0.0525604       -0.278571
250800                  0.273606       0.0649594     -0.000343361     0.000380999        -0.562675       -0.781017     -0.000843053     0.000853351
                    -0.000431833     0.000493421         0.272729       0.0679666      -0.00129602      0.00101294        -0.557073       -0.782942
                       -0.560807       -0.781057      -0.00106644     0.000882897        0.0278928       -0.279155      -0.00113006     5.51699e-05
                     -0.00131699     0.000584667        -0.558058       -0.785857       -0.0011733      8.9424e-05        0.0250004       -0.278482
251000                  0.275037       0.0309406     -0.000286515     0.000433994        -0.645342       -0.716074     -0.000731715     0.000909024
                    -0.000351254     0.000572398         0.274811       0.0340767      -0.00120281      0.00121904        -0.639763       -0.718657
                       -0.643441       -0.716333     -0.000952939     0.000990913       0.00078372       -0.276084      -0.00113934     0.000141768
                     -0.00124543     0.000728863        -0.641154       -0.721595      -0.00117282     0.000180633      -0.00208333       -0.275357
251200                   0.27186     -0.00249482     -0.000218605     0.000480986        -0.720526       -0.642346     -0.000634156     0.000953613
                    -0.000252826     0.000638465          0.27231      0.00065845      -0.00105315      0.00141469        -0.715188       -0.645582
                       -0.718713       -0.642811     -0.000827815      0.00108234       -0.0255708       -0.269996      -0.00114132     0.000230164
                     -0.00115498     0.000864862        -0.716924       -0.648342      -0.00116395     0.000272701       -0.0283433       -0.269275
251400                  0.264256      -0.0346605     -0.000139944     0.000519521        -0.787326       -0.560704     -0.000544589      0.00099236
                    -0.000139157     0.000687041         0.265388      -0.0316074     -0.000848595      0.00157726        -0.782406       -0.564539
                       -0.785689       -0.561334     -0.000694135      0.00115625       -0.0507909       -0.261006      -0.00113572     0.000319622
                     -0.00104665      0.00098978        -0.784387       -0.566972      -0.00114668     0.000364649       -0.0534398       -0.260359
251600                  0.252514      -0.0649133     -5.14171e-05     0.000547021        -0.844936       -0.472098     -0.000458827      0.00102751
                    -1.42045e-05      0.00071433         0.254314      -0.0620805     -0.000602915      0.00168508        -0.840569       -0.476443
                       -0.843534       -0.472833     -0.000554829       0.0012124       -0.0745135       -0.249278      -0.00112236     0.000409369
                    -0.000921942      0.00110088        -0.842673       -0.478459      -0.00112115     0.000455534       -0.0770463       -0.248771
251800                  0.237023      -0.0926707      4.54446e-05     0.000560935        -0.892654       -0.377549     -0.000373828      0.00105979
                     0.000117077     0.000717771         0.239457      -0.0901774     -0.000340394      0.00172536        -0.888929       -0.382302
                       -0.891513       -0.378324     -0.000412556      0.00125106       -0.0964005       -0.235029      -0.00110117     0.000498608
                    -0.000782816      0.00119565        -0.891033       -0.383859      -0.00108762     0.000544477       -0.0988541       -0.234711
252000                  0.218258       -0.117426      0.000148428     0.000558915        -0.929881       -0.278144     -0.000287329      0.00108912
                     0.000249237     0.000696302          0.22127       -0.115387     -8.85276e-05      0.00169945        -0.926852       -0.283197
                       -0.929003       -0.278897     -0.000269628      0.00127288        -0.116144       -0.218517      -0.00107215     0.000586531
                    -0.000631662      0.00127192        -0.928838       -0.284301       -0.0010465     0.000630688        -0.118578       -0.218422
252200                  0.196765        -0.13876      0.000254668     0.000539019        -0.956132       -0.175024     -0.000197624      0.00111485
                     0.000376887     0.000650377         0.200279       -0.137283      0.000130938      0.00162155        -0.953819       -0.180275
                       -0.955496       -0.175701     -0.000127981      0.00127876        -0.133475       -0.200042      -0.00103541     0.000672329
                    -0.000471229      0.00132791        -0.955592       -0.180969     -0.000998267     0.000713486        -0.135962       -0.200178
252400                  0.173146       -0.156353       0.00036074     0.000499902        -0.971034       -0.069377     -0.000103451      0.00113588
                      0.00049518     0.000581763         0.177065       -0.155532      0.000307242      0.00151222        -0.969434      -0.0747379
                       -0.970606      -0.0699374      1.08084e-05      0.00126974        -0.148165       -0.179937     -0.000991143     0.000755208
                    -0.000304549      0.00136229        -0.970924      -0.0750883     -0.000943489     0.000792308        -0.150782       -0.180289
252600                  0.148041       -0.169986       0.00046282     0.000440981        -0.974335        0.037572     -3.95603e-06      0.00115079
                     0.000600133     0.000493188         0.152253       -0.169902      0.000440436      0.00139145        -0.973431       0.0321738
                       -0.974073       0.0371531       0.00014549      0.00124689        -0.160031       -0.158564     -0.000939651     0.000834394
                     -0.00013486      0.00137424        -0.974599       0.0320837     -0.000882766     0.000866716        -0.162855       -0.159093
252800                   0.12211       -0.179551      0.000556895      0.00036254        -0.965909        0.144569      0.000101275      0.00115778
                     0.000688755     0.000387935         0.126486       -0.180264       0.00053799      0.00127439        -0.965678         0.13919
                       -0.965766        0.144302      0.000275081      0.00121124        -0.168941       -0.136306     -0.000881305     0.000909144
                     3.44909e-05      0.00136347        -0.966512        0.139273     -0.000816715     0.000936396        -0.172039       -0.136952
253000                 0.0960178       -0.185047      0.000638999     0.000265766        -0.945756        0.250342      0.000212143      0.00115479
                     0.000759016     0.000269479         0.100417       -0.186597      0.000611087      0.00117009        -0.946174        0.245025
                       -0.945688        0.250223      0.000398802      0.00116373        -0.174814        -0.11356     -0.000816567     0.000978753
                     0.000200135      0.00133025        -0.946694        0.245198     -0.000745956      0.00100115        -0.178238       -0.114246
253200                 0.0704147       -0.186582      0.000705444     0.000152702        -0.914012        0.353615      0.000327923      0.00113955
                       0.0008097     0.000141217        0.0746888       -0.188984      0.000671974      0.00108171        -0.915061        0.348393
                       -0.913981         0.35363      0.000516015      0.00110519        -0.177619      -0.0907325      -0.00074598      0.00104256
                     0.000358784       0.0012754        -0.915307        0.348587     -0.000671086       0.0010609        -0.181406      -0.0913707
253400                 0.0459207       -0.184367      0.000753018     2.61415e-05        -0.870946        0.453118      0.000447143      0.00110972
                     0.000840199     6.29614e-06         0.049916       -0.187611      0.000732207      0.00100692        -0.872618        0.448019
                       -0.870922        0.453244      0.000626159      0.00103632        -0.177382      -0.0682307     -0.000670167      0.00109995
                     0.000507321      0.00120024        -0.872646        0.448182     -0.000592675      0.00111567        -0.181549      -0.0687255
253600                 0.0231095        -0.17871      0.000779135    -0.000110538        -0.816966        0.547602      0.000567481      0.00106311
                     0.000850312    -0.000132445        0.0266728       -0.182759       0.00080082     0.000938182        -0.819261        0.542656
                       -0.816929        0.547814      0.000728689      0.00095772        -0.174178      -0.0464566     -0.000589835      0.00115038
                     0.000642893       0.0011066        -0.819137        0.542756     -0.000511258      0.00116555        -0.178723      -0.0467108
253800                0.00249364       -0.170011      0.000781911     -0.00025355        -0.752619        0.635855      0.000685727     0.000998018
                     0.000840064    -0.000272461       0.00547613       -0.174801      0.000881602     0.000863495        -0.755546        0.631097
                       -0.752557        0.636126       0.00082302      0.00086987        -0.168137      -0.0258007     -0.000505778      0.00119335
                     0.000762995     0.000996769        -0.755338        0.631127     -0.000427334      0.00121074        -0.173039      -0.0257194
254000                -0.0154895       -0.158745      0.000760189    -0.000398873        -0.678589        0.716717      0.000797863     0.000913516
                     0.000809567    -0.000411433       -0.0132272       -0.164187      0.000970035     0.000769606        -0.682161        0.712194
                       -0.678499        0.717022       0.00090848       0.0007732        -0.159437     -0.00663541     -0.000418885      0.00122846
                     0.000865543     0.000873371        -0.681933        0.712163      -0.00034138      0.00125152        -0.164659     -0.00613005
254200                -0.0304896       -0.145458      0.000713513    -0.000542408        -0.595693        0.789095      0.000899308     0.000809869
                      0.00075894    -0.000547162       -0.0290732       -0.151436       0.00105287     0.000648218        -0.599925        0.784867
                       -0.595578        0.789413       0.00098426     0.000668115        -0.148304       0.0106906      -0.00033015      0.00125539
                     0.000948936     0.000739333        -0.599728        0.784805     -0.000253862       0.0012882        -0.153794       0.0116998
254400                -0.0422539       -0.130744      0.000642069    -0.000680083        -0.504878        0.851982      0.000985347     0.000688782
                     0.000688271    -0.000677447       -0.0417913       -0.137123       0.00111349     0.000501765         -0.50978        0.848124
                       -0.504745        0.852297       0.00104938     0.000555069        -0.135009       0.0258583      -0.00024068      0.00127397
                       0.0010121     0.000597775        -0.509651        0.848071     -0.000165269      0.00132117        -0.140705       0.0274404
254600                -0.0506357       -0.115238      0.000546625    -0.000807939        -0.407209         0.90447       0.00105169     0.000553489
                     0.000597628    -0.000799969        -0.051213        -0.12186       0.00114068     0.000342851        -0.412781        0.901073
                       -0.407068        0.904774       0.00110268     0.000434637        -0.119863       0.0385833     -0.000151696      0.00128422
                       0.0010545     0.000451902        -0.412739        0.901076     -7.61545e-05      0.00135086        -0.125695       0.0407963
254800                -0.0556001      -0.0995908      0.000428461    -0.000922164        -0.303864         0.94577       0.00109509     0.000408572
                     0.000487125     -0.00091216       -0.0572783       -0.106281       0.00113352     0.000187043        -0.310092        0.942936
                       -0.303723        0.946057       0.00114279     0.000307623        -0.103215       0.0486212     -6.45198e-05      0.00128641
                      0.00107618     0.000304906        -0.310137        0.943044       1.2806e-05       0.0013777        -0.109107       0.0515117
255000                -0.0572276      -0.0844544      0.000289337     -0.00101911        -0.196118        0.975221       0.00111379     0.000259506
                     0.000357032     -0.00101111       -0.0600402      -0.0910281       0.00109898     4.57193e-05        -0.202968        0.973065
                       -0.195985        0.975491       0.00116816     0.000175175       -0.0854456       0.0557715       1.9478e-05      0.00128116
                      0.00107768     0.000159858        -0.203083         0.97332      0.000100738      0.00140204       -0.0913172        0.059376
255200                -0.0557143      -0.0704628      0.000131469     -0.00109531       -0.0853303         0.99231       0.00110784     0.000112013
                      0.00020794      -0.0010935       -0.0596648      -0.0767252       0.00104661    -7.61838e-05       -0.0927443        0.990947
                       -0.085208        0.992565       0.00117719     3.89288e-05        -0.066962       0.0598822        9.898e-05      0.00126953
                      0.00106004     1.96069e-05       -0.0928969        0.991381      0.000186497      0.00142406       -0.0727323       0.0642275
255400                -0.0513693      -0.0582116       -4.246e-05     -0.00114746        0.0270753        0.996676       0.00107895    -2.86226e-05
                      4.0978e-05     -0.00115557         -0.05643      -0.0639643      0.000984688    -0.000178601        0.0191781        0.996224
                       0.0271855        0.996919        0.0011683    -9.88632e-05       -0.0481928       0.0608523      0.000172906       0.0012531
                      0.00102475      -0.0001133        0.0190313        0.996853      0.000268645       0.0014435       -0.0537789       0.0659577
255600                -0.0446088      -0.0482396     -0.000229263     -0.00117247         0.139625        0.988125       0.00103021    -0.000158113
                    -0.000141925     -0.00119317         -0.05072      -0.0532847      0.000918985    -0.000263917         0.131351        0.988695
                        0.139725         0.98836        0.0011402     -0.00023522       -0.0295814        0.058635      0.000240688      0.00123399
                     0.000973606     -0.00023669         0.131258        0.989517      0.000345562      0.00145939       -0.0348997       0.0645132
255800                -0.0359472      -0.0410098     -0.000425199     -0.00116751         0.250817        0.966635      0.000965505    -0.000273503
                    -0.000337757     -0.00120196       -0.0430166      -0.0451545      0.000852984    -0.000335253         0.242297        0.968325
                        0.250912        0.966862       0.00109223    -0.000366406       -0.0115797       0.0532392      0.000302599      0.00121468
                     0.000908696    -0.000348817         0.242305        0.969317      0.000415833      0.00146973       -0.0165449       0.0598976
256000                -0.0259847      -0.0368933     -0.000625912     -0.00113009         0.359142        0.932358      0.000889005    -0.000373239
                    -0.000542149     -0.00117769       -0.0338882      -0.0399541      0.000788538    -0.000395603         0.350527         0.93525
                        0.359235        0.932574       0.00102471    -0.000488033       0.00535859       0.0447303      0.000360059      0.00119763
                     0.000832249    -0.000448387         0.350674         0.93637       0.00047895      0.00147147      0.000833877       0.0521718
256200                -0.0153927      -0.0361541     -0.000826386     -0.00105821         0.463103        0.885622      0.000804668    -0.000457034
                      -0.0007492     -0.00111671       -0.0239747      -0.0379613      0.000726471    -0.000447536         0.454563        0.889779
                        0.463198        0.885823       0.00093936    -0.000595386        0.0207847       0.0332301      0.000415718      0.00118467
                      0.00074656    -0.000534571         0.454706        0.890641      0.000536085       0.0014611        0.0167915       0.0414537
