! TOUCHSTONE file generated by CST MICROWAVE STUDIO
! Date and time: Mon Sep 29 00:40:54 2025
! Project name: biblioteca3_folgaOK.cst
! Parameters = {H=600; Lx=300; Ly=300; Nedge=16; P=520; mesh_pilar_nm=40; t_air=3500; t_sub=4000}
! Header version: 2018
! Port assignment regex: !\s*Touchstone port\s*([0-9]+)\s*=\s*(CST MWS port|CST DS port)\s*([0-9]+|Zmin|Zmax)\s*\(\"(.*)\"\)(\s*mode\s*([0-9]+))?.*
! Touchstone port assignment:
! Touchstone port 1 = CST MWS port Zmin ("") mode 1
! Touchstone port 2 = CST MWS port Zmin ("") mode 2
! Touchstone port 3 = CST MWS port Zmax ("") mode 1
! Touchstone port 4 = CST MWS port Zmax ("") mode 2
! S-Parameters are not renormalized. Each port impedance will be approximated by the real part at minimum frequency. The values are described via the [Reference] keyword.
! Default impedance is overridden by [Reference]
[Version] 2.0
# GHz S RI R 376.73
[Number of Ports] 4
[Reference]
376.73 376.73 376.73 376.73 
[Number of Frequencies] 401
[Network Data]
250000                  0.199882        0.212432      8.28428e-05      0.00034617         0.150147        0.944807      0.000476906    -6.54655e-05
                     6.12545e-05     0.000401969         0.201679        0.211179      0.000334562    -0.000139195         0.150586        0.944516
                        0.150258        0.944563      0.000470278    -0.000174854         0.124155       -0.263935     -0.000286549    -0.000483876
                     0.000466201    -0.000136741         0.150671        0.944453      -0.00032847    -0.000513609         0.125968        -0.26345
250200                  0.217998        0.190595      0.000154641     0.000314028         0.239871        0.927034      0.000472382    -0.000112702
                     0.000137698     0.000393056         0.219498        0.189209      0.000326887    -0.000175765         0.240402        0.926404
                        0.240218         0.92633      0.000452278    -0.000222588        0.0981273       -0.272497     -0.000291067    -0.000493368
                     0.000453576    -0.000178568         0.240622        0.926551     -0.000335349    -0.000516001        0.0998092       -0.272041
250400                  0.233512         0.16706      0.000226582      0.00027793         0.327697        0.900706      0.000460343    -0.000162358
                      0.00021699     0.000374907         0.234698         0.16555      0.000314285    -0.000214144         0.328239        0.899852
                        0.328119        0.899682      0.000427584    -0.000270977        0.0714586       -0.278191     -0.000296906    -0.000504409
                     0.000435373    -0.000221485         0.328577        0.900098     -0.000342801    -0.000519563        0.0730318       -0.277727
250600                  0.246245        0.142155      0.000298027     0.000237028         0.412795        0.866032      0.000439617    -0.000212844
                     0.000298046     0.000346315         0.247095        0.140541      0.000295849    -0.000253602         0.413306        0.865055
                         0.41319        0.864824      0.000395418    -0.000318856        0.0444916       -0.280963     -0.000304415    -0.000517069
                     0.000410838    -0.000264553         0.413728        0.865321     -0.000351047    -0.000524447        0.0459819       -0.280462
250800                  0.256061        0.116229      0.000368211     0.000190456         0.494363        0.823301      0.000409468     -0.00026205
                     0.000379438     0.000306145         0.256551        0.114542      0.000270743    -0.000293063          0.49483        0.822284
                        0.494677        0.822028      0.000355216     -0.00036471        0.0175731       -0.280801     -0.000314006    -0.000531382
                      0.00037938    -0.000306512         0.495299        0.822517     -0.000360371    -0.000530804        0.0190084       -0.280243
251000                  0.262869       0.0896483      0.000436201     0.000137353         0.571635        0.772877      0.000369854    -0.000307502
                     0.000459364     0.000253421         0.262981       0.0879284      0.000238342    -0.000331067         0.572065        0.771884
                        0.571848        0.771637       0.00030677    -0.000406704      -0.00895153       -0.277738     -0.000326164    -0.000547325
                     0.000340703    -0.000345799         0.572541        0.772051     -0.000371132    -0.000538776      -0.00754238       -0.277107
251200                  0.266629       0.0627853       0.00050087     7.69089e-05         0.643883        0.715194      0.000321608    -0.000346652
                     0.000535649     0.000187439         0.266347       0.0610822        0.0001984    -0.000365807         0.644297        0.714264
                        0.644002        0.714063      0.000250387    -0.000442775       -0.0347438       -0.271847     -0.000341445    -0.000564788
                     0.000294959    -0.000380623         0.644743        0.714354     -0.000383783    -0.000548473       -0.0333321       -0.271136
251400                  0.267345       0.0360166       0.00056086     8.41789e-06         0.710424        0.650753      0.000266461    -0.000377271
                     0.000605772     0.000107895         0.266664       0.0343872      0.000151239    -0.000395245         0.710849        0.649906
                        0.710473        0.649779      0.000187026    -0.000470803       -0.0594772       -0.263246     -0.000360473    -0.000583551
                     0.000242869    -0.000409127         0.711238         0.64992     -0.000398884    -0.000559951       -0.0580347       -0.262449
251600                  0.265072      0.00971473      0.000614564     -6.8649e-05         0.770628        0.580112      0.000206859    -0.000397827
                     0.000666942      1.5018e-05         0.263996      0.00822071      9.78856e-05     -0.00041733         0.771091        0.579351
                        0.770637        0.579323      0.000118355    -0.000488871       -0.0828425       -0.252087     -0.000383926    -0.000603242
                     0.000185785    -0.000429606           0.7714        0.579301     -0.000417115    -0.000573171       -0.0813416       -0.251206
251800                  0.259913      -0.0157576      0.000660113    -0.000154557         0.823918         0.50389      0.000145605    -0.000407729
                     0.000716226    -9.03164e-05         0.258458      -0.0170527      4.01014e-05    -0.000430303         0.824439        0.503201
                        0.823921        0.503293      4.67004e-05    -0.000495546        -0.104551       -0.238561     -0.000412504    -0.000623302
                     0.000125638    -0.000440775         0.824659        0.503104      -0.00043928    -0.000587953        -0.102965         -0.2376
252000                  0.252015      -0.0400541      0.000695402    -0.000249205         0.869775        0.422752      8.54304e-05    -0.000407364
                     0.000750723    -0.000206498          0.25021      -0.0410877     -1.97413e-05    -0.000433016         0.870367        0.422111
                          0.8698        0.422339      -2.5156e-05    -0.000490146        -0.124341       -0.222893     -0.000446888    -0.000642941
                     6.47594e-05    -0.000441999         0.870496        0.421989     -0.000466293    -0.000603903        -0.122644        -0.22186
252200                  0.241572      -0.0628505      0.000718137    -0.000352009         0.907743        0.337413      2.86287e-05    -0.000397923
                     0.000767783    -0.000331159         0.239456      -0.0635639      -7.8944e-05    -0.000425173         0.908411        0.336789
                        0.907813        0.337162      -9.4285e-05      -0.0004729        -0.141978       -0.205335     -0.000487669    -0.000661118
                     5.60085e-06    -0.000433424         0.908453         0.33666     -0.000499143     -0.00062034        -0.140146       -0.204244
252400                  0.228817      -0.0838509      0.000725936    -0.000461798         0.937432        0.248626     -2.31669e-05    -0.000381107
                     0.000765236    -0.000461221          0.22644      -0.0841913     -0.000134864    -0.000407402         0.938168        0.247986
                        0.937561         0.24851     -0.000157978    -0.000444945        -0.157261        -0.18617      -0.00053526    -0.000676525
                    -4.95856e-05    -0.000415968         0.938136        0.247868     -0.000538812    -0.000636209        -0.155269       -0.185034
252600                   0.21402       -0.102792       0.00071648    -0.000576715         0.958521        0.157181       -6.903e-05    -0.000358807
                     0.000741609     -0.00059303         0.211442       -0.102715     -0.000185283    -0.000381141         0.959308        0.156493
                        0.958713        0.157169      -0.00021407    -0.000408165        -0.170023       -0.165698     -0.000589792    -0.000687613
                    -9.90208e-05    -0.000391166         0.959216        0.156399     -0.000586145    -0.000650019         -0.16785       -0.164539
252800                  0.197486        -0.11945      0.000687716    -0.000694175         0.970761       0.0638975     -0.000108658     -0.00033284
                     0.000696295    -0.000722567         0.194773       -0.118921     -0.000228669    -0.000348366         0.971572       0.0631341
                        0.971012       0.0639582     -0.000261151    -0.000364901        -0.180136       -0.144242     -0.000651002    -0.000692663
                    -0.000141561    -0.000360911         0.971439       0.0630714     -0.000641664    -0.000659814        -0.177762       -0.143083
253000                  0.179545       -0.133642      0.000638088    -0.000810881         0.973978      -0.0303807      -0.00014222     -0.00030479
                      0.00062964    -0.000845712         0.176769       -0.132638     -0.000264258    -0.000311251         0.974779      -0.0312398
                        0.974275      -0.0302736     -0.000298616    -0.000317634        -0.187511       -0.122136     -0.000718149    -0.000689901
                    -0.000176728    -0.000327192         0.974625      -0.0312675      -0.00070534    -0.000663247        -0.184917       -0.121006
253200                  0.160551       -0.145231      0.000566793    -0.000922941         0.968074       -0.124791     -0.000170191    -0.000275927
                     0.000542926    -0.000958521         0.157786        -0.14374     -0.000291992     -0.00027188         0.968829       -0.125758
                        0.968403       -0.124659      -0.00032659    -0.000268696        -0.192098      -0.0997237     -0.000789963    -0.000677669
                    -0.000204627    -0.000291857          0.96867       -0.125752      -0.00077637    -0.000657755        -0.189272      -0.0986559
253400                  0.140871       -0.154131      0.000473998     -0.00102608         0.953033       -0.218459     -0.000193209    -0.000247207
                     0.000438269     -0.00105748         0.138194       -0.152153     -0.000312353    -0.000232031         0.953702       -0.219536
                        0.953374       -0.218317     -0.000345754    -0.000220076        -0.193892      -0.0773552     -0.000864674     -0.00065461
                    -0.000225802    -0.000256465         0.953554       -0.219502     -0.000853028    -0.000640892        -0.190823      -0.0763856
253600                  0.120884       -0.160305      0.000360975     -0.00111595          0.92892       -0.310505      -0.00021197    -0.000219302
                     0.000318435      -0.0011397         0.118369       -0.157852     -0.000326166    -0.000193087         0.929465       -0.311684
                        0.929253       -0.310361     -0.000357153    -0.000173327        -0.192928      -0.0553786     -0.000940118    -0.000619854
                    -0.000241072     -0.00022222         0.929339       -0.311631     -0.000932688    -0.000610725        -0.189613      -0.0545473
253800                  0.100971       -0.163768      0.000230129     -0.00118847         0.895883        -0.40005     -0.000227158    -0.000192651
                     0.000186612     -0.00120303        0.0986898       -0.160863     -0.000334422    -0.000156025         0.896268       -0.401316
                        0.896189       -0.399907     -0.000362009    -0.000129548        -0.189286      -0.0341372      -0.00101392    -0.000573145
                    -0.000251387    -0.000189968         0.896173       -0.401254      -0.00101206    -0.000566236        -0.185727      -0.0334873
254000                 0.0815061        -0.16459      8.48789e-05     -0.00124021         0.854152       -0.486227     -0.000239403     -0.00016751
                     4.61848e-05     -0.00124608         0.079527       -0.161266     -0.000338141    -0.000121458         0.854349       -0.487556
                         0.85442       -0.486082     -0.000361581    -8.94338e-05        -0.183086      -0.0139644      -0.00108373    -0.000514877
                    -0.000257715    -0.000160241         0.854289       -0.487495      -0.00108763    -0.000507564        -0.179292      -0.0135405
254200                  0.062854       -0.162891     -7.05896e-05     -0.00126867         0.804046       -0.568184     -0.000249264    -0.000144005
                    -9.94787e-05     -0.00126816        0.0612387        -0.15919     -0.000338285    -8.97145e-05         0.804031       -0.569546
                        0.804264       -0.568029     -0.000357066     -5.3346e-05        -0.174489       0.0048218      -0.00114744    -0.000446041
                    -0.000260978    -0.000133312         0.804006       -0.569497      -0.00115617    -0.000435998        -0.170479      0.00497464
254400                 0.0453595       -0.158843     -0.000231662     -0.00127242         0.745965       -0.645095     -0.000257225    -0.000122164
                    -0.000247183     -0.00126922        0.0441631       -0.154816     -0.000335714    -6.09061e-05         0.745723       -0.646456
                         0.74613       -0.644922     -0.000349546    -2.13912e-05        -0.163698       0.0219236      -0.00120335    -0.000368077
                    -0.000262005    -0.000109261          0.74573       -0.646428      -0.00121515     -0.00035372        -0.159497       0.0217613
254600                 0.0293414       -0.152665     -0.000393665     -0.00125123         0.680391       -0.716168     -0.000263696    -0.000101949
                    -0.000394012     -0.00124968        0.0286114       -0.148371     -0.000331167    -3.49973e-05         0.679916       -0.717492
                        0.680504       -0.715969     -0.000339963     6.50609e-06        -0.150949        0.037068      -0.00125027    -0.000282686
                     -0.00026152    -8.80274e-05          0.67995       -0.717492      -0.00126303    -0.000263383        -0.146593       0.0365491
254800                 0.0150863       -0.144621       -0.0005522     -0.00120587         0.607889       -0.780654     -0.000269024    -8.32803e-05
                    -0.000537378     -0.00121028        0.0148613       -0.140125     -0.000325262    -1.18566e-05         0.607183       -0.781905
                        0.607956        -0.78042     -0.000329119     3.05431e-05        -0.136517       0.0500116      -0.00128754    -0.000191631
                    -0.000260142    -6.94557e-05         0.607237       -0.781935      -0.00129921    -0.000167672        -0.132047       0.0490993
255000                0.00284183       -0.135017     -0.000703403     -0.00113796         0.529101       -0.837852     -0.000273497    -6.60451e-05
                    -0.000675025     -0.00115201       0.00315118       -0.130388     -0.000318514     8.70379e-06         0.528174       -0.838996
                        0.529132       -0.837582     -0.000317687     5.09938e-05        -0.120705       0.0605449      -0.00131493     -9.6573e-05
                    -0.000258391    -5.33293e-05         0.528239       -0.839059      -0.00132388    -6.89675e-05        -0.116172       0.0592081
255200               -0.00718896       -0.124193     -0.000844091     -0.00104971         0.444741       -0.887125     -0.000277361    -5.01131e-05
                    -0.000805002     -0.00107596      -0.00632567       -0.119504     -0.000311345     2.69014e-05         0.443609       -0.888129
                        0.444748       -0.886818     -0.000306225     6.81758e-05        -0.103842       0.0684961      -0.00133257     1.03724e-06
                    -0.000256706    -3.93935e-05         0.443678       -0.888223      -0.00133773     3.08468e-05       -0.0993034       0.0667116
255400                -0.0148524       -0.112519     -0.000971808    -0.000943638         0.355592       -0.927899     -0.000280821    -3.53403e-05
                    -0.000925601    -0.000983238        -0.013426       -0.107846     -0.000304105     4.29658e-05         0.354279       -0.928738
                        0.355588        -0.92756     -0.000295199     8.24292e-05       -0.0862829       0.0737346      -0.00134077     0.000100016
                    -0.000255454    -2.73713e-05         0.354343       -0.928859       -0.0013417     0.000130424       -0.0818001       0.0714879
255600                -0.0200485       -0.100387      -0.00108478     -0.00082238         0.262499       -0.959678     -0.000284056     -2.1573e-05
                      -0.0010353    -0.000874959       -0.0180607      -0.0958082     -0.000297089     5.71285e-05          0.26103        -0.96033
                        0.262495       -0.959316     -0.000285002      9.4103e-05       -0.0683961       0.0761734      -0.00133998      0.00019945
                    -0.000254948    -1.69717e-05         0.261087       -0.960471      -0.00133675     0.000228901       -0.0640357       0.0734606
255800                -0.0227342      -0.0882058      -0.00118182    -0.000688473         0.166363       -0.982046     -0.000287225    -8.64847e-06
                     -0.00113267    -0.000752178       -0.0201979      -0.0837984     -0.000290554      6.9618e-05         0.164768       -0.982495
                        0.166368       -0.981676     -0.000275969     0.000103549       -0.0505637       0.0757719      -0.00133062     0.000298671
                    -0.000255456    -7.89355e-06         0.164812        -0.98265      -0.00132372     0.000325796       -0.0463935       0.0725996
256000                 -0.022926      -0.0763926      -0.00126218    -0.000544265        0.0681279       -0.994677     -0.000290471     3.60503e-06
                     -0.00121634    -0.000615913       -0.0198654       -0.072232     -0.000284727     8.06592e-05        0.0664379       -0.994913
                       0.0681471       -0.994314     -0.000268395     0.000111122       -0.0331737       0.0725363      -0.00131304     0.000397202
                    -0.000257213     1.74232e-07         0.066469       -0.995073      -0.00130327     0.000420886       -0.0292616       0.0689227
256200                -0.0207007      -0.0653646      -0.00132541    -0.000391847        -0.031221       -0.997337      -0.00029393     1.53706e-05
                     -0.00128488     -0.00046716       -0.0171511      -0.0615231     -0.000279826     9.04755e-05        -0.032975       -0.997356
                      -0.0311874          -0.997     -0.000262546     0.000117179       -0.0166142       0.0665206      -0.00128749     0.000494699
                    -0.000260434     7.55621e-06       -0.0329554       -0.997512      -0.00127581     0.000514098       -0.0130257       0.0624952
