! TOUCHSTONE file generated by CST MICROWAVE STUDIO
! Date and time: Fri Sep 26 06:38:33 2025
! Project name: biblioteca3_folgaOK.cst
! Parameters = {H=600; Lx=200; Ly=260; Nedge=36; P=520; k=0; mesh_pilar_nm=40; n=0; t_air=3500; t_sub=2000; wavelength_nm=0}
! Header version: 2018
! Port assignment regex: !\s*Touchstone port\s*([0-9]+)\s*=\s*(CST MWS port|CST DS port)\s*([0-9]+|Zmin|Zmax)\s*\(\"(.*)\"\)(\s*mode\s*([0-9]+))?.*
! Touchstone port assignment:
! Touchstone port 1 = CST MWS port Zmin ("") mode 1
! Touchstone port 2 = CST MWS port Zmin ("") mode 2
! Touchstone port 3 = CST MWS port Zmax ("") mode 1
! Touchstone port 4 = CST MWS port Zmax ("") mode 2
! S-Parameters are not renormalized. Each port impedance will be approximated by the real part at minimum frequency. The values are described via the [Reference] keyword.
! Default impedance is overridden by [Reference]
[Version] 2.0
# GHz S RI R 376.73
[Number of Ports] 4
[Reference]
376.73 376.73 376.73 376.73 
[Number of Frequencies] 401
[Network Data]
250000                  0.217434        0.235367     -0.000131883    -0.000227995        -0.884022        0.339593      0.000917834    -0.000856543
                     2.19131e-05    -0.000279838        -0.068638        0.185537     -4.89485e-05     -0.00135445        -0.437132       -0.877292
                       -0.884684        0.339538     -0.000331596     -0.00136187      -0.00394762        0.320377     -0.000149813    -0.000724261
                     0.000894186    -0.000824662        -0.437186        -0.87737      -0.00010732    -0.000687589        -0.189468      -0.0569962
250200                  0.226355        0.216588     -8.65157e-05    -0.000205313        -0.856071        0.410464      0.000858664    -0.000918969
                     -2.3815e-05    -0.000245627       -0.0612464        0.191637     -0.000155164       -0.001356        -0.494668       -0.845355
                       -0.856638        0.410469     -0.000281236     -0.00119136        0.0270917        0.312107     -0.000258165    -0.000691293
                     0.000846675    -0.000903821        -0.494713       -0.845465     -0.000196968    -0.000652942        -0.197097      -0.0405684
250400                  0.233551        0.197415     -2.84206e-05    -0.000164042        -0.822353        0.479275      0.000795688    -0.000982047
                    -5.12175e-05    -0.000198874       -0.0533669        0.197349     -0.000264442     -0.00134902        -0.549911       -0.809667
                        -0.82283        0.479328     -0.000686092     -0.00110872        0.0565829        0.300538     -0.000362056    -0.000643806
                     0.000794219    -0.000980084        -0.549941       -0.809804     -0.000285836    -0.000610311        -0.203158      -0.0232529
250600                  0.238994        0.178013      1.14046e-05    -8.77034e-05        -0.782987        0.545547      0.000729045     -0.00104567
                    -5.94547e-05    -0.000148153        -0.045026        0.202633     -0.000375847       -0.001333        -0.602622       -0.770388
                       -0.783382        0.545634     -0.000731816       -0.001222        0.0841404        0.285896       -0.0004592    -0.000582494
                     0.000736625     -0.00105367        -0.602633       -0.770548     -0.000372689    -0.000559033        -0.207557     -0.00520747
250800                  0.242676         0.15855      9.09266e-07    -2.49621e-05        -0.738135        0.608801      0.000659019     -0.00110964
                    -5.10205e-05    -9.98798e-05       -0.0362532        0.207453     -0.000488349     -0.00130756        -0.652568       -0.727693
                       -0.738457        0.608912     -0.000769837     -0.00122711         0.109409        0.268456     -0.000547419    -0.000508488
                     0.000673628     -0.00112458        -0.652563       -0.727874     -0.000456165    -0.000498564        -0.210213       0.0134003
251000                  0.244603        0.139195     -1.00975e-05    -6.23228e-06        -0.688003        0.668564      0.000586043     -0.00117354
                     -2.9647e-05    -5.78285e-05       -0.0270806        0.211776     -0.000600852     -0.00127252        -0.699532       -0.681772
                       -0.688259        0.668689     -0.000820012     -0.00120798         0.132072        0.248536     -0.000624716    -0.000423344
                     0.000604965     -0.00119258        -0.699515       -0.681971     -0.000534786    -0.000428526        -0.211065       0.0323947
251200                  0.244798        0.120119     -6.61895e-07    -3.15817e-06        -0.632836        0.724373      0.000510669     -0.00123669
                     1.04358e-06    -2.37087e-05       -0.0175431         0.21557     -0.000712225     -0.00122782        -0.743307       -0.632829
                       -0.633037        0.724505     -0.000876434      -0.0011784         0.151853        0.226494     -0.000689324    -0.000329028
                     0.000530404     -0.00125733        -0.743284       -0.633041     -0.000606973    -0.000348753        -0.210067       0.0515934
251400                  0.243303         0.10149      2.18838e-05    -2.47016e-06        -0.572927        0.775778      0.000433446     -0.00129796
                     3.80911e-05     2.03839e-06      -0.00767798        0.218807     -0.000821341     -0.00117361        -0.783703       -0.581078
                       -0.573082         0.77591     -0.000936253     -0.00114181         0.168527        0.202725     -0.000739715     -0.00022792
                     0.000449774     -0.00131836        -0.783679       -0.581301     -0.000671069    -0.000259334        -0.207194       0.0708095
251600                  0.240177       0.0834705      5.16172e-05    -2.32149e-06        -0.508611        0.822348      0.000354704     -0.00135576
                      7.9275e-05      1.9619e-05       0.00247537        0.221461     -0.000927105     -0.00111021         -0.82054       -0.526749
                        -0.50873        0.822475     -0.000997995     -0.00109927         0.181918        0.177647     -0.000774562    -0.000122877
                     0.000362976      -0.0013751        -0.820522       -0.526976     -0.000725379    -0.000160648        -0.202438        0.089853
251800                  0.235496       0.0662207      8.56988e-05    -3.30966e-06        -0.440266        0.863674      0.000274281     -0.00140816
                     0.000122996      2.9499e-05        0.0128757         0.22351      -0.00102849     -0.00103808        -0.853657        -0.47008
                       -0.440359        0.863794      -0.00106074     -0.00105112         0.191911        0.151703     -0.000792567    -1.74254e-05
                     0.000269992     -0.00142691        -0.853649       -0.470306     -0.000768213    -5.33929e-05        -0.195813        0.108533
252000                  0.229355       0.0498905       0.00012274    -6.29008e-06        -0.368314        0.899376      0.000191345      -0.0014532
                     0.000168115     3.21967e-05        0.0234803        0.224935      -0.00112456    -0.000957822        -0.882905        -0.41132
                       -0.368389        0.899489      -0.00112382    -0.000997367         0.198448        0.125346     -0.000791984     8.37526e-05
                     0.000170896     -0.00147311        -0.882912       -0.411538     -0.000797944     6.13987e-05         -0.18735        0.126661
252200                  0.221862       0.0346209      0.000161955    -1.20161e-05        -0.293214        0.929108      0.000104482     -0.00148936
                     0.000213809     2.81859e-05        0.0342449        0.225719      -0.00121449    -0.000870128        -0.908154       -0.350728
                        -0.29328        0.929212      -0.00118663    -0.000937907         0.201533       0.0990352      -0.00076909     0.000173637
                     6.58538e-05     -0.00151298        -0.908178       -0.350933      -0.00081307     0.000182359        -0.177101        0.144049
252400                  0.213144       0.0205407      0.000202798     -2.1121e-05        -0.215466        0.952558      1.20778e-05      -0.0015158
                     0.000259459     1.78599e-05        0.0451243        0.225852      -0.00129757    -0.000775778         -0.92929       -0.288569
                       -0.215529        0.952657      -0.00124862    -0.000872579         0.201232       0.0732264     -0.000712314     0.000240375
                    -4.48662e-05     -0.00154576        -0.929332       -0.288755     -0.000812278     0.000307798        -0.165136        0.160517
252600                  0.203338      0.00776507      0.000244814    -3.41466e-05        -0.135604         0.96946     -8.71895e-05     -0.00153243
                     0.000304573     1.52676e-06        0.0560724        0.225322      -0.00137322     -0.00067559        -0.946215       -0.225118
                       -0.135669        0.969556      -0.00130921    -0.000801203         0.197674       0.0483627     -0.000574454     0.000269443
                    -0.000160895      -0.0015707        -0.946274        -0.22528     -0.000794508      0.00043574        -0.151545         0.17589
252800                  0.192598     -0.00360636       0.00028756    -5.15667e-05       -0.0541913        0.979594     -0.000194018     -0.00153953
                     0.000348731    -2.05826e-05        0.0670425        0.224126      -0.00144097    -0.000570393        -0.958851       -0.160652
                      -0.0542633         0.97969      -0.00136779    -0.000723604         0.191046       0.0248661     -0.000199129     0.000396019
                    -0.000281758     -0.00158705        -0.958924       -0.160787     -0.000759014     0.000563966        -0.136433        0.190001
253000                  0.181086      -0.0134911      0.000330574     -7.3801e-05        0.0281796         0.98279     -0.000308421     -0.00153745
                     0.000391547    -4.83001e-05        0.0779879         0.22226      -0.00150048    -0.000461008        -0.967135      -0.0954579
                       0.0280983         0.98289      -0.00142372    -0.000639631         0.181596      0.00312909     -0.000113625     0.000966199
                    -0.000406875     -0.00159408         -0.96722      -0.0955635     -0.000705409     0.000690077        -0.119926        0.202697
253200                  0.168974      -0.0218253      0.000373353    -0.000101219         0.110896        0.978934     -0.000429861     -0.00152631
                     0.000432642    -8.15055e-05        0.0888615        0.219727      -0.00155148    -0.000348219        -0.971025      -0.0298224
                        0.110804        0.979042      -0.00147629    -0.000549175         0.169622      -0.0164939     -0.000281783      0.00111801
                    -0.000535562     -0.00159111        -0.971116      -0.0298982     -0.000633696     0.000811571        -0.102163        0.213836
253400                   0.15644      -0.0285647      0.000415342    -0.000134141         0.193328        0.967969     -0.000557438     -0.00150594
                     0.000471628    -0.000120111        0.0996167        0.216531      -0.00159378    -0.000232761        -0.970497       0.0359633
                        0.193227        0.968088      -0.00152473    -0.000452183          0.15547       -0.033694     -0.000280637      0.00116005
                    -0.000667032     -0.00157747         -0.97059       0.0359163     -0.000544284     0.000925915       -0.0832992        0.223288
253600                  0.143666      -0.0336857      0.000455931     -0.00017283         0.274838        0.949898     -0.000690038     -0.00147593
                     0.000508097    -0.000164047         0.110207         0.21268      -0.00162726     -0.00011531        -0.965544        0.101607
                        0.274728        0.950033      -0.00156823    -0.000348675         0.139528      -0.0482147     -0.000211352      0.00120159
                    -0.000800401      -0.0015526        -0.965633        0.101586     -0.000437988      0.00103063       -0.0635019        0.230942
253800                  0.130838      -0.0371859       0.00049445    -0.000217488         0.354781        0.924787     -0.000826422     -0.00143568
                      0.00054161    -0.000213248         0.120587        0.208187      -0.00165185     3.52398e-06        -0.956179        0.166815
                        0.354666         0.92494      -0.00160592    -0.000238763         0.122215       -0.059858     -0.000111894      0.00124263
                     -0.00093469     -0.00151598         -0.95626        0.166816     -0.000316004      0.00112335        -0.042951        0.236702
254000                  0.118137      -0.0390842      0.000530173     -0.00026824         0.432518        0.892766     -0.000965259     -0.00138448
                     0.000571696    -0.000267641         0.130713        0.203066      -0.00166747     0.000123194        -0.942434        0.231295
                        0.432401        0.892939      -0.00163687    -0.000122669         0.103976       -0.068489      4.99149e-06      0.00127804
                     -0.00106884     -0.00146719        -0.942503        0.231313     -0.000179881      0.00120193       -0.0218361        0.240491
254200                  0.105745      -0.0394209      0.000562321    -0.000325131          0.50742        0.854026      -0.00110513     -0.00132164
                     0.000597849    -0.000327134          0.14054        0.197335      -0.00167409     0.000243211        -0.924361        0.294757
                        0.507306         0.85422      -0.00166014    -7.36185e-07        0.0852692      -0.0740392      0.000133674      0.00130423
                      -0.0012017     -0.00140592        -0.924413        0.294786     -3.14682e-05      0.00126443     -0.000354826        0.242251
254400                 0.0938348      -0.0382568      0.000590071    -0.000388106         0.578875        0.808822      -0.00124455     -0.00124654
                     0.000619523      -0.0003916         0.150026        0.191016      -0.00167165     0.000363136        -0.902028        0.356914
                        0.578768        0.809036      -0.00167476     0.000126545        0.0665573      -0.0765082      0.000270883      0.00131881
                     -0.00133207     -0.00133196         -0.90206        0.356947      0.000127134      0.00130923         0.021289        0.241944
254600                  0.082571      -0.0356727      0.000612562    -0.000457002         0.646293        0.757468       -0.0013819     -0.00115866
                      0.00063614    -0.000460871         0.159132        0.184133       -0.0016601     0.000482566        -0.875523        0.417481
                        0.646199        0.757701      -0.00167976     0.000258529        0.0482974       -0.075964      0.000414247      0.00132015
                      -0.0014587     -0.00124523        -0.875533        0.417512      0.000293632      0.00133501        0.0428875        0.239554
254800                 0.0721073      -0.0317681      0.000628917    -0.000531541         0.709117        0.700339      -0.00151551     -0.00105764
                     0.000647087    -0.000534721         0.167819        0.176713      -0.00163936     0.000601117        -0.844954        0.476182
                        0.709041        0.700588      -0.00167423     0.000394401        0.0309301      -0.0725416      0.000561768      0.00130706
                     -0.00158028     -0.00114578        -0.844941        0.476203      0.000465598      0.00134078        0.0642308        0.235084
255000                 0.0625839      -0.0266592      0.000638249    -0.000611314         0.766827        0.637862      -0.00164363    -0.000943345
                     0.000651727     -0.00061286          0.17605        0.168787      -0.00160937      0.00071841        -0.810444        0.532744
                        0.766773        0.638122      -0.00165728     0.000533173        0.0148694      -0.0664396      0.000711594      0.00127867
                     -0.00169548      -0.0010338        -0.810408        0.532749      0.000640518       0.0013259        0.0851091        0.228562
255200                 0.0541253      -0.0204779       0.00063969     -0.00069578         0.818947        0.570515      -0.00176442    -0.000815877
                       0.0006494    -0.000694918         0.183791        0.160388      -0.00157001      0.00083405        -0.772136        0.586904
                        0.818919        0.570783      -0.00162816     0.000673682      0.000493721      -0.0579156      0.000861924      0.00123436
                     -0.00180296    -0.000909623        -0.772078        0.586887      0.000815846      0.00129003         0.105315        0.220035
255400                 0.0468388      -0.0133687      0.000632404    -0.000784261         0.865049        0.498822      -0.00187607    -0.000675596
                     0.000639439    -0.000780437          0.19101         0.15155       -0.0015212     0.000947608        -0.730189        0.638406
                        0.865049        0.499092      -0.00158623     0.000814596       -0.0118634      -0.0472799       0.00101096      0.00117372
                      -0.0019014    -0.000773722        -0.730111        0.638364      0.000989045      0.00123316         0.124647        0.209571
255600                 0.0408127      -0.0054871      0.000615617    -0.000875942         0.904756        0.423347      -0.00197674    -0.000523142
                     0.000621176    -0.000868864         0.197677         0.14231      -0.00146282       0.0010586        -0.684779        0.687006
                        0.904788        0.423613      -0.00153104     0.000954435       -0.0219201       -0.034888       0.00115687      0.00109653
                     -0.00198947    -0.000626729        -0.684684        0.686934       0.00115762      0.00115559         0.142909        0.197262
255800                 0.0361158      0.00300346      0.000588636     -0.00096988         0.937753        0.344687      -0.00206469    -0.000359445
                     0.000593959    -0.000959539         0.203767         0.13271       -0.0013948      0.00116649          -0.6361        0.732468
                        0.937816        0.344942      -0.00146235      0.00109159        -0.029453       -0.021132       0.00129779      0.00100278
                     -0.00206591    -0.000469426        -0.635991        0.732365       0.00131915      0.00105787         0.159914        0.183217
256000                 0.0327962       0.0119339      0.000550873     -0.00106501         0.963781        0.263466      -0.00213828    -0.000185712
                     0.000557169     -0.00105169         0.209255         0.12279      -0.00131708      0.00127064        -0.584359         0.77457
                        0.963875        0.263704      -0.00138016      0.00122438       -0.0343014     -0.00643101       0.00143186     0.000892659
                     -0.00212949     -0.00030274         -0.58424        0.774437       0.00147132     0.000940858         0.175487        0.167567
256200                 0.0308811       0.0211321      0.000501868     -0.00116015         0.982647         0.18033      -0.00219602    -3.41554e-06
                     0.000510235     -0.00114443         0.214121        0.112593      -0.00122965      0.00137034         -0.52978        0.813104
                        0.982771        0.180544      -0.00128474      0.00135107       -0.0363705      0.00877886       0.00155715     0.000766571
                     -0.00217907    -0.000127749        -0.529655        0.812941       0.00161192     0.000805625         0.189466        0.150459
