! TOUCHSTONE file generated by CST MICROWAVE STUDIO
! Date and time: Fri Sep 26 07:22:04 2025
! Project name: biblioteca3_folgaOK.cst
! Parameters = {H=600; Lx=200; Ly=260; Nedge=44; P=520; k=0; mesh_pilar_nm=40; n=0; t_air=3500; t_sub=2000; wavelength_nm=0}
! Header version: 2018
! Port assignment regex: !\s*Touchstone port\s*([0-9]+)\s*=\s*(CST MWS port|CST DS port)\s*([0-9]+|Zmin|Zmax)\s*\(\"(.*)\"\)(\s*mode\s*([0-9]+))?.*
! Touchstone port assignment:
! Touchstone port 1 = CST MWS port Zmin ("") mode 1
! Touchstone port 2 = CST MWS port Zmin ("") mode 2
! Touchstone port 3 = CST MWS port Zmax ("") mode 1
! Touchstone port 4 = CST MWS port Zmax ("") mode 2
! S-Parameters are not renormalized. Each port impedance will be approximated by the real part at minimum frequency. The values are described via the [Reference] keyword.
! Default impedance is overridden by [Reference]
[Version] 2.0
# GHz S RI R 376.73
[Number of Ports] 4
[Reference]
376.73 376.73 376.73 376.73 
[Number of Frequencies] 401
[Network Data]
250000                 -0.300495       -0.128019     -0.000972286    -0.000144723         0.648607       -0.687474      -0.00027257    -0.000809695
                     -0.00102933      6.9698e-06      -0.00681008       -0.188212     -5.08473e-06    -0.000719942         0.766291        0.614108
                        0.648562       -0.687393      6.58443e-06    -0.000759258        -0.145207       -0.292574      0.000628757    -0.000301727
                    -0.000410631    -0.000847692         0.766429        0.614138       0.00059009    -0.000293555          0.18523      -0.0343476
250200                  -0.30147       -0.106994      -0.00099602    -7.49039e-05          0.59444       -0.737989     -0.000329507    -0.000801498
                     -0.00103521     6.58599e-05        -0.014712       -0.190957     -5.10093e-05    -0.000731639         0.804104        0.562759
                        0.594653       -0.737992     -3.83292e-05    -0.000772039        -0.168866       -0.272242      0.000609731    -0.000327896
                    -0.000463784    -0.000832892         0.804283         0.56264      0.000583487    -0.000317886         0.184514      -0.0514664
250400                   -0.3007      -0.0861739      -0.00101433     8.48058e-07         0.536139       -0.784375     -0.000387596    -0.000788814
                     -0.00103792     0.000129737       -0.0229191       -0.193282      -9.8642e-05    -0.000740904         0.838503        0.509027
                        0.536528       -0.784474     -8.55705e-05    -0.000782183        -0.189827       -0.249625      0.000590267    -0.000353747
                    -0.000517401    -0.000814014         0.838692        0.508801      0.000575812    -0.000342709         0.182141      -0.0686761
250600                 -0.298207      -0.0657209       -0.0010261     8.21906e-05         0.474005       -0.826281     -0.000446442    -0.000771343
                     -0.00103668     0.000198629       -0.0314039       -0.195157     -0.000147931    -0.000747561         0.869336        0.453145
                        0.474499       -0.826474     -0.000135013    -0.000789387         -0.20783       -0.225099      0.000570325    -0.000379299
                     -0.00057113    -0.000790861         0.869515         0.45285      0.000566991    -0.000368001          0.17809       -0.085806
250800                 -0.294027      -0.0457976      -0.00103017     0.000168553         0.408371       -0.863373     -0.000505593    -0.000748825
                      -0.0010306     0.000272449       -0.0401364       -0.196558     -0.000198813    -0.000751422         0.896468        0.395353
                         0.40891       -0.863647     -0.000186493    -0.000793346        -0.222671       -0.199075      0.000549863    -0.000404567
                    -0.000624585    -0.000763271         0.896625        0.395023      0.000556949    -0.000393733          0.17236       -0.102683
251000                 -0.288216      -0.0265637      -0.00102543     0.000259113         0.339599        -0.89534      -0.00056454    -0.000721046
                     -0.00101869     0.000350954       -0.0490848       -0.197463      -0.00025121    -0.000752287          0.91978          0.3359
                        0.340134       -0.895673     -0.000239806     -0.00079376        -0.234207       -0.171983      0.000528833    -0.000429565
                    -0.000677341    -0.000731117          0.91991        0.335566      0.000545603    -0.000419868         0.164968       -0.119132
251200                 -0.280844     -0.00817424      -0.00101085      0.00035279          0.26808       -0.921895     -0.000622731    -0.000687856
                    -0.000999901     0.000433714        -0.058215       -0.197851     -0.000305026    -0.000749945         0.939171        0.275042
                        0.268578       -0.922259     -0.000294708    -0.000790339        -0.242356       -0.144267      0.000507187    -0.000454302
                    -0.000728946    -0.000694319         0.939276        0.274728       0.00053287    -0.000446365         0.155951       -0.134984
251400                 -0.271998      0.00922167       -0.0009856     0.000448255         0.194235        -0.94278     -0.000679569     -0.00064917
                    -0.000973138     0.000520065       -0.0674919       -0.197704     -0.000360147     -0.00074417         0.954555        0.213039
                        0.194671       -0.943146     -0.000350917     -0.00078281        -0.247101       -0.116374      0.000484872    -0.000478787
                    -0.000778919     -0.00065285         0.954641        0.212765      0.000518663    -0.000473173         0.145363       -0.150069
251600                 -0.261781       0.0254832     -0.000949047     0.000543959         0.118509       -0.957766     -0.000734432    -0.000604988
                    -0.000937313      0.00060908       -0.0768785       -0.197008     -0.000416433    -0.000734728         0.965868        0.150157
                        0.118873       -0.958103     -0.000408107    -0.000770918        -0.248485      -0.0887475      0.000461832     -0.00050302
                    -0.000826763    -0.000606738         0.965943        0.149937      0.000502893    -0.000500234         0.133278       -0.164227
251800                 -0.250312       0.0404794     -0.000900874     0.000638188        0.0413757        -0.96666     -0.000786678    -0.000555395
                    -0.000891412     0.000699539       -0.0863369        -0.19575     -0.000473718    -0.000721373         0.973059       0.0866638
                        0.041664       -0.966941     -0.000465916    -0.000754441        -0.246611      -0.0618144      0.000438005    -0.000527002
                    -0.000871967    -0.000556073         0.973135       0.0865068      0.000485468    -0.000527478         0.119786       -0.177304
252000                 -0.237723        0.054091     -0.000841107     0.000729138       -0.0366714       -0.969302     -0.000835669    -0.000500566
                    -0.000834575      0.00078992       -0.0958281       -0.193921     -0.000531805    -0.000703851         0.976098       0.0228292
                      -0.0364524       -0.969503     -0.000523948    -0.000733186        -0.241637      -0.0359814      0.000413326    -0.000550726
                    -0.000914021    -0.000501012         0.976186       0.0227401      0.000466293    -0.000554827         0.104993       -0.189157
252200                  -0.22416       0.0662124     -0.000770138        0.000815        -0.115117       -0.965578     -0.000880779    -0.000440774
                    -0.000766191     0.000878416        -0.105312       -0.191515      -0.00059046    -0.000681903         0.974971      -0.0410754
                       -0.114955       -0.965679     -0.000581775    -0.000707003        -0.233773      -0.0116263      0.000387725     -0.00057418
                    -0.000952422    -0.000441775         0.975081      -0.0410966      0.000445276    -0.000582192         0.089018       -0.199654
252400                 -0.209782       0.0767529     -0.000688726     0.000894059        -0.193429       -0.955411     -0.000921416    -0.000376378
                    -0.000685993      0.00096298         -0.11475       -0.188528      -0.00064941    -0.000655266          0.96968       -0.104779
                       -0.193306       -0.955401     -0.000638941    -0.000675783        -0.223276       0.0109076      0.000361126    -0.000597347
                    -0.000986683    -0.000378651         0.969823       -0.104736      0.000422321    -0.000609471        0.0719958       -0.208676
252600                 -0.194756       0.0856386     -0.000597964     0.000964783        -0.271062       -0.938773     -0.000957038    -0.000307827
                    -0.000594143       0.0010414        -0.124099        -0.18496     -0.000708337    -0.000623679         0.960248       -0.168013
                       -0.270959       -0.938645     -0.000694972    -0.000639465        -0.210443       0.0313173      0.000333449    -0.000620201
                     -0.00101635    -0.000311991         0.960432       -0.167912      0.000397335    -0.000636547        0.0540718       -0.216118
252800                 -0.179259       0.0928139     -0.000499216       0.0010259         -0.34746       -0.915685     -0.000987165    -0.000235644
                    -0.000491302      0.00111144        -0.133321       -0.180812     -0.000766875    -0.000586888         0.946712       -0.230509
                       -0.347356       -0.915438     -0.000749379    -0.000598043        -0.195609       0.0493444      0.000304605    -0.000642708
                     -0.00104099    -0.000242207         0.946943       -0.230359      0.000370227    -0.000663293        0.0354018        -0.22189
253000                 -0.163475        0.098242     -0.000394043      0.00107645        -0.422064       -0.886216       -0.0010114    -0.000160416
                    -0.000378651      0.00117093        -0.142373       -0.176092     -0.000824605    -0.000544653         0.929126       -0.292004
                       -0.421938       -0.885855     -0.000801664     -0.00055156        -0.179136        0.064779      0.000274503    -0.000664823
                     -0.00106024    -0.000169766         0.929408       -0.291814      0.000340907    -0.000689564        0.0161503       -0.225918
253200                 -0.147593        0.101907     -0.000284111      0.00111581        -0.494313       -0.850489      -0.00102942    -8.27801e-05
                    -0.000257872      0.00121798        -0.151217       -0.170805     -0.000881051    -0.000496756         0.907561       -0.352237
                       -0.494146       -0.850025     -0.000851331    -0.000500115        -0.161408       0.0774632      0.000243045    -0.000686492
                     -0.00107376    -9.51827e-05         0.907897        -0.35202      0.000309293      -0.0007152      -0.00351116       -0.228144
253400                 -0.131801        0.103813     -0.000171105      0.00114372        -0.563652        -0.80868      -0.00104101    -3.40426e-06
                    -0.000131075      0.00125107        -0.159811       -0.164964     -0.000935678    -0.000443009         0.882105       -0.410954
                        -0.56343       -0.808127     -0.000897889     -0.00044386        -0.142828       0.0872928      0.000210126    -0.000707644
                     -0.00108129    -1.90109e-05         0.882493       -0.410722       0.00027531    -0.000740026       -0.0234058       -0.228529
253600                 -0.116289        0.103987      -5.6645e-05      0.00116021        -0.629539       -0.761016      -0.00104604     7.70279e-05
                     -6.7137e-07      0.00126922        -0.168116       -0.158583     -0.000987891    -0.000383268          0.85286       -0.467906
                       -0.629249       -0.760393     -0.000940863    -0.000383001        -0.123804       0.0942195      0.000175638    -0.000728194
                     -0.00108263     5.81621e-05         0.853298        -0.46767      0.000238891    -0.000763851       -0.0433533       -0.227051
253800                 -0.101244        0.102476      5.77736e-05       0.0011656        -0.691445        -0.70778      -0.00104448     0.000157835
                     0.000130781        0.001272        -0.176095       -0.151679      -0.00103703    -0.000317441         0.819944       -0.522851
                        -0.69108       -0.707108     -0.000979798    -0.000317789        -0.104746       0.0982515      0.000139466    -0.000748037
                     -0.00107762     0.000135724         0.820427       -0.522622      0.000199979    -0.000786466       -0.0631715       -0.223705
254000                -0.0868473       0.0993481      0.000170828      0.00116041        -0.748868       -0.649307       -0.0010364     0.000238356
                     0.000260746      0.00125955        -0.183709       -0.144271      -0.00108239    -0.000245506         0.783491       -0.575556
                       -0.748424       -0.648606      -0.00101426    -0.000248524       -0.0860584        0.099453      0.000101494    -0.000767048
                     -0.00106616     0.000213045         0.784012       -0.575344      0.000158535    -0.000807648       -0.0826781       -0.218506
254200                -0.0732705        0.094694      0.000281394      0.00114532        -0.801332       -0.585982      -0.00102194     0.000317958
                     0.000386865       0.0012326        -0.190923       -0.136381       -0.0011232    -0.000167525         0.743648       -0.625795
                        -0.80081       -0.585273      -0.00104386    -0.000175548       -0.0681313       0.0979434      6.16053e-05    -0.000785078
                     -0.00104823     0.000289479         0.744199       -0.625607      0.000114535     -0.00082716        -0.101693       -0.211485
254400                -0.0606755       0.0886224      0.000388551      0.00112112        -0.848396       -0.518238       -0.0010013     0.000396058
                     0.000507087      0.00119226        -0.197701       -0.128035      -0.00115864     -8.3655e-05         0.700576       -0.673351
                       -0.847802        -0.51754      -0.00106822     -9.9236e-05       -0.0513332       0.0938956      1.96822e-05    -0.000801947
                     -0.00102384     0.000364363         0.701147       -0.673194      6.79746e-05    -0.000844751        -0.120037       -0.202692
254600                -0.0492107       0.0812609      0.000491577      0.00108864         -0.88966       -0.446552     -0.000974781     0.000472123
                      0.00061975      0.00114001         -0.20401       -0.119261      -0.00118788     5.83118e-06         0.654449       -0.718019
                       -0.889003       -0.445883      -0.00108702    -1.99962e-05       -0.0360035       0.0875319     -2.43859e-05    -0.000817447
                    -0.000993031     0.000437015          0.65503       -0.717898      1.88751e-05    -0.000860162        -0.137541       -0.192194
254800                -0.0390086       0.0727538      0.000589931       0.0010487        -0.924769       -0.371442     -0.000942693      0.00054568
                     0.000723617      0.00107749        -0.209819       -0.110089      -0.00121005     0.000100535         0.605454       -0.759603
                       -0.924062       -0.370817      -0.00109998     6.17382e-05        -0.022446       0.0791208     -7.07006e-05    -0.000831331
                    -0.000955891     0.000506712         0.606036        -0.75952     -3.27143e-05    -0.000873129        -0.154037       -0.180075
255000                -0.0301842         0.06326      0.000683228       0.0010021        -0.953419       -0.293461     -0.000905401      0.00061632
                     0.000817873      0.00100644        -0.215098       -0.100552       -0.0012243      0.00019992         0.553792        -0.79792
                       -0.952676       -0.292891      -0.00110683     0.000145513       -0.0109219       0.0689707     -0.000119347    -0.000843317
                    -0.000912525     0.000572662         0.554364       -0.797877     -8.67099e-05     -0.00088339        -0.169369       -0.166436
255200                -0.0228326       0.0529511      0.000771214     0.000949588        -0.975359       -0.213193     -0.000863291     0.000683698
                     0.000902085     0.000928524         -0.21982       -0.090685       -0.0012298     0.000303301         0.499671       -0.832798
                       -0.974595       -0.212685      -0.00110739     0.000230859      -0.00164451       0.0574246     -0.000170386    -0.000853079
                    -0.000863062     0.000633942         0.500225       -0.832793     -0.000142986    -0.000890693         -0.18339       -0.151392
255400                -0.0170281       0.0420083      0.000853731     0.000891834        -0.990396       -0.131245     -0.000816761     0.000747529
                     0.000976144     0.000845326        -0.223959      -0.0805253      -0.00122577     0.000409843         0.443315       -0.864078
                       -0.989627       -0.130804      -0.00110146     0.000317295        0.0052258       0.0448521     -0.000223845    -0.000860248
                    -0.000807668       0.0006894         0.443841       -0.864109     -0.000201362    -0.000894803        -0.195964       -0.135075
255600                -0.0128225       0.0306201        0.0009307     0.000829437        -0.998398      -0.0482414      -0.00076621      0.00080759
                      0.00104019     0.000758247        -0.227493      -0.0701125      -0.00121154     0.000518561         0.384954       -0.891617
                       -0.997639      -0.0478669      -0.00108894     0.000404331       0.00958534       0.0316414     -0.000279707    -0.000864413
                    -0.000746624     0.000737465         0.385445        -0.89168     -0.000261584    -0.000895515        -0.206969       -0.117627
255800                 -0.010245       0.0189793       0.00100209     0.000762916        -0.999292       0.0351827     -0.000712034     0.000863709
                      0.00109456     0.000668498        -0.230402      -0.0594884      -0.00118653     0.000628329         0.324828       -0.915282
                       -0.998558       0.0354933      -0.00106971     0.000491474        0.0113895        0.018191     -0.000337894    -0.000865122
                    -0.000680537      0.00077583         0.325278       -0.915372     -0.000323294    -0.000892655        -0.216296      -0.0992053
256000               -0.00930118      0.00728003       0.00106789     0.000692714        -0.992969        0.118376     -0.000654611     0.000915765
                      0.00113969     0.000577091        -0.232669       -0.048696      -0.00115033     0.000737899         0.263189       -0.934957
                       -0.992374        0.118641      -0.00104373     0.000578228        0.0106537      0.00490031     -0.000398256    -0.000861887
                     -0.00061099     0.000800912         0.263592       -0.935068     -0.000385984    -0.000886056        -0.223853      -0.0799773
256200               -0.00997357     -0.00428547        0.0011281     0.000619205         -0.97965        0.200712     -0.000594306     0.000963679
                       0.0011761     0.000484847        -0.234281      -0.0377805      -0.00110268     0.000845921         0.200292       -0.950542
                       -0.979139        0.200942      -0.00101095     0.000664093       0.00745295     -0.00783942     -0.000460553    -0.000854196
                    -0.000542379     0.000807226         0.200646       -0.950667     -0.000448966    -0.000875495        -0.229563      -0.0601195
