! TOUCHSTONE file generated by CST MICROWAVE STUDIO
! Date and time: Fri Sep 26 07:21:57 2025
! Project name: biblioteca3_folgaOK.cst
! Parameters = {H=600; Lx=200; Ly=260; Nedge=8; P=520; k=0; mesh_pilar_nm=40; n=0; t_air=3500; t_sub=2000; wavelength_nm=0}
! Header version: 2018
! Port assignment regex: !\s*Touchstone port\s*([0-9]+)\s*=\s*(CST MWS port|CST DS port)\s*([0-9]+|Zmin|Zmax)\s*\(\"(.*)\"\)(\s*mode\s*([0-9]+))?.*
! Touchstone port assignment:
! Touchstone port 1 = CST MWS port Zmin ("") mode 1
! Touchstone port 2 = CST MWS port Zmin ("") mode 2
! Touchstone port 3 = CST MWS port Zmax ("") mode 1
! Touchstone port 4 = CST MWS port Zmax ("") mode 2
! S-Parameters are not renormalized. Each port impedance will be approximated by the real part at minimum frequency. The values are described via the [Reference] keyword.
! Default impedance is overridden by [Reference]
[Version] 2.0
# GHz S RI R 376.73
[Number of Ports] 4
[Reference]
376.73 376.73 376.73 376.73 
[Number of Frequencies] 401
[Network Data]
250000                 -0.291376       -0.112714      0.000532046     -0.00124446         0.650753       -0.692062      0.000530905      0.00163414
                     0.000566436     -0.00128927       -0.0143004        -0.19666     -0.000667792      0.00170461         0.762533        0.616156
                        0.650614        -0.69208      -0.00069127      0.00165557         -0.13045       -0.283892      0.000146052    -0.000815579
                     0.000542382      0.00167972         0.762747        0.616062      8.07147e-05    -0.000870863          0.19525      -0.0272907
250200                 -0.290694      -0.0925816      0.000418302     -0.00126639         0.595922       -0.742913      0.000634911      0.00160922
                     0.000450419      -0.0013225       -0.0229945       -0.198858     -0.000555988      0.00178179         0.800452        0.565136
                        0.596023       -0.742983     -0.000574432      0.00174409        -0.153408       -0.264538      0.000110731    -0.000840622
                     0.000653258      0.00164257         0.800685        0.565008      4.23563e-05    -0.000891819         0.195166      -0.0448257
250400                 -0.288345      -0.0728437      0.000302558     -0.00128091         0.536928       -0.789569      0.000739026      0.00157805
                     0.000330726     -0.00134637       -0.0319362       -0.200571     -0.000433874      0.00185184         0.834977        0.511737
                          0.5372       -0.789703      -0.00044599      0.00182362        -0.173822       -0.242856      7.26023e-05    -0.000864895
                     0.000762465      0.00160027          0.83522        0.511583      1.43622e-06    -0.000911696         0.193384      -0.0625093
250600                 -0.284372      -0.0536581      0.000185258      -0.0012877         0.474074       -0.831671      0.000842918      0.00154048
                     0.000208205     -0.00136038        -0.041095       -0.201776     -0.000301826      0.00191332          0.86596         0.45619
                        0.474458       -0.831869     -0.000306746      0.00189245        -0.191393       -0.219205      3.15348e-05    -0.000888173
                     0.000869922      0.00155267         0.866204         0.45602      -4.2141e-05    -0.000930274         0.189881      -0.0801626
250800                 -0.278836      -0.0351788      6.68886e-05     -0.00128649         0.407699       -0.868878      0.000946238      0.00149636
                     8.37723e-05     -0.00136413       -0.0504385       -0.202453     -0.000160446      0.00196476         0.893267        0.398734
                        0.408146       -0.869132       -0.0001578      0.00194898        -0.205881       -0.193986     -1.25955e-05    -0.000910203
                     0.000975504      0.00149959         0.893507        0.398554     -8.84627e-05    -0.000947309         0.184655      -0.0976052
251000                 -0.271813      -0.0175545     -5.20205e-05     -0.00127701         0.338173       -0.900872       0.00104861      0.00144554
                    -4.15999e-05     -0.00135732       -0.0599323       -0.202585      -1.0572e-05      0.00200473         0.916783        0.339614
                        0.338643       -0.901169     -5.28845e-07      0.00199176        -0.217106       -0.167632     -5.99032e-05    -0.000930698
                      0.00107904      0.00144084         0.917016        0.339432     -0.000137605    -0.000962529         0.177727       -0.114658
251200                 -0.263397    -0.000926239     -0.000170894     -0.00125902         0.265897       -0.927363       0.00114965      0.00138791
                    -0.000166897     -0.00133975       -0.0695403       -0.202156      0.000146715      0.00203188         0.936408        0.279082
                        0.266359       -0.927683      0.000163446      0.00201954         -0.22496         -0.1406     -0.000110488    -0.000949338
                       0.0011803      0.00137625         0.936633        0.278903     -0.000189631    -0.000975633         0.169132       -0.131146
251400                 -0.253693       0.0145741     -0.000289113     -0.00123233         0.191302       -0.948085       0.00124892      0.00132333
                    -0.000291074     -0.00131132        -0.079225       -0.201153      0.000310101      0.00204498          0.95206        0.217395
                        0.191736        -0.94841      0.000332305      0.00203136        -0.229401       -0.113356     -0.000164432    -0.000965768
                      0.00127902      0.00130565         0.952276        0.217224      -0.00024458    -0.000986288         0.158928       -0.146898
251600                 -0.242824       0.0288256     -0.000406008     -0.00119676         0.114848       -0.962811       0.00134598      0.00125171
                    -0.000413071     -0.00127207       -0.0889476       -0.199566      0.000478054      0.00204297         0.963674        0.154815
                         0.11524       -0.963119      0.000504091      0.00202655        -0.230459      -0.0863668     -0.000221791    -0.000979594
                      0.00137488      0.00122887          0.96388        0.154654     -0.000302469    -0.000994126         0.147187       -0.161751
251800                 -0.230925       0.0417199      -0.00052087      -0.0011522        0.0370193       -0.971344       0.00144036      0.00117295
                    -0.000531827     -0.00122214       -0.0986681       -0.197389      0.000648857        0.002025         0.971199       0.0916036
                        0.037364       -0.971617      0.000676773      0.00200474        -0.228231       -0.060085     -0.000282589    -0.000990385
                      0.00146751      0.00114575         0.971397       0.0914548     -0.000363284    -0.000998749         0.134001       -0.175552
252000                 -0.218143       0.0531629     -0.000632944     -0.00109859       -0.0416736        -0.97353       0.00153153        0.001087
                    -0.000646296      -0.0011618        -0.108346       -0.194616      0.000820641      0.00199047         0.974604       0.0280279
                      -0.0413761       -0.973752      0.000848309      0.00196592        -0.222881      -0.0349412     -0.000346812    -0.000997669
                      0.00155649      0.00105619         0.974794       0.0278921     -0.000426969    -0.000999723         0.119474       -0.188156
252200                 -0.204634       0.0630764     -0.000741437     -0.00103594        -0.120702       -0.969257       0.00161896     0.000993812
                     -0.00075546     -0.00109141         -0.11794       -0.191248      0.000991436      0.00193906         0.973873       -0.035646
                       -0.120446       -0.969415       0.00101671      0.00191034        -0.214627      -0.0113342     -0.000414395     -0.00100094
                      0.00164134     0.000960074         0.974057      -0.0357689     -0.000493424     -0.00099658         0.103726       -0.199432
252400                 -0.190563       0.0713991     -0.000845521    -0.000964337        -0.199519       -0.958459       0.00170208     0.000893392
                    -0.000858343     -0.00101147        -0.127408       -0.187287       0.00115922      0.00187075         0.969009      -0.0991516
                       -0.199297       -0.958543       0.00118012      0.00183856        -0.203744        0.010377     -0.000485217    -0.000999641
                      0.00172156      0.00085735         0.969187      -0.0992625      -0.00056249    -0.000988823        0.0868868       -0.209259
252600                 -0.176105       0.0780878     -0.000944341    -0.000883933        -0.277567       -0.941117       0.00178026      0.00078577
                    -0.000954023    -0.000922553         -0.13671       -0.182736       0.00132199      0.00178581         0.960028       -0.162224
                       -0.277368       -0.941122       0.00133679      0.00175137        -0.190551       0.0298795     -0.000559086    -0.000993205
                      0.00179658     0.000748005         0.960201       -0.162324     -0.000633939    -0.000975929        0.0690998       -0.217532
252800                 -0.161435       0.0831184      -0.00103702    -0.000794987        -0.354279       -0.917263       0.00185287     0.000671024
                     -0.00104165    -0.000825347        -0.145802       -0.177606       0.00147779      0.00168482         0.946966       -0.224598
                        -0.35409        -0.91719        0.0014852      0.00164974        -0.175404       0.0469117     -0.000635732    -0.000981024
                      0.00186577     0.000632078         0.947133        -0.22469     -0.000707469    -0.000957353         0.050517       -0.224159
253000                 -0.146733       0.0864866      -0.00112269    -0.000697848        -0.429085       -0.886985       0.00191924     0.000549285
                     -0.00112044    -0.000720618        -0.154645       -0.171906       0.00162478       0.0015686         0.929872       -0.286015
                       -0.428894       -0.886835       0.00162401      0.00153481        -0.158686       0.0612675      -0.00071479    -0.000962474
                      0.00192849     0.000509671         0.930033         -0.2861     -0.000782685    -0.000932542        0.0312988       -0.229064
253200                 -0.132179       0.0882083      -0.00120045    -0.000592973        -0.501419       -0.850419       0.00197864     0.000420744
                      -0.0011897    -0.000609209        -0.163197       -0.165653       0.00176128      0.00143825         0.908814       -0.346216
                       -0.501214       -0.850199        0.0017521      0.00140778        -0.140804       0.0727981     -0.000795795    -0.000936929
                      0.00198404     0.000380957         0.908967       -0.346296     -0.000859093    -0.000900942        0.0116128       -0.232186
253400                  -0.11795       0.0883195      -0.00126945    -0.000480927         -0.57072       -0.807761       0.00203036     0.000285662
                     -0.00124884    -0.000492024         -0.17142       -0.158863       0.00188582      0.00129506         0.883873        -0.40495
                       -0.570493        -0.80748       0.00186854      0.00126994        -0.122177        0.081414     -0.000878165    -0.000903768
                      0.00203172     0.000246187         0.884018       -0.405028     -0.000936088    -0.000862018      -0.00836823       -0.233482
253600                 -0.104219       0.0868764      -0.00132887    -0.000362385        -0.636445       -0.759258       0.00207364     0.000144376
                     -0.00129734    -0.000370023        -0.179274       -0.151557       0.00199713      0.00114045         0.855147       -0.461969
                       -0.636189       -0.758927       0.00197259      0.00112257        -0.103224        0.087085     -0.000961197    -0.000862402
                      0.00207078     0.000105702         0.855282       -0.462046      -0.00101295    -0.000815273       -0.0284672       -0.232922
253800                -0.0911515       0.0839546      -0.00137791    -0.000238136         -0.69807       -0.705211       0.00210771    -2.69035e-06
                     -0.00133482    -0.000244203        -0.186722       -0.143759       0.00209416     0.000975987         0.822749       -0.517032
                       -0.697779       -0.704843       0.00206367     0.000966951       -0.0843664       0.0898396      -0.00104406     -0.00081229
                      0.00210048    -4.00615e-05         0.822872        -0.51711      -0.00108882    -0.000760271       -0.0485046       -0.230498
254000                -0.0789037       0.0796483      -0.00141588    -0.000109075        -0.755094       -0.645975       0.00213179    -0.000155018
                     -0.00136096    -0.000115593         -0.19373       -0.135496       0.00217612     0.000803299         0.786806       -0.569906
                       -0.754767       -0.645583       0.00214135     0.000804338       -0.0660089       0.0897631      -0.00112578    -0.000752966
                      0.00212008    -0.000190565         0.786915       -0.569986      -0.00116275    -0.000696665          -0.0683       -0.226216
254200                -0.0676196       0.0740695      -0.00144213     2.37975e-05        -0.807053       -0.581951       0.00214513    -0.000311985
                     -0.00137558     1.47648e-05        -0.200262       -0.126796       0.00224245     0.000624033          0.74746       -0.620364
                        -0.80669       -0.581549       0.00220533     0.000635932       -0.0485396       0.0869958      -0.00120528    -0.000684072
                      0.00212884    -0.000345164         0.747552       -0.620447      -0.00123363    -0.000624228       -0.0876735       -0.220101
254400                -0.0574294       0.0673459      -0.00145615     0.000159389        -0.853518       -0.513589       0.00214698     -0.00047286
                     -0.00137859      0.00014582        -0.206288       -0.117692       0.00229278     0.000439828         0.704866       -0.668189
                       -0.853122       -0.513189       0.00225538     0.000462888       -0.0323204       0.0817288      -0.00128133    -0.000605384
                      0.00212608    -0.000503102          0.70494       -0.668275      -0.00130029    -0.000542884        -0.106447       -0.212195
254600                -0.0484472       0.0596195      -0.00145754     0.000296524        -0.894102       -0.441381       0.00213663    -0.000636798
                     -0.00136999     0.000276527        -0.211777       -0.108217       0.00232696     0.000252279         0.659194       -0.713173
                        -0.89368       -0.440995       0.00229135     0.000286312       -0.0176809       0.0742008      -0.00135262    -0.000516843
                      0.00211116    -0.000663512         0.659247       -0.713263      -0.00136143     -0.00045274        -0.124448       -0.202558
254800                -0.0407696       0.0510445        -0.001446     0.000433963        -0.928468       -0.365856       0.00211344    -0.000802837
                      -0.0013499     0.000405858        -0.216703      -0.0984085       0.00234501     6.29163e-05         0.610626       -0.755119
                       -0.928026       -0.365492       0.00231315     0.000107266      -0.00491212       0.0646927      -0.00141776    -0.000418588
                      0.00208349    -0.000825417         0.610655       -0.755211      -0.00141575    -0.000354118        -0.141508       -0.191266
255000                 -0.034474        0.041785      -0.00142142     0.000570419         -0.95633       -0.287575       0.00207681    -0.000969899
                     -0.00131851     0.000532808        -0.221041      -0.0883055       0.00234707    -0.000126817         0.559356       -0.793839
                       -0.955877       -0.287241       0.00232073    -7.32198e-05        0.0057384       0.0535221      -0.00147531    -0.000310979
                      0.00204259    -0.000987735          0.55936       -0.793934      -0.00146191     -0.00024757        -0.157465       -0.178413
255200                -0.0296175       0.0320123      -0.00138382     0.000704579        -0.977456       -0.207126       0.00202628     -0.00113679
                     -0.00127613     0.000656406        -0.224769      -0.0779486       0.00233344    -0.000315573          0.50559        -0.82916
                       -0.977003       -0.206828       0.00231408    -0.000254139        0.0140717       0.0410374      -0.00152381    -0.000194619
                      0.00198806     -0.00114929         0.505568       -0.829254      -0.00149863    -0.000133899        -0.172169        -0.16411
255400                -0.0262365       0.0219027      -0.00133337     0.000835125        -0.991675       -0.125117       0.00196148     -0.00130222
                     -0.00122313     0.000775724        -0.227867      -0.0673806       0.00230448    -0.000502107         0.449546       -0.860917
                        -0.99123       -0.124858        0.0022932    -0.000434496         0.019941       0.0276104      -0.00156187    -7.03634e-05
                      0.00191966     -0.00130882         0.449497       -0.861011      -0.00152471    -1.41552e-05        -0.185479        -0.14848
255600                -0.0243459       0.0116344      -0.00127042     0.000960762        -0.998872      -0.0421719       0.00188219      -0.0014648
                     -0.00115997      0.00088988        -0.230321      -0.0566459       0.00226065     -0.00068528         0.391452       -0.888962
                       -0.998445      -0.0419515       0.00225813    -0.000613292        0.0232549       0.0136287      -0.00158817     6.06807e-05
                      0.00183724     -0.00146499         0.391374       -0.889053      -0.00153912     0.000110377        -0.197266       -0.131665
255800                -0.0239392      0.00138513      -0.00119547      0.00108024        -0.998995       0.0410809       0.00178833     -0.00162306
                     -0.00108718     0.000998048        -0.232118      -0.0457901       0.00220242    -0.000864058         0.331545       -0.913158
                       -0.998596       0.0412636       0.00220895    -0.000789516        0.0239791    -0.000511765      -0.00160156     0.000197164
                      0.00174084     -0.00161643         0.331439       -0.913245      -0.00154104     0.000238211        -0.207415       -0.113816
256000                -0.0249889     -0.00867092      -0.00110915      0.00119237        -0.992054        0.124011       0.00168003      -0.0017755
                     -0.00100535      0.00109946        -0.233247      -0.0348603       0.00213033     -0.00103751         0.270072       -0.933385
                       -0.991691        0.124159       0.00214576    -0.000962135        0.0221373      -0.0144153      -0.00160107     0.000337525
                      0.00163065     -0.00176172         0.269939       -0.933466      -0.00152991     0.000367707        -0.215827      -0.0950986
256200                -0.0274473      -0.0183653      -0.00101226      0.00129605        -0.978118        0.205995       0.00155758     -0.00192058
                    -0.000915128      0.00119342        -0.233704      -0.0239043       0.00204488     -0.00120481          0.20729       -0.949535
                       -0.977797        0.206114       0.00206874     -0.00113009        0.0178107      -0.0276951      -0.00158598     0.000480023
                      0.00150702     -0.00189944         0.207129       -0.949608      -0.00150549     0.000497128         -0.22242      -0.0756872
