! TOUCHSTONE file generated by CST MICROWAVE STUDIO
! Date and time: Sun Sep 28 19:09:14 2025
! Project name: biblioteca3_folgaOK.cst
! Parameters = {H=600; Lx=200; Ly=260; Nedge=20; P=520; mesh_pilar_nm=40; t_air=3800; t_sub=6000}
! Header version: 2018
! Port assignment regex: !\s*Touchstone port\s*([0-9]+)\s*=\s*(CST MWS port|CST DS port)\s*([0-9]+|Zmin|Zmax)\s*\(\"(.*)\"\)(\s*mode\s*([0-9]+))?.*
! Touchstone port assignment:
! Touchstone port 1 = CST MWS port Zmin ("") mode 1
! Touchstone port 2 = CST MWS port Zmin ("") mode 2
! Touchstone port 3 = CST MWS port Zmax ("") mode 1
! Touchstone port 4 = CST MWS port Zmax ("") mode 2
! S-Parameters are not renormalized. Each port impedance will be approximated by the real part at minimum frequency. The values are described via the [Reference] keyword.
! Default impedance is overridden by [Reference]
[Version] 2.0
# GHz S RI R 376.73
[Number of Ports] 4
[Reference]
376.73 376.73 376.73 376.73 
[Number of Frequencies] 401
[Network Data]
250000                  0.315883        0.218796      0.000591388     4.68084e-05         0.289897        0.876582       0.00159595     0.000736033
                     0.000726428     2.66188e-06         0.104801       0.0231137       0.00146875     0.000562835        -0.938587        0.327668
                         0.29012        0.876601       0.00137718      0.00066312         0.123237       -0.364003       0.00026188    -0.000133808
                      0.00141937      0.00071768        -0.938464        0.327566      0.000294018    -0.000170002       -0.0676263       0.0833404
250200                  0.339184        0.185861      0.000601458    -6.11544e-06         0.386802        0.837728       0.00162941     0.000583475
                     0.000688246    -0.000107618         0.102728       0.0257906       0.00153697     0.000437495        -0.899079        0.424296
                        0.386611        0.837736       0.00143939     0.000502934         0.079419       -0.378969      0.000220611    -9.04117e-05
                       0.0015053     0.000616754        -0.901265        0.422263      0.000258349    -0.000203003        -0.045825       0.0959246
250400                   0.35811        0.149998      0.000606536    -6.44371e-05         0.478824        0.788402       0.00165436     0.000426344
                     0.000632389     -0.00020451          0.10219       0.0288982       0.00159522     0.000299591        -0.849458        0.516306
                        0.478351        0.788494       0.00148566     0.000334942        0.0333309       -0.387504      0.000180139    -5.37203e-05
                      0.00158724     0.000500287        -0.853886        0.513265      0.000215073    -0.000233845       -0.0220838        0.104464
250600                  0.372248        0.111888      0.000604991    -0.000128145         0.564905          0.7292       0.00167004     0.000264874
                     0.000563665    -0.000285194         0.103218       0.0321144       0.00164121     0.000149613        -0.790277        0.602589
                        0.564275        0.729422       0.00151501     0.000160895       -0.0139306       -0.389253      0.000140757    -2.21392e-05
                      0.00166238     0.000367283        -0.796709        0.599346      0.000163661    -0.000260868        0.0028723        0.108666
250800                  0.381303        0.072275      0.000594855    -0.000196837         0.644057        0.660796       0.00167564       9.939e-05
                     0.000486955    -0.000348618         0.105786       0.0351259       0.00167259    -1.15372e-05        -0.722217        0.682114
                        0.643376         0.66116        0.0015267     -1.7348e-05       -0.0612267       -0.384069      0.000102489     5.65064e-06
                      0.00172737      0.00021724        -0.730282        0.679334      0.000103922    -0.000282035        0.0282787        0.108374
251000                  0.385107       0.0319374      0.000573856     -0.00026951         0.715354        0.583945       0.00167027    -6.96855e-05
                     0.000406626    -0.000395167         0.109814       0.0376362       0.00168694    -0.000182488        -0.646075        0.753935
                        0.714709        0.584435       0.00152025    -0.000197869        -0.107417       -0.372009      6.51927e-05     3.07553e-05
                      0.00177836     5.03719e-05        -0.655303        0.752136      3.61852e-05    -0.000294979        0.0533577        0.103571
251200                  0.383621     -0.00833174      0.000539564    -0.000344292          0.77794        0.499478       0.00165303    -0.000241807
                     0.000326209     -0.00042619         0.115178       0.0393728       0.00168196    -0.000361357        -0.562752        0.817212
                        0.777391         0.50006       0.00149545    -0.000378736        -0.151393       -0.353324      2.86284e-05     5.41305e-05
                      0.00181118    -0.000132164        -0.572607        0.816756     -3.85062e-05    -0.000297132        0.0773445       0.0943748
251400                  0.376934      -0.0477476      0.000489701     -0.00041818         0.831026          0.4083       0.00162296    -0.000416287
                     0.000248325    -0.000443557         0.121713       0.0400925       0.00165551    -0.000545726        -0.473238        0.871218
                         0.83061        0.408929       0.00145232    -0.000558051        -0.192113       -0.328445     -7.50207e-06     7.66418e-05
                      0.00182162    -0.000328068        -0.483139        0.872317     -0.000118229    -0.000285971        0.0995112       0.0810339
251600                  0.365255      -0.0855531      0.000422668    -0.000486863         0.873896        0.311389       0.00157906    -0.000592274
                     0.000174764    -0.000449312         0.129221       0.0395858       0.00160579    -0.000732653        -0.378594         0.91535
                        0.873629         0.31202       0.00139112    -0.000733989        -0.228623       -0.297967     -4.35306e-05     9.91223e-05
                      0.00180576    -0.000533796        -0.387928        0.918063      -0.00020011    -0.000259362         0.119188       0.0639141
251800                  0.348909       -0.121038      0.000338288    -0.000544813         0.905911        0.209801       0.00152035    -0.000768728
                     0.000106639     -0.00044544         0.137473       0.0376812       0.00153145    -0.000918711        -0.279937        0.949133
                        0.905789        0.210392        0.0013123    -0.000904838        -0.260079       -0.262629     -7.98041e-05     0.000122433
                      0.00176043    -0.000744593        -0.288054        0.953348     -0.000280409    -0.000215969         0.135782       0.0434855
252000                  0.328327       -0.153553      0.000238612    -0.000585838         0.926521        0.104665       0.00144584    -0.000944395
                     4.45549e-05    -0.000433738         0.146219       0.0342472       0.00143173     -0.00110008        -0.178419        0.972226
                        0.926525        0.105181       0.00121649     -0.00106902        -0.285767       -0.223296     -0.000116664     0.000147527
                      0.00168364    -0.000954707        -0.184634        0.977586     -0.000354821    -0.000155639         0.148789       0.0203059
252200                   0.30403       -0.182527      0.000128456    -0.000604196         0.935269     -0.00281463       0.00135462     -0.00111778
                    -1.12306e-05    -0.000415762         0.155195       0.0291943        0.0013066     -0.00127265       -0.0752188        0.984422
                        0.935372      -0.0023965       0.00110445     -0.00122515        -0.305116       -0.180938     -0.000154415     0.000175534
                      0.00157495      -0.0011578       -0.0788828        0.990137     -0.000418953    -7.96453e-05          0.15781     -0.00499702
252400                  0.276621       -0.207478      1.52486e-05    -0.000596103         0.931808       -0.111363       0.00124583     -0.00128714
                    -6.06847e-05    -0.000392823         0.164128       0.0224765       0.00115679     -0.00143221        0.0284843        0.985644
                        0.931975       -0.111053      0.000977041     -0.00137199        -0.317717       -0.136613     -0.000193269     0.000207854
                      0.00143561     -0.00134746        0.0275208        0.990281     -0.000468915     9.32775e-06         0.162554      -0.0317442
252600                  0.246769       -0.228022     -9.21084e-05    -0.000561081         0.915914       -0.219637        0.0011188     -0.00145045
                    -0.000103901    -0.000366005         0.172739       0.0140908      0.000983877     -0.00157461         0.131519        0.975947
                         0.91611       -0.219434      0.000835177     -0.00150854        -0.323331      -0.0914391     -0.000233233     0.000246288
                      0.00126851     -0.00151781         0.131976        0.978036     -0.000501852     0.000107469         0.162845      -0.0592244
252800                  0.215194       -0.243887     -0.000185095    -0.000502457         0.887498       -0.326235      0.000973035     -0.00160539
                    -0.000141031      -0.0003362         0.180757      0.00407742      0.000790255     -0.00169597         0.232738        0.955513
                        0.887692       -0.326127      0.000679776     -0.00163402        -0.321906      -0.0465731     -0.000273911     0.000293194
                      0.00107791     -0.00166401         0.232496        0.955402     -0.000516283     0.000210348         0.158623      -0.0867128
253000                   0.18265       -0.254914     -0.000257436    -0.000426657         0.846626       -0.429707      0.000808339     -0.00174938
                    -0.000172235    -0.000304152         0.187919      -0.0074821       0.00057906     -0.00179287         0.331033        0.924639
                        0.846793       -0.429672      0.000511718     -0.00174787        -0.313581     -0.00318063     -0.000314116     0.000351635
                     0.000869001     -0.00178259         0.329504        0.923993     -0.000512162     0.000313502         0.149944       -0.113489
253200                  0.149909       -0.261067     -0.000306161    -0.000341601         0.793533       -0.528571      0.000624874     -0.00187957
                    -0.000197653    -0.000270492         0.193978       -0.020467      0.000354058     -0.00186248         0.425342        0.883735
                        0.793655       -0.528583      0.000331782     -0.00184983        -0.298697       0.0375954     -0.000351189     0.000425451
                     0.000647316     -0.00187159         0.423188        0.883472      -0.00049068     0.000412937         0.136973       -0.138854
253400                  0.117739       -0.262436     -0.000331559    -0.000254947         0.728638       -0.621333      0.000423254      -0.0019929
                    -0.000217386    -0.000235784         0.198707        -0.03472      0.000119486     -0.00190274         0.514665        0.833316
                        0.728708       -0.621362      0.000140573     -0.00193989        -0.277794       0.0746698     -0.000379858     0.000518944
                     0.000418289     -0.00193046         0.512524        0.833532     -0.000453909     0.000505458         0.119983       -0.162147
253600                 0.0868882       -0.259233     -0.000336298    -0.000172867         0.652552        -0.70651      0.000204635     -0.00208616
                    -0.000231483    -0.000200563         0.201908      -0.0500516     -0.000120131     -0.00191241         0.598067         0.77399
                        0.652572       -0.706527     -6.15741e-05     -0.00201845        -0.251606        0.107052     -0.000390621     0.000635559
                     0.000186843     -0.00195985         0.596262        0.774501     -0.000404392     0.000588786        0.0993442        -0.18276
253800                 0.0580601       -0.251795     -0.000324296    -9.95687e-05         0.566094       -0.782662     -2.92052e-05     -0.00215606
                    -0.000239946    -0.000165371         0.203411       -0.066244     -0.000360175     -0.00189106         0.674689        0.706451
                        0.566075       -0.782641      -0.00027474     -0.00208632        -0.221049        0.133887     -0.000368381     0.000774385
                    -4.28421e-05     -0.00196125         0.673323        0.707048     -0.000344798     0.000661514        0.0755125       -0.200151
254000                 0.0318941       -0.240573     -0.000299753    -3.74202e-05         0.470287       -0.848418       -0.0002758     -0.00219944
                    -0.000242733    -0.000130804         0.203081      -0.0830561     -0.000596111      -0.0018391         0.743756        0.631467
                        0.470249       -0.848341     -0.000499649     -0.00214493        -0.187196        0.154486     -0.000294143     0.000923645
                    -0.000267417     -0.00193665         0.742813         0.63199     -0.000277669     0.000722952        0.0490222       -0.213856
254200                0.00894437       -0.226126     -0.000266546      1.2632e-05         0.366363       -0.902518     -0.000531954     -0.00221332
                    -0.000239785    -9.75515e-05         0.200822       -0.100229     -0.000823653     -0.00175767         0.804576        0.549876
                        0.366327       -0.902373     -0.000738043     -0.00219659        -0.151247        0.168372     -0.000154835      0.00105446
                     -0.00048433     -0.00188826         0.803984         0.55022     -0.000205279     0.000772941        0.0204702         -0.2235
254400                -0.0103397       -0.209101     -0.000227956     5.05839e-05         0.255746       -0.943843     -0.000793748     -0.00219516
                    -0.000231055    -6.64399e-05         0.196576       -0.117493      -0.00103888     -0.00164856         0.856551        0.462569
                        0.255738       -0.943627     -0.000993347     -0.00224494        -0.114489        0.175294      3.88854e-05      0.00112665
                    -0.000691719     -0.00181826         0.856219        0.462681     -0.000129585     0.000811672      -0.00949663       -0.228803
254600                -0.0256308       -0.190218     -0.000186622     7.69728e-05         0.140044       -0.971455      -0.00105659     -0.00214301
                    -0.000216568    -3.84763e-05         0.190325        -0.13457      -0.00123834     -0.00151405         0.899175        0.370487
                        0.140088       -0.971175      -0.00127194     -0.00229584       -0.0782477        0.175259      0.000245831       0.0011146
                    -0.000888252     -0.00172866         0.899009        0.370353     -5.22358e-05      0.00083954       -0.0401968       -0.229585
254800                -0.0367372       -0.170242     -0.000144611     9.25909e-05        0.0210163       -0.984631      -0.00131531     -0.00205575
                    -0.000196508    -1.48801e-05         0.182093       -0.151186      -0.00141906     -0.00135686         0.932038        0.274608
                       0.0211328       -0.984301      -0.00158578     -0.00235912       -0.0438357        0.168533      0.000418119       0.0010294
                     -0.00107297     -0.00162119         0.931956        0.274243      2.53796e-05     0.000857035       -0.0709297       -0.225776
255000                -0.0436114       -0.149963     -0.000103547     9.83059e-05       -0.0994526        -0.98289      -0.00156436     -0.00193318
                    -0.000171337     2.90818e-06         0.171944       -0.167068      -0.00157863     -0.00117993         0.954827         0.17594
                      -0.0992486       -0.982532      -0.00195835     -0.00245234       -0.0124963        0.155641      0.000532108     0.000907163
                     -0.00124511      -0.0014973         0.954764         0.17538      0.000102072     0.000864679        -0.100991       -0.217409
255200                -0.0463539       -0.130164     -6.47359e-05     9.49641e-05        -0.219395       -0.966021      -0.00179801      -0.0017762
                    -0.000141951     1.32661e-05         0.159979       -0.181961      -0.00171513    -0.000986432          0.96733       0.0755107
                       -0.219096        -0.96566      -0.00244036     -0.00261009        0.0146514        0.137351      0.000591759     0.000781177
                     -0.00140401     -0.00135817         0.967237       0.0748011       0.00017679     0.000862993        -0.129689       -0.204628
255400                -0.0452099       -0.111591     -2.92833e-05     8.33511e-05        -0.336801       -0.934099      -0.00201062     -0.00158687
                     -0.00010987     1.45121e-05         0.146337       -0.195621      -0.00182714    -0.000779586         0.969431      -0.0256385
                       -0.336409       -0.933763      -0.00316046     -0.00291063         0.036662        0.114643      0.000612933     0.000669349
                     -0.00154895     -0.00120478         0.969277       -0.026447      0.000248562     0.000852487        -0.156361       -0.187676
255600                -0.0405603      -0.0949238      1.80533e-06     6.41918e-05        -0.449674       -0.887493       -0.0021969     -0.00136835
                    -7.73979e-05     5.14865e-06          0.13119       -0.207833      -0.00191368    -0.000562656         0.961115       -0.126463
                       -0.449197       -0.887208      -0.00455275     -0.00357194        0.0528083       0.0886708      0.000610979     0.000577064
                     -0.00167913     -0.00103794         0.960884       -0.127321      0.000316455     0.000833677        -0.180386       -0.166899
255800                -0.0329058      -0.0807548      2.75462e-05     3.81773e-05        -0.556069       -0.826866      -0.00235223     -0.00112481
                    -4.77013e-05    -1.57504e-05         0.114739       -0.218403      -0.00197418    -0.000338894         0.942463       -0.225922
                       -0.555525       -0.826655      -0.00936952     -0.00532475        0.0626136       0.0607106      0.000596727     0.000503442
                     -0.00179355    -0.000858418         0.942155       -0.226785       0.00037955     0.000807109        -0.201202       -0.142733
256000                -0.0228462       -0.069561       4.6916e-05     6.01382e-06        -0.654154       -0.753159      -0.00247284     -0.00086127
                    -2.46777e-05      -4.804e-05        0.0972112       -0.227172      -0.00200847    -0.000111523         0.913656       -0.322987
                       -0.653566       -0.753041      0.000115531       0.0254093        0.0658732       0.0321066      0.000576811     0.000445499
                     -0.00189105    -0.000667009         0.913278       -0.323817      0.000436929     0.000773388        -0.218319       -0.115696
256200                -0.0110545      -0.0616902       5.8809e-05    -3.15097e-05        -0.742245       -0.667578      -0.00255599    -0.000583336
                    -1.25071e-05    -9.00181e-05        0.0788541       -0.234013      -0.00201672     0.000116255         0.874969       -0.416648
                       -0.741642       -0.667562       0.00228552      0.00414454        0.0626619      0.00421003      0.000554989     0.000400042
                     -0.00197027     -0.00046464         0.874537       -0.417417      0.000487689     0.000733213        -0.231327      -0.0863764
