! TOUCHSTONE file generated by CST MICROWAVE STUDIO
! Date and time: Fri Sep 26 07:22:01 2025
! Project name: biblioteca3_folgaOK.cst
! Parameters = {H=600; Lx=200; Ly=260; Nedge=34; P=520; k=0; mesh_pilar_nm=40; n=0; t_air=3500; t_sub=2000; wavelength_nm=0}
! Header version: 2018
! Port assignment regex: !\s*Touchstone port\s*([0-9]+)\s*=\s*(CST MWS port|CST DS port)\s*([0-9]+|Zmin|Zmax)\s*\(\"(.*)\"\)(\s*mode\s*([0-9]+))?.*
! Touchstone port assignment:
! Touchstone port 1 = CST MWS port Zmin ("") mode 1
! Touchstone port 2 = CST MWS port Zmin ("") mode 2
! Touchstone port 3 = CST MWS port Zmax ("") mode 1
! Touchstone port 4 = CST MWS port Zmax ("") mode 2
! S-Parameters are not renormalized. Each port impedance will be approximated by the real part at minimum frequency. The values are described via the [Reference] keyword.
! Default impedance is overridden by [Reference]
[Version] 2.0
# GHz S RI R 376.73
[Number of Ports] 4
[Reference]
376.73 376.73 376.73 376.73 
[Number of Frequencies] 401
[Network Data]
250000                 -0.304105       -0.127878      0.000252651     -0.00267665         0.654122       -0.680117     -0.000318269      0.00172331
                     0.000188908     -0.00267056      0.000895653       -0.180173     -0.000500318      0.00179751         0.767863        0.615059
                        0.654634       -0.680134     -0.000508883      0.00185009        -0.139525       -0.298945      0.000274524     -0.00233139
                    -0.000362156      0.00177778         0.767658         0.61458      0.000282057     -0.00227332         0.175633      -0.0401941
250200                 -0.305283       -0.106468      5.86704e-05     -0.00272484         0.599642       -0.731536     -0.000223764      0.00179075
                    -6.96816e-06     -0.00272707      -0.00660263       -0.183684     -0.000389463       0.0018824         0.805923        0.563219
                        0.601167       -0.731211     -0.000388119      0.00192244        -0.163154       -0.279386      0.000129454     -0.00236624
                    -0.000246573      0.00182592         0.805463        0.563132      0.000134322     -0.00233003          0.17483      -0.0567591
250400                 -0.304669      -0.0852189     -0.000143028     -0.00275888         0.541299       -0.778576     -0.000118163      0.00185376
                    -0.000210245     -0.00276718       -0.0144696       -0.186806     -0.000265422      0.00196108         0.840445        0.509059
                        0.543525       -0.778195     -0.000257284      0.00198815        -0.184317       -0.257612     -2.32368e-05     -0.00239473
                     -0.00012427      0.00186766         0.839846        0.509301     -2.16072e-05     -0.00237854          0.17241      -0.0734127
250600                 -0.302274      -0.0643029     -0.000351342     -0.00277764          0.47936       -0.820992     -1.30885e-06      0.00191067
                    -0.000419424     -0.00279014       -0.0226821       -0.189506     -0.000128362      0.00203145         0.871303        0.452816
                        0.482008       -0.820736     -0.000116512       0.0020459        -0.202754       -0.233936     -0.000183524     -0.00241593
                     4.53301e-06      0.00190214         0.870654        0.453317      -0.00018546     -0.00241778         0.168353      -0.0899898
250800                  -0.29813      -0.0438911        -0.000565     -0.00278005         0.414113       -0.858534       0.00012667      0.00195963
                    -0.000632943     -0.00279531        -0.031214       -0.191753      2.11643e-05      0.00209138         0.898383        0.394731
                        0.416947       -0.858498      3.38888e-05      0.00209429        -0.218247       -0.208709     -0.000351284     -0.00242886
                     0.000139524      0.00192853         0.897751        0.395425     -0.000356835     -0.00244661         0.162658       -0.106323
251000                 -0.292288      -0.0241533      -0.00078257     -0.00276518         0.345878       -0.890953      0.000265312      0.00199875
                    -0.000849197     -0.00278221       -0.0400363       -0.193517      0.000182197      0.00213875         0.921586        0.335054
                        0.348704       -0.891173      0.000193411      0.00213186        -0.230626       -0.182312     -0.000526272     -0.00243247
                     0.000280287      0.00194595         0.921017        0.335875     -0.000535184      -0.0024639         0.155341       -0.122243
251200                 -0.284814     -0.00525564      -0.00100247     -0.00273224         0.274998       -0.918008      0.000413787       0.0020261
                     -0.00106655     -0.00275052       -0.0491173       -0.194771      0.000353377       0.0021716         0.940827        0.274036
                        0.277668       -0.918473      0.000361327      0.00215717        -0.239776       -0.155149     -0.000708107     -0.00242565
                     0.000426296      0.00195353         0.940349        0.274923     -0.000719796     -0.00246847         0.146437       -0.137586
251400                 -0.275795       0.0126418        -0.001223     -0.00268059          0.20185       -0.939472      0.000570878      0.00203986
                     -0.00128335     -0.00270004       -0.0584229       -0.195489       0.00053298      0.00218819         0.956039        0.211932
                        0.204257       -0.940139      0.000536676      0.00216878        -0.245636       -0.127638     -0.000896241     -0.00240725
                     0.000576908      0.00195041         0.955665        0.212834     -0.000909787      -0.0024592         0.135998       -0.152186
251600                 -0.265335       0.0293869      -0.00144232     -0.00260979         0.126836       -0.955134      0.000734994      0.00203835
                     -0.00149794     -0.00263075       -0.0679166       -0.195648      0.000718977      0.00218708         0.967165        0.149003
                        0.128912       -0.955943      0.000718252      0.00216532        -0.248205       -0.100204      -0.00108994     -0.00237612
                     0.000731359      0.00193577         0.966897        0.149874      -0.00110409     -0.00243498         0.124093       -0.165889
251800                 -0.253554       0.0448377      -0.00165854     -0.00251961          0.05039       -0.964807      0.000904206       0.0020202
                     -0.00170865     -0.00254273       -0.0775598       -0.195228       0.00090911      0.00216719         0.974166       0.0855087
                        0.052103       -0.965691      0.000904606      0.00214552        -0.247541      -0.0732699      -0.00128826     -0.00233108
                     0.000888758      0.00190881         0.973997       0.0863128      -0.00130145     -0.00239477         0.110809       -0.178543
252000                 -0.240589       0.0588645      -0.00186968     -0.00241004        -0.027028       -0.968332       0.00107631      0.00198436
                     -0.00191384     -0.00243622        -0.087312       -0.194211       0.00110099      0.00212784          0.97702       0.0217136
                      -0.0256814       -0.969223       0.00109405      0.00210828        -0.243758      -0.0472458      -0.00149003     -0.00227101
                      0.00104809       0.0018688         0.976936       0.0224233      -0.00150041     -0.00233765        0.0962473       -0.190009
252200                 -0.226593       0.0713517      -0.00207377      -0.0022813        -0.104932       -0.965584       0.00124894      0.00193021
                     -0.00211188     -0.00231157       -0.0971312       -0.192585       0.00129218      0.00206875         0.975717      -0.0421185
                       -0.103931       -0.966419       0.00128468      0.00205269        -0.237031      -0.0225232      -0.00169383     -0.00219484
                      0.00120821      0.00181509         0.975702      -0.0415223      -0.00169934     -0.00226281        0.0805228       -0.200156
252400                 -0.211731       0.0822002      -0.00226882     -0.00213383        -0.182815       -0.956473       0.00141965      0.00185756
                     -0.00230114     -0.00216929        -0.106974       -0.190338       0.00148028      0.00199001         0.970265       -0.105723
                        -0.18212       -0.957202       0.00147441       0.0019781        -0.227583     0.000534494      -0.00189798     -0.00210164
                      0.00136785      0.00174714         0.970298       -0.105252      -0.00189644     -0.00216965        0.0637646       -0.208867
252600                 -0.196179       0.0913284      -0.00245287     -0.00196832        -0.260149       -0.940953       0.00158603      0.00176668
                     -0.00248006        -0.00201        -0.116795       -0.187462       0.00166301      0.00189205         0.960688       -0.168837
                       -0.259707        -0.94154         0.001661      0.00188415        -0.215689       0.0215993      -0.00210054     -0.00199061
                      0.00152566      0.00166452         0.960749       -0.168494      -0.00208974     -0.00205775        0.0461135       -0.216036
252800                 -0.180124       0.0986743      -0.00262407     -0.00178568         -0.33639       -0.919023       0.00174581       0.0016582
                     -0.00264709     -0.00183446         -0.12655       -0.183954       0.00183824      0.00177558         0.947024       -0.231199
                       -0.336144       -0.919446        0.0018421      0.00177078        -0.201665       0.0403855       -0.0022993      -0.0018612
                      0.00168016      0.00156696         0.947095       -0.230981      -0.00227716     -0.00192695        0.0277206       -0.221575
253000                  -0.16376        0.104197      -0.00278063     -0.00158704        -0.410986       -0.890731       0.00189696      0.00153311
                     -0.00280073     -0.00164356        -0.136192       -0.179812       0.00200401      0.00164153         0.929329       -0.292548
                       -0.410874       -0.890984       0.00201535       0.0016383        -0.185863       0.0566551      -0.00249184     -0.00171311
                       0.0018298      0.00145432         0.929392       -0.292449      -0.00245652     -0.00177735       0.00874578       -0.225408
253200                 -0.147287        0.107877      -0.00292091     -0.00137372         -0.48338       -0.856178       0.00203771      0.00139263
                     -0.00293953     -0.00143832        -0.145674        -0.17504       0.00215856      0.00149099         0.907674       -0.352629
                       -0.483342       -0.856268       0.00217838      0.00148735        -0.168663       0.0702225       -0.0026755     -0.00154637
                      0.00197296      0.00132667         0.907715       -0.352638       -0.0026256     -0.00160935       -0.0106438       -0.227477
253400                 -0.130905        0.109717      -0.00304341     -0.00114723        -0.553013       -0.815518        0.0021666      0.00123815
                     -0.00306212      -0.0012199        -0.154951       -0.169644       0.00230033      0.00132521         0.882145       -0.411191
                       -0.552998       -0.815464       0.00232892      0.00131892         -0.15047       0.0809586      -0.00284751      -0.0013614
                        0.002108      0.00118424         0.882152       -0.411292      -0.00278216     -0.00142368       -0.0302756       -0.227741
253600                 -0.114816        0.109744      -0.00314681    -0.000909215        -0.619336        -0.76896       0.00228245      0.00107113
                      -0.0031672    -0.000989588        -0.163975       -0.163635        0.0024279      0.00114549         0.852844       -0.467988
                         -0.6193       -0.768791       0.00246483      0.00113433        -0.131696       0.0887926      -0.00300498       -0.001159
                      0.00223325      0.00102747          0.85281       -0.468165      -0.00292403     -0.00122136       -0.0499729       -0.226176
253800                -0.0992178        0.108008      -0.00322996    -0.000661475        -0.681813       -0.716768       0.00238435     0.000893007
                     -0.00325354    -0.000748818        -0.172701       -0.157025       0.00254002     0.000953215         0.819888       -0.522779
                       -0.681721       -0.716521       0.00258419     0.000935194        -0.112761       0.0937132      -0.00314504    -0.000940431
                      0.00234705     0.000857018          0.81981       -0.523016      -0.00304915     -0.00100375       -0.0695572       -0.222775
254000                -0.0843027        0.104581      -0.00329192    -0.000405901        -0.739927       -0.659262       0.00247162     0.000705179
                     -0.00332004    -0.000499145        -0.181084       -0.149833       0.00263557     0.000749836         0.783409       -0.575332
                       -0.739758       -0.658977       0.00268531     0.000723373       -0.0940793       0.0957691       -0.0032649    -0.000707374
                      0.00244779     0.000673734         0.783285       -0.575611       -0.0031556    -0.000772492       -0.0888494       -0.217548
254200                -0.0702536       0.0995576      -0.00333194    -0.000144467         -0.79319       -0.596814        0.0025437     0.000508938
                     -0.00336572    -0.000242254         -0.18908       -0.142079       0.00271352     0.000536852         0.743555       -0.625422
                       -0.792933       -0.596532       0.00276679     0.000500941       -0.0760513       0.0950669      -0.00336196    -0.000461942
                      0.00253393      0.00047868         0.743387       -0.625729       -0.0032417    -0.000529506        -0.107672       -0.210526
254400                 -0.057242       0.0930539      -0.00334948     0.000120797        -0.841146       -0.529848       0.00260014     0.000305479
                     -0.00338971     2.00469e-05        -0.196646       -0.133787       0.00277296     0.000315835         0.700485       -0.672835
                       -0.840803       -0.529608       0.00282751     0.000270117        -0.059057       0.0917689      -0.00343394     -0.00020663
                      0.00260402     0.000273113         0.700278       -0.673153      -0.00330601     -0.00027695        -0.125849       -0.201755
254600                -0.0454249       0.0852055      -0.00334421      0.00038783        -0.883379       -0.458834       0.00264054     9.59006e-05
                     -0.00339133     0.000285837        -0.203741       -0.124985       0.00281308      8.8431e-05         0.654372       -0.717365
                        -0.88296       -0.458672        0.0028667     3.32126e-05       -0.0434469       0.0860896      -0.00347895     5.57491e-05
                      0.00265675     5.84746e-05         0.654135       -0.717682      -0.00334738    -1.71693e-05        -0.143212       -0.191298
254800                -0.0349425       0.0761659      -0.00331598     0.000654558         -0.91952       -0.384286       0.00266447    -0.000118762
                     -0.00337004     0.000553095        -0.210325       -0.115705       0.00283318    -0.000143623         0.605406       -0.758817
                       -0.919044        -0.38423       0.00288389    -0.000207421       -0.0295352       0.0782903       -0.0034956      0.00032214
                      0.00269095    -0.000163625         0.605145       -0.759123      -0.00336497      0.00024735        -0.159597       -0.179236
255000                -0.0259159       0.0661046      -0.00326486     0.000918919        -0.949248       -0.306756       0.00267145    -0.000337498
                     -0.00332553     0.000819714        -0.216362        -0.10598        0.0028327    -0.000378495         0.553783       -0.797008
                       -0.948741       -0.306825        0.0028789    -0.000449445       -0.0175933       0.0686738      -0.00348305     0.000589346
                      0.00270564    -0.000391429         0.553509       -0.797294      -0.00335831     0.000514039        -0.174849       -0.165666
255200                -0.0184452       0.0552042      -0.00319109      0.00117887        -0.972298       -0.226826       0.00266094    -0.000559267
                     -0.00325765      0.00108352        -0.221816      -0.0958481        0.0028112    -0.000614251         0.499716       -0.831767
                       -0.971789       -0.227034       0.00285184    -0.000690572      -0.00784449       0.0575777      -0.00344107     0.000854131
                      0.00270001    -0.000623055         0.499438       -0.832028      -0.00332724     0.000780296         -0.18882       -0.150699
255400                -0.0126076       0.0436577      -0.00309509      0.00143243        -0.988466       -0.145107       0.00263235     -0.00078295
                     -0.00316651       0.0013423        -0.226655      -0.0853491       0.00276846    -0.000848865         0.443426       -0.862937
                       -0.987986       -0.145456       0.00280308    -0.000928609        -0.000459       0.0453661      -0.00337004      0.00111332
                      0.00267348    -0.000856523         0.443155       -0.863169      -0.00327193      0.00104355        -0.201378       -0.134462
255600               -0.00845678       0.0316659      -0.00297744      0.00167763        -0.997607      -0.0622254       0.00258505     -0.00100729
                     -0.00305243      0.00159381        -0.230849       -0.074526       0.00270443     -0.00108023         0.385144       -0.890373
                       -0.997186      -0.0627103       0.00273322     -0.00116148        0.0044488       0.0324228      -0.00327096      0.00136391
                      0.00262568     -0.00108978         0.384889       -0.890576      -0.00319288      0.00130129        -0.212399       -0.117096
255800               -0.00602139       0.0194339       -0.0028389       0.0019126        -0.999638       0.0211792       0.00251839     -0.00123084
                     -0.00291595      0.00183583        -0.234373      -0.0634245       0.00261932     -0.00130619         0.325112       -0.913946
                       -0.999306       0.0205718       0.00264303     -0.00138724       0.00682275       0.0191416      -0.00314536      0.00160312
                      0.00255645     -0.00132074         0.324881       -0.914121      -0.00309086      0.00155115        -0.221775      -0.0987516
256000               -0.00530525      0.00716799      -0.00268037      0.00213553        -0.994529        0.104461        0.0024318     -0.00145196
                      -0.0027579      0.00206616        -0.237202      -0.0520925       0.00251359     -0.00152456         0.263578       -0.933541
                       -0.994322        0.103753       0.00253346      -0.0016041        0.0066656      0.00591826      -0.00299526      0.00182852
                      0.00246588     -0.00154728         0.263379       -0.933691      -0.00296693      0.00179087        -0.229413      -0.0795923
256200               -0.00628721     -0.00492737      -0.00250291      0.00234469        -0.982363        0.186984        0.0023248     -0.00166874
                      -0.0025793      0.00228268        -0.239317      -0.0405802       0.00238797     -0.00173318         0.200801       -0.949058
                       -0.982277        0.186199       0.00240559     -0.00181041       0.00403845     -0.00685851      -0.00282304      0.00203801
                      0.00235427     -0.00176732         0.200639       -0.949188      -0.00282233      0.00201842        -0.235236      -0.0597904
