! TOUCHSTONE file generated by CST MICROWAVE STUDIO
! Date and time: Fri Sep 26 06:38:30 2025
! Project name: biblioteca3_folgaOK.cst
! Parameters = {H=600; Lx=200; Ly=260; Nedge=16; P=520; k=0; mesh_pilar_nm=40; n=0; t_air=3500; t_sub=2000; wavelength_nm=0}
! Header version: 2018
! Port assignment regex: !\s*Touchstone port\s*([0-9]+)\s*=\s*(CST MWS port|CST DS port)\s*([0-9]+|Zmin|Zmax)\s*\(\"(.*)\"\)(\s*mode\s*([0-9]+))?.*
! Touchstone port assignment:
! Touchstone port 1 = CST MWS port Zmin ("") mode 1
! Touchstone port 2 = CST MWS port Zmin ("") mode 2
! Touchstone port 3 = CST MWS port Zmax ("") mode 1
! Touchstone port 4 = CST MWS port Zmax ("") mode 2
! S-Parameters are not renormalized. Each port impedance will be approximated by the real part at minimum frequency. The values are described via the [Reference] keyword.
! Default impedance is overridden by [Reference]
[Version] 2.0
# GHz S RI R 376.73
[Number of Ports] 4
[Reference]
376.73 376.73 376.73 376.73 
[Number of Frequencies] 401
[Network Data]
250000                  0.219086        0.236949       0.00118498      0.00050739        -0.882706        0.341872      5.42221e-05    -0.000864181
                     0.000943494     0.000275849        -0.064148         0.18862      0.000890053    -0.000826883        -0.437259       -0.877003
                       -0.882732         0.34125       0.00104964    -0.000930829      -0.00273879        0.322688      -0.00128021    -0.000765978
                     4.40796e-05     -0.00092019        -0.437059       -0.876469      -0.00134492    -0.000810503        -0.189227      -0.0622777
250200                  0.227801        0.218237       0.00119136     0.000428062        -0.855307         0.41254     -3.67663e-05    -0.000951209
                     0.000955826     0.000198337       -0.0565539          0.1942       0.00082867    -0.000880258        -0.494441       -0.845142
                       -0.855499        0.411599      0.000979234    -0.000952228          0.02691        0.315959      -0.00132196    -0.000670212
                    -1.66533e-05    -0.000930955        -0.494504       -0.845111      -0.00151093    -0.000802249        -0.196614      -0.0460681
250400                  0.234832        0.199139       0.00119333     0.000346918        -0.821996        0.481293     -0.000153737      -0.0010107
                     0.000962086     0.000119338       -0.0485165        0.199396      0.000763094    -0.000928977        -0.549425       -0.809563
                       -0.822399        0.480132      0.000908442    -0.000971531        0.0557207        0.305938      -0.00135653     -0.00057168
                    -8.06178e-05    -0.000937902        -0.549748       -0.809897      -0.00173231    -0.000733067        -0.202576      -0.0289932
250600                  0.240148        0.179819       0.00119057       0.0002642         -0.78289        0.547607     -0.000283023     -0.00103705
                     0.000962069     3.93913e-05       -0.0400596        0.204169      0.000693816    -0.000972587        -0.601959       -0.770409
                       -0.783528        0.546321      0.000837293      -0.0009887        0.0832309        0.292695       -0.0013837    -0.000471108
                    -0.000147675    -0.000940496        -0.602528       -0.770989      -0.00197586    -0.000540854        -0.207002      -0.0111841
250800                  0.243735        0.160442       0.00118281     0.000180189        -0.738157        0.610964     -0.000411989     -0.00103194
                     0.000955628    -4.09345e-05       -0.0312101        0.208485      0.000621391      -0.0010107        -0.651806       -0.727843
                        -0.73903        0.609641      0.000765815      -0.0010037         0.108979        0.276376      -0.00140336    -0.000369233
                    -0.000217611    -0.000938171        -0.652591       -0.728569      -0.00213249    -0.000200535        -0.209795      0.00721315
251000                  0.245598        0.141179       0.00116978     9.52062e-05        -0.688009        0.670855     -0.000532158     -0.00100136
                     0.000942678    -0.000121054       -0.0219982        0.212312      0.000546425     -0.00104303        -0.698737       -0.682043
                       -0.689101        0.669573      0.000694037     -0.00101647         0.132521        0.257207      -0.00141551    -0.000266789
                     -0.00029013    -0.000930343        -0.699702       -0.682834      -0.00209724     0.000183241        -0.210872       0.0260387
251200                  0.245759        0.122198       0.00115122     9.61111e-06         -0.63271        0.726786     -0.000639472    -0.000952285
                     0.000923198    -0.000200373        -0.012457        0.215618      0.000469557     -0.00106935        -0.742537       -0.633204
                        -0.63399        0.725613      0.000621986     -0.00102698         0.153442        0.235492      -0.00142022     -0.00016449
                    -0.000364836    -0.000916418        -0.743638       -0.633996      -0.00191425     0.000464065        -0.210168       0.0451212
251400                  0.244258        0.103668       0.00112689    -7.61945e-05         -0.57257        0.778283     -0.000733025    -0.000890721
                     0.000897228    -0.000278294      -0.00262216        0.218377      0.000391445     -0.00108954        -0.783001       -0.581537
                       -0.573996         0.77727      0.000549695     -0.00103516         0.171378        0.211606      -0.00141766    -6.30171e-05
                    -0.000441231    -0.000895809        -0.784197       -0.582281      -0.00170197     0.000612809        -0.207638       0.0642795
251600                  0.241155       0.0857528       0.00109658    -0.000161769        -0.507945        0.824896      -0.00081362    -0.000821097
                     0.000864875    -0.000354226       0.00746818        0.220563      0.000312749      -0.0011036        -0.819944       -0.527264
                       -0.509467        0.824079      0.000477193     -0.00104096         0.186024        0.185987      -0.00140809     3.69978e-05
                    -0.000518698     -0.00086795         -0.82119       -0.527927      -0.00152337        0.000678        -0.203255       0.0833256
251800                  0.236527        0.068609       0.00106013    -0.000246631        -0.439236        0.866204     -0.000882727    -0.000746348
                     0.000826304    -0.000427595        0.0177737        0.222154      0.000234114     -0.00111157        -0.853191       -0.470624
                       -0.440801        0.865603      0.000404516     -0.00104429          0.19715        0.159123      -0.00139183     0.000134978
                    -0.000596502     -0.00083232        -0.854447       -0.471184      -0.00138761     0.000705082        -0.197016        0.102067
252000                   0.23047        0.052386       0.00101741    -0.000330261        -0.366885        0.901817       -0.0009419    -0.000668266
                     0.000781741    -0.000497847        0.0282523        0.223132      0.000156157     -0.00111363        -0.882587       -0.411863
                       -0.368441        0.901439        0.0003317     -0.00104508         0.204607         0.13154      -0.00136924     0.000230414
                    -0.000673784    -0.000788467        -0.883815       -0.412312      -0.00128582     0.000718776        -0.188938        0.120308
252200                  0.223093       0.0372223      0.000968334    -0.000412109        -0.291374        0.931386     -0.000992497    -0.000587858
                     0.000731462    -0.000564459        0.0388603        0.223482      7.94516e-05        -0.00111        -0.907993        -0.35124
                       -0.292873        0.931224      0.000258788     -0.00104324         0.208338        0.103784      -0.00134074     0.000322863
                    -0.000749564    -0.000736033        -0.909161       -0.351577      -0.00120761     0.000730124        -0.179061        0.137856
252400                  0.214525       0.0232435      0.000912874    -0.000491591        -0.213223        0.954601      -0.00103559    -0.000505633
                     0.000675795    -0.000626939        0.0495528        0.223193      4.51707e-06     -0.00110099        -0.929288       -0.289024
                        -0.21462        0.954636       0.00018583     -0.00103864         0.208373       0.0764031      -0.00130678     0.000411959
                    -0.000822752    -0.000674786        -0.930368       -0.289256      -0.00114499     0.000743506        -0.167446         0.15452
252600                  0.204906       0.0105606      0.000851066    -0.000568103        -0.132982        0.971201      -0.00107196    -0.000421798
                     0.000615109    -0.000684838        0.0602841        0.222257     -6.81871e-05     -0.00108694        -0.946367       -0.225491
                       -0.134242        0.971406      0.000112885     -0.00103117         0.204833       0.0499326      -0.00126782     0.000497406
                    -0.000892162    -0.000604644        -0.947341       -0.225628      -0.00109242     0.000760367        -0.154179        0.170116
252800                  0.194389     -0.00073165      0.000783011     -0.00064102       -0.0512318        0.980974      -0.00110213    -0.000336395
                     0.000549812    -0.000737746        0.0710077         0.22067     -0.000138269     -0.00106827        -0.959147       -0.160923
                      -0.0523286        0.981313      4.00282e-05     -0.00102067         0.197926       0.0248783      -0.00122432     0.000578983
                    -0.000956536    -0.000525709        -0.959999       -0.160981      -0.00104615     0.000780922        -0.139362        0.184471
253000                  0.183137      -0.0105567      0.000708881    -0.000709713         0.031425         0.98376      -0.00112637    -0.000249388
                     0.000480341    -0.000785301        0.0816772         0.21843     -0.000205405      -0.0010454        -0.967561      -0.0956077
                       0.0305076        0.984195      -3.2645e-05     -0.00100697         0.187932      0.00170256      -0.00117675     0.000656535
                     -0.00101458    -0.000438281        -0.968284      -0.0956045      -0.00100364     0.000804902        -0.123121         0.19742
253200                  0.171322      -0.0188571      0.000628928    -0.000773548         0.114366        0.979457      -0.00114479    -0.000160727
                     0.000407157    -0.000827187         0.092246        0.215543     -0.000269344     -0.00101878        -0.971564      -0.0298374
                        0.113634        0.979948     -0.000105008     -0.00098987         0.175201      -0.0191877      -0.00112555     0.000729972
                     -0.00106498    -0.000342883        -0.972154      -0.0297904     -0.000963109     0.000831865        -0.105596        0.208813
253400                  0.159119      -0.0255954      0.000543479    -0.000831904         0.196957         0.96802      -0.00115732    -7.03768e-05
                     0.000330742    -0.000863135         0.102668        0.212014     -0.000329903    -0.000988876        -0.971128       0.0360933
                        0.196407        0.968529     -0.000176891    -0.000969129         0.160138      -0.0374503      -0.00107115     0.000799262
                     -0.00110649    -0.000240264        -0.971588       0.0361668     -0.000923287     0.000861333        -0.086946        0.218517
253600                  0.146708       -0.030755      0.000452944    -0.000884181         0.278555        0.949468      -0.00116378     2.16441e-05
                     0.000251589    -0.000892922         0.112898        0.207853     -0.000386963    -0.000956135        -0.966246        0.101888
                        0.278175        0.949958     -0.000248063    -0.000944482          0.14319      -0.0528143      -0.00101394     0.000864424
                     -0.00113794      -0.0001314        -0.966583        0.101972     -0.000883256     0.000892839       -0.0673436        0.226415
253800                  0.134268      -0.0343405      0.000357815     -0.00092981         0.358519        0.923876      -0.00116388      0.00011525
                     0.000170197    -0.000916374         0.122891        0.203076     -0.000440468    -0.000921007        -0.956931        0.167251
                        0.358289        0.924318     -0.000318203     -0.00091563         0.124832      -0.0650841     -0.000954273     0.000925523
                     -0.00115829    -1.74782e-05        -0.957153        0.167332     -0.000842321     0.000925941       -0.0469734        0.232408
254000                  0.121978      -0.0363772      0.000258662    -0.000968266          0.43621        0.891387      -0.00115726     0.000210267
                       8.707e-05    -0.000933357         0.132604        0.197699     -0.000490418     -0.00088392        -0.943213        0.231886
                        0.436106        0.891755     -0.000386872    -0.000882259         0.105557      -0.0741411     -0.000892467      0.00098266
                     -0.00116668     0.000100127        -0.943333        0.231952      -0.00079995     0.000960231       -0.0260304         0.23642
254200                   0.11001      -0.0369111      0.000156132     -0.00099908         0.511005        0.852201       -0.0011435     0.000306422
                     2.70995e-06    -0.000943782         0.141995        0.191743     -0.000536865     -0.00084528        -0.925144        0.295499
                        0.510998         0.85248     -0.000453464    -0.000844062        0.0858615      -0.0799432     -0.000828791      0.00103597
                     -0.00116248     0.000219891        -0.925175        0.295543     -0.000755719     0.000995326      -0.00471712        0.238392
254400                 0.0985294      -0.0360078      5.09452e-05     -0.00102185         0.582298        0.806582      -0.00112212     0.000403327
                    -8.23867e-05    -0.000947597         0.151024        0.185232     -0.000579905    -0.000805465        -0.902794        0.357803
                        0.582357        0.806762     -0.000517163    -0.000800797        0.0662335      -0.0825223     -0.000763469       0.0010856
                      -0.0011453     0.000340184         -0.90275        0.357818     -0.000709291      0.00103086        0.0167582        0.238289
254600                 0.0876908      -0.0337517     -5.61128e-05     -0.00103624         0.649508        0.754851      -0.00109268     0.000500472
                    -0.000167731     -0.00094479         0.159653        0.178192     -0.000619678    -0.000764823        -0.876252         0.41851
                        0.649604         0.75493     -0.000576896    -0.000752384        0.0471446      -0.0819808     -0.000696672      0.00113172
                     -0.00111501     0.000459319        -0.876147        0.418494     -0.000660387      0.00106649        0.0381842        0.236098
254800                 0.0776378      -0.0302443     -0.000164195     -0.00104201         0.712085        0.697387      -0.00105471     0.000597217
                    -0.000252844    -0.000935379         0.167847        0.170652     -0.000656355    -0.000723667        -0.845624        0.477342
                         0.71219        0.697369     -0.000631324    -0.000699054        0.0290384      -0.0784863     -0.000628522      0.00117452
                     -0.00107176     0.000575613        -0.845473        0.477295     -0.000608775      0.00110187        0.0593488        0.231826
255000                 0.0684995      -0.0256023     -0.000272402       -0.001039         0.769519        0.634618      -0.00100781     0.000692786
                    -0.000337258    -0.000919416          0.17557        0.162646     -0.000690143    -0.000682279        -0.811037        0.534026
                        0.769608        0.634515     -0.000678911    -0.000641564        0.0123234      -0.0722656     -0.000559088      0.00121416
                     -0.00101595     0.000687431        -0.810853        0.533949     -0.000554263      0.00113666        0.0800413        0.225505
255200                 0.0603894      -0.0199561     -0.000379786     -0.00102715         0.821341        0.567025     -0.000951633     0.000786271
                    -0.000420519    -0.000896979         0.182793        0.154207     -0.000721273    -0.000640899        -0.772634        0.588297
                        0.821394        0.566853     -0.000718146    -0.000581421      -0.00263419      -0.0635986     -0.000488386      0.00125082
                    -0.000948233     0.000793238        -0.772427        0.588194     -0.000496689      0.00117052         0.100054        0.217186
255400                 0.0534032      -0.0134472     -0.000485357     -0.00100648         0.867131        0.495129     -0.000885959     0.000876634
                    -0.000502187    -0.000868173         0.189487        0.145371     -0.000750004    -0.000599734        -0.730575        0.639899
                        0.867133        0.494907     -0.000747974    -0.000521028       -0.0155166      -0.0528104     -0.000416379      0.00128465
                    -0.000869454     0.000891637        -0.730356        0.639776     -0.000435918      0.00120312         0.119187        0.206943
255600                 0.0476189     -0.00622593     -0.000588089    -0.000977126          0.90652        0.419493     -0.000810694     0.000962727
                    -0.000581834    -0.000833127         0.195626        0.136178     -0.000776615    -0.000558948        -0.685038        0.688587
                        0.906463        0.419241     -0.000768396     -0.00046352       -0.0260591      -0.0402645     -0.000342978      0.00131579
                    -0.000780642     0.000981403        -0.684813        0.688449     -0.000371842      0.00123411         0.137245        0.194869
255800                 0.0430947      0.00155082     -0.000686914    -0.000939273         0.939198        0.340711     -0.000725917      0.00104331
                    -0.000659046    -0.000791991         0.201188        0.126668     -0.000801407    -0.000518664        -0.636217        0.734126
                        0.939079         0.34045     -0.000781003    -0.000412149       -0.0340541       -0.026354     -0.000268042      0.00134432
                    -0.000682958       0.0010615        -0.635992         0.73398     -0.000304375      0.00126311         0.154046        0.181078
256000                 0.0398697      0.00972236     -0.000780726    -0.000893179         0.964911        0.259401     -0.000631905      0.00111707
                    -0.000733425    -0.000744935         0.206152        0.116882       -0.0008247    -0.000478959         -0.58432        0.776293
                        0.964732        0.259152     -0.000789024    -0.000369263       -0.0393543      -0.0114942      -0.00019138       0.0013703
                    -0.000577651      0.00113108        -0.584099        0.776146     -0.000233459      0.00128978         0.169417        0.165702
256200                  0.037963       0.0181266     -0.000868372    -0.000839126         0.983468        0.176205     -0.000529161      0.00118268
                    -0.000804584    -0.000692146         0.210503        0.106865     -0.000846829    -0.000439862        -0.529572        0.814879
                        0.983238        0.175985     -0.000796607     -0.00033537        -0.041874      0.00388641     -0.000112759      0.00139371
                    -0.000466025       0.0011895        -0.529357        0.814736     -0.000159057      0.00131371           0.1832        0.148891
