! TOUCHSTONE file generated by CST MICROWAVE STUDIO
! Date and time: Sun Sep 28 19:09:12 2025
! Project name: biblioteca3_folgaOK.cst
! Parameters = {H=600; Lx=200; Ly=260; Nedge=14; P=520; mesh_pilar_nm=40; t_air=3800; t_sub=6000}
! Header version: 2018
! Port assignment regex: !\s*Touchstone port\s*([0-9]+)\s*=\s*(CST MWS port|CST DS port)\s*([0-9]+|Zmin|Zmax)\s*\(\"(.*)\"\)(\s*mode\s*([0-9]+))?.*
! Touchstone port assignment:
! Touchstone port 1 = CST MWS port Zmin ("") mode 1
! Touchstone port 2 = CST MWS port Zmin ("") mode 2
! Touchstone port 3 = CST MWS port Zmax ("") mode 1
! Touchstone port 4 = CST MWS port Zmax ("") mode 2
! S-Parameters are not renormalized. Each port impedance will be approximated by the real part at minimum frequency. The values are described via the [Reference] keyword.
! Default impedance is overridden by [Reference]
[Version] 2.0
# GHz S RI R 376.73
[Number of Ports] 4
[Reference]
376.73 376.73 376.73 376.73 
[Number of Frequencies] 401
[Network Data]
250000                  0.315883        0.218796       0.00059139     4.68053e-05         0.289898        0.876582       0.00159596     0.000736028
                     0.000726426     2.66724e-06         0.104801       0.0231137       0.00146875     0.000562827        -0.938587        0.327668
                         0.29012        0.876601       0.00137717     0.000663116         0.123237       -0.364003      0.000261877    -0.000133818
                      0.00141938     0.000717681        -0.938464        0.327566      0.000294014    -0.000170002       -0.0676263       0.0833404
250200                  0.339162        0.185748      0.000601433    -4.30137e-06         0.386714        0.837635       0.00162679     0.000583698
                      0.00068018    -0.000106333         0.102895       0.0257196       0.00152561     0.000436429        -0.899075        0.424278
                        0.386871        0.837644       0.00141376     0.000509842        0.0798844       -0.377709      0.000203297    -0.000150891
                      0.00150744     0.000619862        -0.899874        0.424211      0.000250776    -0.000187371       -0.0458981       0.0959282
250400                  0.358043        0.149816      0.000606915    -6.09238e-05         0.478661         0.78827       0.00164972     0.000426949
                     0.000619492    -0.000199871          0.10244       0.0287399       0.00157414     0.000299725        -0.849456        0.516276
                        0.478762        0.788294       0.00144029     0.000351218        0.0344898       -0.385523      0.000141956    -0.000156443
                      0.00159182     0.000505482        -0.850884        0.516411      0.000203469    -0.000202533        -0.022203         0.10449
250600                  0.372129        0.111679      0.000606211    -0.000123177         0.564689        0.729065       0.00166395     0.000265955
                     0.000549009    -0.000276709         0.103483       0.0318778       0.00161252     0.000152794        -0.790279        0.602554
                         0.56475        0.729121       0.00145583     0.000187791       -0.0120497       -0.387047      8.08568e-05    -0.000150452
                      0.00166944     0.000373498        -0.792064        0.602967      0.000151828    -0.000214703       0.00273272        0.108723
250800                  0.381139       0.0720718      0.000597309    -0.000190809          0.64381        0.660682       0.00166864     0.000100981
                     0.000472938    -0.000336912          0.10602       0.0348349       0.00163871    -4.00419e-06        -0.722223        0.682077
                        0.643848        0.660779       0.00145946     2.02373e-05       -0.0587504       -0.382038      2.26411e-05    -0.000133876
                      0.00173668     0.000223439        -0.724134        0.682774      9.56729e-05    -0.000222911        0.0281404         0.10846
251000                  0.384911       0.0317639      0.000577831    -0.000262973         0.715099        0.583865       0.00166285    -6.76063e-05
                     0.000394776    -0.000381449         0.109993       0.0373208       0.00165054    -0.000169946        -0.646085          0.7539
                        0.715133        0.584004       0.00145028     -0.00015063        -0.104571       -0.370425     -3.07413e-05     -0.00010835
                      0.00178939       5.565e-05        -0.647937        0.754833       3.4973e-05    -0.000225977        0.0532365        0.103678
251200                  0.383412     -0.00846246      0.000545155    -0.000337934         0.777696        0.499435       0.00164563    -0.000239313
                     0.000317237     -0.00041182         0.115293       0.0390622        0.0016457    -0.000343867        -0.562765        0.817181
                        0.777741        0.499612       0.00142742    -0.000323855        -0.148446       -0.352321     -7.81548e-05    -7.57933e-05
                      0.00182318    -0.000128476        -0.564429         0.81827     -3.00678e-05    -0.000222505        0.0772497       0.0944929
251400                   0.37673      -0.0478319      0.000496725    -0.000412747         0.830807        0.408289       0.00161594    -0.000413497
                     0.000242303    -0.000429754         0.121769       0.0398105       0.00162187     -0.00052408        -0.473252        0.871192
                        0.830876        0.408496       0.00139008    -0.000498335        -0.189321       -0.328031     -0.000119217    -3.80691e-05
                      0.00183367     -0.00032632         -0.47465         0.87234     -9.88993e-05    -0.000210899        0.0994458       0.0811513
251600                  0.365072      -0.0855951      0.000430605    -0.000483025         0.873712        0.311404       0.00157275    -0.000589343
                     0.000171339    -0.000437004         0.129229       0.0393488       0.00157682     -0.00070831        -0.378608         0.91533
                        0.873812        0.311628       0.00133752    -0.000672821        -0.226192       -0.298051     -0.000154127     3.25238e-06
                      0.00181694    -0.000533972         -0.37971        0.916437     -0.000170491    -0.000189425          0.11915        0.064021
251800                  0.348759       -0.121047      0.000346308     -0.00054297         0.905768        0.209832       0.00151497    -0.000765838
                     0.000105225    -0.000435218          0.13745        0.037497       0.00150854    -0.000893648        -0.279949        0.949119
                        0.905901         0.21006       0.00126914    -0.000845921         -0.25814       -0.263056     -0.000183467     4.70166e-05
                      0.00176996     -0.00074633        -0.280765          0.9501     -0.000243193    -0.000156344         0.135766       0.0435747
252000                  0.328214        -0.15354      0.000245732    -0.000585935         0.926417        0.104702       0.00144155    -0.000941741
                     4.44881e-05    -0.000425878         0.146181       0.0341162       0.00141549     -0.00107655         -0.17843        0.972217
                        0.926581        0.104921       0.00118446     -0.00101611        -0.284367       -0.223888     -0.000208018     9.25214e-05
                        0.001691     -0.00095738        -0.179002        0.973006     -0.000314617    -0.000110126         0.148789       0.0203738
252200                  0.303954       -0.182505      0.000133827    -0.000605658         0.935201     -0.00278042       0.00135148     -0.00111556
                    -1.05892e-05    -0.000410275         0.155156       0.0291112       0.00129672      -0.0012529       -0.0752264        0.984416
                        0.935389     -0.00258178       0.00108319     -0.00118176        -0.304227       -0.181526     -0.000228618     0.000139509
                      0.00157995     -0.00116066       -0.0756153        0.984974     -0.000381598    -4.97689e-05         0.157817     -0.00495087
252400                  0.276578       -0.207457      1.84613e-05    -0.000597971         0.931771       -0.111338       0.00124385     -0.00128553
                    -5.98829e-05     -0.00038952         0.164097       0.0224319       0.00115213     -0.00141813        0.0284795        0.985641
                        0.931973       -0.111167      0.000965204     -0.00134115         -0.31725       -0.137065     -0.000246059     0.000188147
                      0.00143843      -0.0013498        0.0282043        0.985954       -0.0004403     2.48187e-05         0.162563      -0.0317177
252600                  0.246752        -0.22801     -9.08537e-05    -0.000562351         0.915899       -0.219624       0.00111789      -0.0014496
                     -0.00010336    -0.000364557         0.172723       0.0140739      0.000982631     -0.00156742         0.131517        0.975947
                        0.916103       -0.219485      0.000830617      -0.0014925        -0.323163      -0.0916766     -0.000261009     0.000239022
                      0.00126961      -0.0015191         0.131287         0.97603     -0.000486531     0.000112437         0.162851      -0.0592136
252800                  0.215194       -0.243887     -0.000185095    -0.000502459         0.887498       -0.326235      0.000973036     -0.00160539
                    -0.000141031      -0.0003362         0.180757      0.00407743      0.000790255     -0.00169597         0.232738        0.955513
                        0.887692       -0.326127      0.000679777     -0.00163402        -0.321906      -0.0465731     -0.000273924     0.000293174
                      0.00107791     -0.00166401         0.232495        0.955402     -0.000516283     0.000210349         0.158623      -0.0867127
253000                  0.182659       -0.254926     -0.000257806    -0.000425263         0.846634       -0.429719      0.000809043     -0.00175026
                    -0.000172913    -0.000305157         0.187934     -0.00747438       0.00057818     -0.00179937         0.331035        0.924639
                        0.846806       -0.429637      0.000513279     -0.00176396        -0.313632     -0.00297087     -0.000284934     0.000352173
                     0.000868522     -0.00178135         0.330736        0.924385     -0.000526428     0.000314314         0.149937       -0.113495
253200                   0.14992        -0.26109     -0.000306189    -0.000339172         0.793544       -0.528592      0.000626029     -0.00188127
                    -0.000199011    -0.000272065         0.194002      -0.0204583      0.000350641     -0.00187386         0.425345        0.883735
                        0.793685       -0.528527      0.000331969     -0.00188069        -0.298716       0.0379509     -0.000293611     0.000418262
                     0.000646868     -0.00186939         0.424968        0.883401     -0.000515382     0.000419001         0.136961       -0.138861
253400                  0.117747       -0.262464     -0.000330909      -0.0002521         0.728646        -0.62136      0.000424598     -0.00199525
                    -0.000219302     -0.00023753         0.198736      -0.0347145      0.000112718     -0.00191672         0.514668        0.833316
                        0.728751       -0.621299      0.000136938     -0.00198272        -0.277736       0.0750892     -0.000298535     0.000494546
                     0.000418185     -0.00192774          0.51421        0.832963     -0.000483513     0.000518721         0.119968       -0.162153
253600                 0.0868912       -0.259262     -0.000335024    -0.000170211         0.652557       -0.706538      0.000205919      -0.0020889
                    -0.000233729    -0.000202155         0.201937      -0.0500507     -0.000129979     -0.00192644         0.598069         0.77399
                        0.652623       -0.706469     -7.05051e-05     -0.00206883        -0.251469        0.107455     -0.000296401     0.000585154
                     0.000187176     -0.00195709         0.597549        0.773676     -0.000433129     0.000608307        0.0993281       -0.182764
253800                 0.0580583        -0.25182     -0.000322722    -9.75282e-05         0.566095       -0.782686     -2.81814e-05     -0.00215884
                    -0.000242207     -0.00016658         0.203435       -0.066247     -0.000371689     -0.00190283         0.674692         0.70645
                        0.566126       -0.782596     -0.000288873     -0.00213817        -0.220865        0.134209     -0.000280297     0.000695026
                     -4.2174e-05     -0.00195887         0.674143        0.706221     -0.000368023     0.000683853        0.0754983       -0.200152
254000                 0.0318896       -0.240591     -0.000298315     -3.6169e-05         0.470285       -0.848436     -0.000275154      -0.0022018
                    -0.000244636    -0.000131522         0.203098      -0.0830609      -0.00060689     -0.00184701         0.743757        0.631466
                        0.470291       -0.848312     -0.000516558     -0.00219033        -0.187017        0.154694      -0.00023661     0.000828164
                    -0.000266656     -0.00193496         0.743229         0.63135     -0.000292761     0.000743106        0.0490117       -0.213856
254200                0.00894041       -0.226135     -0.000265664     1.31475e-05          0.36636       -0.902527     -0.000531695     -0.00221476
                    -0.000240928    -9.78128e-05         0.200831       -0.100233     -0.000830649     -0.00176122         0.804577        0.549875
                        0.366351        -0.90236      -0.00075191     -0.00222557        -0.151132        0.168462     -0.000141121     0.000981153
                    -0.000483791     -0.00188742         0.804121        0.549879     -0.000211935     0.000785465        0.0204648       -0.223499
254400                -0.0103397       -0.209101     -0.000227954     5.05837e-05         0.255746       -0.943843     -0.000793751     -0.00219515
                    -0.000231055    -6.64398e-05         0.196576       -0.117493      -0.00103888     -0.00164857         0.856551        0.462569
                        0.255738       -0.943627     -0.000993347     -0.00224494        -0.114489        0.175294       3.8887e-05      0.00112667
                    -0.000691719     -0.00181826         0.856219        0.462681     -0.000129597     0.000811671      -0.00949664       -0.228803
254600                -0.0256239        -0.19021     -0.000187686     7.67729e-05         0.140049       -0.971447      -0.00105659     -0.00214107
                    -0.000215115    -3.85761e-05         0.190319       -0.134564       -0.0012285     -0.00151272         0.899174        0.370487
                        0.140059       -0.971182      -0.00123949      -0.0022507       -0.0783936        0.175218      0.000314414      0.00119407
                    -0.000889058     -0.00172936         0.899008        0.370674     -4.89421e-05      0.00082336        -0.040192       -0.229588
254800                -0.0367214       -0.170231     -0.000146789     9.25413e-05        0.0210286       -0.984615      -0.00131491     -0.00205144
                    -0.000193431    -1.55956e-05         0.182083       -0.151172      -0.00139744     -0.00135753         0.932036        0.274609
                       0.0210728       -0.984308       -0.0014893     -0.00224681       -0.0441326        0.168509      0.000613664      0.00110439
                     -0.00107476     -0.00162237         0.932063        0.274822      2.77629e-05     0.000822624       -0.0709213       -0.225783
255000                -0.0435864       -0.149951     -0.000106758     9.87423e-05       -0.0994318        -0.98287      -0.00156306      -0.0019262
                    -0.000166685     9.47182e-07         0.171932       -0.167047       -0.0015446      -0.0011868         0.954826        0.175942
                       -0.099338       -0.982531       -0.0017423     -0.00223987       -0.0129223        0.155691      0.000808557     0.000881671
                     -0.00124796     -0.00149867         0.955052        0.176122      9.90976e-05     0.000811656        -0.100981       -0.217422
255200                -0.0463205       -0.130155     -6.87919e-05      9.6173e-05        -0.219365          -0.966      -0.00179524     -0.00176642
                    -0.000136062     9.39953e-06         0.159968       -0.181932      -0.00166967     -0.00100401         0.967329       0.0755134
                        -0.21921       -0.965645      -0.00199856     -0.00224108        0.0141397        0.137516      0.000858378     0.000643237
                     -0.00140787     -0.00135945         0.967737       0.0756014      0.000164321     0.000792522        -0.129679       -0.204645
255400                -0.0451704       -0.111587     -3.39146e-05     8.55454e-05        -0.336764        -0.93408       -0.0020058     -0.00157433
                    -0.000103413     8.18202e-06          0.14633       -0.195587      -0.00177296    -0.000812135          0.96943      -0.0256352
                       -0.336542       -0.933729      -0.00225825     -0.00227005        0.0361215        0.114945      0.000819295     0.000463786
                     -0.00155369     -0.00120569         0.969981      -0.0256915      0.000223192     0.000767039        -0.156352       -0.187698
255600                -0.0405177      -0.0949275     -3.07494e-06     6.74941e-05         -0.44963       -0.887479      -0.00218954     -0.00135328
                    -7.13496e-05    -3.92584e-06         0.131188       -0.207795      -0.00185514      -0.0006136         0.961114       -0.126459
                        -0.44934       -0.887153      -0.00251872     -0.00236357        0.0522982       0.0891062      0.000750323      0.00034913
                     -0.00168452     -0.00103827         0.961749       -0.126696      0.000275801     0.000736724        -0.180381       -0.166924
255800                -0.0328635      -0.0807661      2.27733e-05     4.26088e-05        -0.556022       -0.826857      -0.00234196     -0.00110762
                    -4.32185e-05    -2.73938e-05         0.114743       -0.218365      -0.00191704    -0.000410229         0.942463       -0.225918
                       -0.555669       -0.826577      -0.00276056      -0.0025961        0.0621857       0.0612544      0.000680882     0.000281062
                     -0.00179931    -0.000858039          0.94311       -0.226347      0.000322442     0.000702796        -0.201201       -0.142759
256000                -0.0228073      -0.0695794      4.26083e-05     1.14882e-05        -0.654106       -0.753158      -0.00245947    -0.000842499
                    -2.28473e-05    -6.15096e-05         0.097221       -0.227136      -0.00195946    -0.000203304         0.913656       -0.322983
                       -0.653703       -0.752944      -0.00288031     -0.00312255        0.0655638       0.0327172      0.000620838     0.000242326
                     -0.00189688    -0.000665875         0.914245        -0.32359      0.000363512     0.000666207        -0.218322       -0.115722
256200                -0.0110212      -0.0617138      5.52956e-05    -2.51869e-05        -0.742199       -0.667583      -0.00253959    -0.000563581
                    -1.40248e-05    -0.000104051        0.0788685       -0.233981      -0.00198293     6.33421e-06         0.874969       -0.416644
                       -0.741765        -0.66745      -0.00237272     -0.00413827        0.0624873      0.00483781      0.000571827     0.000221368
                     -0.00197587    -0.000462797         0.875439        -0.41739      0.000399445     0.000627676        -0.231334      -0.0864003
