! TOUCHSTONE file generated by CST MICROWAVE STUDIO
! Date and time: Fri Sep 26 06:38:34 2025
! Project name: biblioteca3_folgaOK.cst
! Parameters = {H=600; Lx=200; Ly=260; Nedge=40; P=520; k=0; mesh_pilar_nm=40; n=0; t_air=3500; t_sub=2000; wavelength_nm=0}
! Header version: 2018
! Port assignment regex: !\s*Touchstone port\s*([0-9]+)\s*=\s*(CST MWS port|CST DS port)\s*([0-9]+|Zmin|Zmax)\s*\(\"(.*)\"\)(\s*mode\s*([0-9]+))?.*
! Touchstone port assignment:
! Touchstone port 1 = CST MWS port Zmin ("") mode 1
! Touchstone port 2 = CST MWS port Zmin ("") mode 2
! Touchstone port 3 = CST MWS port Zmax ("") mode 1
! Touchstone port 4 = CST MWS port Zmax ("") mode 2
! S-Parameters are not renormalized. Each port impedance will be approximated by the real part at minimum frequency. The values are described via the [Reference] keyword.
! Default impedance is overridden by [Reference]
[Version] 2.0
# GHz S RI R 376.73
[Number of Ports] 4
[Reference]
376.73 376.73 376.73 376.73 
[Number of Frequencies] 401
[Network Data]
250000                   0.22377        0.232377       0.00194865     0.000487869        -0.878034        0.353288      7.82271e-05      0.00123335
                      0.00201502     0.000577319        -0.059777        0.190229     -0.000380116     0.000713486        -0.436756       -0.877216
                       -0.878155         0.35333     -0.000472522     0.000640073     -0.000411526         0.32257      -0.00161361    -0.000525349
                     0.000286063      0.00129373         -0.43666       -0.877262      -0.00156806    -0.000512381        -0.187819      -0.0669469
250200                  0.232347        0.213296       0.00200449       0.0003371        -0.849017        0.423838      0.000176071      0.00119717
                      0.00207624     0.000416529       -0.0520554        0.195847     -0.000351365     0.000751188        -0.494277       -0.845463
                       -0.849211        0.423788     -0.000448787     0.000686146        0.0308929        0.313884       -0.0016557    -0.000463301
                     0.000390459      0.00124513        -0.494215       -0.845455      -0.00161441    -0.000434162        -0.196156      -0.0507291
250400                  0.239175        0.193855       0.00204929     0.000178489          -0.8142        0.492251      0.000269343      0.00115791
                      0.00212566     0.000247485       -0.0438663        0.201029     -0.000319363     0.000788968        -0.549525       -0.809926
                       -0.814453        0.492161     -0.000420926     0.000732854        0.0605993        0.301861      -0.00169664    -0.000396424
                     0.000485403      0.00119494        -0.549481       -0.809875      -0.00165734    -0.000351357         -0.20295      -0.0335551
250600                  0.244231        0.174224       0.00208198     1.28293e-05        -0.773717        0.558034      0.000358218      0.00111565
                      0.00216213     7.10983e-05       -0.0352464        0.205743     -0.000283898     0.000826635        -0.602255        -0.77077
                       -0.774006        0.557945      -0.00038858     0.000779934        0.0883152        0.286735      -0.00173604    -0.000324446
                     0.000572001      0.00114334        -0.602218       -0.770684      -0.00169645    -0.000264032        -0.208097      -0.0155828
250800                  0.247513        0.154574       0.00210154     -0.00015894        -0.727744        0.620701      0.000442838      0.00107048
                      0.00218457     -0.00011155       -0.0262328        0.209958     -0.000244754     0.000863973        -0.652234       -0.728173
                       -0.728045         0.62064      -0.00035138      0.00082706          0.11368         0.26879       -0.0017734    -0.000247107
                     0.000651147      0.00109043        -0.652196       -0.728061       -0.0017313    -0.000172289        -0.211511      0.00301921
251000                  0.249033        0.135077       0.00210704    -0.000335737        -0.676501        0.679773      0.000523311      0.00102245
                        0.002192    -0.000299216       -0.0168638        0.213646     -0.000201712      0.00090073        -0.699239       -0.682326
                       -0.676789        0.679756     -0.000308949     0.000873841         0.136372        0.248353      -0.00180819    -0.000164174
                     0.000723566      0.00103631        -0.699196       -0.682197      -0.00176146    -7.62611e-05         -0.21312       0.0220738
251200                   0.24882        0.115904       0.00209759     -0.00051634        -0.620251        0.734783      0.000599722     0.000971611
                      0.00218356    -0.000490506      -0.00717794        0.216785     -0.000154556     0.000936622        -0.743065       -0.633437
                       -0.620503        0.734814     -0.000260911     0.000919812         0.156115        0.225796      -0.00183977    -7.54508e-05
                     0.000789848      0.00098105        -0.743013       -0.633298      -0.00178649     2.38841e-05        -0.212875        0.041397
251400                  0.246924       0.0972218       0.00207246     -0.00069939        -0.559301        0.785281      0.000672126     0.000918002
                      0.00215858    -0.000683889       0.00278515        0.219351      -0.00010307     0.000971324        -0.783516       -0.581724
                       -0.559499        0.785357     -0.000206899     0.000964423         0.172682        0.201521       -0.0018674     1.91982e-05
                     0.000850473     0.000924699        -0.783454       -0.581581      -0.00180595     0.000127943        -0.210745       0.0607999
251600                   0.24341       0.0791945       0.00203101    -0.000883406        -0.494002        0.830836      0.000740552     0.000861658
                      0.00211653    -0.000877724        0.0129851        0.221326     -4.70475e-05      0.00100447        -0.820413       -0.527416
                       -0.494133        0.830949     -0.000146564      0.00100703         0.185903         0.17596      -0.00189028     0.000119827
                     0.000905834     0.000867311        -0.820342       -0.527274      -0.00181939     0.000235678        -0.206716        0.080091
251800                   0.23836       0.0619777       0.00197278     -0.00106679        -0.424746        0.871044      0.000805007     0.000802602
                      0.00205711     -0.00107028        0.0233808        0.222694      1.37097e-05      0.00103567        -0.853593       -0.470754
                       -0.424804        0.871181     -7.95943e-05       0.0010469         0.195663        0.149566      -0.00190752      0.00022638
                     0.000956247     0.000808928        -0.853514       -0.470618      -0.00182638     0.000346816        -0.200798       0.0990775
252000                  0.231872       0.0457185       0.00189746     -0.00124785        -0.351968        0.905532      0.000865472     0.000740854
                      0.00198022     -0.00125978          0.03393         0.22344      7.93874e-05      0.00106447        -0.882907       -0.411989
                       -0.351952        0.905679      -5.7271e-06      0.00108319         0.201914          0.1228      -0.00191814     0.000338664
                      0.00100197     0.000749592        -0.882822       -0.411861      -0.00182649     0.000461055        -0.193016        0.117568
252200                  0.224063       0.0305536       0.00180494     -0.00142482        -0.276141        0.933958      0.000921905     0.000676428
                        0.001886      -0.0014444        0.0445899        0.223554      0.000150159      0.00109038        -0.908223       -0.351381
                       -0.276056        0.934101      7.52283e-05      0.00111493         0.204665       0.0961315      -0.00192113     0.000456315
                       0.0010432     0.000689343        -0.908133       -0.351262       -0.0018193     0.000578062        -0.183419        0.135373
252400                   0.21506       0.0166069       0.00169532     -0.00159586        -0.197776        0.956023      0.000974237     0.000609331
                      0.00177481     -0.00162237         0.055317        0.223027       0.00022619      0.00111291        -0.929425       -0.289197
                       -0.197633         0.95615      0.000163368      0.00114109         0.203994       0.0700209      -0.00191545     0.000578771
                      0.00108011     0.000628221        -0.929334       -0.289087      -0.00180444     0.000697485        -0.172071        0.152309
252600                  0.205007      0.00398816        0.0015689     -0.00175914        -0.117416        0.971469       0.00102237     0.000539565
                      0.00164727     -0.00179195        0.0660668        0.221853      0.000307652      0.00113152        -0.946417        -0.22571
                       -0.117229        0.971572      0.000258669      0.00116048         0.200038       0.0449162      -0.00190009     0.000705245
                      0.00111281      0.00056627        -0.946325       -0.225611      -0.00178155     0.000818956        -0.159058        0.168199
252800                  0.194057     -0.00720872       0.00142622     -0.00191281       -0.0356344        0.980088       0.00106619     0.000467124
                       0.0015042      -0.0019515        0.0767948        0.220031      0.000394765      0.00114567        -0.959116       -0.161203
                      -0.0354196        0.980163      0.000360959      0.00117188         0.192997        0.021242      -0.00187414      0.00083472
                      0.00114138     0.000503534        -0.959027       -0.161112      -0.00175033       0.0009421        -0.144482        0.182874
253000                  0.182375      -0.0169072       0.00126805     -0.00205504        0.0469701        0.981723       0.00110554     0.000391991
                      0.00134665     -0.00209952        0.0874559         0.21756      0.000487873      0.00115483        -0.967462      -0.0959588
                       0.0471955         0.98177      0.000469891      0.00117398         0.183128    -0.000608673      -0.00183683     0.000965948
                       0.0011659      0.00044006        -0.967375      -0.0958751      -0.00171058      0.00106655        -0.128463        0.196176
253200                  0.170132      -0.0250496       0.00109538     -0.00218408         0.129779        0.976271       0.00114021      0.00031414
                      0.00117588      -0.0022347        0.0980052        0.214446       0.00058764      0.00115843        -0.971409      -0.0302675
                        0.129999        0.976297      0.000584911      0.00116542         0.170741      -0.0202829      -0.00178761      0.00109748
                      0.00118638     0.000375898        -0.971327      -0.0301895      -0.00166224      0.00119191        -0.111137        0.207957
253400                  0.157507      -0.0315974      0.000909428     -0.00229828         0.212158        0.963691       0.00116996     0.000233526
                     0.000993341     -0.00235596         0.108398        0.210695      0.000695458      0.00115572        -0.970933       0.0355794
                        0.212358        0.963705       0.00070524      0.00114488         0.156191      -0.0374749      -0.00172624      0.00122774
                      0.00120285       0.0003111        -0.970855       0.0356534      -0.00160545      0.00131776       -0.0926557        0.218086
253600                   0.14468      -0.0365331       0.00071163     -0.00239613         0.293467        0.943999       0.00119448     0.000150085
                     0.000800669     -0.00246253         0.118589        0.206317       0.00081426      0.00114497        -0.966027        0.101289
                        0.293637        0.944014       0.00082985       0.0011111         0.139875      -0.0519334      -0.00165283      0.00135507
                      0.00121529     0.000245718        -0.965953        0.101361      -0.00154061      0.00144351        -0.073183        0.226445
253800                  0.131834      -0.0398595      0.000503613     -0.00247626          0.37306        0.917276       0.00121335     6.37219e-05
                     0.000599678     -0.00255406         0.128536        0.201328      0.000949347      0.00112019        -0.956702        0.166566
                        0.373194        0.917306      0.000957456      0.00106294         0.122221      -0.0634668      -0.00156782      0.00147787
                      0.00122367     0.000179805        -0.956632        0.166638      -0.00146841      0.00156818       -0.0528962        0.232933
254000                   0.11915      -0.0416006      0.000287178     -0.00253751         0.450298        0.883665       0.00122605     -2.5692e-05
                     0.000392387     -0.00263082         0.138195        0.195743       0.00110274      0.00106226         -0.94299         0.23112
                        0.450395        0.883726       0.00108651     0.000999512          0.10368      -0.0719476      -0.00147204       0.0015947
                      0.00122795     0.000113412        -0.942923        0.231193       -0.0013895      0.00169015       -0.0319827        0.237467
254200                  0.106802      -0.0418013      6.42706e-05     -0.00257894         0.524554        0.843371       0.00123184     -0.00011833
                     0.000181092     -0.00269406         0.147526        0.189585       0.00124109     0.000945637        -0.924941        0.294658
                        0.524617        0.843479       0.00121522     0.000920191        0.0847148      -0.0773157      -0.00136656      0.00170438
                      0.00122807     4.65857e-05        -0.924875        0.294733      -0.00130398      0.00180719       -0.0106388        0.239983
254400                 0.0949621      -0.0405263      -0.00016305     -0.00259983         0.595218        0.796663       0.00122968    -0.000214409
                    -3.14329e-05     -0.00274698         0.156488        0.182875       0.00131505     0.000814626        -0.902622        0.356891
                        0.595256         0.79683       0.00134156     0.000824757        0.0657927      -0.0795797      -0.00125267      0.00180606
                      0.00122396    -2.06331e-05        -0.902557         0.35697      -0.00121092      0.00191712        0.0109325        0.240438
254600                 0.0837891      -0.0378596      -0.00039265     -0.00259974         0.661706        0.743869       0.00121803    -0.000314167
                    -0.000241399     -0.00279733         0.165043        0.175641       0.00136769     0.000719479        -0.876122        0.417537
                        0.661732        0.744104       0.00146332     0.000713441        0.0473721      -0.0788171      -0.00113172      0.00189931
                      0.00121555    -8.82157e-05        -0.876055        0.417619      -0.00110871      0.00201865        0.0325233        0.238807
254800                 0.0734319      -0.0339033     -0.000622358     -0.00257848         0.723467        0.685376       0.00119453    -0.000417763
                    -0.000442367     -0.00286677         0.173157        0.167912       0.00143385     0.000636008        -0.845546        0.476317
                        0.723494        0.685684       0.00157812     0.000586981        0.0298938      -0.0751718      -0.00100501      0.00198405
                      0.00120276    -0.000156147        -0.845476        0.476403     -0.000996025      0.00211164        0.0539232         0.23509
255000                 0.0640252      -0.0287756     -0.000850006     -0.00253613         0.779987        0.621625        0.0011554    -0.000524966
                    -0.000620216     -0.00304233         0.180794         0.15972       0.00150938     0.000543954        -0.811018        0.532958
                        0.780032        0.622005       0.00168347      0.00044663        0.0137707      -0.0688517      -0.00087363      0.00206053
                      0.00118555     -0.00022443        -0.810944        0.533047     -0.000872444      0.00219647        0.0749212        0.229307
255200                 0.0556881      -0.0226092      -0.00107347     -0.00247301         0.830798        0.553105       0.00109438    -0.000634196
                    -0.000956745     -0.00434093         0.187925          0.1511       0.00158587     0.000437809        -0.772681        0.587195
                        0.830876        0.553551       0.00177687     0.000294119     -0.000621794      -0.0601228     -0.000738415      0.00212926
                      0.00116386    -0.000293087        -0.772601        0.587286     -0.000738362      0.00227335         0.095308        0.221499
255400                 0.0485222      -0.0155488      -0.00129073     -0.00238972         0.875482        0.480351       0.00100126      -0.0007397
                     -0.00171277     -0.00156572          0.19452        0.142089        0.0016576     0.000317052        -0.730693        0.638773
                        0.875604        0.480852       0.00185584     0.000131566        -0.012954      -0.0493034     -0.000599865      0.00219087
                      0.00113769    -0.000362157        -0.730606        0.638866     -0.000594566      0.00234205         0.114879         0.21173
255600                 0.0426106     -0.00774939      -0.00149986     -0.00228707         0.913673        0.403936      0.000861813    -0.000823546
                     -0.00156137     -0.00197653         0.200554        0.132726       0.00172066     0.000182534         -0.68523        0.687446
                        0.913848        0.404478       0.00191809    -3.86442e-05       -0.0229495      -0.0367561     -0.000458137        0.002246
                      0.00110711    -0.000431692        -0.685135        0.687538     -0.000441946      0.00240204         0.133435        0.200084
255800                 0.0380165     0.000626971      -0.00169914     -0.00216606         0.945065        0.324468      0.000671158    -0.000838413
                        -0.00169     -0.00200739         0.206005        0.123051       0.00177212     3.55998e-05        -0.636486        0.732978
                        0.945298        0.325033       0.00196159    -0.000214003        -0.030391      -0.0228791     -0.000313071      0.00229518
                      0.00107224    -0.000501733        -0.636383        0.733069     -0.000281377      0.00245257         0.150785        0.186668
256000                  0.034783      0.00941332      -0.00188704     -0.00202787         0.969414        0.242577      0.000494811    -0.000711048
                     -0.00185085      -0.0019484         0.210853        0.113107       0.00180958    -0.000122105        -0.584669        0.775147
                        0.969701        0.243149        0.0019848    -0.000391998       -0.0351251     -0.00809643     -0.000164238      0.00233879
                       0.0010333     -0.00057229        -0.584557        0.775233     -0.000113707      0.00249283         0.166752        0.171607
256200                 0.0329326       0.0184406      -0.00206229     -0.00187385         0.986537        0.158916      0.000499087    -0.000490967
                     -0.00201466     -0.00184699         0.215082        0.102938       0.00183107    -0.000288665        -0.530001        0.813743
                        0.986872        0.159479       0.00198668    -0.000570203        -0.037065      0.00715202     -1.10146e-05      0.00237692
                     0.000990617    -0.000643295        -0.529881        0.813823      6.02246e-05        0.002522         0.181168        0.155045
