! TOUCHSTONE file generated by CST MICROWAVE STUDIO
! Date and time: Sun Sep 28 17:46:01 2025
! Project name: biblioteca3_folgaOK.cst
! Parameters = {H=600; Lx=200; Ly=260; Nedge=30; P=520; k=0; mesh_pilar_nm=40; n=0; t_air=3800; t_sub=6000; wavelength_nm=0}
! Header version: 2018
! Port assignment regex: !\s*Touchstone port\s*([0-9]+)\s*=\s*(CST MWS port|CST DS port)\s*([0-9]+|Zmin|Zmax)\s*\(\"(.*)\"\)(\s*mode\s*([0-9]+))?.*
! Touchstone port assignment:
! Touchstone port 1 = CST MWS port Zmin ("") mode 1
! Touchstone port 2 = CST MWS port Zmin ("") mode 2
! Touchstone port 3 = CST MWS port Zmax ("") mode 1
! Touchstone port 4 = CST MWS port Zmax ("") mode 2
! S-Parameters are not renormalized. Each port impedance will be approximated by the real part at minimum frequency. The values are described via the [Reference] keyword.
! Default impedance is overridden by [Reference]
[Version] 2.0
# GHz S RI R 376.73
[Number of Ports] 4
[Reference]
376.73 376.73 376.73 376.73 
[Number of Frequencies] 401
[Network Data]
250000                  0.284183        0.240476      -0.00022389     -0.00032347         0.251568        0.893504       0.00223212     0.000688795
                    -0.000501159    -0.000261375         0.103037       0.0262046       0.00196471      0.00193123        -0.951652        0.287573
                        0.251618        0.893734       0.00204261      0.00201024         0.116936       -0.353453     -0.000776246    -0.000559058
                      0.00206929     0.000653445        -0.951859        0.287288     -0.000794092    -0.000744039       -0.0713089       0.0788557
250200                  0.287515        0.240455     -0.000271682    -0.000358293         0.307185        0.874966        0.0022788     0.000583444
                    -0.000484493    -0.000320144         0.097266       0.0379842       0.00208348      0.00182805        -0.934669        0.339407
                        0.307009         0.87508       0.00216793      0.00186411        0.0743046       -0.367375     -0.000866849    -0.000540377
                       0.0021695     0.000601057        -0.934824        0.339121     -0.000949815     -0.00069326       -0.0503911       0.0914876
250400                  0.289991        0.239907     -0.000318193    -0.000390107         0.361582        0.853289       0.00232238     0.000471736
                    -0.000481544    -0.000384563        0.0913413       0.0496038       0.00219829      0.00171601         -0.91471        0.390223
                        0.361271        0.853357       0.00228667      0.00171202        0.0296366       -0.375205     -0.000966529    -0.000512651
                      0.00229555     0.000519072        -0.914831        0.389956      -0.00110315     -0.00061505       -0.0276201        0.100232
250600                  0.291615        0.238825     -0.000363403    -0.000418829         0.414659        0.828541       0.00236217      0.00035338
                    -0.000494644    -0.000449618        0.0852779       0.0610325       0.00230842      0.00159511        -0.891844        0.439833
                        0.414292        0.828603       0.00239814      0.00155427       -0.0160757       -0.376607      -0.00107608    -0.000472991
                      0.00243214     0.000374655        -0.891942        0.439601      -0.00124807    -0.000509549      -0.00368915         0.10482
250800                  0.292391        0.237204     -0.000407292    -0.000444347         0.466316         0.80078       0.00239735     0.000228109
                    -0.000523637    -0.000509337        0.0790903       0.0722397        0.0024131      0.00146543        -0.866156        0.488053
                        0.465954        0.800848       0.00250163       0.0013912       -0.0617871       -0.371427      -0.00119603     -0.00041749
                       0.0025189     0.000155712        -0.866236        0.487867       -0.0013788    -0.000378659        0.0206749        0.105114
251000                   0.29232        0.235042     -0.000449845    -0.000466517         0.516445        0.770048       0.00242696     9.56925e-05
                    -0.000565597     -0.00055834        0.0727922       0.0831953       0.00251153      0.00132711        -0.837743        0.534711
                        0.516134         0.77012       0.00259647      0.00122321        -0.106434       -0.359693      -0.00132621    -0.000340885
                      0.00250644     -7.0624e-05        -0.837808        0.534577      -0.00149048    -0.000225797        0.0447365        0.101105
251200                  0.291404        0.232338     -0.000491058    -0.000485147         0.564932        0.736379       0.00244993    -4.40467e-05
                    -0.000615633    -0.000593257         0.066397       0.0938699       0.00260291      0.00118036        -0.806718        0.579642
                        0.564698        0.736441       0.00268203      0.00105078        -0.148968       -0.341619      -0.00146506    -0.000236184
                      0.00244011    -0.000234943        -0.806765        0.579562      -0.00157962    -5.53773e-05        0.0677757       0.0929124
251400                  0.289642        0.229093     -0.000530956    -0.000499977         0.611645        0.699803       0.00246498    -0.000191208
                    -0.000668339    -0.000613284        0.0599172        0.104235       0.00268641      0.00102547        -0.773201        0.622692
                        0.611502        0.699833       0.00275771     0.000874442        -0.188391       -0.317594      -0.00160832    -9.44408e-05
                      0.00238001    -0.000346494        -0.773231        0.622664      -0.00164427     0.000127858        0.0891097       0.0807734
251600                  0.287035        0.225311     -0.000569626     -0.00051066         0.656444        0.660343       0.00247065    -0.000345784
                    -0.000719109     -0.00061976        0.0533652        0.114262        0.0027612     0.000862809        -0.737326        0.663718
                         0.65639         0.66032       0.00282295     0.000694782        -0.223779       -0.288173      -0.00174687     9.48645e-05
                      0.00234209    -0.000437397        -0.737335        0.663737      -0.00168389     0.000319462         0.108111       0.0650342
251800                  0.283583           0.221     -0.000607274    -0.000516726         0.699167        0.618027       0.00246521    -0.000507616
                    -0.000764802    -0.000615235        0.0467527        0.123926       0.00282645     0.000692845        -0.699231         0.70259
                        0.699192         0.61793       0.00287725     0.000512443        -0.254314       -0.254056       -0.0018637      0.00034178
                      0.00232128    -0.000526373        -0.699221         0.70265       -0.0016989     0.000515737         0.124224       0.0461355
252000                  0.279283        0.216168     -0.000644344     -0.00051756          0.73964        0.572885       0.00244665    -0.000676333
                    -0.000803752    -0.000602569        0.0400914        0.133201       0.00288132     0.000516125        -0.659065        0.739189
                        0.739722        0.572701       0.00292018     0.000328118        -0.279298       -0.216071      -0.00193099     0.000650346
                      0.00230995    -0.000620928        -0.659034        0.739284      -0.00169021     0.000713948         0.136976       0.0245977
252200                  0.274135        0.210831     -0.000681724    -0.000512409         0.777666         0.52496       0.00241256    -0.000851258
                    -0.000835429     -0.00058435        0.0333924        0.142064       0.00292501     0.000333296        -0.616979        0.773412
                        0.777781         0.52468       0.00295138     0.000142538        -0.298177       -0.175154      -0.00191124      0.00100805
                       0.0023023    -0.000723539         -0.61693        0.773533      -0.00165864      0.00091229         0.145988      0.00100542
252400                  0.268139        0.205005     -0.000721124    -0.000500534         0.813035        0.474307       0.00236007     -0.00103126
                    -0.000860009    -0.000562645        0.0266669        0.150491       0.00295673     0.000145107         -0.57313        0.805165
                        0.813156        0.473928       0.00297056    -4.35301e-05        -0.310554       -0.132325      -0.00176993       0.0013738
                      0.00229422    -0.000834752        -0.573064        0.805305      -0.00160453      0.00110964         0.150981      -0.0240087
252600                  0.261293        0.198714     -0.000765617    -0.000481819          0.84552        0.420999       0.00228564     -0.00121451
                    -0.000878029    -0.000538969         0.019926        0.158463       0.00297572    -4.75881e-05        -0.527677        0.834368
                        0.845619        0.420529       0.00297752    -0.000229293        -0.316203      -0.0886607      -0.00150245      0.00167917
                      0.00228276    -0.000954383        -0.527598         0.83452      -0.00152732      0.00130516         0.151779      -0.0497805
252800                  0.253601        0.191982     -0.000819929      -0.0004584         0.874879        0.365134       0.00218495     -0.00139804
                    -0.000890143    -0.000514355        0.0131807         0.16596       0.00298127    -0.000243827        -0.480778        0.860955
                        0.874931        0.364585       0.00297214     -0.00041394        -0.315075      -0.0452748      -0.00115592      0.00185941
                      0.00226561     -0.00108194         -0.48069        0.861112      -0.00142547      0.00149774         0.148314        -0.07563
253000                  0.245064        0.184843     -0.000888612    -0.000437637         0.900859        0.306838       0.00205259     -0.00157694
                    -0.000896987     -0.00048946       0.00644214        0.172965       0.00297272     -0.00044253        -0.432594        0.884869
                        0.900845        0.306228       0.00295437    -0.000596656         -0.30731      -0.0032843     -0.000812379      0.00189694
                      0.00224081     -0.00121676        -0.432501        0.885027      -0.00129644      0.00168533         0.140622       -0.100877
253200                  0.235688        0.177331     -0.000969175    -0.000432847           0.9232        0.246267       0.00188202     -0.00174282
                    -0.000899098    -0.000464663     -0.000278456        0.179461       0.00294946    -0.000642497        -0.383283        0.906064
                        0.923105        0.245619       0.00292427    -0.000776625        -0.293234       0.0362183     -0.000540305      0.00183044
                      0.00220665     -0.00135802         -0.38319        0.906219      -0.00113707      0.00186421         0.128847       -0.124859
253400                  0.225482        0.169488      -0.00104543    -0.000453017         0.941641        0.183614       0.00166612     -0.00188082
                     -0.00089688    -0.000440138      -0.00696968        0.185434       0.00291099    -0.000842394        -0.333002        0.924506
                        0.941457        0.182953       0.00288198    -0.000953045        -0.273366       0.0721975     -0.000364304      0.00172232
                      0.00216156     -0.00150471        -0.332913        0.924654     -0.000944374      0.00202835         0.113228       -0.146942
253600                   0.21446        0.161359       -0.0010988    -0.000488968         0.955921        0.119109       0.00140048     -0.00196409
                    -0.000890576    -0.000415906       -0.0136199        0.190872       0.00285689     -0.00104074        -0.281905        0.940169
                        0.955649        0.118461       0.00282771     -0.00112513        -0.248406        0.103709     -0.000271936      0.00162504
                       0.0021041     -0.00165564        -0.281825        0.940309      -0.00071684      0.00216895        0.0941044       -0.166538
253800                  0.202638        0.152994      -0.00112666    -0.000522357         0.965792       0.0530225       0.00109569     -0.00194584
                    -0.000880247    -0.000391857       -0.0202174        0.195763       0.00278686     -0.00123589        -0.230143        0.953035
                        0.965437       0.0524108       0.00276175     -0.00129214        -0.219223        0.129934     -0.000233965      0.00156963
                      0.00203297     -0.00180938        -0.230075        0.953167     -0.000456179      0.00227488        0.0718984       -0.183118
254000                  0.190039        0.144446      -0.00113826    -0.000543238         0.971019      -0.0143335      0.000812803     -0.00176141
                    -0.000865723    -0.000367745       -0.0267499        0.200098       0.00270077     -0.00142601        -0.177864        0.963094
                        0.970596      -0.0148882       0.00268448     -0.00145335        -0.186836        0.150215     -0.000218033      0.00156875
                      0.00194705     -0.00196427         -0.17781        0.963217     -0.000169055      0.00233418        0.0471111       -0.196224
254200                  0.176693        0.135772      -0.00114227    -0.000551054         0.971396      -0.0826079      0.000716053     -0.00139802
                    -0.000846514    -0.000343147       -0.0332053        0.203868       0.00259871     -0.00160904         -0.12521        0.970343
                        0.970921      -0.0830899       0.00259632      -0.0016081        -0.152386        0.164086     -0.000193772      0.00162202
                      0.00184541     -0.00211843        -0.125173        0.970458      0.000132088       0.0023368        0.0203095       -0.205479
254400                  0.162634        0.127032       -0.0011432    -0.000548558         0.966743       -0.151412      0.000978787     -0.00107009
                    -0.000821615    -0.000317352        -0.039571        0.207066       0.00248107     -0.00178267       -0.0723236        0.974785
                        0.966238       -0.151811       0.00249777     -0.00175577        -0.117099        0.171299     -0.000134315      0.00171862
                      0.00172744     -0.00226972       -0.0723048        0.974891      0.000430101      0.00227801      -0.00788656         -0.2106
254600                  0.147908        0.118286      -0.00114267    -0.000538512         0.956924       -0.220321        0.0014335     -0.00110482
                     -0.00078909    -0.000289083       -0.0458343        0.209688       0.00234872     -0.00194429         -0.01934        0.976426
                         0.95641       -0.220634       0.00238938     -0.00189581       -0.0822422        0.171848     -1.83956e-05      0.00183769
                      0.00159285     -0.00241587       -0.0193403        0.976524      0.000706347      0.00216068       -0.0368187       -0.211402
254800                  0.132564        0.109594      -0.00114096    -0.000522919         0.941845       -0.288884       0.00172167     -0.00146048
                    -0.000745054    -0.000255804       -0.0519822        0.211729       0.00220321     -0.00209101        0.0336074        0.975278
                        0.941346       -0.289114       0.00227173      -0.0020277       -0.0490748        0.165976      0.000165199      0.00194926
                      0.00144173     -0.00255446        0.0335878         0.97537      0.000944998      0.00199528       -0.0658058       -0.207805
255000                  0.116661        0.101018      -0.00113787    -0.000503124         0.921467       -0.356627       0.00175844     -0.00188881
                    -0.000680846      -0.0002116       -0.0580019        0.213186        0.0020472     -0.00221981        0.0863886        0.971356
                        0.921001       -0.356781       0.00214544     -0.00215103       -0.0187934        0.154176      0.000412139       0.0020189
                      0.00127462     -0.00268303        0.0863496        0.971442       0.00113643      0.00179716       -0.0941603       -0.199834
255200                  0.100267       0.0926144      -0.00113302    -0.000480026         0.895806       -0.423059       0.00162971       -0.002262
                    -0.000573044    -0.000138735       -0.0638803        0.214058       0.00188488     -0.00232788         0.138876        0.964679
                         0.89539       -0.423151       0.00201117     -0.00226542       0.00752062        0.137175      0.000700266      0.00201715
                      0.00109251     -0.00279919         0.138818        0.964758       0.00127826      0.00158266        -0.121205       -0.187625
255400                 0.0834534       0.0844381      -0.00112601    -0.000454256         0.864936       -0.487688       0.00141448     -0.00255577
                    -0.000331788     4.85638e-05       -0.0696042        0.214345       0.00172244     -0.00241358         0.190945        0.955268
                        0.864581       -0.487735       0.00186957     -0.00237055        0.0289517        0.115912      0.000994712      0.00192982
                     0.000896849     -0.00290068         0.190869        0.955341       0.00137406      0.00136573        -0.146291       -0.171417
255600                 0.0663024       0.0765383      -0.00111647    -0.000426283         0.828994       -0.550025       0.00115658     -0.00277784
                     0.000325744      0.00213714       -0.0751607        0.214046       0.00156811     -0.00247804         0.242471        0.943146
                        0.828706       -0.550045       0.00172132      -0.0024662        0.0447944       0.0914919       0.00125944      0.00176258
                     0.000689482     -0.00298553         0.242378        0.943213       0.00143088      0.00115622        -0.168812       -0.151549
255800                    0.0489       0.0689583      -0.00110408    -0.000396492         0.788176       -0.609593      0.000878296     -0.00294009
                     -0.00177687    -0.000453697        -0.080537        0.213165       0.00143055     -0.00252739         0.293333         0.92834
                        0.787956       -0.609605       0.00156711     -0.00255218         0.054587       0.0651456       0.00146849      0.00153651
                     0.000472624     -0.00305211         0.293223          0.9284       0.00145687     0.000959775        -0.188221       -0.128452
256000                 0.0313373       0.0617343      -0.00108855    -0.000365217         0.742736       -0.665943      0.000591454     -0.00305222
                     -0.00121027    -0.000394762       -0.0857204        0.211703       0.00131495     -0.00257394         0.343409        0.910877
                        0.742578       -0.665963        0.0014076     -0.00262837        0.0581332        0.038167       0.00161071      0.00127851
                     0.000248748     -0.00309921         0.343282        0.910931       0.00145966     0.000778598        -0.204044       -0.102637
256200                 0.0137086       0.0548946      -0.00106961    -0.000332771         0.692981       -0.718655      0.000303064     -0.00312146
                     -0.00103417      -0.0003441       -0.0906987        0.209665       0.00121767     -0.00263325         0.392577        0.890789
                        0.692877       -0.718699       0.00124348     -0.00269473        0.0555093       0.0118564       0.00168754      0.00101277
                     2.04887e-05     -0.00312613         0.392434        0.890835       0.00144548     0.000612569        -0.215891      -0.0746867
