! TOUCHSTONE file generated by CST MICROWAVE STUDIO
! Date and time: Sun Sep 28 21:29:17 2025
! Project name: biblioteca3_folgaOK.cst
! Parameters = {H=600; Lx=300; Ly=300; Nedge=20; P=520; mesh_pilar_nm=40; t_air=3500; t_sub=4000}
! Header version: 2018
! Port assignment regex: !\s*Touchstone port\s*([0-9]+)\s*=\s*(CST MWS port|CST DS port)\s*([0-9]+|Zmin|Zmax)\s*\(\"(.*)\"\)(\s*mode\s*([0-9]+))?.*
! Touchstone port assignment:
! Touchstone port 1 = CST MWS port Zmin ("") mode 1
! Touchstone port 2 = CST MWS port Zmin ("") mode 2
! Touchstone port 3 = CST MWS port Zmax ("") mode 1
! Touchstone port 4 = CST MWS port Zmax ("") mode 2
! S-Parameters are not renormalized. Each port impedance will be approximated by the real part at minimum frequency. The values are described via the [Reference] keyword.
! Default impedance is overridden by [Reference]
[Version] 2.0
# GHz S RI R 376.73
[Number of Ports] 4
[Reference]
376.73 376.73 376.73 376.73 
[Number of Frequencies] 401
[Network Data]
250000                  0.209302        0.217232      0.000293032      9.3836e-05         0.168002        0.938536      0.000702975    -0.000271682
                     0.000274771     3.72714e-05         0.211581         0.21583      0.000710815    -0.000207429         0.168069        0.938154
                        0.167812        0.938641      0.000756125    -0.000213554         0.121038       -0.276355     -0.000221708    -0.000366557
                     0.000750917    -0.000255117         0.168307        0.938262     -0.000227077    -0.000377259          0.12353       -0.275884
250200                  0.227526        0.194532      0.000311464     6.11566e-05         0.257234         0.91886      0.000675471    -0.000336813
                     0.000289241     1.41728e-05         0.229731        0.192716       0.00069294    -0.000268151         0.257317        0.918517
                        0.257092        0.918958      0.000728936    -0.000276428         0.093567       -0.284358     -0.000233254    -0.000346791
                     0.000718318    -0.000326482         0.257518         0.91858     -0.000238009    -0.000355128        0.0962122       -0.284011
250400                  0.243049        0.170132      0.000326682     2.59443e-05         0.344307        0.890798      0.000641618    -0.000399562
                     0.000302306    -1.16043e-05           0.2451         0.16793       0.00066896    -0.000328327         0.344412        0.890484
                        0.344205        0.890886      0.000696442     -0.00033735        0.0655712       -0.289322     -0.000243702    -0.000328515
                     0.000678909    -0.000394296         0.344577        0.890513     -0.000247975    -0.000334838        0.0683517       -0.289131
250600                  0.255695        0.144377      0.000338298    -1.15289e-05         0.428447        0.854571      0.000601625    -0.000459203
                     0.000313515    -4.01164e-05         0.257523        0.141829      0.000638784    -0.000387169         0.428578        0.854274
                        0.428376        0.854646      0.000658774    -0.000395772        0.0374081       -0.291216     -0.000253309    -0.000311453
                     0.000633138    -0.000457822         0.428708        0.854281     -0.000257157    -0.000316099        0.0403018       -0.291206
250800                  0.265332        0.117633      0.000345939    -5.09286e-05         0.508898        0.810468      0.000555801    -0.000515037
                     0.000322356    -7.13521e-05         0.266883        0.114785      0.000602453     -0.00044386         0.509055        0.810178
                        0.508851        0.810529      0.000616129    -0.000451157       0.00943619       -0.290048     -0.000262259    -0.000295379
                      0.00058154    -0.000516399         0.509154         0.81017     -0.000265698    -0.000298673        0.0124186       -0.290241
251000                  0.271877       0.0902776      0.000349254    -9.18564e-05         0.584931        0.758847      0.000504548    -0.000566406
                     0.000328265    -0.000105211         0.273107         0.08718      0.000560146    -0.000497579         0.585113        0.758554
                        0.584903        0.758895      0.000568769    -0.000502987         -0.01799       -0.285872     -0.000270683    -0.000280101
                     0.000524722    -0.000569449         0.585185        0.758539     -0.000273714     -0.00028236       -0.0149453       -0.286286
251200                  0.275299        0.062697       0.00034793     -0.00013385         0.655851        0.700132      0.000448352     -0.00061271
                      0.00033064    -0.000141481         0.276174       0.0594023      0.000512181    -0.000547527         0.656055        0.699826
                        0.655835        0.700169      0.000517016    -0.000550774       -0.0445248       -0.278784     -0.000278679     -0.00026546
                     0.000463348    -0.000616493         0.656104        0.699809       -0.0002813    -0.000266995       -0.0414456        -0.27943
251400                  0.275613        0.035276      0.000341703    -0.000176385         0.720998        0.634811      0.000387776     -0.00065342
                     0.000328862    -0.000179819          0.27611       0.0318376      0.000459009    -0.000592965          0.72122        0.634484
                        0.720992        0.634837       0.00046125    -0.000594067       -0.0698367       -0.268918     -0.000286315     -0.00025132
                     0.000398118    -0.000657144         0.721251        0.634468     -0.000288533    -0.000252433       -0.0667513       -0.269805
251600                  0.272887      0.00839326      0.000330366    -0.000218878         0.779759        0.563431      0.000323441    -0.000688083
                     0.000322327     -0.00021973         0.272989      0.00486504        0.0004012    -0.000633234         0.779992        0.563075
                        0.779758        0.563448      0.000401902    -0.000632459       -0.0936125       -0.256449     -0.000293641    -0.000237569
                     0.000329755    -0.000691115          0.78001        0.563063     -0.000295477    -0.000238553       -0.0905498       -0.257582
251800                  0.267235      -0.0175846      0.000313785    -0.000260697         0.831567        0.486597      0.000256015    -0.000716335
                     0.000310479     -0.00026056         0.266932      -0.0211488      0.000339421    -0.000667785         0.831805        0.486206
                         0.83157        0.486606      0.000339445    -0.000665596        -0.115562       -0.241589     -0.000300688    -0.000224109
                     0.000258985    -0.000718212         0.831812        0.486198     -0.000302187    -0.000225247        -0.112551       -0.242968
252000                  0.258816      -0.0423094      0.000291911    -0.000301163         0.875911        0.404966        0.0001862    -0.000737902
                     0.000292862    -0.000301493         0.258107       -0.045856      0.000274408    -0.000696189         0.876145        0.404536
                        0.875916         0.40497      0.000274387    -0.000693179        -0.135422       -0.224581     -0.000307479    -0.000210859
                      0.00018653    -0.000738329         0.876146        0.404533      -0.00030871     -0.00021242        -0.132492       -0.226204
252200                  0.247835      -0.0654572      0.000264786    -0.000339569         0.912339        0.319246      0.000114712    -0.000752602
                     0.000269163     -0.00034157         0.246722      -0.0689328       0.00020694    -0.000718151         0.912559        0.318774
                        0.912344        0.319246      0.000207266    -0.000714967        -0.152962       -0.205701     -0.000314024     -0.00019775
                     0.000113091    -0.000751441         0.912557        0.318775     -0.000315088    -0.000199985        -0.150139       -0.207559
252400                  0.234535      -0.0867336      0.000232556    -0.000375189         0.940461        0.230186      4.22711e-05    -0.000760341
                     0.000239264    -0.000379716          0.23303      -0.0900853      0.000137804    -0.000733507          0.94066        0.229671
                        0.940465        0.230184      0.000138635    -0.000730781        -0.167982       -0.185248     -0.000320328    -0.000184723
                      3.9342e-05    -0.000757595         0.940656        0.229675     -0.000321356    -0.000187866        -0.165295       -0.187333
252600                  0.219197       -0.105878      0.000195476    -0.000407298         0.959957        0.138578     -3.04133e-05     -0.00076111
                     0.000203273    -0.000414792         0.217316       -0.109055      6.77712e-05    -0.000742217         0.960125        0.138019
                        0.959961        0.138574      6.90587e-05    -0.000740502        -0.180324       -0.163547     -0.000326388    -0.000171729
                    -3.40784e-05      -0.0007569         0.960121        0.138026     -0.000327547    -0.000175988        -0.177798       -0.165843
252800                  0.202133        -0.12267      0.000153913    -0.000435185         0.970581       0.0452424     -0.000102653    -0.000754978
                     0.000161552    -0.000445654         0.199901       -0.125622     -2.42954e-06    -0.000744354         0.970709       0.0446425
                        0.970584       0.0452379     -8.95343e-07    -0.000744071        -0.189866       -0.140938     -0.000332198     -0.00015873
                    -0.000106569    -0.000749519         0.970705       0.0446504     -0.000333689     -0.00016428        -0.187525       -0.143428
253000                  0.183681       -0.136932      0.000108348    -0.000458177         0.972159        -0.04897      -0.00017379    -0.000742086
                     0.000114717    -0.000471224         0.181131       -0.139612     -7.21282e-05    -0.000740081         0.972239      -0.0496081
                        0.972162      -0.0489742     -7.06659e-05    -0.000741484         -0.19653       -0.117776     -0.000337748    -0.000145694
                    -0.000177568    -0.000735658         0.972236      -0.0496003     -0.000339809    -0.000152675        -0.194396       -0.120439
253200                  0.164202       -0.148533      5.93718e-05    -0.000475655         0.964602        -0.14319     -0.000243203    -0.000722637
                     6.36154e-05    -0.000490553         0.161372       -0.150898     -0.000140726    -0.000729631         0.964625       -0.143862
                        0.964604       -0.143193     -0.000139703    -0.000732795        -0.200283      -0.0944239     -0.000343025    -0.000132598
                    -0.000246558     -0.00071556         0.964623       -0.143855     -0.000345933    -0.000141102        -0.198374      -0.0972351
253400                  0.144069        -0.15739      7.67963e-06    -0.000487075         0.947899       -0.236534     -0.000310313    -0.000696885
                     9.28456e-06    -0.000502885         0.141007       -0.159405     -0.000207701    -0.000713285         0.947857       -0.237235
                        0.947901       -0.236537     -0.000207472    -0.000718104        -0.201135      -0.0712471     -0.000348017    -0.000119427
                    -0.000313057    -0.000689493         0.947857        -0.23723     -0.000352083    -0.000129486        -0.199466        -0.07418
253600                  0.123668       -0.163473     -4.59413e-05    -0.000491986         0.922125       -0.328116     -0.000374585     -0.00066513
                    -4.71074e-05    -0.000507694         0.120424        -0.16511     -0.000272607    -0.000691351         0.922012       -0.328839
                        0.922127       -0.328118     -0.000273462    -0.000697558        -0.199141      -0.0486087     -0.000352708    -0.000106174
                    -0.000376625     -0.00065775         0.922012       -0.328835     -0.000358279    -0.000117745        -0.197723      -0.0516342
253800                  0.103382       -0.166807     -0.000100624    -0.000490048         0.887442        -0.41705      -0.00043553    -0.000627707
                    -0.000104328    -0.000504699         0.100013       -0.168043     -0.000335065    -0.000664145         0.887251       -0.417787
                        0.887444       -0.417051     -0.000337184    -0.000671346        -0.194401      -0.0268642     -0.000357088    -9.28367e-05
                    -0.000436854     -0.00062064         0.887252       -0.417785     -0.000364538    -0.000105782        -0.193242      -0.0299515
254000                 0.0835908       -0.167466     -0.000155441    -0.000481044         0.844098       -0.502461     -0.000492704    -0.000584977
                    -0.000161146    -0.000493864        0.0801565        -0.16829     -0.000394756    -0.000631973         0.843824       -0.503204
                          0.8441       -0.502461     -0.000398177    -0.000639691        -0.187062     -0.00635552     -0.000361147    -7.94233e-05
                    -0.000493369    -0.000578482         0.843824       -0.503204     -0.000370871    -9.34797e-05        -0.186164     -0.00947296
254200                 0.0646617        -0.16558     -0.000209421    -0.000464893         0.792426       -0.583494     -0.000545704    -0.000537325
                    -0.000216384    -0.000475368        0.0612232        -0.16599     -0.000451407    -0.000595124         0.792065       -0.584234
                        0.792429       -0.583495     -0.000456005    -0.000602848        -0.177309       0.0125943     -0.000364881    -6.59466e-05
                    -0.000545819    -0.000531607         0.792064       -0.584235     -0.000377271    -8.06837e-05         -0.17667      0.00947859
254400                 0.0469408       -0.161328     -0.000261573    -0.000441657         0.732848       -0.659324     -0.000594169    -0.000485151
                    -0.000268963    -0.000449572         0.043559       -0.161332     -0.000504773    -0.000553861         0.732396        -0.66005
                        0.732851       -0.659324     -0.000510264    -0.000561099        -0.165372       0.0296865     -0.000368294    -5.24258e-05
                     -0.00059388    -0.000480354         0.732394       -0.660053     -0.000383698    -6.71811e-05        -0.164985       0.0266036
254600                 0.0307473       -0.154941     -0.000310909    -0.000411543         0.665867       -0.729161     -0.000637773    -0.000428864
                    -0.000317919    -0.000416976        0.0274811       -0.154555     -0.000554626     -0.00050842         0.665321       -0.729862
                         0.66587       -0.729161     -0.000560574    -0.000514753        -0.151516       0.0446513     -0.000371396    -3.88849e-05
                    -0.000637245    -0.000425069          0.66532       -0.729865     -0.000390026    -5.26636e-05        -0.151368       0.0416308
254800                 0.0163663        -0.14669     -0.000356466    -0.000374907         0.592068       -0.792261     -0.000676223    -0.000368885
                    -0.000362411    -0.000378176        0.0132707       -0.145941     -0.000600734     -0.00045901         0.591428       -0.792926
                        0.592071        -0.79226     -0.000606584    -0.000464135         -0.13604       0.0572532     -0.000374212    -2.53509e-05
                    -0.000675623    -0.000366108         0.591426       -0.792929     -0.000395917    -3.66819e-05        -0.136115       0.0543224
255000                0.00404212       -0.136891     -0.000397332    -0.000332245         0.512114       -0.847933     -0.000709252    -0.000305639
                    -0.000401712    -0.000333835       0.00116718       -0.135814     -0.000642851    -0.000405826         0.511379        -0.84855
                        0.512116       -0.847933     -0.000647967    -0.000409595        -0.119274       0.0672951     -0.000376779    -1.18518e-05
                    -0.000708734    -0.000303837         0.511377       -0.848553     -0.000400475    -1.86602e-05        -0.119551       0.0644778
255200               -0.00602709       -0.125893     -0.000432665    -0.000284188         0.426738       -0.895553     -0.000736621    -0.000239561
                    -0.000435197    -0.000284656      -0.00863786       -0.124529     -0.000680704    -0.000349054         0.425911       -0.896109
                         0.42674       -0.895553     -0.000684421    -0.000351495        -0.101571       0.0746218     -0.000379153     1.58757e-06
                     -0.00073631    -0.000238634         0.425909       -0.896112      -0.00040146     1.55791e-06        -0.102026       0.0719378
255400                -0.0136948       -0.114073     -0.000461716     -0.00023149         0.336742       -0.934563     -0.000758106    -0.000171091
                     -0.00046232    -0.000231383        -0.016005        -0.11247     -0.000713984    -0.000288889         0.335826       -0.935046
                        0.336744       -0.934563     -0.000715664    -0.000290221       -0.0833052       0.0791234     -0.000381409     1.49491e-05
                    -0.000758088    -0.000170897         0.335825       -0.935048     -0.000394893     2.07851e-05       -0.0839116        0.076588
255600                -0.0188698       -0.101831     -0.000483848    -0.000175009         0.242988       -0.964486     -0.000773502     -0.00010068
                    -0.000482607    -0.000174793       -0.0208512        -0.10004     -0.000742346    -0.000225551         0.241987       -0.964882
                        0.242989       -0.964485     -0.000741437    -0.000226171       -0.0648642       0.0807375     -0.000383643     2.82279e-05
                    -0.000773813    -0.000101041         0.241987       -0.964884     -0.000382779     2.84165e-05       -0.0655932       0.0783609
255800                -0.0215198      -0.0895787      -0.00049855    -0.000115697         0.146389       -0.984928     -0.000782617    -2.87943e-05
                    -0.000495648    -0.000115713       -0.0231522      -0.0876564     -0.000765401    -0.000159306         0.145309       -0.985225
                        0.146389       -0.984927     -0.000761498    -0.000159768       -0.0466433       0.0794509     -0.000385977     4.14396e-05
                    -0.000783232    -2.95132e-05         0.145311       -0.985225     -0.000382115     2.43714e-05       -0.0474652       0.0772378
256000                -0.0216729      -0.0777365     -0.000505454    -5.45706e-05         0.047901       -0.995586     -0.000785271     4.40828e-05
                    -0.000501103    -5.50311e-05       -0.0229445      -0.0757391     -0.000782732     -9.0483e-05        0.0467507        -0.99577
                       0.0479008       -0.995584     -0.000775623    -9.14556e-05       -0.0290389       0.0752999     -0.000388554     5.46294e-05
                    -0.000786101     4.32075e-05        0.0467552        -0.99577     -0.000394419     2.58142e-05       -0.0299245       0.0732495
256200                 -0.019419      -0.0667211     -0.000504346     7.30564e-06       -0.0514835       -0.996252     -0.000781291     0.000117441
                    -0.000498724     6.29045e-06       -0.0203264      -0.0647062     -0.000793898    -1.94973e-05       -0.0526945        -0.99631
                      -0.0514839        -0.99625     -0.000783609    -2.17061e-05        -0.012443       0.0683703     -0.000391542     6.78835e-05
                    -0.000782184     0.000116599       -0.0526873       -0.996311     -0.000409016     3.59006e-05       -0.0133642       0.0664764
