! TOUCHSTONE file generated by CST MICROWAVE STUDIO
! Date and time: Fri Sep 26 20:22:16 2025
! Project name: biblioteca3_folgaOK.cst
! Parameters = {H=600; Lx=200; Ly=260; Nedge=24; P=520; k=0; mesh_pilar_nm=40; n=0; t_air=3800; t_sub=3000; wavelength_nm=0}
! Header version: 2018
! Port assignment regex: !\s*Touchstone port\s*([0-9]+)\s*=\s*(CST MWS port|CST DS port)\s*([0-9]+|Zmin|Zmax)\s*\(\"(.*)\"\)(\s*mode\s*([0-9]+))?.*
! Touchstone port assignment:
! Touchstone port 1 = CST MWS port Zmin ("") mode 1
! Touchstone port 2 = CST MWS port Zmin ("") mode 2
! Touchstone port 3 = CST MWS port Zmax ("") mode 1
! Touchstone port 4 = CST MWS port Zmax ("") mode 2
! S-Parameters are not renormalized. Each port impedance will be approximated by the real part at minimum frequency. The values are described via the [Reference] keyword.
! Default impedance is overridden by [Reference]
[Version] 2.0
# GHz S RI R 376.73
[Number of Ports] 4
[Reference]
376.73 376.73 376.73 376.73 
[Number of Frequencies] 401
[Network Data]
250000                  0.149635      -0.0682218       -0.0020621     -0.00147065         0.959489       -0.226855     -0.000991013     0.000315863
                     -0.00181632     -0.00145344       -0.0997273       -0.220727     -0.000744133      0.00119053         0.211238        0.946217
                        0.960009       -0.226608     -0.000909429      0.00137638        -0.164331      0.00582681       0.00189599      0.00137619
                    -0.000748586      0.00100006         0.212494        0.946652       0.00196919      0.00116528       0.00398589        0.242143
250200                  0.151342      -0.0910378      -0.00220867     -0.00123023         0.928701       -0.325303     -0.000803567     0.000449309
                     -0.00200551     -0.00124967        -0.112867       -0.209375      -0.00060166       0.0012916         0.295568        0.924595
                        0.928984       -0.325363     -0.000732575      0.00147842        -0.175069       0.0231816       0.00196725      0.00115073
                    -0.000652109      0.00108643         0.296593        0.925107        0.0021221     0.000982917        0.0297491        0.235969
250400                  0.149645       -0.114496      -0.00232969    -0.000971302         0.887727       -0.419781     -0.000637185     0.000576358
                     -0.00216758     -0.00101783        -0.124723       -0.197296     -0.000448519      0.00137411         0.377787        0.895414
                        0.887777       -0.420012     -0.000546917      0.00155558        -0.183436       0.0429742       0.00204724     0.000944108
                    -0.000546862        0.001161         0.378619         0.89598        0.0022515     0.000784079        0.0544244        0.226959
250600                   0.14448       -0.138084      -0.00242253    -0.000697154         0.837103       -0.509214     -0.000484248     0.000693287
                     -0.00229851    -0.000763094        -0.135263       -0.184635      -0.00028673      0.00143711         0.457219        0.858877
                        0.836949       -0.509511     -0.000355968      0.00160812        -0.189021        0.064832       0.00212987     0.000742862
                    -0.000434533       0.0012243         0.457882        0.859476       0.00235692     0.000573693        0.0776888        0.215267
250800                  0.135856       -0.161295      -0.00248512    -0.000411475          0.77748       -0.592605     -0.000339062     0.000798163
                     -0.00239564    -0.000491011        -0.144469       -0.171537      -0.00011837       0.0014797         0.533203        0.815241
                         0.77716       -0.592893     -0.000162761      0.00163668        -0.191471       0.0883208       0.00220997     0.000539258
                    -0.000316021      0.00127682         0.533716         0.81586       0.00243932     0.000355737        0.0992394        0.201082
251000                  0.123857       -0.183637      -0.00251603    -0.000118221         0.709607       -0.669053     -0.000197528      0.00088986
                     -0.00245758    -0.000207056         -0.15234       -0.158145      5.43642e-05      0.00150105         0.605103        0.764823
                        0.709164       -0.669282      3.00956e-05      0.00164203        -0.190505        0.112953       0.00228284     0.000328922
                     -0.00019173       0.0013187         0.605479        0.765456       0.00250032     0.000132849         0.118798        0.184628
251200                  0.108631        -0.20464      -0.00251443     0.000178518         0.634317       -0.737754     -5.68024e-05     0.000967536
                     -0.00248392     8.36474e-05        -0.158893       -0.144602      0.000229089      0.00150045         0.672311        0.707997
                        0.633792       -0.737895      0.000220315      0.00162498        -0.185918        0.138201       0.00234415     0.000109731
                    -6.18529e-05      0.00134966          0.67256        0.708643       0.00254145    -9.36395e-05         0.136113        0.166164
251400                 0.0903854       -0.223865      -0.00248015     0.000474641         0.552514       -0.798013      8.49665e-05      0.00103038
                     -0.00247495      0.00037647        -0.164159       -0.131045      0.000403189      0.00147733         0.734249        0.645191
                        0.551942       -0.798052      0.000405822      0.00158635        -0.177587        0.163506       0.00238994    -0.000118766
                     7.33764e-05      0.00136898         0.734382        0.645854       0.00256355    -0.000323294         0.150967        0.145974
251600                 0.0693857        -0.24091      -0.00241364     0.000766155         0.465161       -0.849242      0.000228819       0.0010775
                     -0.00243142     0.000667295        -0.168184       -0.117604      0.000573784      0.00143137         0.790378        0.576885
                        0.464567       -0.849177      0.000584643      0.00152691        -0.165476        0.188293       0.00241666     -0.00035571
                     0.000213506      0.00137564         0.790409        0.577569       0.00256652    -0.000555973         0.163177         0.12437
251800                 0.0459453       -0.255414      -0.00231586      0.00104928         0.373259       -0.890966      0.000375104      0.00110789
                     -0.00235432     0.000952448         -0.17103       -0.104401      0.000737735      0.00136264         0.840201        0.503606
                        0.372664       -0.890802       0.00075481      0.00144742        -0.149637        0.211985       0.00242135    -0.000599195
                     0.000357742      0.00136841         0.840144        0.504321        0.0025494    -0.000791223         0.172598        0.101681
252000                 0.0204212       -0.267066      -0.00218826      0.00132051         0.277844       -0.922825      0.000523548       0.0011205
                     -0.00224473      0.00122856        -0.172771      -0.0915459      0.000891693      0.00127166         0.883267        0.425931
                        0.277261       -0.922566       0.00091429       0.0013487         -0.13021        0.234017       0.00240171    -0.000846509
                     0.000504878      0.00134599          0.88314        0.426682       0.00251071     -0.00102785         0.179126       0.0782557
252200               -0.00679294       -0.275604      -0.00203268      0.00157669         0.179968       -0.944566        0.0006733      0.00111421
                     -0.00210383      0.00149245        -0.173492      -0.0791397       0.00103219      0.00115957         0.919175        0.344477
                        0.179403       -0.944219       0.00106094       0.0012317        -0.107422        0.253844       0.00235623     -0.00109438
                     0.000653279      0.00130718         0.918999        0.345269         0.002449     -0.00126375         0.182701       0.0544504
252400                -0.0352744       -0.280827      -0.00185125      0.00181505        0.0806901        -0.95605      0.000822965      0.00108801
                     -0.00193286      0.00174097        -0.173288       -0.067268       0.00115577      0.00102816         0.947581        0.259899
                       0.0801477       -0.955619        0.0011925       0.0010976       -0.0815768        0.270963       0.00228421      -0.0013392
                     0.000800906      0.00125102         0.947378        0.260733       0.00236325     -0.00149603         0.183304       0.0306289
252600                -0.0645789       -0.282589      -0.00164633       0.0020332       -0.0189353       -0.957244      0.000970637      0.00104101
                     -0.00173325      0.00197097        -0.172263      -0.0560028       0.00125921     0.000879987           0.9682        0.172886
                      -0.0194506       -0.956731       0.00130662     0.000947924       -0.0530545        0.284913       0.00218581     -0.00157731
                     0.000945385      0.00117688         0.967991        0.173758       0.00225325     -0.00172128         0.180961       0.0071551
252800                -0.0942496        -0.28081      -0.00142044      0.00222913        -0.117866       -0.948217       0.00111395     0.000972656
                     -0.00150671      0.00217926        -0.170525       -0.045401       0.00133964     0.000718276         0.980809       0.0841563
                       -0.118349       -0.947626       0.00140095     0.000784638       -0.0223002        0.295298       0.00206193     -0.00180516
                      0.00108411      0.00108461         0.980614       0.0850586       0.00211971     -0.00193597         0.175745      -0.0156124
253000                 -0.123825        -0.27547      -0.00117615      0.00240125        -0.215082       -0.929141       0.00125015     0.000882741
                      -0.0012553      0.00236263        -0.168188      -0.0355038       0.00139486     0.000546872         0.985252     -0.00555107
                       -0.215526       -0.928472       0.00147326     0.000610194        0.0101847        0.301784       0.00191413      -0.0020195
                      0.00121438     0.000974539         0.985088     -0.00463074        0.0019642     -0.00213681         0.167771      -0.0373253
253200                  -0.15285       -0.266611     -0.000916109       0.0025483        -0.309595       -0.900283        0.0013762      0.00077159
                    -0.000981549      0.00251796        -0.165366      -0.0263368       0.00142339     0.000370043         0.981441      -0.0954796
                        -0.30999       -0.899539       0.00152155     0.000427581        0.0438529        0.304114        0.0017445     -0.00221753
                      0.00133353     0.000847552         0.981322      -0.0945571       0.00178899     -0.00232101         0.157195      -0.0576513
253400                 -0.180879       -0.254336     -0.000642913       0.0026694        -0.400454       -0.861999       0.00148891     0.000640111
                    -0.000688482      0.00264231        -0.162173      -0.0179099       0.00142464     0.000192245         0.969361       -0.184863
                       -0.400787       -0.861186       0.00154426     0.000240286        0.0781229        0.302113        0.0015555     -0.00239693
                      0.00143904     0.000705008         0.969294       -0.183957       0.00159679     -0.00248644         0.144216      -0.0762791
253600                 -0.207492       -0.238805     -0.000359124      0.00276404        -0.486753       -0.814734       0.00158506     0.000489866
                    -0.000379608      0.00273308        -0.158722      -0.0102174       0.00139889     1.78301e-05         0.949066       -0.272932
                       -0.487009       -0.813861        0.0015404     5.21999e-05         0.112391        0.295688        0.0013498     -0.00255595
                      0.00152869     0.000548701         0.949054       -0.272061       0.00139049     -0.00263166          0.12907      -0.0929239
253800                 -0.232294        -0.22023     -6.71916e-05      0.00283212        -0.567637       -0.759013       0.00166166      0.00032307
                    -5.88628e-05       0.0027881        -0.155119     -0.00323919       0.00134715    -0.000149264         0.920687       -0.358923
                       -0.567803       -0.758094       0.00150969    -0.000132546         0.146042        0.284834       0.00113014     -0.00269331
                      0.00160061     0.000380753         0.920726       -0.358105       0.00117297     -0.00275589         0.112026       -0.107332
254000                 -0.254929       -0.198872      0.000230615      0.00287403        -0.642311       -0.695434       0.00171602     0.000142561
                     0.000269487      0.00280577        -0.151468      0.00305916       0.00127099    -0.000305842         0.884425        -0.44208
                       -0.642373       -0.694491       0.00145259    -0.000309802         0.178465        0.269632      0.000899261     -0.00280824
                      0.00165333     0.000203512         0.884504       -0.441332      0.000946942     -0.00285886         0.093386       -0.119283
254200                 -0.275079       -0.175029      0.000532368      0.00289081         -0.71004        -0.62467       0.00174598    -4.82983e-05
                     0.000600975      0.00278505         -0.14786      0.00872485       0.00117212    -0.000449849         0.840555        -0.52167
                       -0.709987       -0.623727        0.0013703    -0.000475668         0.209061         0.25025      0.000659757     -0.00290033
                      0.00168579     1.94483e-05          0.84066       -0.521003      0.000714828     -0.00294072        0.0734756       -0.128599
254400                 -0.292471       -0.149038      0.000836827      0.00288446        -0.770161       -0.547452       0.00175001    -0.000245753
                      0.00093106      0.00272553        -0.144381       0.0138168       0.00105202    -0.000580987         0.789422       -0.596984
                       -0.769988       -0.546539       0.00126455    -0.000626774         0.237259         0.22694      0.000414073     -0.00296951
                      0.00169729    -0.000168941         0.789535       -0.596404      0.000478757      -0.0030019        0.0526424       -0.135141
254600                 -0.306879       -0.121262       0.00114428      0.00285852         -0.82208       -0.464572       0.00172729    -0.000445823
                      0.00125524      0.00262737        -0.141105       0.0184044      0.000911589    -0.000702054         0.731438       -0.667345
                       -0.821788       -0.463724       0.00113739      -0.0007606         0.262524        0.200032      0.000164453     -0.00301598
                      0.00168747    -0.000359196         0.731539       -0.666854      0.000240547       -0.003043        0.0312494       -0.138817
254800                 -0.318129      -0.0920826       0.00145877      0.00281902        -0.865285       -0.376875       0.00167775    -0.000644488
                      0.00156914      0.00249119        -0.138091       0.0225656      0.000752111    -0.000822122         0.667081       -0.732119
                       -0.864881       -0.376123       0.00099077    -0.000875851         0.284372        0.169931      -8.7058e-05     -0.00304008
                      0.00165623    -0.000548934         0.667151        -0.73171      1.73145e-06     -0.00306468       0.00966927       -0.139579
255000                 -0.326095      -0.0618993       0.00179468      0.00277538        -0.899343       -0.285246         0.001602    -0.000837858
                      0.00186852      0.00231806         -0.13539       0.0263855      0.000583351    -0.000962345         0.596891       -0.790716
                       -0.898844       -0.284625      0.000826118    -0.000973086         0.302373        0.137106     -0.000338607      -0.0030423
                      0.00160368    -0.000735861          0.59691       -0.790376     -0.000236394     -0.00306764       -0.0117215       -0.137429
255200                 -0.330702      -0.0311179       0.00219777      0.00273429        -0.923906       -0.190611        0.0015013     -0.00102233
                      0.00214932      0.00210937        -0.133035       0.0299545      0.000454408     -0.00114632         0.521461         -0.8426
                       -0.923336        -0.19015      0.000644103     -0.00105595         0.316168        0.102086     -0.000588514      -0.0030232
                      0.00153008    -0.000917758         0.521415       -0.842311     -0.000472727     -0.00305251       -0.0325489       -0.132417
255400                 -0.331927    -0.000147381        0.0027949      0.00262352        -0.938718      -0.0939259       0.00137742     -0.00119471
                      0.00240759       0.0018668        -0.131047       0.0333664      0.000447725     -0.00130525         0.441438       -0.887293
                       -0.938107      -0.0936472      0.000445727     -0.00113367         0.325472        0.065447     -0.000835243     -0.00298338
                      0.00143581     -0.00109245         0.441318       -0.887033     -0.000706307     -0.00301988       -0.0524475       -0.124639
255600                 -0.329795       0.0306063       0.00352159      0.00197791        -0.943612       0.0038312       0.00123251     -0.00135225
                      0.00263942       0.0015923        -0.129431       0.0367163      0.000478367      -0.0013155         0.357509        -0.92438
                       -0.942996      0.00391238      0.000238385     -0.00122416         0.330079       0.0278043      -0.00107737     -0.00292347
                      0.00132136     -0.00125776         0.357314       -0.924122     -0.000936268     -0.00297025       -0.0710662       -0.114237
255800                 -0.324383        0.060745       0.00345684      0.00109142        -0.938514        0.101667       0.00106893     -0.00149274
                      0.00284092      0.00128817        -0.128178       0.0400988      0.000432631     -0.00125109         0.270405       -0.953513
                       -0.937932        0.101546      5.19861e-05     -0.00134745         0.329872      -0.0102013      -0.00131357     -0.00284409
                      0.00118732     -0.00141145         0.270139       -0.953232       -0.0011618     -0.00290407       -0.0880746       -0.101398
256000                 -0.315814       0.0898845       0.00323899     0.000754411        -0.923448        0.198582      0.000889175     -0.00161444
                      0.00300812     0.000957069        -0.127264       0.0436058      0.000338168     -0.00118749         0.180884       -0.974415
                       -0.922939        0.198267      -5.8828e-05      -0.0014854         0.324824      -0.0479147      -0.00154256     -0.00274589
                      0.00103446     -0.00155119          0.18056       -0.974088       -0.0013821      -0.0028217        -0.103168      -0.0863506
256200                  -0.30426         0.11766       0.00319787     0.000533892        -0.898533        0.293579      0.000695724     -0.00171603
                      0.00313704     0.000602218        -0.126651       0.0473247       0.00022981     -0.00113393        0.0897312       -0.986882
                       -0.898132        0.293088     -8.79844e-05     -0.00156428         0.314999      -0.0846791      -0.00176311     -0.00262952
                     0.000863766     -0.00167454        0.0893673       -0.986489      -0.00159637     -0.00272345        -0.116073       -0.069359
