! TOUCHSTONE file generated by CST MICROWAVE STUDIO
! Date and time: Fri Sep 26 07:21:56 2025
! Project name: biblioteca3_folgaOK.cst
! Parameters = {H=600; Lx=200; Ly=260; Nedge=4; P=520; k=0; mesh_pilar_nm=40; n=0; t_air=3500; t_sub=2000; wavelength_nm=0}
! Header version: 2018
! Port assignment regex: !\s*Touchstone port\s*([0-9]+)\s*=\s*(CST MWS port|CST DS port)\s*([0-9]+|Zmin|Zmax)\s*\(\"(.*)\"\)(\s*mode\s*([0-9]+))?.*
! Touchstone port assignment:
! Touchstone port 1 = CST MWS port Zmin ("") mode 1
! Touchstone port 2 = CST MWS port Zmin ("") mode 2
! Touchstone port 3 = CST MWS port Zmax ("") mode 1
! Touchstone port 4 = CST MWS port Zmax ("") mode 2
! S-Parameters are not renormalized. Each port impedance will be approximated by the real part at minimum frequency. The values are described via the [Reference] keyword.
! Default impedance is overridden by [Reference]
[Version] 2.0
# GHz S RI R 376.73
[Number of Ports] 4
[Reference]
376.73 376.73 376.73 376.73 
[Number of Frequencies] 401
[Network Data]
250000                 -0.291376       -0.112714      0.000532046     -0.00124446         0.650753       -0.692062      0.000530905      0.00163414
                     0.000566436     -0.00128927       -0.0143004        -0.19666     -0.000667793      0.00170461         0.762533        0.616156
                        0.650614        -0.69208     -0.000691269      0.00165557         -0.13045       -0.283892      0.000146052    -0.000815579
                     0.000542382      0.00167972         0.762747        0.616062      8.07147e-05    -0.000870863          0.19525      -0.0272907
250200                 -0.290701      -0.0925772      0.000418168     -0.00126126         0.595926       -0.742939      0.000634923       0.0016071
                     0.000449524     -0.00132252       -0.0229943       -0.198858     -0.000557157      0.00178275         0.800314        0.565076
                        0.596016       -0.742935     -0.000573953      0.00174684        -0.153504       -0.264332      0.000110735    -0.000840614
                     0.000653138      0.00164339         0.800684        0.564993      4.25794e-05    -0.000892049         0.195165      -0.0448203
250400                 -0.288355      -0.0728352      0.000302737     -0.00127195          0.53693       -0.789613      0.000738793      0.00157434
                     0.000329158     -0.00134627       -0.0319359       -0.200571     -0.000435868      0.00185385         0.834739        0.511652
                        0.537195        -0.78962     -0.000444565      0.00182837        -0.173947        -0.24248      7.26098e-05    -0.000864882
                      0.00076234      0.00160167         0.835215        0.511559        1.821e-06    -0.000912146         0.193382      -0.0624999
250600                 -0.284384      -0.0536461      0.000186035     -0.00127611         0.474072       -0.831726      0.000842281      0.00153568
                      0.00020618     -0.00136009       -0.0410947       -0.201776     -0.000304296      0.00191635         0.865656        0.456104
                        0.474462       -0.831764     -0.000304134      0.00189842        -0.191496       -0.218702      3.15458e-05    -0.000888156
                     0.000869864      0.00155443         0.866195         0.45599     -4.16534e-05    -0.000930927          0.18988      -0.0801505
250800                 -0.278848      -0.0351643      6.84086e-05     -0.00127335         0.407691       -0.868939      0.000945123      0.00149091
                     8.14927e-05     -0.00136361       -0.0504382       -0.202454     -0.000163055      0.00196873         0.892928         0.39866
                        0.408161       -0.869016     -0.000153973      0.00195545        -0.205929       -0.193404     -1.25816e-05    -0.000910183
                     0.000975549      0.00150153         0.893495        0.398522     -8.79276e-05    -0.000948138         0.184657      -0.0975919
251000                 -0.271824      -0.0175386     -4.97383e-05     -0.00126325          0.33816       -0.900934       0.00104702      0.00143986
                    -4.39542e-05     -0.00135657        -0.059932       -0.202585     -1.30237e-05      0.00200947         0.916435        0.339561
                        0.338669       -0.901051      4.35442e-06      0.00199808        -0.217084       -0.167019     -5.98868e-05    -0.000930677
                       0.0010792      0.00144282         0.917002          0.3394     -0.000137072      -0.0009635          0.17773       -0.114645
251200                 -0.263405      -0.0009099     -0.000167935     -0.00124546         0.265879       -0.927421       0.00114765      0.00138233
                    -0.000169174     -0.00133881       -0.0695401       -0.202156      0.000144662      0.00203715         0.936072        0.279053
                        0.266395       -0.927572      0.000169083      0.00202522        -0.224866       -0.140001      -0.00011047    -0.000949317
                      0.00118056      0.00137816         0.936617        0.278874     -0.000189141    -0.000976702         0.169137       -0.131133
251400                 -0.253699       0.0145898     -0.000285643      -0.0012196         0.191281       -0.948137       0.00124662      0.00131814
                    -0.000293154     -0.00131025       -0.0792248       -0.201153      0.000308613       0.0020505         0.951752        0.217388
                        0.191778        -0.94831      0.000338304      0.00203605        -0.229247       -0.112807     -0.000164413    -0.000965748
                      0.00127937      0.00130739         0.952259        0.217198     -0.000244166    -0.000987404         0.158933       -0.146887
251600                 -0.242828       0.0288398     -0.000402257     -0.00118539         0.114825       -0.962855       0.00134353      0.00124712
                    -0.000414869     -0.00127095       -0.0889474       -0.199566       0.00047721      0.00204842         0.963404        0.154825
                        0.115285       -0.963035      0.000510024      0.00203009        -0.230263      -0.0858932     -0.000221772    -0.000979576
                      0.00137528      0.00123038         0.963864        0.154632     -0.000302153    -0.000995237         0.147193       -0.161742
251800                 -0.230928        0.041732     -0.000517105     -0.00114256        0.0369973       -0.971379       0.00143792      0.00116911
                    -0.000533291     -0.00122105        -0.098668       -0.197389       0.00064864      0.00203005         0.970975       0.0916268
                       0.0374086        -0.97155       0.00068223      0.00200714        -0.228017      -0.0597031     -0.000282571     -0.00099037
                      0.00146792      0.00114701         0.971382       0.0914379     -0.000363075    -0.000999797         0.134007       -0.175545
252000                 -0.218143       0.0531726     -0.000629447     -0.00109091       -0.0416934       -0.973556       0.00152928      0.00108399
                    -0.000647408     -0.00116081        -0.108346       -0.194617      0.000820944      0.00199484         0.974429       0.0280572
                      -0.0413359       -0.973702      0.000852946      0.00196729        -0.222673      -0.0346563     -0.000346796    -0.000997657
                      0.00155688      0.00105716         0.974782       0.0278797     -0.000426864     -0.00100065          0.11948       -0.188152
252200                 -0.204633       0.0630835     -0.000738486     -0.00103032        -0.120718       -0.969275       0.00161708     0.000991662
                    -0.000756228      -0.0010906         -0.11794       -0.191249      0.000992071       0.0019425         0.973748      -0.0356168
                       -0.120414       -0.969381       0.00102028      0.00191093        -0.214449      -0.0111424     -0.000414382     -0.00100093
                      0.00164168      0.00096077         0.974047      -0.0357772     -0.000493404    -0.000997333          0.10373       -0.199429
252400                 -0.190563       0.0714035     -0.000843366    -0.000960741        -0.199531       -0.958469       0.00170071     0.000892058
                    -0.000858801      -0.0010109        -0.127408       -0.187287       0.00115994      0.00187309         0.968931      -0.0991281
                       -0.199274       -0.958524       0.00118248      0.00183865        -0.203615       0.0104871     -0.000485207    -0.000999636
                      0.00172181     0.000857785          0.96918      -0.0992673     -0.000562523    -0.000989356        0.0868897       -0.209257
252600                 -0.176104       0.0780898      -0.00094319    -0.000882241        -0.277573       -0.941121       0.00177953     0.000785165
                    -0.000954221    -0.000922257         -0.13671       -0.182736        0.0013225      0.00178697         0.959992        -0.16221
                       -0.277356       -0.941114       0.00133792      0.00175127        -0.190484       0.0299247     -0.000559081    -0.000993203
                      0.00179671     0.000748204         0.960197       -0.162326     -0.000633982    -0.000976206        0.0691013       -0.217531
252800                 -0.161435       0.0831184      -0.00103702    -0.000794985        -0.354279       -0.917263       0.00185287     0.000671024
                     -0.00104165    -0.000825346        -0.145802       -0.177606       0.00147779      0.00168482         0.946966       -0.224598
                        -0.35409        -0.91719        0.0014852      0.00164974        -0.175404       0.0469117     -0.000635732    -0.000981024
                      0.00186577     0.000632077         0.947133        -0.22469     -0.000707469    -0.000957353         0.050517       -0.224159
253000                 -0.146733       0.0864851      -0.00112392    -0.000699258         -0.42908       -0.886982       0.00192001     0.000549736
                     -0.00112031    -0.000720912        -0.154645       -0.171906         0.001624      0.00156756         0.929901        -0.28603
                       -0.428905        -0.88684       0.00162305      0.00153514        -0.158753       0.0612425     -0.000714796    -0.000962476
                      0.00192835     0.000509511         0.930036       -0.286098     -0.000782583    -0.000932262        0.0312975       -0.229064
253200                  -0.13218       0.0882057      -0.00120291    -0.000595474        -0.501408       -0.850415       0.00198018     0.000421479
                      -0.0011895    -0.000609775        -0.163197       -0.165653        0.0017595      0.00143637         0.908864       -0.346247
                       -0.501236       -0.850207        0.0017504      0.00140861        -0.140933       0.0727669     -0.000795806    -0.000936931
                      0.00198377     0.000380681         0.908973       -0.346295      -0.00085883    -0.000900399        0.0116105       -0.232186
253400                 -0.117952       0.0883163      -0.00127307    -0.000484177        -0.570706       -0.807757       0.00203261      0.00028651
                     -0.00124863    -0.000492824         -0.17142       -0.158863        0.0018829       0.0012926         0.883938       -0.404995
                       -0.570523       -0.807487       0.00186637      0.00127133        -0.122354        0.081392     -0.000878181    -0.000903771
                      0.00203132     0.000245839         0.884026       -0.405026      -0.00093561    -0.000861251      -0.00837124       -0.233481
253600                 -0.104222       0.0868729      -0.00133348    -0.000366046        -0.636428       -0.759254        0.0020765     0.000145179
                     -0.00129717    -0.000371004        -0.179274       -0.151557       0.00199301      0.00113774          0.85522       -0.462027
                       -0.636225       -0.758932       0.00197022      0.00112453        -0.103437       0.0870833     -0.000961218    -0.000862404
                      0.00207027     0.000105324         0.855292       -0.462044      -0.00101221    -0.000814342       -0.0284706       -0.232921
253800                -0.0911555       0.0839513      -0.00138331    -0.000241892         -0.69805       -0.705209       0.00211104     -2.0665e-06
                     -0.00133472    -0.000245304        -0.186722       -0.143759       0.00208892     0.000973345         0.822824       -0.517099
                       -0.697818       -0.704845       0.00206134     0.000969406       -0.0845973       0.0898643      -0.00104408    -0.000812289
                      0.00209989    -4.04346e-05         0.822882       -0.517109      -0.00108781    -0.000759254       -0.0485081       -0.230497
254000                -0.0789081       0.0796455      -0.00142179    -0.000112656        -0.755075       -0.645974       0.00213542    -0.000154671
                     -0.00136096    -0.000116746         -0.19373       -0.135496       0.00216993     0.000801026         0.786878       -0.569979
                       -0.754807       -0.645581       0.00213926     0.000807146       -0.0662418       0.0898155      -0.00112581    -0.000752964
                      0.00211944    -0.000190905         0.786925       -0.569986      -0.00116147     -0.00069565       -0.0683032       -0.226214
254200                -0.0676241       0.0740672      -0.00144825     2.06064e-05        -0.807034       -0.581952       0.00214885    -0.000311969
                     -0.00137567     1.36241e-05        -0.200262       -0.126796       0.00223558     0.000622376         0.747526       -0.620439
                       -0.806729       -0.581543       0.00220361     0.000638917       -0.0487596       0.0870723       -0.0012053    -0.000684067
                      0.00212819    -0.000345449         0.747562       -0.620448      -0.00123212    -0.000623306       -0.0876763       -0.220099
254400                -0.0574337       0.0673443      -0.00146214     0.000156735          -0.8535       -0.513592       0.00215058     -0.00047318
                     -0.00137876     0.000144753        -0.206288       -0.117691       0.00228561     0.000438947         0.704923       -0.668262
                       -0.853158       -0.513181        0.0022541     0.000465853       -0.0325154       0.0818225      -0.00128136    -0.000605376
                      0.00212545     -0.00050332         0.704949       -0.668277      -0.00129862    -0.000542137         -0.10645       -0.212193
254600                -0.0484511       0.0596185      -0.00146308     0.000294482        -0.894087       -0.441385       0.00213992    -0.000637406
                     -0.00137022     0.000275586        -0.211777       -0.108217       0.00231992     0.000252224          0.65924        -0.71324
                        -0.89371       -0.440984       0.00229053     0.000289064       -0.0178423       0.0743022      -0.00135265    -0.000516833
                      0.00211057     -0.00066366         0.659255       -0.713265      -0.00135972    -0.000452229         -0.12445       -0.202555
254800                -0.0407728       0.0510441       -0.0014508     0.000432538        -0.928456        -0.36586       0.00211623    -0.000803637
                     -0.00135016     0.000405082        -0.216703      -0.0984084       0.00233856     6.36051e-05         0.610661       -0.755176
                       -0.928051       -0.365481       0.00231273     0.000109634      -0.00503557       0.0647911      -0.00141778    -0.000418576
                      0.00208299      -0.0008255         0.610662       -0.755213      -0.00141412    -0.000353864        -0.141509       -0.191264
255000                -0.0344764       0.0417849      -0.00142522      0.00056955        -0.956321       -0.287579       0.00207898    -0.000970754
                     -0.00131876     0.000532224        -0.221041      -0.0883054       0.00234169    -0.000125609          0.55938       -0.793885
                       -0.955895       -0.287231       0.00232063    -7.13697e-05       0.00565334       0.0536071      -0.00147532    -0.000310968
                       0.0020422    -0.000987767         0.559365       -0.793936      -0.00146052    -0.000247549        -0.157466       -0.178412
255200                -0.0296191       0.0320125      -0.00138643     0.000704154        -0.977451       -0.207129       0.00202774     -0.00113754
                     -0.00127633     0.000656026        -0.224769      -0.0779486       0.00232954    -0.000314216         0.505604       -0.829191
                       -0.977014        -0.20682       0.00231415    -0.000252893        0.0140218       0.0410998      -0.00152382    -0.000194609
                       0.0019878     -0.00114929         0.505571       -0.829256       -0.0014976    -0.000134032         -0.17217       -0.164109
255400                -0.0262373       0.0219029      -0.00133469     0.000834996        -0.991672       -0.125119       0.00196219     -0.00130267
                     -0.00122325     0.000775542        -0.227867      -0.0673806       0.00230242    -0.000501112         0.449552       -0.860932
                       -0.991235       -0.124853       0.00229331    -0.000433883        0.0199201       0.0276434      -0.00156187    -7.03565e-05
                      0.00191953     -0.00130881         0.449498       -0.861012      -0.00152416    -1.43093e-05        -0.185479        -0.14848
255600                -0.0243459       0.0116344      -0.00127042     0.000960761        -0.998872      -0.0421719       0.00188219     -0.00146479
                     -0.00115997      0.00088988        -0.230321      -0.0566459       0.00226065     -0.00068528         0.391452       -0.888962
                       -0.998445      -0.0419515       0.00225813    -0.000613288        0.0232549       0.0136287      -0.00158817     6.06829e-05
                      0.00183724     -0.00146499         0.391374       -0.889053      -0.00153912     0.000110377        -0.197266       -0.131665
255800                -0.0239386      0.00138487       -0.0011942       0.0010802        -0.998997        0.041083       0.00178773     -0.00162246
                     -0.00108704       0.0009982        -0.232118      -0.0457901       0.00220455    -0.000865777         0.331541       -0.913143
                       -0.998592       0.0412587       0.00220872    -0.000790044        0.0239911    -0.000545048      -0.00160155      0.00019716
                      0.00174096     -0.00161646         0.331438       -0.913244      -0.00154156      0.00023856        -0.207415       -0.113817
256000                -0.0249878      -0.0086715      -0.00110678      0.00119215        -0.992058        0.124015       0.00167899     -0.00177421
                     -0.00100507      0.00109973        -0.233247      -0.0348603       0.00213443     -0.00104172         0.270067       -0.933357
                       -0.991685         0.12415       0.00214522    -0.000963075        0.0221526      -0.0144788      -0.00160105     0.000337514
                      0.00163087      -0.0017618         0.269937       -0.933464      -0.00153086     0.000368584        -0.215827      -0.0950995
256200                 -0.027446      -0.0183663      -0.00100899      0.00129555        -0.978122        0.206001       0.00155629     -0.00191858
                    -0.000914717      0.00119376        -0.233704      -0.0239044       0.00205059     -0.00121225         0.207285       -0.949497
                       -0.977789        0.206099       0.00206785     -0.00113129         0.017822      -0.0277826      -0.00158596     0.000480004
                      0.00150731     -0.00189958         0.207126       -0.949605      -0.00150667      0.00049866         -0.22242      -0.0756883
