! TOUCHSTONE file generated by CST MICROWAVE STUDIO
! Date and time: Sun Sep 28 19:09:15 2025
! Project name: biblioteca3_folgaOK.cst
! Parameters = {H=600; Lx=200; Ly=260; Nedge=22; P=520; mesh_pilar_nm=40; t_air=3800; t_sub=6000}
! Header version: 2018
! Port assignment regex: !\s*Touchstone port\s*([0-9]+)\s*=\s*(CST MWS port|CST DS port)\s*([0-9]+|Zmin|Zmax)\s*\(\"(.*)\"\)(\s*mode\s*([0-9]+))?.*
! Touchstone port assignment:
! Touchstone port 1 = CST MWS port Zmin ("") mode 1
! Touchstone port 2 = CST MWS port Zmin ("") mode 2
! Touchstone port 3 = CST MWS port Zmax ("") mode 1
! Touchstone port 4 = CST MWS port Zmax ("") mode 2
! S-Parameters are not renormalized. Each port impedance will be approximated by the real part at minimum frequency. The values are described via the [Reference] keyword.
! Default impedance is overridden by [Reference]
[Version] 2.0
# GHz S RI R 376.73
[Number of Ports] 4
[Reference]
376.73 376.73 376.73 376.73 
[Number of Frequencies] 401
[Network Data]
250000                  0.315883        0.218796      0.000591388     4.68097e-05         0.289897        0.876582       0.00159596     0.000736031
                     0.000726427     2.66302e-06         0.104801       0.0231137       0.00146875     0.000562836        -0.938587        0.327668
                         0.29012        0.876601       0.00137718     0.000663121         0.123237       -0.364003      0.000261879    -0.000133812
                      0.00141938      0.00071768        -0.938464        0.327566      0.000294018    -0.000170002       -0.0676263       0.0833404
250200                  0.338663        0.185126      0.000601302    -6.06235e-06          0.38678        0.837741       0.00162962     0.000584144
                     0.000688197    -0.000108721         0.102868       0.0257122       0.00153694     0.000439275        -0.899137        0.424232
                        0.386561        0.837888       0.00143448     0.000533013        0.0796046        -0.37828      0.000255555    -0.000152074
                      0.00150988     0.000615804        -0.899954        0.424197      0.000271993    -0.000194867       -0.0457717       0.0958373
250400                   0.35707        0.148935      0.000606246    -6.42985e-05          0.47879        0.788429       0.00165479     0.000427513
                     0.000631936    -0.000206329         0.102394       0.0287347       0.00159553     0.000302872        -0.849562        0.516212
                        0.478295        0.788756       0.00148177     0.000391648        0.0338612       -0.386409      0.000246391    -0.000172469
                      0.00159543     0.000497514        -0.851022        0.516404      0.000243918    -0.000220405       -0.0220205        0.104306
250600                  0.370787        0.110808      0.000604603    -0.000127891         0.564869        0.729237       0.00167068     0.000266387
                     0.000562677     -0.00028731         0.103428       0.0318798       0.00164216     0.000154036        -0.790412        0.602491
                        0.564241        0.729753       0.00151706     0.000239566        -0.013016       -0.388025      0.000233343    -0.000195166
                      0.00167301     0.000362083         -0.79224        0.602982      0.000208562    -0.000245758       0.00291714        0.108463
250800                  0.379574       0.0713842      0.000594414    -0.000196446         0.644023        0.660841       0.00167647     0.000101103
                     0.000485482    -0.000350682         0.105964       0.0348457       0.00167437    -6.39165e-06        -0.722368        0.682026
                        0.643379        0.661522       0.00153836     7.76606e-05       -0.0599829       -0.382932      0.000214936    -0.000220189
                      0.00173914     0.000209354        -0.724326        0.682817      0.000164605    -0.000269571        0.0282903        0.108152
251000                   0.38328       0.0313453      0.000573417    -0.000268974         0.715327        0.583993       0.00167126    -6.79004e-05
                     0.000404821    -0.000396941          0.10994       0.0373394       0.00168963    -0.000177067        -0.646229        0.753865
                        0.714751        0.584796       0.00154367    -9.27932e-05        -0.105961       -0.371117      0.000189089    -0.000247211
                      0.00178998     3.99358e-05        -0.648129        0.754904      0.000110788    -0.000289816         0.053333        0.103353
251200                  0.381857     -0.00859876       0.00053919    -0.000343624         0.777921        0.499526       0.00165414    -0.000240058
                     0.000324265    -0.000427554         0.115248       0.0390862       0.00168548    -0.000356096        -0.562898        0.817163
                        0.777468        0.500394       0.00153114    -0.000270117        -0.149871       -0.352753      0.000152914    -0.000275148
                      0.00182148    -0.000144616        -0.564604        0.818363      4.61838e-05     -0.00030363        0.0772887       0.0941793
251400                  0.375359      -0.0477253      0.000489448    -0.000417419         0.831015        0.408343       0.00162412    -0.000414665
                     0.000246423    -0.000444489         0.121734       0.0398369       0.00165968     -0.00054101        -0.473368        0.871189
                        0.830712         0.40922       0.00149912    -0.000452237        -0.190665       -0.328201      0.000102606    -0.000301366
                      0.00182971     -0.00034166        -0.474799        0.872447     -2.93551e-05    -0.000307233        0.0994345       0.0808723
251600                  0.363954       -0.085317      0.000422578    -0.000486073         0.873891        0.311427       0.00158023    -0.000590848
                     0.000173047    -0.000449857         0.129204       0.0393747       0.00161031    -0.000728773        -0.378703        0.915337
                        0.873743        0.312259       0.00144627    -0.000636717        -0.227362       -0.297999       3.3782e-05    -0.000320266
                      0.00181117    -0.000547433        -0.379827        0.916549     -0.000114586    -0.000296081         0.119103       0.0637912
251800                  0.347919       -0.120681      0.000338369    -0.000544076         0.905912        0.209832       0.00152145    -0.000767545
                       0.0001052     -0.00044568         0.137433         0.03752       0.00153596    -0.000915835        -0.280022        0.949132
                        0.905903        0.210575        0.0013717    -0.000820825        -0.259077       -0.262851     -5.67524e-05    -0.000321219
                      0.00176315    -0.000757137        -0.280849        0.950207     -0.000206205    -0.000265434         0.135699       0.0434004
252000                  0.327642       -0.153166       0.00023883    -0.000585234         0.926524        0.104688       0.00144681    -0.000943479
                     4.34416e-05    -0.000433771         0.146171       0.0341348       0.00143584     -0.00109822        -0.178481        0.972232
                        0.926627        0.105311         0.001275     -0.00100163        -0.285049       -0.223608     -0.000166053    -0.000287127
                      0.00168413    -0.000965178        -0.179055        0.973099     -0.000298441    -0.000211456         0.148718       0.0202535
252200                  0.303611       -0.182187      0.000128738     -0.00060378         0.935273     -0.00279963        0.0013554     -0.00111714
                    -1.20112e-05    -0.000415683         0.155151       0.0291245       0.00130995      -0.0012717       -0.0752599        0.984429
                        0.935453     -0.00231347       0.00115636     -0.00117613        -0.304666       -0.181249     -0.000276309    -0.000198521
                      0.00157399     -0.00116554       -0.0756441        0.985046     -0.000383362     -0.00013272         0.157756      -0.0050244
252400                  0.276409       -0.207236      1.55015e-05    -0.000595881         0.931812       -0.111355       0.00124638     -0.00128675
                    -6.11562e-05    -0.000392714         0.164096         0.02244       0.00115911     -0.00143191        0.0284608        0.985651
                         0.93203       -0.111008       0.00101658      -0.0013414        -0.317485       -0.136852     -0.000350527    -5.00081e-05
                      0.00143415     -0.00135227         0.028193        0.986002      -0.00045225    -3.15254e-05          0.16252      -0.0317551
252600                  0.246696       -0.227902     -9.19632e-05    -0.000561008         0.915916       -0.219634       0.00111908     -0.00145028
                    -0.000104108    -0.000365929         0.172723       0.0140774      0.000985032     -0.00157464         0.131509        0.975952
                        0.916137       -0.219417       0.00085706     -0.00149478         -0.32325      -0.0915637     -0.000351131     0.000130413
                      0.00126744     -0.00151992         0.131285        0.976053     -0.000497817     8.58377e-05          0.16283      -0.0592267
252800                  0.215194       -0.243887     -0.000185095    -0.000502455         0.887498       -0.326235      0.000973037     -0.00160539
                    -0.000141031    -0.000336201         0.180757      0.00407742      0.000790255     -0.00169597         0.232738        0.955513
                        0.887692       -0.326127      0.000679776     -0.00163402        -0.321906      -0.0465731     -0.000273929     0.000293167
                      0.00107791     -0.00166401         0.232496        0.955402     -0.000516283     0.000210349         0.158623      -0.0867127
253000                  0.182671       -0.255012     -0.000257566    -0.000426646         0.846624       -0.429709      0.000808069      -0.0017495
                    -0.000172091     -0.00030425         0.187933     -0.00747676      0.000578071     -0.00179252         0.331039        0.924635
                         0.84677       -0.429681      0.000487212     -0.00175747        -0.313601      -0.0030728     -0.000149679     0.000406699
                     0.000870377     -0.00178127         0.330732        0.924367     -0.000508226     0.000332593         0.149955       -0.113491
253200                  0.149914        -0.26123     -0.000306371     -0.00034153         0.793529       -0.528574      0.000624365     -0.00187974
                    -0.000197429    -0.000270689         0.194001      -0.0204619      0.000352374     -0.00186158         0.425351        0.883728
                        0.793616       -0.528593      0.000282275     -0.00186423        -0.298694       0.0377756     -1.19408e-05     0.000472257
                     0.000650007     -0.00186975         0.424955        0.883371     -0.000477817     0.000444985          0.13699       -0.138859
253400                  0.117712       -0.262623     -0.000331785    -0.000254805         0.728633       -0.621335      0.000422565     -0.00199307
                    -0.000217137    -0.000236063         0.198734      -0.0347184       0.00011748     -0.00190122         0.514674        0.833307
                        0.728659       -0.621368      6.82097e-05     -0.00195433        -0.277748       0.0748787      0.000122862     0.000508474
                      0.00042192     -0.00192876         0.514188        0.832929     -0.000431092     0.000542915         0.120001       -0.162156
253600                 0.0868294        -0.25941      -0.00033649    -0.000172676         0.652547       -0.706512      0.000203851     -0.00208628
                    -0.000231256    -0.000200891         0.201934      -0.0500541     -0.000122074     -0.00191037         0.598074         0.77398
                        0.652522       -0.706528     -0.000151438     -0.00202889         -0.25152        0.107249      0.000253921     0.000538288
                     0.000190836     -0.00195871          0.59752        0.773644     -0.000374229      0.00062468        0.0993601       -0.182772
253800                 0.0579835       -0.251936     -0.000324426    -9.93697e-05         0.566089       -0.782663     -2.99779e-05     -0.00215612
                    -0.000239774    -0.000165702         0.203432      -0.0662495     -0.000361731      -0.0018888         0.674695        0.706441
                        0.566031       -0.782637     -0.000372757      -0.0020903        -0.220941        0.134039      0.000387698     0.000591839
                    -3.91302e-05     -0.00196078         0.674112        0.706196     -0.000312444     0.000690689        0.0755243       -0.200164
254000                 0.0318213       -0.240664     -0.000299818    -3.72564e-05         0.470284       -0.848418      -0.00027644     -0.00219942
                    -0.000242632    -0.000131084         0.203096      -0.0830624     -0.000597085     -0.00183706         0.743759         0.63146
                        0.470215       -0.848334     -0.000591211     -0.00214252        -0.187096        0.154581      0.000515755     0.000729619
                    -0.000264573     -0.00193672         0.743201        0.631335     -0.000249578     0.000742526        0.0490291       -0.213867
254200                0.00889835       -0.226166     -0.000266563     1.27249e-05         0.366361       -0.902518     -0.000532335     -0.00221327
                    -0.000239749    -9.77201e-05         0.200829       -0.100234     -0.000824035     -0.00175637         0.804578        0.549872
                        0.366309       -0.902367     -0.000800958     -0.00219139        -0.151185         0.16841      0.000485547      0.00103876
                    -0.000482791     -0.00188853         0.804104        0.549874     -0.000188145       0.0007822        0.0204729       -0.223506
254400                -0.0103397       -0.209101     -0.000227956     5.05839e-05         0.255746       -0.943843     -0.000793749     -0.00219516
                    -0.000231055    -6.64398e-05         0.196576       -0.117493      -0.00103888     -0.00164856         0.856551        0.462569
                        0.255738       -0.943627     -0.000993347     -0.00224494        -0.114489        0.175294      3.88857e-05      0.00112665
                    -0.000691719     -0.00181826         0.856219        0.462681     -0.000129587     0.000811672      -0.00949663       -0.228803
254600                -0.0255733       -0.190196     -0.000186637     7.68729e-05         0.140046       -0.971456       -0.0010561     -0.00214316
                    -0.000216549    -3.82599e-05          0.19032       -0.134564       -0.0012384     -0.00151586         0.899174        0.370491
                        0.140105       -0.971186      -0.00115377     -0.00231314       -0.0783224        0.175248     -0.000143186     0.000794141
                    -0.000889809      -0.0017279         0.899028        0.370671     -7.45635e-05     0.000832616       -0.0401976       -0.229579
254800                -0.0366202       -0.170221     -0.000144676     9.23978e-05        0.0210198       -0.984633      -0.00131427     -0.00205618
                    -0.000196392    -1.44204e-05         0.182085       -0.151172      -0.00141985     -0.00136084         0.932037        0.274615
                       0.0211654       -0.984326      -0.00125567     -0.00240477       -0.0439833        0.168542     -8.37865e-05     0.000583078
                      -0.0010759     -0.00161923         0.932104        0.274807     -2.32015e-05     0.000846339        -0.070929       -0.225763
255000                -0.0434427       -0.149964     -0.000103688     9.80374e-05        -0.099448       -0.982893      -0.00156272     -0.00193405
                    -0.000171025     3.60556e-06         0.171935       -0.167047        -0.001581     -0.00118627         0.954828         0.17595
                      -0.0992045       -0.982574      -0.00125221     -0.00251506       -0.0127011        0.155697     -5.05954e-06     0.000478614
                     -0.00124908     -0.00149382         0.955109        0.176085      2.47229e-05     0.000853778        -0.100987       -0.217392
255200                -0.0461489       -0.130203     -6.49726e-05     9.46461e-05        -0.219389       -0.966026      -0.00179578     -0.00177766
                    -0.000141341     1.41511e-05         0.159972       -0.181933      -0.00172005    -0.000995001         0.967332       0.0755237
                       -0.219045       -0.965721      -0.00107982     -0.00259118        0.0144148        0.137472      5.91118e-05     0.000419816
                     -0.00140857     -0.00135299         0.967799       0.0755363      6.96579e-05     0.000855543        -0.129681       -0.204606
255400                 -0.044989       -0.111677     -2.96262e-05     8.30147e-05        -0.336797       -0.934106      -0.00200786     -0.00158906
                     -0.00010887     1.54817e-05         0.146335       -0.195589      -0.00183565    -0.000789956         0.969435       -0.025624
                       -0.336357       -0.933842     -0.000725391     -0.00249124        0.0364244        0.114834      0.000109643     0.000381842
                     -0.00155361     -0.00119789         0.970035      -0.0257867      0.000112189     0.000851974        -0.156347       -0.187654
255600                -0.0403447      -0.0950574      1.35578e-06     6.38702e-05        -0.449669       -0.887501      -0.00219371     -0.00137137
                    -7.59589e-05     6.04865e-06         0.131193       -0.207798      -0.00192679    -0.000574023          0.96112       -0.126448
                       -0.449148       -0.887304     -0.000356911     -0.00207721        0.0525992       0.0889254      0.000150323     0.000354668
                     -0.00168341      -0.0010295         0.961781       -0.126816      0.000152973     0.000843198        -0.180368       -0.166878
255800                -0.0327147      -0.0809286      2.69998e-05      3.7903e-05        -0.556066       -0.826875      -0.00234873     -0.00112874
                    -4.58474e-05    -1.51068e-05         0.114747       -0.218369       -0.0019928    -0.000350044          0.94247       -0.225907
                       -0.555485       -0.826763      -0.00021616     -0.00145509        0.0624567       0.0610112      0.000184063     0.000333791
                     -0.00179704    -0.000848736          0.94311       -0.226481      0.000192685     0.000829176         -0.20118       -0.142714
256000                -0.0226935      -0.0697623      4.62924e-05     5.81574e-06        -0.654152       -0.753169      -0.00246918    -0.000866101
                    -2.25265e-05    -4.78327e-05        0.0972247        -0.22714      -0.00203324    -0.000120807         0.913664       -0.322973
                       -0.653536       -0.753156     -0.000313589    -0.000866346        0.0657824       0.0324286      0.000212842     0.000316966
                     -0.00189344    -0.000656512         0.914209       -0.323721      0.000231955     0.000809743        -0.218295       -0.115681
256200                -0.0109477      -0.0619027      5.81364e-05    -3.16087e-05        -0.742245       -0.667587      -0.00255231    -0.000589007
                    -1.02662e-05    -9.03652e-05        0.0788715       -0.233985      -0.00204792     0.000110953         0.874978       -0.416636
                       -0.741624        -0.66768     -0.000509131    -0.000407807        0.0626402      0.00452685         0.000238     0.000302974
                     -0.00197138    -0.000453828         0.875371       -0.417503      0.000271301     0.000784634        -0.231302      -0.0863659
