! TOUCHSTONE file generated by CST MICROWAVE STUDIO
! Date and time: Fri Sep 26 06:38:32 2025
! Project name: biblioteca3_folgaOK.cst
! Parameters = {H=600; Lx=200; Ly=260; Nedge=30; P=520; k=0; mesh_pilar_nm=40; n=0; t_air=3500; t_sub=2000; wavelength_nm=0}
! Header version: 2018
! Port assignment regex: !\s*Touchstone port\s*([0-9]+)\s*=\s*(CST MWS port|CST DS port)\s*([0-9]+|Zmin|Zmax)\s*\(\"(.*)\"\)(\s*mode\s*([0-9]+))?.*
! Touchstone port assignment:
! Touchstone port 1 = CST MWS port Zmin ("") mode 1
! Touchstone port 2 = CST MWS port Zmin ("") mode 2
! Touchstone port 3 = CST MWS port Zmax ("") mode 1
! Touchstone port 4 = CST MWS port Zmax ("") mode 2
! S-Parameters are not renormalized. Each port impedance will be approximated by the real part at minimum frequency. The values are described via the [Reference] keyword.
! Default impedance is overridden by [Reference]
[Version] 2.0
# GHz S RI R 376.73
[Number of Ports] 4
[Reference]
376.73 376.73 376.73 376.73 
[Number of Frequencies] 401
[Network Data]
250000                  0.219086        0.236949       0.00118498      0.00050739        -0.882706        0.341872      5.42197e-05    -0.000864183
                     0.000943494     0.000275849        -0.064148         0.18862      0.000890053    -0.000826883        -0.437259       -0.877003
                       -0.882732         0.34125       0.00104964     -0.00093083      -0.00273879        0.322688       -0.0012802    -0.000765982
                     4.40796e-05     -0.00092019        -0.437059       -0.876469      -0.00134492    -0.000810503        -0.189227      -0.0622777
250200                  0.227927        0.218094        0.0012122     0.000370421         -0.85455        0.412412     -1.32735e-05    -0.000877814
                     0.000963363     0.000205618       -0.0565413        0.194324      0.000819544    -0.000882663        -0.494737       -0.845166
                       -0.854762        0.412165      0.000939935    -0.000988512        0.0286304        0.314129      -0.00132939      -0.0006674
                      -2.587e-05    -0.000926612        -0.494427       -0.844773      -0.00139015    -0.000710838        -0.197096      -0.0458468
250400                  0.235031        0.198863       0.00122392     0.000234264        -0.820671        0.480951     -8.41412e-05    -0.000886363
                     0.000977824     0.000131883       -0.0484756        0.199614      0.000745892    -0.000931706        -0.549952       -0.809565
                       -0.820964        0.481001      0.000830165     -0.00103363        0.0584349        0.302238      -0.00136978     -0.00056512
                     -9.9077e-05    -0.000928625        -0.549563        -0.80931      -0.00142758    -0.000608574          -0.2034      -0.0285094
250600                  0.240375        0.179427       0.00122099     0.000100923        -0.781173        0.547003     -0.000157997    -0.000889241
                     0.000986273     5.50972e-05        -0.039981        0.204453       0.00066987    -0.000973951         -0.60266        -0.77036
                       -0.781476        0.547269      0.000721827      -0.0010672        0.0862814        0.287237      -0.00140112     -0.00046025
                    -0.000175411    -0.000925834        -0.602218       -0.770232      -0.00145715    -0.000504421        -0.208039      -0.0104253
250800                  0.243954        0.159956       0.00120456    -2.79007e-05        -0.736203        0.610081     -0.000234356    -0.000885883
                     0.000988144    -2.41736e-05       -0.0310899         0.20881       0.00059221     -0.00100944        -0.652625       -0.727723
                       -0.736472         0.61049       0.00061609     -0.00109035         0.111807        0.269401      -0.00142334    -0.000353893
                    -0.000254676    -0.000917894        -0.652153       -0.727712      -0.00147885     -0.00039906         -0.21093      0.00823495
251000                  0.245783        0.140624       0.00117592     -0.00015083        -0.685955        0.669704     -0.000312637    -0.000875765
                     0.000982928    -0.000105253       -0.0218368        0.212656      0.000513598     -0.00103828        -0.699625       -0.681843
                       -0.686169        0.670188      0.000513824     -0.00110424         0.134684         0.24905      -0.00143654    -0.000247116
                    -0.000336581    -0.000904537        -0.699145       -0.681935      -0.00149275    -0.000293137        -0.212008       0.0272928
251200                  0.245893          0.1216       0.00113645    -0.000266804        -0.630669        0.725398     -0.000392159    -0.000858417
                     0.000970202     -0.00018736       -0.0122581        0.215964      0.000434661     -0.00106067         -0.74345       -0.632925
                       -0.630825        0.725904      0.000415641     -0.00111001         0.154632        0.226549      -0.00144099    -0.000140913
                    -0.000420691    -0.000885606        -0.742978       -0.633104      -0.00149894    -0.000187258        -0.211228       0.0465629
251400                  0.244331        0.103052       0.00108757    -0.000375061        -0.570632        0.776703     -0.000472155    -0.000833447
                     0.000949653     -0.00026962      -0.00239183        0.218709      0.000355966     -0.00107684        -0.783904       -0.581183
                       -0.570737         0.77719      0.000321929     -0.00110874         0.171417        0.202295      -0.00143708    -3.61806e-05
                    -0.000506348    -0.000861072        -0.783455       -0.581435      -0.00149758     -8.1988e-05        -0.208565       0.0658557
251600                  0.241164       0.0851409       0.00103065    -0.000475102        -0.506177        0.823176     -0.000551776    -0.000800556
                     0.000921102    -0.000351084       0.00772235        0.220871       0.00027802      -0.0010871        -0.820807       -0.526847
                       -0.506247         0.82362      0.000232902     -0.00110144         0.184861        0.176719       -0.0014253     6.62956e-05
                     -0.00059256    -0.000831006        -0.820389       -0.527155      -0.00148881     2.21438e-05        -0.204011       0.0849792
251800                  0.236474       0.0680221      0.000967003    -0.000566657        -0.437682        0.864402     -0.000630108    -0.000759556
                      0.00088452    -0.000430756        0.0180434         0.22243      0.000201264     -0.00109175        -0.853993       -0.470157
                       -0.437736        0.864787      0.000148629     -0.00108901         0.194845        0.150268      -0.00140623     0.000165856
                      -0.0006779    -0.000795447        -0.853613       -0.470504      -0.00147282     0.000124639        -0.197582        0.103741
252000                  0.230362       0.0518403      0.000897827    -0.000649638        -0.365571         0.89999      -0.00070619     -0.00071038
                     0.000840046    -0.000507625         0.028529        0.223372      0.000126081     -0.00109113        -0.883313       -0.411362
                       -0.365626        0.900314      6.90747e-05     -0.00107226         0.201309        0.123408      -0.00138049     0.000261966
                    -0.000760522    -0.000754165        -0.882973       -0.411734      -0.00144978     0.000225019         -0.18931         0.12195
252200                  0.222941       0.0367298      0.000824215    -0.000724108        -0.290309        0.929587     -0.000779031    -0.000653092
                     0.000787989    -0.000580699        0.0391359        0.223684      5.27997e-05     -0.00108559        -0.908632       -0.350723
                       -0.290378        0.929856     -5.87434e-06     -0.00105188         0.204259        0.096606      -0.00134874     0.000354219
                    -0.000838414    -0.000706419        -0.908333       -0.351105      -0.00141987     0.000322809        -0.179248        0.139419
252400                   0.21434        0.022812      0.000747136    -0.000790242          -0.2124        0.952879     -0.000847639    -0.000587895
                     0.000728828    -0.000649045          0.04982        0.223356     -1.83067e-05      -0.0010755        -0.929835       -0.288505
                       -0.212491        0.953104     -7.63878e-05     -0.00102848         0.203766       0.0703259       -0.0013116     0.000442322
                    -0.000909869    -0.000650971        -0.929575       -0.288887      -0.00138326     0.000417519        -0.167469        0.155968
252600                  0.204701       0.0101939      0.000667439    -0.000848296        -0.132384        0.969595     -0.000911037    -0.000515128
                     0.000663191    -0.000711827        0.0605366        0.222384     -8.70113e-05      -0.0010612        -0.946823       -0.224985
                       -0.132499        0.969789     -0.000142672     -0.00100259         0.199962       0.0450183      -0.00126972     0.000526094
                    -0.000973872    -0.000586487        -0.946599       -0.225356      -0.00134013     0.000508621        -0.154063        0.171421
252800                  0.194176     -0.00103361      0.000585855    -0.000898585       -0.0508317        0.979512     -0.000968288    -0.000435263
                     0.000591833    -0.000768338        0.0712407        0.220763      -0.00015313     -0.00104305        -0.959515       -0.160443
                       -0.050967        0.979691     -0.000204953    -0.000974633         0.193041       0.0211112      -0.00122367     0.000605442
                     -0.00103007    -0.000512115        -0.959321       -0.160795      -0.00129071     0.000595526         -0.13914        0.185614
253000                  0.182926      -0.0107969      0.000503009    -0.000941457        0.0316574        0.982464      -0.00101852    -0.000348894
                     0.000515601    -0.000818025        0.0818871        0.218495     -0.000216518      -0.0010214        -0.967849      -0.0951638
                       0.0315112        0.982636     -0.000263471    -0.000944983         0.183255    -0.000998239      -0.00117401      0.00068036
                      -0.0010784    -0.000427808        -0.967678      -0.0954914      -0.00123528     0.000677564        -0.122823        0.198393
253200                  0.171121      -0.0190409      0.000419424    -0.000977284         0.114464        0.978337      -0.00106093    -0.000256726
                     0.000435394    -0.000860506        0.0924305        0.215583     -0.000277065    -0.000996577         -0.97178      -0.0294373
                        0.114319         0.97851     -0.000318467     -0.00091394         0.170911      -0.0209526      -0.00112123     0.000750902
                     -0.00111865    -0.000334259        -0.971626      -0.0297368      -0.00117428     0.000753981        -0.105255        0.209618
253400                  0.158936      -0.0257299       0.00033553     -0.00100645         0.196954        0.967079      -0.00109483     -0.00015956
                     0.000352117    -0.000895567         0.102826        0.212035     -0.000334691    -0.000968907        -0.971283       0.0364445
                        0.196824        0.967254     -0.000370175     -0.00088175         0.156361      -0.0384414      -0.00106577     0.000817179
                     -0.00115035    -0.000232631        -0.971139       0.0361747      -0.00110837     0.000823969       -0.0865894        0.219162
253600                  0.146548      -0.0308482      0.000251672     -0.00102932         0.278484        0.948699      -0.00111961    -5.82718e-05
                     0.000266644    -0.000923156          0.11303         0.20786     -0.000389341    -0.000938705        -0.966351        0.102188
                         0.27838        0.948872     -0.000418824    -0.000848609         0.139998      -0.0532079      -0.00100798     0.000879339
                     -0.00117279    -0.000124332        -0.966211        0.101948      -0.00103852     0.000886758       -0.0669955        0.226913
253800                  0.134134      -0.0344006      0.000168118     -0.00104628         0.358406        0.923269      -0.00113477     4.62022e-05
                     0.000179776    -0.000943358         0.122997        0.203073     -0.000440989    -0.000906274        -0.956996        0.167499
                        0.358339        0.923432      -0.00046463    -0.000814669         0.122249      -0.0650548     -0.000948193      0.00093756
                     -0.00118518    -1.08759e-05        -0.956854        0.167287     -0.000966089     0.000941782       -0.0466527        0.232778
254000                   0.12187      -0.0364123      8.50572e-05     -0.00105768          0.43608        0.890923      -0.00113995     0.000152885
                     9.22214e-05    -0.000956366         0.132687        0.197689      -0.00048963    -0.000871906        -0.943248        0.232084
                        0.436054        0.891065     -0.000507793    -0.000780044         0.103562      -0.0738488     -0.000886652     0.000992036
                     -0.00118676      0.00010617        -0.943101        0.231897     -0.000892745      0.00098892       -0.0257502        0.236681
254200                  0.109927      -0.0369284      2.60368e-06     -0.00106388         0.510876        0.851862      -0.00113486     0.000260772
                     4.57572e-06     -0.00096244         0.142058        0.191731     -0.000535278    -0.000835884        -0.925159        0.295653
                         0.51089        0.851969     -0.000548494    -0.000744812        0.0843994      -0.0795233     -0.000823552      0.00104297
                     -0.00117689     0.000225204        -0.925001        0.295486     -0.000820289      0.00102872      -0.00448525        0.238567
254400                 0.0984686      -0.0360138     -7.92119e-05     -0.00106519         0.582183        0.806347      -0.00111935     0.000368848
                    -8.26782e-05    -0.000961873         0.151069        0.185219     -0.000577971    -0.000798482        -0.902795        0.357915
                        0.582231        0.806407     -0.000586897     -0.00070902        0.0652273      -0.0820803      -0.00075903      0.00109056
                     -0.00115515     0.000344602        -0.902627        0.357766     -0.000750251       0.0010625         0.016939        0.238398
254600                 0.0876494      -0.0337513     -0.000160452     -0.00106192         0.649415        0.754699      -0.00109333     0.000476093
                    -0.000169161    -0.000954956         0.159684         0.17818     -0.000617768    -0.000759964        -0.876246        0.418588
                        0.649486        0.754702     -0.000623139    -0.000672681        0.0465044      -0.0815899     -0.000693169      0.00113501
                     -0.00112132     0.000462739        -0.876065        0.418451     -0.000683471      0.00109215        0.0383156        0.236159
254800                 0.0776121      -0.0302412     -0.000241291     -0.00105432         0.712018        0.697296      -0.00105684     0.000581495
                    -0.000254578    -0.000941946         0.167865        0.170643     -0.000654751    -0.000720587        -0.845616        0.477391
                        0.712098        0.697237      -0.00065733     -0.00063578        0.0286726       -0.078189     -0.000626006      0.00117649
                     -0.00107545     0.000578013        -0.845423        0.477262     -0.000619841      0.00111973        0.0594356        0.231856
255000                 0.0684859      -0.0255991     -0.000322039     -0.00104256         0.769478        0.634572      -0.00100998     0.000684047
                    -0.000338692    -0.000923054          0.17558         0.16264     -0.000689024      -0.0006806        -0.811031        0.534052
                        0.769548        0.634451     -0.000689538    -0.000598269        0.0121469      -0.0720777      -0.00055753      0.00121518
                     -0.00101781     0.000688876        -0.810826        0.533928     -0.000558381      0.00114692        0.0800905        0.225516
255200                 0.0603841      -0.0199543     -0.000403173     -0.00102668         0.821323        0.567008      -0.00095293     0.000782755
                    -0.000421296    -0.000898431         0.182797        0.154204      -0.00072072     -0.00064024         -0.77263        0.588307
                        0.821367         0.56683     -0.000719777    -0.000560061      -0.00269411      -0.0635146     -0.000487685      0.00125119
                    -0.000948912     0.000793866        -0.772417        0.588185     -0.000497595      0.00117466         0.100075        0.217188
255400                 0.0534032      -0.0134472     -0.000485356     -0.00100648         0.867131        0.495129      -0.00088596     0.000876635
                    -0.000502185    -0.000868171         0.189487        0.145371     -0.000750004    -0.000599734        -0.730575        0.639899
                        0.867133        0.494907     -0.000747973    -0.000521033       -0.0155166      -0.0528104     -0.000416379      0.00128465
                    -0.000869455     0.000891638        -0.730356        0.639776     -0.000435918      0.00120312         0.119187        0.206943
255600                 0.0476216     -0.00622761     -0.000569423    -0.000981353         0.906532        0.419501     -0.000809405      0.00096471
                    -0.000581132    -0.000832325         0.195624         0.13618     -0.000777072    -0.000559293        -0.685041        0.688581
                        0.906482         0.41925     -0.000773902    -0.000481018       -0.0260385      -0.0403207     -0.000343482      0.00131563
                    -0.000780334     0.000980989        -0.684818        0.688456     -0.000372044      0.00123189         0.137233         0.19487
255800                 0.0430983      0.00154805     -0.000656249    -0.000950041         0.939216         0.34072     -0.000723684      0.00104601
                    -0.000657873    -0.000790915         0.201185        0.126671     -0.000802162    -0.000519105        -0.636222        0.734118
                        0.939106        0.340458     -0.000797064    -0.000439828       -0.0340359      -0.0264371     -0.000268831      0.00134414
                    -0.000682583      0.00106088        -0.635999         0.73399     -0.000305065      0.00126019         0.154029        0.181081
256000                 0.0398729      0.00971929     -0.000746388    -0.000910345          0.96493        0.259409     -0.000629298      0.00111957
                    -0.000732091    -0.000743954          0.20615        0.116886     -0.000825552    -0.000479327        -0.584326        0.776286
                         0.96476        0.259156     -0.000816418    -0.000397367       -0.0393474      -0.0115777     -0.000192233      0.00137019
                    -0.000577345      0.00113045        -0.584105        0.776157     -0.000234464      0.00128714           0.1694        0.165707
256200                 0.0379652        0.018124     -0.000839332    -0.000859039         0.983483        0.176209     -0.000526844      0.00118444
                    -0.000803424     -0.00069147         0.210501        0.106868     -0.000847569    -0.000440077        -0.529577        0.814874
                        0.983259        0.175985     -0.000829831    -0.000354126       -0.0418773       0.0038222     -0.000113473      0.00139369
                     -0.00046584      0.00118901         -0.52936        0.814745      -0.00016003      0.00131188         0.183188        0.148896
