! TOUCHSTONE file generated by CST MICROWAVE STUDIO
! Date and time: Sun Sep 28 20:03:49 2025
! Project name: biblioteca3_folgaOK.cst
! Parameters = {H=600; Lx=300; Ly=300; Nedge=28; P=520; mesh_pilar_nm=40; t_air=3500; t_sub=4000}
! Header version: 2018
! Port assignment regex: !\s*Touchstone port\s*([0-9]+)\s*=\s*(CST MWS port|CST DS port)\s*([0-9]+|Zmin|Zmax)\s*\(\"(.*)\"\)(\s*mode\s*([0-9]+))?.*
! Touchstone port assignment:
! Touchstone port 1 = CST MWS port Zmin ("") mode 1
! Touchstone port 2 = CST MWS port Zmin ("") mode 2
! Touchstone port 3 = CST MWS port Zmax ("") mode 1
! Touchstone port 4 = CST MWS port Zmax ("") mode 2
! S-Parameters are not renormalized. Each port impedance will be approximated by the real part at minimum frequency. The values are described via the [Reference] keyword.
! Default impedance is overridden by [Reference]
[Version] 2.0
# GHz S RI R 376.73
[Number of Ports] 4
[Reference]
376.73 376.73 376.73 376.73 
[Number of Frequencies] 401
[Network Data]
250000                  0.219693        0.201073     -0.000637554    -0.000269461        -0.195699       -0.934348     -0.000228804    -0.000313112
                    -0.000632115    -0.000275116         0.219454        0.199037     -0.000191435    -4.43385e-05        -0.197466       -0.934493
                       -0.195771       -0.934353     -6.43534e-05     3.33493e-05          0.12051       -0.272352     -0.000576982     0.000561886
                    -0.000301641    -0.000245986         -0.19787       -0.934626     -0.000612524     0.000423228         0.120153       -0.270797
250200                  0.239858        0.171553      -0.00064517     -0.00017126        -0.295021       -0.907689     -0.000266195    -0.000274201
                    -0.000658928    -0.000188396         0.239407         0.16953     -0.000197641    -2.62668e-05        -0.297708       -0.908388
                       -0.295995       -0.908184     -7.32022e-05     4.06289e-05        0.0927747       -0.279973     -0.000544135     0.000585859
                    -0.000321757    -0.000213932         -0.29827       -0.908572     -0.000574008     0.000471904        0.0926315       -0.278171
250400                  0.255842        0.139848     -0.000643841    -7.28584e-05        -0.391578       -0.870763     -0.000297316     -0.00022943
                    -0.000673782    -9.57465e-05         0.255141        0.137867     -0.000202365    -5.43467e-06        -0.394836        -0.87163
                       -0.393078       -0.871477     -8.22483e-05     5.00039e-05        0.0646028       -0.284376     -0.000509695     0.000608972
                    -0.000337509    -0.000178248        -0.395485       -0.871801     -0.000531619     0.000516489        0.0646689       -0.282439
250600                  0.267377          0.1066     -0.000633187     2.48471e-05        -0.484186       -0.823807     -0.000320754    -0.000180231
                    -0.000675162     8.36526e-07         0.266399        0.104704     -0.000204842     1.83222e-05          -0.4877        -0.82456
                       -0.485899       -0.824555     -9.12343e-05     6.19251e-05        0.0363856       -0.285567     -0.000473603     0.000631102
                    -0.000348146     -0.00013982        -0.488369       -0.824682     -0.000485951      0.00055667        0.0366379       -0.283576
250800                  0.274301       0.0724865     -0.000612896     0.000120851        -0.571686       -0.767197     -0.000335559    -0.000128463
                    -0.000661968     9.89463e-05         0.273035       0.0707307     -0.000204104     4.49897e-05        -0.575188       -0.767645
                       -0.573369       -0.767862     -9.97384e-05     7.69161e-05       0.00850513       -0.283594     -0.000435799      0.00065211
                    -0.000353174    -9.97074e-05        -0.575821       -0.767707     -0.000437608     0.000592245       0.00891252         -0.2816
251000                  0.276566       0.0382017     -0.000582754      0.00021404        -0.652964       -0.701444     -0.000341388     -7.6219e-05
                     -0.00063364      0.00019588         0.275018        0.036644     -0.000198991     7.42523e-05        -0.656239       -0.701476
                       -0.654441       -0.701965     -0.000107093     9.55524e-05       -0.0186694       -0.278545     -0.000396226     0.000671835
                    -0.000352403    -5.90486e-05        -0.656792       -0.701483     -0.000387187     0.000623111       -0.0181375       -0.276579
251200                  0.274236      0.00443544     -0.000542661     0.000303193        -0.726972       -0.627188      -0.00033855    -2.55757e-05
                    -0.000590239     0.000288794         0.272428      0.00313316     -0.000188243     0.000105346        -0.729857       -0.626758
                       -0.728129       -0.627548      -0.00011228     0.000118397       -0.0447844       -0.270552     -0.000354829     0.000690091
                    -0.000345943    -1.89519e-05        -0.730302       -0.626729     -0.000335252     0.000649257       -0.0441529       -0.268623
251400                  0.267484      -0.0281458     -0.000492665     0.000386988        -0.792739       -0.545193     -0.000327941       2.164e-05
                    -0.000532471     0.000374878         0.265457      -0.0291409     -0.000170681     0.000136924        -0.795125       -0.544308
                       -0.793517       -0.545405       -0.0001138     0.000145857       -0.0695057        -0.25978     -0.000311561     0.000706664
                    -0.000334165     1.95948e-05        -0.795447       -0.544264      -0.00028233     0.000670747       -0.0687902       -0.257889
251600                  0.256589      -0.0589165     -0.000432987     0.000464013        -0.849389       -0.456338     -0.000310882     6.40262e-05
                    -0.000461654     0.000451536         0.254392      -0.0595622     -0.000145507     0.000167004        -0.851213       -0.455039
                       -0.849774       -0.456435     -0.000109579     0.000177915       -0.0925212       -0.246434     -0.000266388     0.000721304
                    -0.000317629     5.57891e-05        -0.851411       -0.455007     -0.000228894     0.000687711       -0.0917274       -0.244574
251800                  0.241921       -0.087309     -0.000364056     0.000532785        -0.896152       -0.361605     -0.000288925     0.000100689
                    -0.000379629     0.000516535         0.239615      -0.0875751     -0.000112675     0.000193095        -0.897391       -0.359958
                       -0.896166       -0.361627     -9.69899e-05     0.000213682        -0.113545       -0.230751     -0.000219295     0.000733722
                    -0.000297006     8.90447e-05        -0.897477       -0.359959     -0.000175359     0.000700324        -0.112669       -0.228914
252000                  0.223931       -0.112826     -0.000286542     0.000591772        -0.932374       -0.262067     -0.000263652     0.000131232
                    -0.000288624     0.000568115         0.221582       -0.112697     -7.32043e-05     0.000212577        -0.933042        -0.26015
                       -0.932064       -0.262057     -7.32037e-05     0.000250819         -0.13232       -0.213001     -0.000170297     0.000743581
                    -0.000272999      0.00011899        -0.933033       -0.260201     -0.000122086     0.000708795         -0.13135        -0.21118
252200                  0.203141       -0.135055     -0.000201383     0.000639439         -0.95753       -0.158877     -0.000236528     0.000155687
                    -0.000191109     0.000605045         0.200816       -0.134527     -2.92469e-05      0.00022327        -0.957661       -0.156766
                       -0.956959       -0.158869     -3.60936e-05     0.000285071        -0.148624       -0.193482     -0.000119452     0.000750497
                     -0.00024628     0.000145443        -0.957583       -0.156878     -6.93744e-05     0.000713353        -0.147541       -0.191676
252400                  0.180123       -0.153674      -0.00010982     0.000674288        -0.971224      -0.0532457     -0.000208808       0.0001744
                    -8.96461e-05     0.000626627         0.177889       -0.152757      1.62195e-05     0.000224018        -0.970874      -0.0510157
                       -0.970464      -0.0532686      1.43118e-05     0.000310481        -0.162268       -0.172517     -6.68869e-05     0.000754028
                    -0.000217444     0.000168373        -0.970752      -0.0511921     -1.74717e-05     0.000714235        -0.161053       -0.170732
252600                  0.155489       -0.168457     -1.34138e-05     0.000694919        -0.973203       0.0535657     -0.000181492     0.000187922
                     1.32417e-05     0.000632656         0.153408       -0.167174      6.00111e-05     0.000214992        -0.972435       0.0558518
                       -0.972324       0.0534959      7.44906e-05     0.000320899        -0.173104       -0.150451      -1.2815e-05     0.000753679
                    -0.000186981     0.000187853        -0.972296        0.055615      3.34246e-05     0.000711679        -0.171736       -0.148701
252800                  0.129871       -0.179283      8.59434e-05     0.000700111        -0.963355        0.160267     -0.000155331     0.000196908
                     0.000115163     0.000623352         0.127998       -0.177665      9.94186e-05     0.000197576        -0.962233        0.162558
                       -0.962425        0.160145      0.000137513     0.000312543        -0.181028       -0.127648      4.24214e-05     0.000748912
                    -0.000155264     0.000204023        -0.962102        0.162271      8.31608e-05     0.000705916        -0.179489       -0.125951
253000                  0.103906       -0.186133      0.000186035     0.000688894        -0.941712        0.265553      -0.00013085     0.000202047
                     0.000213922     0.000599273          0.10229       -0.184219      0.000132662     0.000173907        -0.940301        0.267811
                       -0.940789        0.265384      0.000195251     0.000285977        -0.185979       -0.104481      9.83119e-05     0.000739163
                    -0.000122552     0.000217044        -0.940196         0.26749       0.00013162     0.000697162        -0.184254       -0.102863
253200                 0.0782188       -0.189089      0.000284345      0.00066065        -0.908454        0.368123     -0.000108388     0.000204005
                     0.000307542     0.000561232        0.0769001       -0.186924      0.000158993     0.000146321        -0.906809        0.370321
                       -0.907584        0.367919      0.000241456     0.000245814        -0.187943      -0.0813318      0.000154129     0.000723894
                     -8.8987e-05     0.000227067        -0.906744        0.369983      0.000178719     0.000685616        -0.186024      -0.0798226
253400                 0.0534081       -0.188331      0.000378115     0.000615203        -0.863905        0.466693     -8.81424e-05     0.000203402
                     0.000394268     0.000510222          0.05242       -0.185965      0.000178508     0.000116905        -0.862073        0.468814
                       -0.863122        0.466471      0.000273514     0.000198401        -0.186954      -0.0585846      0.000208885     0.000702667
                    -5.46081e-05     0.000234204        -0.862056        0.468479      0.000224395     0.000671457        -0.184841       -0.057216
253600                   0.03003       -0.184134      0.000464425     0.000552906        -0.808532        0.560014     -7.02036e-05      0.00020079
                     0.000472543      0.00044736        0.0293983       -0.181617      0.000191844     8.72785e-05        -0.806546        0.562048
                       -0.807855        0.559796      0.000292068     0.000149396        -0.183095      -0.0366173      0.000261312     0.000675264
                    -1.93563e-05     0.000238496        -0.806579        0.561735       0.00026861     0.000654842        -0.180794      -0.0354217
253800                0.00858472       -0.176856      0.000540307     0.000474715        -0.742939        0.646891     -5.45895e-05     0.000196657
                     0.000540973     0.000373848       0.00832837       -0.174242      0.000199889      5.8546e-05        -0.740823        0.648828
                       -0.742379        0.646696      0.000299544     0.000102587        -0.176498      -0.0157973      0.000309889     0.000641848
                     1.69172e-05     0.000239884        -0.740903        0.648555      0.000311335     0.000635908        -0.174022       -0.014806
254000                 -0.010497       -0.166931      0.000602887     0.000382236        -0.667866         0.72619     -4.12718e-05     0.000191428
                     0.000598291     0.000290959       -0.0103654       -0.164274      0.000203565     3.13708e-05        -0.665632        0.728024
                        -0.66742        0.726037      0.000298786     5.99073e-05        -0.167341      0.00352526      0.000352972     0.000603145
                     5.44443e-05     0.000238166         -0.66575        0.727803      0.000352553     0.000614767        -0.164709      0.00428386
254200                -0.0268649       -0.154855      0.000649548     0.000277732        -0.584177        0.796864     -3.01967e-05     0.000185476
                     0.000643319     0.000200043       -0.0263389       -0.152212      0.000203709     6.08215e-06        -0.581829        0.798584
                       -0.583834        0.796765      0.000292291     2.19749e-05        -0.155848       0.0210236      0.000389043     0.000560587
                     9.35296e-05     0.000232935        -0.581974        0.798424       0.00039225      0.00059151        -0.153084       0.0215251
254400                -0.0402591       -0.141178      0.000678101     0.000164084        -0.492853        0.857956     -2.13004e-05     0.000179129
                     0.000674944     0.000102546       -0.0393382       -0.138604      0.000201017    -1.72176e-05        -0.490389        0.859548
                       -0.492599        0.857922      0.000281959    -1.13394e-05        -0.142285       0.0364006      0.000417086     0.000516328
                     0.000134528     0.000223495        -0.490549        0.859453      0.000430411     0.000566207        -0.139417       0.0366251
254600                -0.0505175        -0.12648       0.00068695     4.47007e-05        -0.394984        0.908623     -1.45211e-05     0.000172689
                     0.000692106     5.24086e-08       -0.0492079       -0.124035      0.000196033    -3.85656e-05        -0.392399        0.910064
                       -0.394799        0.908655      0.000269111    -4.05058e-05        -0.126956       0.0493939      0.000437002     0.000473015
                      0.00017779     0.000208716         -0.39256        0.910034      0.000467017     0.000538909        -0.124014       0.0493268
254800                -0.0575816       -0.111363      0.000675231    -7.66257e-05        -0.291754        0.948137     -9.80777e-06     0.000166444
                     0.000693801    -0.000105666       -0.0558969       -0.109105      0.000189151    -5.80755e-05        -0.289043        0.949402
                       -0.291619        0.948234      0.000254607    -6.60972e-05        -0.110201       0.0597814      0.000449877     0.000433298
                      0.00022353     0.000186823        -0.289194         0.94943      0.000502042     0.000509651        -0.107217       0.0594131
255000                 -0.061499      -0.0964291      0.000642907    -0.000195904        -0.184432        0.975908     -7.12638e-06     0.000160688
                     0.000679116    -0.000212595       -0.0594607      -0.0944185      0.000180639    -7.58944e-05        -0.181594        0.976962
                       -0.184328        0.976062      0.000238965     -8.8668e-05        -0.092385       0.0673857      0.000457938     0.000399195
                     0.000271503     0.000155082        -0.181724         0.97704       0.00053545      0.00047845       -0.0893906       0.0667113
255200                -0.0624236       -0.082265      0.000590806    -0.000309154       -0.0743543        0.991483     -6.46472e-06     0.000155745
                     0.000647292    -0.000318423       -0.0600623      -0.0805605      0.000170652    -9.21745e-05       -0.0713929        0.992289
                      -0.0742649        0.991685      0.000222464    -0.000108701        -0.073899       0.0720771      0.000464111     0.000371551
                     0.000320277     0.000109426       -0.0714958        0.992406      0.000567187      0.00044531       -0.0709254       0.0710961
255400                -0.0606124      -0.0694223      0.000520592     -0.00041263        0.0370905        0.994564     -7.83388e-06     0.000151998
                     0.000597816      -0.0004205       -0.0579687      -0.0680808       0.00015925    -0.000107055        0.0401627         0.99508
                        0.037178          0.9948      0.000205216     -0.00012659       -0.0551489       0.0737773      0.000471343      0.00034985
                     0.000365641     4.43194e-05        0.0400903        0.995222      0.000597185     0.000410225       -0.0522257       0.0724923
255600                -0.0564198       -0.058401      0.000434672    -0.000503019         0.148476        0.985006     -1.12649e-05     0.000149941
                     0.000530554    -0.000515821       -0.0535447      -0.0574759      0.000146409    -0.000120648         0.151638        0.985192
                        0.148571        0.985262      0.000187214    -0.000142639       -0.0365503       0.0724605      0.000481964     0.000332444
                     0.000397659    -4.59897e-05         0.151596        0.985345      0.000625355     0.000373181       -0.0337051       0.0708771
255800                -0.0502888      -0.0496327      0.000336047    -0.000577609          0.25836        0.962827     -1.67944e-05     0.000150246
                     0.000445909     -0.00060106       -0.0472437      -0.0491713      0.000132024     -0.00013303         0.261578        0.962643
                        0.258466         0.96309      0.000168366    -0.000157063       -0.0185213       0.0681544      0.000497328     0.000317036
                     0.000397244    -0.000161779         0.261563        0.962795      0.000651581     0.000334159       -0.0157801       0.0662797
256000                -0.0427389      -0.0434656      0.000228124    -0.000634405         0.365296        0.928211     -2.44235e-05     0.000153881
                     0.000344997    -0.000672664       -0.0395954      -0.0435072      0.000115919     -0.00014423         0.368529        0.927622
                        0.365414        0.928467      0.000148508    -0.000169993      -0.00147612       0.0609399      0.000517771     0.000301197
                     0.000339624    -0.000284717         0.368536        0.927762      0.000675724     0.000293138       0.00113716       0.0587824
256200                -0.0343524      -0.0401517       0.00011451    -0.000672186         0.467859        0.881505     -3.40122e-05     0.000162295
                     0.000229813    -0.000727035       -0.0311911      -0.0407252      9.78386e-05    -0.000154216         0.471056        0.880481
                        0.467988        0.881745       0.00012742    -0.000181479        0.0141825       0.0509496      0.000542802     0.000282747
                     0.000218844    -0.000369712         0.471075        0.880601      0.000697614     0.000250105        0.0166453       0.0485181
