! TOUCHSTONE file generated by CST MICROWAVE STUDIO
! Date and time: Sun Sep 28 19:32:16 2025
! Project name: biblioteca3_folgaOK.cst
! Parameters = {H=600; Lx=200; Ly=260; Nedge=24; P=520; mesh_pilar_nm=40; t_air=3500; t_sub=4000}
! Header version: 2018
! Port assignment regex: !\s*Touchstone port\s*([0-9]+)\s*=\s*(CST MWS port|CST DS port)\s*([0-9]+|Zmin|Zmax)\s*\(\"(.*)\"\)(\s*mode\s*([0-9]+))?.*
! Touchstone port assignment:
! Touchstone port 1 = CST MWS port Zmin ("") mode 1
! Touchstone port 2 = CST MWS port Zmin ("") mode 2
! Touchstone port 3 = CST MWS port Zmax ("") mode 1
! Touchstone port 4 = CST MWS port Zmax ("") mode 2
! S-Parameters are not renormalized. Each port impedance will be approximated by the real part at minimum frequency. The values are described via the [Reference] keyword.
! Default impedance is overridden by [Reference]
[Version] 2.0
# GHz S RI R 376.73
[Number of Ports] 4
[Reference]
376.73 376.73 376.73 376.73 
[Number of Frequencies] 401
[Network Data]
250000                 -0.244386        0.293446     -0.000516326      0.00103334         0.265514       -0.885465     -0.000194068     0.000339827
                    -0.000345931       0.0011703        -0.118877        0.033278      0.000242881      0.00070097         0.957493        0.260715
                        0.265764       -0.885237      0.000280314     0.000523333        -0.042641       -0.379514       0.00134891     0.000319012
                    -0.000315266     0.000433234         0.957474        0.260769       0.00122349     0.000389189         0.085595       0.0889541
250200                 -0.218365        0.308013     -0.000432511      0.00111782         0.183754       -0.908032     -0.000173819      0.00034358
                    -0.000273597      0.00121874        -0.123623       0.0368892      0.000305199     0.000666601         0.974878        0.181867
                        0.183958       -0.907612      0.000331286     0.000507988       -0.0814826       -0.368692       0.00140438     0.000205301
                    -0.000283802     0.000435216         0.974793        0.181906       0.00128908     0.000296137          0.10199       0.0790296
250400                 -0.191211        0.319798     -0.000335399      0.00119528        0.0998387       -0.923221     -0.000149325     0.000347651
                    -0.000193833      0.00126394        -0.128221        0.041324      0.000366139     0.000625334         0.985713        0.101906
                        0.100016       -0.922679      0.000383334     0.000485853        -0.118508       -0.353282       0.00145381     8.24835e-05
                    -0.000244031      0.00043808         0.985579        0.101949       0.00134892     0.000193311         0.117037       0.0667605
250600                 -0.163242        0.328691     -0.000225622      0.00126341        0.0144002         -0.9308     -0.000120279     0.000352602
                    -0.000106445      0.00130489        -0.132569       0.0465668      0.000424565     0.000576844         0.989942       0.0213872
                       0.0145615         -0.9302      0.000435419     0.000456262        -0.153114        -0.33356       0.00149607    -4.88586e-05
                    -0.000196811     0.000443812         0.989776        0.021448       0.00140156     8.07735e-05         0.130424       0.0523436
250800                  -0.13479        0.334614     -0.000104289      0.00131999       -0.0719047       -0.930583     -8.66397e-05     0.000359037
                     -1.1362e-05       0.0013405        -0.136569       0.0525903      0.000479181        0.000521         0.987556      -0.0591364
                      -0.0717572       -0.929983      0.000486273     0.000418726        -0.184738       -0.309881       0.00152999    -0.000187759
                    -0.000144235     0.000453384         0.987373      -0.0590508       0.00144545    -4.11984e-05         0.141869       0.0360151
251000                 -0.106196        0.337532      2.70254e-05      0.00136298        -0.158397       -0.922435     -4.86821e-05     0.000367449
                     9.13349e-05      0.00136954        -0.140126       0.0593564      0.000528557     0.000457929         0.978593       -0.139116
                       -0.158261       -0.921888      0.000534427     0.000373016        -0.212868       -0.282684       0.00155436    -0.000332806
                    -8.86966e-05     0.000466213         0.978408       -0.139003         0.001479    -0.000172074         0.151125       0.0180464
251200                -0.0778063        0.337447      0.000166336      0.00139064        -0.244379       -0.906277     -6.96508e-06      0.00037805
                      0.00020138      0.00139071        -0.143149       0.0668164      0.000571191     0.000388071         0.963137       -0.218012
                       -0.244247       -0.905827      0.000578273     0.000319234        -0.237052       -0.252477       0.00156786    -0.000482109
                    -3.19619e-05     0.000480503         0.962961       -0.217874       0.00150056    -0.000311039         0.157984     -0.00126173
251400                -0.0499693        0.334402      0.000311329      0.00140166        -0.329133       -0.882097      3.77969e-05     0.000390621
                     0.000318289      0.00140265        -0.145555       0.0749116      0.000605581     0.000312226         0.941314       -0.295297
                        -0.32899       -0.881772      0.000616159     0.000257878        -0.256915       -0.219835         0.001569    -0.000633339
                      2.5134e-05     0.000494011         0.941157       -0.295136       0.00150852    -0.000456964         0.162281      -0.0215844
251600                -0.0230286        0.328484      0.000459481       0.0013952        -0.411921       -0.849953      8.49095e-05     0.000404482
                     0.000441333        0.001404        -0.147268       0.0835749      0.000630324     0.000231574         0.913295       -0.370459
                       -0.411745       -0.849759      0.000646503      0.00018986        -0.272161       -0.185386       0.00155604     -0.00078389
                     8.24392e-05     0.000504641         0.913163       -0.370282        0.0015014    -0.000608398         0.163893      -0.0425785
251800                0.00268089         0.31982      0.000608182      0.00137094        -0.491981       -0.809973      0.000133847      0.00041855
                     0.000569513      0.00139341        -0.148219       0.0927308      0.000644231     0.000147674         0.879288       -0.443004
                       -0.491754        -0.80989      0.000667922     0.000116498        -0.282589         -0.1498       0.00152702    -0.000931166
                     0.000140076     0.000510675         0.879184       -0.442818       0.00147784    -0.000763562         0.162745      -0.0638886
252000                 0.0268387        0.308581      0.000754874      0.00132906         -0.56853       -0.762351      0.000184313     0.000431474
                     0.000701553      0.00136962         -0.14835        0.102297      0.000646438      6.2411e-05          0.83954       -0.512462
                       -0.568253       -0.762343      0.000679351     3.94491e-05        -0.288096       -0.113776       0.00147992     -0.00107292
                     0.000198123     0.000510772         0.839467       -0.512273       0.00143676    -0.000920375         0.158807       -0.085153
252200                 0.0491444        0.294979      0.000897162      0.00127019        -0.640787       -0.707339      0.000236202     0.000441779
                     0.000835907      0.00133154        -0.147609        0.112185      0.000636508     -2.2088e-05         0.794336       -0.578385
                       -0.640475       -0.707372      0.000680134     -3.9389e-05        -0.288684      -0.0780292       0.00141314      -0.0012075
                     0.000256439     0.000503886         0.794291         -0.5782       0.00137739     -0.00107649         0.152095       -0.106009
252400                 0.0693232        0.279263       0.00103291      0.00119536        -0.707985       -0.645264       0.00028949     0.000447962
                     0.000970772      0.00127828        -0.145957        0.122302      0.000614502    -0.000103573          0.74399       -0.640352
                        -0.70766       -0.645312      0.000670077    -0.000118008        -0.284462      -0.0432719       0.00132586     -0.00133379
                     0.000314589     0.000489203         0.743971       -0.640176       0.00129935     -0.00122936         0.142675       -0.126101
252600                 0.0871318         0.26172       0.00116033      0.00110585        -0.769384       -0.576535      0.000344098     0.000448551
                      0.00110414      0.00120925        -0.143365         0.13255      0.000581008    -0.000179817         0.688849       -0.697971
                       -0.769067       -0.576582      0.000649443    -0.000194422        -0.275649      -0.0101986       0.00121836       -0.001451
                      0.00037184      0.00046612         0.688851       -0.697809       0.00120271     -0.00137631         0.130654       -0.145081
252800                  0.102364        0.242672       0.00127796      0.00100315        -0.824274       -0.501648      0.000399754      0.00044214
                      0.00123384      0.00112416        -0.139813        0.142831      0.000537124    -0.000248759         0.629288       -0.750882
                        -0.82398       -0.501686      0.000618909    -0.000266782         -0.26257       0.0205319       0.00109198     -0.00155829
                     0.000427185      0.00043425         0.629306       -0.750735       0.00108803     -0.00151466         0.116184       -0.162621
253000                  0.114855        0.222465       0.00138473     0.000888828        -0.871983        -0.42119      0.000455878      0.00042742
                      0.00135764      0.00102313        -0.135294        0.153043      0.000484384     -0.00030864         0.565706       -0.798755
                        -0.87172       -0.421214      0.000579484    -0.000333461        -0.245652       0.0483142      0.000948834     -0.00165462
                     0.000479391     0.000393464         0.565735       -0.798625      0.000956312      -0.0016418        0.0994583       -0.178412
253200                  0.124489        0.201471       0.00147991     0.000764411        -0.911888       -0.335833      0.000511498     0.000403232
                      0.00147329     0.000906636         -0.12981        0.163084      0.000424661    -0.000358104         0.498525       -0.841294
                       -0.911659       -0.335843      0.000532409    -0.000393096        -0.225416       0.0726133      0.000791465     -0.00173875
                     0.000527072     0.000343922         0.498559       -0.841181      0.000809051     -0.00175531        0.0807059       -0.192173
253400                  0.131198        0.180077       0.00156308     0.000631334        -0.943425       -0.246332      0.000565204     0.000368661
                      0.00157865     0.000775531        -0.123375        0.172854      0.000360036    -0.000396252         0.428188       -0.878239
                        -0.94323       -0.246328      0.000479061    -0.000444584        -0.202468       0.0929805      0.000622593     -0.00180941
                     0.000568771     0.000286111         0.428222       -0.878141      0.000648139     -0.00185306        0.0601915       -0.203654
253600                  0.134971         0.15868       0.00163405     0.000490851        -0.966104        -0.15352      0.000615152     0.000323164
                      0.00167172     0.000631006        -0.116013        0.182254       0.00029267    -0.000422658         0.355153       -0.909365
                        -0.96594       -0.153502       0.00042087    -0.000487044        -0.177481        0.109068      0.000444926      -0.0018654
                     0.000603062     0.000220857         0.355183        -0.90928        0.0004758     -0.00193327        0.0382094       -0.212639
253800                  0.135851        0.137677        0.0016928     0.000343973        -0.979521      -0.0582964      0.000659137     0.000266711
                      0.00175075     0.000474539        -0.107758        0.191189      0.000224687    -0.000437346         0.279893       -0.934483
                       -0.979383      -0.0582675      0.000359246    -0.000519749         -0.15118        0.120642      0.000261068     -0.00190582
                     0.000628647     0.000149308         0.279917       -0.934408      0.000294504     -0.00199462        0.0150792        -0.21895
254000                  0.133938        0.117457        0.0017394     0.000191417        -0.983366       0.0383774      0.000694742     0.000199926
                      0.00181424     0.000307823       -0.0986555        0.199566      0.000158083    -0.000440735         0.202894       -0.953443
                        -0.98325       0.0384145      0.000295541    -0.000542047        -0.124325         0.12759      7.34662e-05     -0.00193007
                      0.00064445     7.28978e-05         0.202908       -0.953374      0.000106864     -0.00203621      -0.00885846       -0.222451
254200                  0.129386        0.098395       0.00177382     3.35672e-05        -0.977436        0.135493      0.000719561      0.00012418
                      0.00186097     0.000132697       -0.0887591        0.207299      9.46616e-05    -0.000433572         0.124648       -0.966132
                       -0.977339        0.135535      0.000231013    -0.000553267       -0.0976836        0.129927     -0.000115617     -0.00193787
                     0.000649693     -6.7281e-06         0.124652       -0.966065     -8.44685e-05     -0.00205761        -0.033248        -0.22305
254400                  0.122406       0.0808391       0.00179583    -0.000129522        -0.961647        0.232007      0.000731466      4.1595e-05
                      0.00188998    -4.89176e-05       -0.0781315        0.214308      3.60033e-05     -0.00041686        0.0456561       -0.972474
                       -0.961567        0.232051      0.000166803    -0.000552651        -0.072016          0.1278     -0.000304127     -0.00192929
                     0.000643942    -8.77982e-05        0.0456494       -0.972406      -0.00027689     -0.00205882       -0.0577236       -0.220699
254600                  0.113254       0.0651049       0.00180471    -0.000298057        -0.936035        0.326857      0.000728891    -4.50712e-05
                      0.00190055    -0.000235065       -0.0668439        0.220519     -1.65434e-05    -0.000391798       -0.0335798       -0.972432
                       -0.935969          0.3269       0.00010389    -0.000539308       -0.0480463        0.121482     -0.000490226     -0.00190467
                     0.000627124    -0.000168511       -0.0335963        -0.97236      -0.00046793     -0.00204023       -0.0819154       -0.215397
254800                  0.102234       0.0514666         0.001799    -0.000472281        -0.900763        0.418979      0.000711045    -0.000132644
                      0.00189214    -0.000423782       -0.0549747        0.225865      -6.1847e-05    -0.000359742        -0.112556       -0.966007
                        -0.90071        0.419019      4.30573e-05     -0.00051226       -0.0264425        0.111366     -0.000672306     -0.00186458
                     0.000599511    -0.000247124         -0.11258       -0.965927     -0.000655306     -0.00200257        -0.105455       -0.207189
255000                 0.0896839       0.0401508       0.00177628       -0.000652        -0.856123        0.507323      0.000678021    -0.000217839
                      0.00186432    -0.000613098        -0.042609         0.23029     -9.89693e-05    -0.000322197         -0.19077       -0.953237
                       -0.856083        0.507359     -1.51483e-05    -0.000470593      -0.00779478       0.0979553     -0.000848983     -0.00180976
                     0.000561682    -0.000322035        -0.190801       -0.953148     -0.000836966     -0.00194684        -0.127981       -0.196167
255200                 0.0759732       0.0313306       0.00173327    -0.000835834        -0.802532        0.590873      0.000630772    -0.000297578
                       0.0018167       -0.000801       -0.0298377        0.233743     -0.000127143    -0.000280859        -0.267724       -0.934199
                       -0.802506        0.590905     -7.03492e-05    -0.000413795       0.00740368       0.0818482      -0.00101909     -0.00174105
                      0.00051446     -0.00039183        -0.267759         -0.9341       -0.0010111     -0.00187423        -0.149146       -0.182467
255400                 0.0614908       0.0251212       0.00166651     -0.00102039        -0.740532        0.668663       0.00057095    -0.000369261
                      0.00174883     -0.00098539       -0.0167565        0.236187     -0.000145791    -0.000237749        -0.342928       -0.909005
                       -0.740521        0.668694     -0.000122077    -0.000342195        0.0187722       0.0637178      -0.00118168     -0.00165938
                     0.000458854    -0.000455313        -0.342965       -0.908897      -0.00117616      -0.0017861        -0.168619       -0.166268
255600                 0.0466367       0.0215779       0.00157386     -0.00120003        -0.670777        0.739797      0.000500666    -0.000430944
                         0.00166     -0.00116407       -0.0034649        0.237591     -0.000154702    -0.000195499        -0.415901       -0.877806
                       -0.670782        0.739828     -0.000169261    -0.000257354        0.0260551       0.0442917      -0.00133596      -0.0015657
                      0.00039599    -0.000511517        -0.415937       -0.877688      -0.00133078     -0.00168389        -0.186095       -0.147792
255800                 0.0318121       0.0206949       0.00145611     -0.00136787        -0.594029         0.80346      0.000422217    -0.000481388
                      0.00154886     -0.00133496       0.00993463        0.237938     -0.000154773    -0.000157808        -0.486173       -0.840786
                        -0.59405        0.803497     -0.000209654    -0.000162145         0.029129       0.0243284      -0.00148134     -0.00146093
                     0.000327065    -0.000559679        -0.486206       -0.840661      -0.00147381     -0.00156913        -0.201296       -0.127296
256000                 0.0174094       0.0224064       0.00131736     -0.00151806        -0.511139        0.858935      0.000337838    -0.000520015
                      0.00141305     -0.00149741         0.023338         0.23722     -0.000150378     -0.00012927        -0.553288       -0.798167
                       -0.511176        0.858983     -0.000239621    -6.04612e-05        0.0280066      0.00459235      -0.00161735     -0.00134597
                     0.000253307    -0.000599215        -0.553318       -0.798037      -0.00160418     -0.00144346        -0.213979       -0.105074
256200                0.00380256        0.026589       0.00116367     -0.00164767        -0.423038        0.905616      0.000249497    -0.000546797
                      0.00125159      -0.0016556        0.0366404        0.235438     -0.000153275     -0.00010976        -0.616808       -0.750202
                       -0.423088        0.905679     -0.000254646      4.3163e-05        0.0228345      -0.0141703      -0.00174362     -0.00122167
                     0.000175959    -0.000629677        -0.616834       -0.750071      -0.00172088     -0.00130875        -0.223938       -0.081446
