! TOUCHSTONE file generated by CST MICROWAVE STUDIO
! Date and time: Fri Sep 26 20:22:16 2025
! Project name: biblioteca3_folgaOK.cst
! Parameters = {H=600; Lx=200; Ly=260; Nedge=20; P=520; k=0; mesh_pilar_nm=40; n=0; t_air=3800; t_sub=3000; wavelength_nm=0}
! Header version: 2018
! Port assignment regex: !\s*Touchstone port\s*([0-9]+)\s*=\s*(CST MWS port|CST DS port)\s*([0-9]+|Zmin|Zmax)\s*\(\"(.*)\"\)(\s*mode\s*([0-9]+))?.*
! Touchstone port assignment:
! Touchstone port 1 = CST MWS port Zmin ("") mode 1
! Touchstone port 2 = CST MWS port Zmin ("") mode 2
! Touchstone port 3 = CST MWS port Zmax ("") mode 1
! Touchstone port 4 = CST MWS port Zmax ("") mode 2
! S-Parameters are not renormalized. Each port impedance will be approximated by the real part at minimum frequency. The values are described via the [Reference] keyword.
! Default impedance is overridden by [Reference]
[Version] 2.0
# GHz S RI R 376.73
[Number of Ports] 4
[Reference]
376.73 376.73 376.73 376.73 
[Number of Frequencies] 401
[Network Data]
250000                  0.149635      -0.0682218      -0.00206204     -0.00147072         0.959489       -0.226855     -0.000991016     0.000315853
                     -0.00181632     -0.00145344       -0.0997273       -0.220727     -0.000744133      0.00119053         0.211238        0.946217
                        0.960009       -0.226608     -0.000909438      0.00137634        -0.164331      0.00582681       0.00189598       0.0013762
                    -0.000748589      0.00100006         0.212494        0.946652       0.00196919      0.00116528       0.00398589        0.242143
250200                  0.151472      -0.0892925      -0.00212753     -0.00135177         0.929168       -0.325782     -0.000995279      0.00044383
                     -0.00200969     -0.00122571        -0.113059       -0.209623     -0.000604878       0.0012689         0.295098        0.925334
                        0.929892       -0.324933     -0.000906607      0.00142301        -0.173476       0.0226465       0.00208603      0.00122073
                     -0.00066557      0.00108994         0.295963        0.925463       0.00213463      0.00099608        0.0295894        0.236342
250400                  0.150372       -0.111485      -0.00218941     -0.00121797         0.888454       -0.420662     -0.000981919     0.000584056
                     -0.00217093    -0.000974728        -0.125097       -0.197681      -0.00045504      0.00133007         0.377103        0.896793
                        0.889446       -0.419468     -0.000897519      0.00147196        -0.180809       0.0416162       0.00225958       0.0010345
                     -0.00056966      0.00117329         0.377578        0.896735       0.00228008     0.000805967        0.0542276        0.227639
250600                  0.146064       -0.134335      -0.00224616     -0.00106812         0.837936       -0.510404     -0.000946279     0.000734502
                     -0.00229787    -0.000705672        -0.135791       -0.185068     -0.000297335      0.00137249         0.456518        0.860766
                         0.83919       -0.509082     -0.000880357      0.00152322        -0.185897       0.0625473       0.00241066      0.00082058
                    -0.000461336      0.00124809         0.456627        0.860625       0.00240322     0.000598178        0.0775435        0.216173
250800                  0.138365       -0.157317      -0.00229594    -0.000901045         0.778309       -0.594007     -0.000883591     0.000891534
                     -0.00238928    -0.000423655        -0.145112       -0.171953     -0.000134693      0.00139515         0.532628        0.817496
                         0.77977       -0.592727     -0.000852845      0.00157666        -0.188321       0.0851605       0.00253428     0.000583497
                    -0.000341438      0.00131233         0.532412        0.817361       0.00250236     0.000376078        0.0992016         0.20213
251000                  0.127197       -0.179869      -0.00233652    -0.000715701         0.710359       -0.670573     -0.000789556      0.00104962
                     -0.00244471    -0.000133557        -0.153055       -0.158502      2.98896e-05      0.00139765         0.604745        0.767296
                        0.711944       -0.669453     -0.000812153      0.00163194        -0.187703        0.109087       0.00262683     0.000328768
                    -0.000211162      0.00136415         0.604258        0.767239       0.00257636      0.00014305         0.118894        0.185738
251200                  0.112593       -0.201412      -0.00236526    -0.000511233         0.634952       -0.739309     -0.000661155      0.00120126
                     -0.00246434      0.00016007        -0.159636       -0.144876      0.000193483       0.0013801         0.672214        0.710547
                        0.636562       -0.738417     -0.000754791      0.00168828        -0.183723        0.133875       0.00268628     6.23866e-05
                    -7.20397e-05      0.00140183         0.671516        0.710621       0.00262462    -9.75952e-05         0.136347        0.167263
251400                 0.0946955       -0.221383      -0.00237901     -0.00028711         0.553016        -0.79953     -0.000497599      0.00133732
                     -0.00244884     0.000453043        -0.164891       -0.131226      0.000353337      0.00134312          0.73442        0.647693
                        0.554553        -0.79889     -0.000676534      0.00174418        -0.176137        0.159001       0.00271211    -0.000209698
                     7.41117e-05      0.00142393         0.733577        0.647931       0.00264695    -0.000342679         0.151324        0.147003
251600                 0.0737525       -0.239254      -0.00237414    -4.32683e-05         0.465529       -0.850666     -0.000301174      0.00144787
                     -0.00239925     0.000741551        -0.168873       -0.117696      0.000506968      0.00128771         0.790792        0.579234
                        0.466909       -0.850263     -0.000572416      0.00179696        -0.164798        0.183885       0.00270514     -0.00048202
                     0.000225243      0.00142932         0.789868        0.579653       0.00264356    -0.000589199         0.163628        0.125286
251800                 0.0501009       -0.254555      -0.00234654     0.000219694         0.373506       -0.892256     -7.76754e-05      0.00152354
                     -0.00231684      0.00102213         -0.17165       -0.104416      0.000652201      0.00121518         0.840812        0.505724
                        0.374664       -0.892048       -0.0004369      0.00184211        -0.149664        0.207914       0.00266718    -0.000749887
                     0.000379145      0.00141718         0.839868        0.506323       0.00261498    -0.000834349         0.173108        0.102457
252000                 0.0241507       -0.266891      -0.00229166     0.000500306         0.277989       -0.923952       0.00016386      0.00155697
                     -0.00220307      0.00129162        -0.173307      -0.0915012      0.000787189      0.00112705         0.884014        0.427763
                        0.278883       -0.923879     -0.000264433      0.00187235        -0.130807        0.230462       0.00260065     -0.00100951
                      0.00053352      0.00138707         0.883104        0.428531       0.00256196     -0.00107553         0.179658       0.0788794
252200               -0.00363423       -0.275948      -0.00220465     0.000795974         0.180034       -0.945515      0.000412205      0.00154422
                     -0.00205953      0.00154712        -0.173936      -0.0790545      0.000910405      0.00102494         0.919993        0.345996
                        0.180649       -0.945508      -5.0679e-05      0.00187667        -0.108411        0.250918       0.00250831     -0.00125802
                     0.000686052      0.00133889         0.919161        0.346907       0.00248553     -0.00131035         0.183218       0.0549236
252400                -0.0327565       -0.281501      -0.00208059      0.00110274        0.0806986       -0.956816      0.000655547       0.0014853
                     -0.00188791      0.00178591         -0.17364      -0.0671613       0.00102061     0.000910532         0.948404          0.2611
                       0.0810434       -0.956806      0.000205156      0.00183962       -0.0827687        0.268704       0.00239293     -0.00149332
                     0.000834468      0.00127287         0.947686        0.262124       0.00238684     -0.00153662         0.183776        0.030964
252600                -0.0627028        -0.28341      -0.00191484      0.00141508       -0.0189624        -0.95783       0.00088318      0.00138401
                     -0.00168998      0.00200543        -0.172527      -0.0558918        0.0011168     0.000785517         0.968969        0.173785
                      -0.0188574       -0.957755      0.000496735      0.00174182       -0.0542711        0.283295       0.00225713     -0.00171401
                     0.000976594      0.00118954         0.968387        0.174885       0.00226722     -0.00175239         0.181365      0.00737246
252800                  -0.09296       -0.281618      -0.00170347      0.00172576         -0.11791       -0.948634       0.00108679      0.00124693
                     -0.00146764      0.00220325        -0.170711      -0.0452996       0.00119817     0.000651547         0.981475        0.084785
                       -0.117998       -0.948445      0.000806403      0.00156344       -0.0233937        0.294242       0.00210327     -0.00191913
                      0.00111038      0.00108969         0.981041       0.0859213       0.00212814     -0.00195586         0.176067      -0.0154877
253000                 -0.123028       -0.276144      -0.00144385      0.00202585        -0.215127       -0.929403       0.00126104      0.00108206
                      -0.0012229      0.00237699        -0.168308      -0.0354224       0.00126408     0.000510243          0.98578     -0.00515021
                       -0.215352       -0.929068       0.00110297      0.00129157       0.00932015        0.301179       0.00193344     -0.00210807
                      0.00123395     0.000974326         0.985495     -0.00401479       0.00197115     -0.00214549         0.168003      -0.0372664
253200                 -0.152429       -0.267076      -0.00113529      0.00230499        -0.309629       -0.900407       0.00140351     0.000897564
                    -0.000957929      0.00252436        -0.165434      -0.0262816       0.00131397       0.0003632          0.98181      -0.0952575
                       -0.309927       -0.899911       0.00134564     0.000930183        0.0432767        0.303832       0.00174941      -0.0022804
                      0.00134557     0.000844615         0.981666      -0.0941578       0.00179788     -0.00231988          0.15734      -0.0576323
253400                 -0.180717       -0.254558     -0.000779642      0.00255187        -0.400468       -0.862006       0.00151412     0.000700796
                     -0.00067511      0.00264311        -0.162202      -0.0178835       0.00134738     0.000212006         0.969563       -0.184769
                       -0.400778        -0.86135       0.00149636     0.000506337        0.0778494        0.302025       0.00155274     -0.00243576
                      0.00144368      0.00070188         0.969545       -0.183735       0.00161005     -0.00247786         0.144282      -0.0762774
253600                  -0.20748       -0.238789     -0.000381723      0.00275499        -0.486742       -0.814644       0.00159441       0.0004978
                    -0.000377062       0.0027311        -0.158725      -0.0102194       0.00136388     5.82805e-05         0.949109       -0.272918
                       -0.487006       -0.813847       0.00153543     6.51958e-05         0.112396         0.29568        0.0013448     -0.00257378
                      0.00152688      0.00054755         0.949194       -0.271973        0.0014094     -0.00261845          0.12907      -0.0929212
253800                 -0.232342       -0.220008      5.04756e-05      0.00290368        -0.567598       -0.758847        0.0016468      0.00029315
                    -6.66916e-05      0.00278628        -0.155107     -0.00326618       0.00136312    -9.62887e-05         0.920589       -0.358945
                       -0.567769       -0.757941       0.00146938     -0.00034576         0.146274        0.284818       0.00112683     -0.00269408
                      0.00159389     0.000383154         0.920749       -0.358106       0.00119772     -0.00274085         0.111976       -0.107315
254000                 -0.254972       -0.198493      0.000506038      0.00298919        -0.642244       -0.695214       0.00167402     9.00625e-05
                     0.000252776      0.00280675        -0.151449      0.00301208       0.00134481    -0.000249901         0.884212       -0.442104
                       -0.642286       -0.694241       0.00132514    -0.000692799         0.178855        0.269548       0.00090005     -0.00279622
                      0.00164358      0.00021031          0.88442        -0.44138      0.000976787     -0.00284443        0.0933029       -0.119246
254200                 -0.275075       -0.174551      0.000971784      0.00300567        -0.709947       -0.624415       0.00167869    -0.000109376
                      0.00057777      0.00279084        -0.147842      0.00866374       0.00130877    -0.000400602         0.840259       -0.521671
                        -0.70984       -0.623422       0.00113646     -0.00096221         0.209535        0.250069      0.000665681     -0.00287968
                      0.00167494     3.07236e-05         0.840486       -0.521062      0.000748388     -0.00292878         0.073376       -0.128539
254400                 -0.292402       -0.148517        0.0014333      0.00295085        -0.770045       -0.547182        0.0016631    -0.000303927
                     0.000904357      0.00273718        -0.144368       0.0137481       0.00125501     -0.00054626         0.789077       -0.596948
                       -0.769782       -0.546218      0.000932572     -0.00115658         0.237748         0.22666      0.000425007     -0.00294395
                      0.00168705    -0.000153797         0.789295       -0.596448      0.000514277     -0.00299361        0.0525406       -0.135061
254600                 -0.306747       -0.120747        0.0018762      0.00282629        -0.821949       -0.464306       0.00162906    -0.000492933
                      0.00122825      0.00264475        -0.141097       0.0183342       0.00118376    -0.000684547         0.731078       -0.667268
                       -0.821536       -0.463419      0.000733415     -0.00128722         0.262973        0.199673      0.000179407     -0.00298852
                      0.00167911     -0.00034133         0.731264       -0.666866      0.000276166     -0.00303882        0.0311568       -0.138723
254800                 -0.317946      -0.0916145       0.00228732      0.00263713        -0.865145       -0.376628       0.00157784    -0.000676077
                      0.00154483      0.00251302        -0.138091       0.0224993       0.00109563    -0.000812966         0.666738       -0.732005
                       -0.864602        -0.37586      0.000550021      -0.0013679          0.28474        0.169527      -6.9624e-05     -0.00301292
                      0.00165046    -0.000529823         0.666871       -0.731683      3.57163e-05     -0.00306445       0.00959334        -0.13948
255000                 -0.325882      -0.0615051       0.00265574      0.00239139        -0.899203       -0.285034       0.00151021    -0.000853183
                      0.00184918      0.00234203        -0.135395       0.0263275      0.000991692    -0.000928903         0.596588       -0.790578
                       -0.898559       -0.284417       0.00038698     -0.00141134         0.302643        0.136698     -0.000320476     -0.00301678
                      0.00160058    -0.000717076         0.596654       -0.790315      -0.00020548     -0.00307066       -0.0117771       -0.137333
255200                 -0.330484      -0.0308141       0.00297337      0.00209899        -0.923777       -0.190445       0.00142645     -0.00102404
                      0.00213621      0.00213246        -0.133044       0.0299079      0.000873548     -0.00102974         0.521217       -0.842455
                        -0.92307       -0.190004      0.000244968     -0.00142787         0.316338        0.101714     -0.000571431     -0.00299987
                      0.00152912    -0.000900728         0.521207       -0.842228     -0.000445906     -0.00305774       -0.0325841       -0.132333
255400                 -0.331728     5.95988e-05       0.00323518      0.00177077        -0.938609       -0.093814       0.00132642     -0.00118827
                      0.00240069      0.00188576        -0.131058        0.033333      0.000743445     -0.00111299         0.441261        -0.88716
                        -0.93788      -0.0935602      0.000122616     -0.00142535         0.325556       0.0651458     -0.000820689     -0.00296213
                      0.00143598     -0.00107825         0.441173       -0.886945     -0.000684127     -0.00302608       -0.0524651       -0.124573
255600                  -0.32964       0.0307182       0.00343897      0.00141747        -0.943532      0.00388326       0.00120965     -0.00134517
                      0.00263742      0.00160414         -0.12944       0.0366966      0.000604278     -0.00117651         0.357403       -0.924279
                       -0.942825      0.00395009      1.76786e-05     -0.00140952         0.330103       0.0275966       -0.0010664     -0.00290371
                      0.00132133     -0.00124697         0.357239       -0.924052     -0.000918799     -0.00297615       -0.0710715       -0.114195
255800                 -0.324291       0.0607706       0.00358497      0.00104913        -0.938473        0.101658       0.00107541      -0.0014936
                      0.00284137      0.00129066        -0.128183       0.0400922       0.00045954     -0.00121875         0.270364       -0.953461
                       -0.937827        0.101549     -7.23125e-05      -0.0013845         0.329869      -0.0103056      -0.00130672     -0.00282497
                      0.00118569     -0.00140407         0.270133       -0.953202      -0.00114866     -0.00290851       -0.0880738       -0.101382
256000                 -0.315802       0.0898386       0.00367523     0.000674529        -0.923453        0.198514      0.000922851     -0.00163188
                      0.00300784     0.000949238        -0.127264       0.0436108      0.000313187     -0.00123889         0.180897       -0.974426
                       -0.922903        0.198251     -0.000149716     -0.00135319         0.324825      -0.0479188      -0.00153983      -0.0027265
                      0.00102996     -0.00154664         0.180612       -0.974116      -0.00137255     -0.00282376        -0.103168      -0.0863594
256200                 -0.304341        0.117563       0.00371307     0.000301045        -0.898588        0.293457      0.000751187     -0.00175766
                       0.0031326     0.000584563        -0.126643       0.0473391      0.000169404     -0.00123709        0.0897822       -0.986966
                       -0.898162         0.29307     -0.000216644     -0.00131763         0.315031      -0.0845981        -0.001764     -0.00260909
                     0.000855524     -0.00167175        0.0894603        -0.98659      -0.00158938     -0.00272254        -0.116079      -0.0693901
