! TOUCHSTONE file generated by CST MICROWAVE STUDIO
! Date and time: Fri Sep 26 06:38:28 2025
! Project name: biblioteca3_folgaOK.cst
! Parameters = {H=600; Lx=200; Ly=260; Nedge=4; P=520; k=0; mesh_pilar_nm=40; n=0; t_air=3500; t_sub=2000; wavelength_nm=0}
! Header version: 2018
! Port assignment regex: !\s*Touchstone port\s*([0-9]+)\s*=\s*(CST MWS port|CST DS port)\s*([0-9]+|Zmin|Zmax)\s*\(\"(.*)\"\)(\s*mode\s*([0-9]+))?.*
! Touchstone port assignment:
! Touchstone port 1 = CST MWS port Zmin ("") mode 1
! Touchstone port 2 = CST MWS port Zmin ("") mode 2
! Touchstone port 3 = CST MWS port Zmax ("") mode 1
! Touchstone port 4 = CST MWS port Zmax ("") mode 2
! S-Parameters are not renormalized. Each port impedance will be approximated by the real part at minimum frequency. The values are described via the [Reference] keyword.
! Default impedance is overridden by [Reference]
[Version] 2.0
# GHz S RI R 376.73
[Number of Ports] 4
[Reference]
376.73 376.73 376.73 376.73 
[Number of Frequencies] 401
[Network Data]
250000                  0.219086        0.236949       0.00118497     0.000507389        -0.882706        0.341872      5.42192e-05    -0.000864183
                     0.000943492     0.000275857        -0.064148         0.18862      0.000890053    -0.000826883        -0.437259       -0.877003
                       -0.882732        0.341249       0.00104964    -0.000930832      -0.00273879        0.322688       -0.0012802    -0.000765982
                     4.40758e-05    -0.000920183        -0.437059       -0.876469      -0.00134492    -0.000810504        -0.189227      -0.0622777
250200                  0.227867        0.218178       0.00119213     0.000429662        -0.854788        0.412398     -3.52646e-06    -0.000880212
                      0.00095534     0.000198033       -0.0565542        0.194201       0.00083052    -0.000876444        -0.494476       -0.845097
                       -0.855479         0.41161      0.000990916    -0.000946114         0.029224         0.31615      -0.00132529    -0.000669944
                    -1.69268e-05    -0.000930568          -0.4945       -0.845104       -0.0011381     -0.00086322        -0.196896      -0.0459102
250400                   0.23494        0.199023       0.00119493     0.000349928        -0.821095        0.480958       -6.538e-05    -0.000892975
                      0.00096115     0.000118837        -0.048517        0.199396      0.000767209    -0.000922133        -0.549479       -0.809481
                       -0.822363        0.480148      0.000931256    -0.000960556        0.0599956        0.305713      -0.00136264    -0.000570592
                     -8.1079e-05     -0.00093714         -0.54974       -0.809884     -0.000831205    -0.000797734        -0.203058      -0.0286598
250600                  0.240276         0.17965       0.00119308     0.000268421        -0.781733        0.547056     -0.000131353    -0.000901781
                      0.00096073     3.87956e-05       -0.0400602         0.20417      0.000700451     -0.00096353        -0.602022       -0.770297
                       -0.783477        0.546338      0.000870633    -0.000974091        0.0890058        0.291589      -0.00139198    -0.000468798
                    -0.000148244    -0.000939374        -0.602516       -0.770974     -0.000561548    -0.000523619        -0.207608      -0.0106728
250800                  0.243866        0.160229       0.00118626     0.000185417        -0.736854        0.610196     -0.000201359    -0.000905863
                     0.000953945    -4.15389e-05       -0.0312108        0.208486      0.000630636     -0.00100025        -0.651868       -0.727709
                       -0.738969        0.609656       0.00080902     -0.00098665         0.115731        0.274086      -0.00141318    -0.000365447
                    -0.000218213    -0.000936717        -0.652576       -0.728552     -0.000495921    -0.000161685        -0.210458      0.00789169
251000                  0.245719        0.140932       0.00117418     0.000101233        -0.686657        0.669885     -0.000275187    -0.000904388
                     0.000940718    -0.000121597       -0.0219989        0.212313      0.000558213     -0.00103197        -0.698793       -0.681895
                       -0.689033        0.669584      0.000746384    -0.000998154         0.139709        0.253595      -0.00142625    -0.000261416
                    -0.000290694    -0.000928594        -0.699683       -0.682816      -0.00058101     0.000111299        -0.211535       0.0268636
251200                  0.245859        0.121927       0.00115655      1.6229e-05        -0.631387        0.725645     -0.000352472     -0.00089647
                     0.000921031    -0.000200801       -0.0124576        0.215619      0.000483677     -0.00105839        -0.742582       -0.633048
                       -0.633918        0.725618       0.00068269     -0.00100852         0.160556        0.230572       -0.0014313    -0.000157549
                    -0.000365303    -0.000914422        -0.743618       -0.633979     -0.000696435      0.00027504        -0.210786       0.0460638
251400                  0.244331        0.103384       0.00113311    -6.91894e-05        -0.571336         0.77701     -0.000432664    -0.000881201
                     0.000894927    -0.000278571      -0.00262271        0.218378      0.000407564     -0.00107931        -0.783035       -0.581379
                       -0.573922        0.777268      0.000617899     -0.00101764          0.17797        0.205522      -0.00142856     -5.4637e-05
                    -0.000441548    -0.000893622        -0.784175       -0.582265     -0.000791933     0.000373165        -0.208175       0.0653065
251600                  0.241199       0.0854662       0.00110364    -0.000154573        -0.506843        0.823533     -0.000515007    -0.000857688
                      0.00086251    -0.000354331       0.00746772        0.220564      0.000330436      -0.0010946        -0.819965        -0.52711
                       -0.509395        0.824071      0.000551968      -0.0010254         0.191742        0.178985      -0.00141838      4.6599e-05
                    -0.000518827    -0.000865634        -0.821167       -0.527913     -0.000860324     0.000439041        -0.203689       0.0844013
251800                  0.236541       0.0683294       0.00106793    -0.000239428        -0.438294        0.864796     -0.000598517    -0.000825104
                     0.000823941    -0.000427521        0.0177733        0.222155      0.000252874     -0.00110419          -0.8532       -0.470476
                       -0.440733         0.86559      0.000484851     -0.00103168         0.201749        0.151516      -0.00140117     0.000145519
                    -0.000596418    -0.000829942        -0.854424       -0.471172     -0.000905987     0.000489996        -0.197334        0.103156
252000                  0.230455       0.0521215       0.00102584    -0.000323222        -0.366117        0.900408     -0.000681981    -0.000782748
                     0.000779438    -0.000497601         0.028252        0.223133      0.000175458      -0.0011081        -0.882585       -0.411725
                       -0.368378        0.901421      0.000416497     -0.00103633         0.207959        0.123668      -0.00137738     0.000241574
                    -0.000673476    -0.000786095        -0.883793       -0.412302     -0.000934332     0.000534259        -0.189138        0.121377
252200                  0.223055       0.0369792      0.000977267    -0.000405383        -0.290782        0.930015      -0.00076397    -0.000730116
                     0.000729272    -0.000564055        0.0388601        0.223483      9.87593e-05     -0.00110643        -0.907982       -0.351116
                       -0.292816        0.931201      0.000346854     -0.00103916         0.210422       0.0959836      -0.00134754     0.000334307
                    -0.000749036    -0.000733733         -0.90914        -0.35157     -0.000949596     0.000575687        -0.179148        0.138876
252400                  0.214467       0.0230264      0.000922161    -0.000485307        -0.212798        0.953303      -0.00084288    -0.000666966
                     0.000673758    -0.000626402        0.0495527        0.223194      2.33262e-05     -0.00109936        -0.929269       -0.288914
                        -0.21457        0.954611      0.000275868     -0.00103996         0.209265       0.0689769      -0.00131217     0.000423359
                    -0.000822022    -0.000672618        -0.930349       -0.289251     -0.000954774     0.000616084        -0.167432        0.155467
252600                  0.204834       0.0103722      0.000860547    -0.000562363        -0.132708        0.970003     -0.000916991    -0.000593383
                     0.000613257    -0.000684197        0.0602841        0.222258     -5.03301e-05     -0.00108713        -0.946343       -0.225395
                         -0.1342        0.971379       0.00020349     -0.00103848         0.204684       0.0431289      -0.00127183     0.000508459
                    -0.000891261    -0.000602661        -0.947323       -0.225625     -0.000951935     0.000656279         -0.15408        0.170972
252800                  0.194309    -0.000890526      0.000792518    -0.000635903        -0.051087        0.979896     -0.000984553    -0.000509817
                     0.000548165    -0.000737033        0.0710078         0.22067     -0.000121744     -0.00107005         -0.95912       -0.160842
                      -0.0522936        0.981286      0.000129682     -0.00103441         0.196936       0.0188771      -0.00122704     0.000589424
                    -0.000955505    -0.000523952        -0.959983        -0.16098     -0.000942502     0.000696621        -0.139197        0.185224
253000                  0.183054      -0.0106865      0.000718243    -0.000705265        0.0314643        0.982814      -0.00104389    -0.000417098
                      0.00047891     -0.00078455        0.0816773        0.218431     -0.000190507     -0.00104848        -0.967533      -0.0955402
                       0.0305357        0.984169      5.44278e-05     -0.00102735          0.18633     -0.00338938      -0.00117832      0.00066615
                     -0.00101346    -0.000436777         -0.96827      -0.0956041     -0.000927464     0.000737218        -0.122909        0.198064
253200                  0.171239      -0.0189596      0.000637974    -0.000769789         0.114325        0.978648      -0.00109352     -0.00031641
                     0.000405944     -0.00082643        0.0922461        0.215543     -0.000256271     -0.00102284        -0.971536      -0.0297827
                        0.113656        0.979924     -2.22465e-05     -0.00101686         0.173218      -0.0233349      -0.00112615     0.000738601
                     -0.00106384    -0.000341646        -0.972142      -0.0297909     -0.000907509     0.000778053        -0.105358        0.209348
253400                  0.159041      -0.0256733      0.000552049    -0.000828828          0.19686        0.967348      -0.00113222    -0.000209235
                      0.00032974    -0.000862401         0.102668        0.212014     -0.000318756    -0.000993561        -0.971102       0.0361364
                        0.196423        0.968507     -0.000100241     -0.00100237          0.15799      -0.0406803      -0.00107097     0.000806801
                     -0.00110537    -0.000239291        -0.971578       0.0361656     -0.000883122     0.000819045       -0.0866991        0.218948
253600                  0.146638      -0.0308117      0.000460891    -0.000881754         0.278425        0.948925      -0.00115914    -9.72556e-05
                     0.000250784    -0.000892236         0.112898        0.207854     -0.000377752    -0.000961108        -0.966222        0.101921
                        0.278187        0.949939     -0.000179337    -0.000983198         0.141059      -0.0552051      -0.00101319     0.000870826
                     -0.00113688    -0.000130675        -0.966575        0.101971     -0.000854642     0.000860072       -0.0671035        0.226749
253800                  0.134208      -0.0343796      0.000365009    -0.000927978         0.358375        0.923453      -0.00117379     1.77543e-05
                     0.000169571    -0.000915755         0.122891        0.203076      -0.00043312    -0.000925953         -0.95691        0.167275
                        0.358297        0.924302     -0.000259123     -0.00095855         0.122863      -0.0667497     -0.000953157     0.000930792
                     -0.00115734    -1.69745e-05        -0.957146         0.16733     -0.000822307     0.000900991       -0.0467524        0.232658
254000                  0.121929      -0.0364024      0.000264998    -0.000966956         0.436068        0.891068      -0.00117608     0.000134049
                     8.66013e-05     -0.00093282         0.132604        0.197699     -0.000484789    -0.000888566        -0.943196        0.231903
                        0.436111        0.891743     -0.000338902    -0.000927549         0.103849      -0.0752159     -0.000891166     0.000986846
                     -0.00116586     0.000100446        -0.943328        0.231951      -0.00078628     0.000941645       -0.0258371        0.236598
254200                  0.109971       -0.036926      0.000161532    -0.000998206         0.510876        0.851972      -0.00116624     0.000250012
                     2.37409e-06    -0.000943336         0.141995        0.191743     -0.000532757    -0.000849408        -0.925131        0.295511
                        0.511001         0.85247     -0.000417568    -0.000889306         0.084468      -0.0805671     -0.000827465      0.00103916
                     -0.00116181     0.000220066        -0.925171        0.295542     -0.000746668     0.000981865      -0.00455679        0.238512
254400                 0.0985004      -0.0360155      5.53632e-05     -0.00102132         0.582189        0.806426      -0.00114477     0.000364237
                    -8.26143e-05    -0.000947244         0.151024        0.185232     -0.000577084    -0.000808922        -0.902784         0.35781
                        0.582359        0.806755     -0.000493484    -0.000843094        0.0651705      -0.0828287     -0.000762244      0.00108791
                     -0.00114478     0.000340255        -0.902747        0.357817      -0.00070354      0.00102147        0.0168836        0.238364
254600                 0.0876706      -0.0337548     -5.26903e-05     -0.00103596         0.649424        0.754752      -0.00111231     0.000475564
                    -0.000167874    -0.000944527         0.159653        0.178192     -0.000617889     -0.00076752        -0.876244        0.418515
                        0.649604        0.754925     -0.000564421    -0.000788649        0.0463947      -0.0820868     -0.000695643      0.00113329
                     -0.00111464     0.000459327        -0.876146        0.418493     -0.000656936      0.00106026        0.0382757         0.23614
254800                 0.0776251      -0.0302448     -0.000161747     -0.00104189         0.712027        0.697329      -0.00106957     0.000583084
                    -0.000252925      -0.0009352         0.167847        0.170653     -0.000655343    -0.000725584        -0.845619        0.477344
                         0.71219        0.697366     -0.000627659    -0.000726583        0.0285611      -0.0784864     -0.000627747      0.00117548
                     -0.00107152      0.00057559        -0.845472        0.477294     -0.000606873      0.00109805        0.0594095        0.231847
255000                 0.0684926      -0.0256019     -0.000270872     -0.00103897         0.769484        0.634589      -0.00101723     0.000686108
                    -0.000337297     -0.00091931          0.17557        0.162646     -0.000689666    -0.000683452        -0.811034        0.534027
                        0.769608        0.634514     -0.000680414    -0.000658824        0.0120641      -0.0722291      -0.00055859      0.00121467
                     -0.00101582     0.000687402        -0.810852        0.533948     -0.000553355      0.00113461        0.0800759        0.225513
255200                 0.0603866      -0.0199556     -0.000379083     -0.00102715         0.821326        0.567015     -0.000955875     0.000784106
                    -0.000420532    -0.000896933         0.182793        0.154207     -0.000721121    -0.000641421        -0.772633        0.588297
                        0.821394        0.566852     -0.000720634    -0.000588801      -0.00273523      -0.0635695     -0.000488155      0.00125102
                     -0.00094818     0.000793219        -0.772427        0.588194     -0.000496374      0.00116972         0.100069        0.217188
255400                 0.0534032      -0.0134472     -0.000485357     -0.00100648         0.867131        0.495129     -0.000885958     0.000876634
                    -0.000502186    -0.000868172         0.189487        0.145371     -0.000750004    -0.000599734        -0.730575        0.639899
                        0.867133        0.494907     -0.000747974    -0.000521028       -0.0155166      -0.0528104      -0.00041638      0.00128465
                    -0.000869454     0.000891638        -0.730356        0.639776     -0.000435918      0.00120312         0.119187        0.206943
255600                 0.0476204     -0.00622653     -0.000588635    -0.000977103          0.90653        0.419498     -0.000807803      0.00096325
                    -0.000581828    -0.000833156         0.195626        0.136178     -0.000776643    -0.000558584        -0.685039        0.688587
                        0.906464        0.419242     -0.000764404    -0.000459982        -0.026007      -0.0402971     -0.000343152      0.00131569
                    -0.000780672     0.000981422        -0.684813        0.688449     -0.000371973      0.00123456         0.137236        0.194869
255800                 0.0430967      0.00154976      -0.00068782    -0.000939232         0.939212        0.340715     -0.000721623      0.00104344
                    -0.000659041    -0.000792035         0.201188        0.126668     -0.000801391    -0.000518105        -0.636218        0.734126
                        0.939079        0.340451     -0.000773906    -0.000408683       -0.0339872      -0.0264104     -0.000268318       0.0013442
                    -0.000682998      0.00106153        -0.635992         0.73398     -0.000304528      0.00126376         0.154033         0.18108
256000                 0.0398715      0.00972113     -0.000781775    -0.000893139         0.964925        0.259404     -0.000627575      0.00111656
                    -0.000733423    -0.000744981         0.206152        0.116882     -0.000824619    -0.000478368        -0.584321        0.776293
                        0.964733        0.259153     -0.000781265    -0.000367809       -0.0392966      -0.0115586     -0.000191683       0.0013702
                    -0.000577688      0.00113112        -0.584099        0.776146     -0.000233577      0.00129041         0.169405        0.165705
256200                 0.0379643       0.0181255     -0.000869325    -0.000839107          0.98348        0.176206     -0.000525838      0.00118177
                    -0.000804583    -0.000692183         0.210503        0.106865     -0.000846707    -0.000439379        -0.529573         0.81488
                        0.983238        0.175985     -0.000790635     -0.00033582       -0.0418368      0.00383112     -0.000113014      0.00139366
                    -0.000466051      0.00118954        -0.529357        0.814736     -0.000159123      0.00131419         0.183191        0.148895
