! TOUCHSTONE file generated by CST MICROWAVE STUDIO
! Date and time: Sun Sep 28 19:09:10 2025
! Project name: biblioteca3_folgaOK.cst
! Parameters = {H=600; Lx=200; Ly=260; Nedge=6; P=520; mesh_pilar_nm=40; t_air=3800; t_sub=6000}
! Header version: 2018
! Port assignment regex: !\s*Touchstone port\s*([0-9]+)\s*=\s*(CST MWS port|CST DS port)\s*([0-9]+|Zmin|Zmax)\s*\(\"(.*)\"\)(\s*mode\s*([0-9]+))?.*
! Touchstone port assignment:
! Touchstone port 1 = CST MWS port Zmin ("") mode 1
! Touchstone port 2 = CST MWS port Zmin ("") mode 2
! Touchstone port 3 = CST MWS port Zmax ("") mode 1
! Touchstone port 4 = CST MWS port Zmax ("") mode 2
! S-Parameters are not renormalized. Each port impedance will be approximated by the real part at minimum frequency. The values are described via the [Reference] keyword.
! Default impedance is overridden by [Reference]
[Version] 2.0
# GHz S RI R 376.73
[Number of Ports] 4
[Reference]
376.73 376.73 376.73 376.73 
[Number of Frequencies] 401
[Network Data]
250000                  0.315883        0.218796       0.00059139     4.68049e-05         0.289898        0.876582       0.00159596     0.000736031
                     0.000726426     2.66706e-06         0.104801       0.0231137       0.00146875     0.000562821        -0.938587        0.327668
                         0.29012        0.876601       0.00137717     0.000663116         0.123237       -0.364003      0.000261879    -0.000133812
                      0.00141938     0.000717681        -0.938464        0.327566      0.000294011    -0.000170002       -0.0676263       0.0833404
250200                  0.339336        0.185471      0.000646747    -0.000269235         0.386074        0.837161       0.00161531     0.000590703
                     0.000651261    -5.59935e-05         0.102929       0.0258495       0.00152173     0.000448863        -0.899131        0.424375
                        0.387339        0.837736       0.00142659     0.000593993        0.0792297       -0.378473      0.000247375    -0.000125374
                      0.00153735     0.000606761        -0.899605        0.424569      0.000199149    -0.000173273       -0.0451984       0.0957557
250400                  0.358247        0.149311      0.000508185    -0.000543471           0.4775        0.787587       0.00162865     0.000440587
                     0.000579203    -0.000109701         0.102526       0.0289388       0.00156887     0.000323663        -0.849533        0.516439
                        0.479553        0.788353       0.00147432     0.000516197        0.0331759        -0.38662      0.000230771    -0.000115629
                      0.00164555     0.000472644         -0.85034        0.516956      0.000115484    -0.000172776        -0.021116         0.10404
250600                  0.372268        0.111024      0.000291682    -0.000673704         0.563151        0.728365       0.00163522      0.00028571
                     0.000509734    -0.000158475         0.103621        0.032097       0.00160822      0.00018675        -0.790354        0.602754
                        0.565726        0.729078       0.00151913     0.000428722       -0.0139111       -0.388133      0.000211725    -0.000104372
                       0.0017389     0.000316214        -0.791284        0.603559      4.02334e-05    -0.000168692       0.00394916        0.107987
250800                  0.381161       0.0713516      0.000100647     -0.00069393         0.642045        0.660092       0.00163418     0.000126167
                     0.000442421    -0.000202301         0.106198       0.0350394       0.00163746     3.79265e-05        -0.722284        0.682291
                        0.644892        0.660609       0.00155944     0.000330508       -0.0609734       -0.382873      0.000189841    -9.13458e-05
                      0.00181238      0.00013972         -0.72318        0.683307      -2.8623e-05    -0.000161025        0.0292948        0.107497
251000                  0.384808       0.0310567     -3.97719e-05     -0.00066321         0.713251        0.583453       0.00162464    -3.78567e-05
                     0.000376916    -0.000241128         0.110193       0.0374895       0.00165395      -0.0001226        -0.646126        0.754109
                        0.716149        0.583713       0.00159311     0.000220463        -0.106938       -0.370878      0.000164674    -7.62316e-05
                      0.00186152    -5.32386e-05        -0.646889         0.75524     -9.25679e-05    -0.000149628        0.0542063         0.10258
251200                  0.383201      -0.0090951     -0.000137966    -0.000615847          0.77589        0.499223        0.0016056    -0.000206068
                     0.000312954    -0.000274864         0.115496       0.0391858       0.00165473    -0.000294067        -0.562786        0.817372
                         0.77866        0.499228       0.00161734     9.75116e-05        -0.150746       -0.352361      0.000135729    -5.86206e-05
                      0.00188278    -0.000257897        -0.563367        0.818518     -0.000152682     -0.00013421        0.0779758       0.0933628
251400                  0.376447      -0.0483504     -0.000206575    -0.000566735         0.829145        0.408265       0.00157599    -0.000378038
                     0.000250352    -0.000303368         0.121958       0.0398891       0.00163667    -0.000475001        -0.473257        0.871357
                        0.831654        0.408057        0.0016284    -3.93492e-05        -0.191379       -0.327709       0.00010247    -3.79805e-05
                      0.00187397    -0.000468672        -0.473649        0.872428     -0.000209718    -0.000114342        0.0999211       0.0800831
251600                   0.36476      -0.0859829     -0.000255162    -0.000521733         0.872267        0.311529       0.00153468    -0.000553167
                     0.000189023    -0.000326453         0.129392       0.0393889        0.0015966    -0.000663062        -0.378601        0.915464
                        0.874427        0.311177       0.00162135    -0.000190997        -0.227889       -0.297471      6.43492e-05    -1.36054e-05
                      0.00183437    -0.000679614        -0.378829        0.916389     -0.000264134    -8.94538e-05         0.119405        0.063087
251800                  0.348458       -0.121307     -0.000289915    -0.000483324         0.904585        0.210055       0.00148046    -0.000730655
                     0.000128982    -0.000343883          0.13758       0.0375085       0.00153162    -0.000854939        -0.279935        0.949221
                        0.906353        0.209637       0.00158961    -0.000358207        -0.259421        -0.26235      2.08516e-05     1.54531e-05
                      0.00176478     -0.00088487        -0.280045        0.949955     -0.000316085    -5.88364e-05         0.135852       0.0428199
252000                  0.327957       -0.153692     -0.000314432    -0.000453295         0.925516        0.104967       0.00141209    -0.000909453
                     7.03737e-05    -0.000355382         0.146276       0.0341101       0.00143937     -0.00104633        -0.178413         0.97229
                        0.926886        0.104559       0.00152427    -0.000541959        -0.285237       -0.223184     -2.84132e-05      5.0477e-05
                      0.00166735     -0.00107909         -0.17846        0.972813     -0.000365389    -2.16568e-05         0.148767       0.0198147
252200                  0.303762       -0.182577     -0.000329936    -0.000434411         0.934575     -0.00252785       0.00132833     -0.00108822
                     1.34879e-05    -0.000360647         0.155218       0.0290974       0.00131844     -0.00123202       -0.0752114        0.984463
                        0.935571     -0.00285945       0.00141331    -0.000744626         -0.30474       -0.180933     -8.35496e-05     9.31926e-05
                      0.00154538     -0.00125767       -0.0752501        0.984779     -0.000411459     2.30072e-05         0.157745     -0.00532207
252400                  0.276458       -0.207479     -0.000333574    -0.000432391         0.931395       -0.111142       0.00122797     -0.00126527
                    -4.12038e-05    -0.000359367         0.164132       0.0224184       0.00116872     -0.00140618        0.0284904        0.985667
                        0.932063       -0.111349       0.00124099    -0.000973745        -0.317494       -0.136653     -0.000144102      0.00014588
                      0.00140302     -0.00141684        0.0284129          0.9858     -0.000453206     7.60898e-05         0.162488       -0.031927
252600                  0.246698        -0.22801     -0.000308945    -0.000458158         0.915735       -0.219518       0.00110986     -0.00143852
                    -9.30182e-05    -0.000351275         0.172737       0.0140659      0.000991631     -0.00156275         0.131522        0.975957
                        0.916133       -0.219571      0.000991952     -0.00125217        -0.323237      -0.0914758      -0.00020861     0.000211422
                       0.0012452     -0.00155342         0.131372        0.975945     -0.000488941     0.000138393         0.162805       -0.059298
252800                  0.215194       -0.243887     -0.000185094    -0.000502453         0.887498       -0.326235      0.000973038      -0.0016054
                     -0.00014103      -0.0003362         0.180757      0.00407742      0.000790255     -0.00169597         0.232738        0.955513
                        0.887692       -0.326127      0.000679775     -0.00163402        -0.321906      -0.0465731      -0.00027394      0.00029315
                      0.00107791     -0.00166401         0.232496        0.955402     -0.000516284     0.000210349         0.158623      -0.0867127
253000                  0.182695        -0.25494      4.92288e-05    -0.000315739         0.846747       -0.429827      0.000816794     -0.00176283
                    -0.000184057    -0.000314171         0.187926     -0.00746641      0.000569184     -0.00180099          0.33103        0.924633
                          0.8468       -0.429568        0.0004301     -0.00215761        -0.313634     -0.00312997      -0.00033444     0.000394223
                     0.000909305     -0.00174216         0.330692        0.924469     -0.000532169     0.000291663         0.149985       -0.113448
253200                  0.149973       -0.261123     -5.19365e-05    -5.84613e-05         0.793721       -0.528794      0.000640765     -0.00190713
                     -0.00022067    -0.000285533         0.193993      -0.0204441      0.000334158     -0.00187428         0.425336        0.883726
                        0.793689       -0.528411      0.000397262     -0.00262694        -0.298765       0.0376934     -0.000381207     0.000516153
                     0.000750501     -0.00176451         0.424915        0.883554     -0.000533024     0.000380869         0.137048         -0.1388
253400                  0.117801       -0.262513     -0.000164587    -7.44512e-06         0.728845       -0.621628       0.00044506     -0.00203396
                    -0.000249267    -0.000251104         0.198728      -0.0346968      9.15305e-05     -0.00191398         0.514657        0.833306
                        0.728773       -0.621161      0.000396985     -0.00281149         -0.27785       0.0747987     -0.000402333     0.000656255
                     0.000541962     -0.00162397         0.514175         0.83316     -0.000515249     0.000474872         0.120078       -0.162099
253600                 0.0869348       -0.259319     -0.000213682     4.97776e-06         0.652743       -0.706837      0.000230337     -0.00213819
                    -0.000268227    -0.000212322         0.201931      -0.0500326     -0.000152337     -0.00191996         0.598059        0.773981
                        0.652664       -0.706332       0.00024627     -0.00281314        -0.251636        0.107189     -0.000385485     0.000804717
                     5.98634e-08     -0.00169779         0.597545        0.773885     -0.000476046     0.000568717        0.0994416       -0.182727
253800                  0.058086       -0.251876       -0.0002335     1.50641e-05         0.566245       -0.782973      -2.1886e-06     -0.00221386
                    -0.000276163    -0.000171357         0.203433      -0.0662312     -0.000391622     -0.00189359         0.674682        0.706444
                        0.566178       -0.782479     -2.30604e-05     -0.00274237        -0.221051        0.134008     -0.000323488     0.000943793
                    -0.000169857     -0.00187312         0.674171        0.706409     -0.000414501     0.000655848        0.0755982       -0.200136
254000                 0.0319018       -0.240635      -0.00023902     2.64447e-05         0.470386       -0.848667     -0.000250947     -0.00225401
                    -0.000272277    -0.000131099         0.203098      -0.0830495     -0.000621442     -0.00183738          0.74375        0.631463
                        0.470341       -0.848229     -0.000346293     -0.00262373        -0.187179        0.154573     -0.000220392      0.00105223
                    -0.000329685     -0.00189517         0.743274         0.63149     -0.000332524     0.000729098        0.0490845       -0.213855
254200                0.00894243       -0.226159     -0.000236264     3.85872e-05         0.366409       -0.902661     -0.000514647     -0.00225067
                    -0.000256753    -9.49593e-05         0.200832       -0.100227     -0.000838059     -0.00175455         0.804573        0.549874
                        0.366384       -0.902318     -0.000679219     -0.00245741        -0.151229        0.168415     -9.24099e-05      0.00111428
                    -0.000507804     -0.00187023         0.804159        0.549952     -0.000235115     0.000782258        0.0205022       -0.223505
254400                -0.0103397       -0.209101     -0.000227954     5.05837e-05         0.255746       -0.943843     -0.000793753     -0.00219515
                    -0.000231055    -6.64397e-05         0.196576       -0.117493      -0.00103888     -0.00164857         0.856551        0.462569
                        0.255738       -0.943627     -0.000993347     -0.00224494        -0.114489        0.175294      3.88883e-05      0.00112669
                    -0.000691719     -0.00181826         0.856219        0.462681     -0.000129593     0.000811671      -0.00949665       -0.228803
254600                 -0.025617       -0.190187     -0.000215486     6.16181e-05         0.140009       -0.971287      -0.00109307     -0.00208011
                    -0.000197993    -4.85208e-05         0.190316       -0.134569      -0.00122233     -0.00152279         0.899178        0.370488
                        0.140012       -0.971217      -0.00127047     -0.00199328       -0.0782815        0.175226      0.000155888      0.00109796
                    -0.000874888     -0.00174437         0.898939         0.37061     -2.39654e-05     0.000817067       -0.0402258       -0.229572
254800                -0.0366998       -0.170189     -0.000199679     7.09684e-05        0.0209593       -0.984282      -0.00142401     -0.00190566
                    -0.000161434    -4.30448e-05         0.182076       -0.151181      -0.00138762     -0.00138019         0.932044         0.27461
                       0.0209695       -0.984365      -0.00150024     -0.00171318       -0.0439133        0.168483       0.00024968      0.00104187
                     -0.00105353     -0.00165051         0.931899        0.274718      7.48329e-05     0.000801289       -0.0709808       -0.225743
255000                -0.0435451         -0.1499     -0.000181098     7.79562e-05       -0.0995212       -0.982365      -0.00179942     -0.00169067
                    -0.000125708     -5.0309e-05         0.171921       -0.167058      -0.00153445     -0.00122327         0.954836        0.175942
                      -0.0995019       -0.982594      -0.00167868     -0.00141663        -0.012619        0.155594      0.000319077     0.000971449
                     -0.00122497     -0.00153776         0.954779        0.176013      0.000162088     0.000769146        -0.101055       -0.217352
255200                -0.0462583       -0.130102     -0.000160225     8.19039e-05        -0.219467        -0.96534      -0.00221191     -0.00147595
                    -9.48738e-05    -6.90333e-05         0.159953       -0.181944      -0.00166284     -0.00105398         0.967341       0.0755123
                       -0.219433       -0.965697      -0.00180656     -0.00111487        0.0144901        0.137324      0.000367243     0.000896154
                       -0.001387     -0.00140691         0.967357       0.0755283       0.00023557     0.000726035        -0.129757       -0.204546
255400                -0.0450894       -0.111541     -0.000137555     8.21071e-05        -0.336873       -0.933298      -0.00261627     -0.00129479
                    -7.21006e-05    -9.67004e-05         0.146311       -0.195598      -0.00177281    -0.000873828         0.969443      -0.0256376
                       -0.336815       -0.933754      -0.00188784    -0.000817082        0.0364756         0.11465      0.000398786      0.00082178
                     -0.00153757     -0.00125869         0.969513      -0.0256898      0.000295106     0.000676883        -0.156423       -0.187574
255600                -0.0404233       -0.094896     -0.000113683     7.78224e-05         -0.44974       -0.886619      -0.00295858     -0.00114005
                    -5.93445e-05    -0.000130114         0.131167       -0.207803       -0.0018643    -0.000683938         0.961128       -0.126463
                       -0.449649       -0.887138       -0.0019282    -0.000530041        0.0526138       0.0887181      0.000418142     0.000751381
                      -0.0016747      -0.0010939         0.961228       -0.126589      0.000341873     0.000625595        -0.180435       -0.166782
255800                -0.0327629      -0.0807531     -8.93806e-05     6.82717e-05        -0.556125        -0.82597      -0.00321595    -0.000982929
                    -5.73419e-05    -0.000165963         0.114721        -0.21837      -0.00193703    -0.000485217         0.942476       -0.225923
                       -0.555998       -0.826515      -0.00193391    -0.000258154        0.0624288       0.0607982      0.000428955     0.000686284
                     -0.00179639    -0.000913513         0.942583       -0.226122      0.000377726     0.000574942        -0.201234       -0.142607
256000                -0.0227082      -0.0695857     -6.56768e-05     5.26705e-05        -0.654194       -0.752291      -0.00339192    -0.000806685
                     -6.5832e-05    -0.000201247        0.0971987       -0.227137      -0.00199045      -0.0002785         0.913668       -0.322989
                       -0.654033       -0.752832      -0.00191106    -3.85756e-06        0.0657132       0.0322272      0.000433984     0.000626841
                     -0.00190062    -0.000718697          0.91376       -0.323252      0.000404723     0.000526688        -0.218331       -0.115569
256200                -0.0109307      -0.0617374     -4.39529e-05     3.02905e-05        -0.742264       -0.666777      -0.00349509    -0.000612357
                    -8.38735e-05    -0.000233495        0.0788476       -0.233979      -0.00202373    -6.47012e-05          0.87498       -0.416651
                       -0.742076       -0.667293      -0.00186516     0.000231921        0.0625371      0.00435183      0.000435223     0.000572905
                     -0.00198539    -0.000510908          0.87504       -0.416965      0.000424828     0.000481823        -0.231321      -0.0862566
