! TOUCHSTONE file generated by CST MICROWAVE STUDIO
! Date and time: Sun Sep 28 19:09:23 2025
! Project name: biblioteca3_folgaOK.cst
! Parameters = {H=600; Lx=200; Ly=260; Nedge=48; P=520; mesh_pilar_nm=40; t_air=3800; t_sub=6000}
! Header version: 2018
! Port assignment regex: !\s*Touchstone port\s*([0-9]+)\s*=\s*(CST MWS port|CST DS port)\s*([0-9]+|Zmin|Zmax)\s*\(\"(.*)\"\)(\s*mode\s*([0-9]+))?.*
! Touchstone port assignment:
! Touchstone port 1 = CST MWS port Zmin ("") mode 1
! Touchstone port 2 = CST MWS port Zmin ("") mode 2
! Touchstone port 3 = CST MWS port Zmax ("") mode 1
! Touchstone port 4 = CST MWS port Zmax ("") mode 2
! S-Parameters are not renormalized. Each port impedance will be approximated by the real part at minimum frequency. The values are described via the [Reference] keyword.
! Default impedance is overridden by [Reference]
[Version] 2.0
# GHz S RI R 376.73
[Number of Ports] 4
[Reference]
376.73 376.73 376.73 376.73 
[Number of Frequencies] 401
[Network Data]
250000                  0.301788        0.214829      7.71575e-05      0.00183831           0.3114        0.875134       0.00212669      0.00117328
                     9.08675e-05      0.00191627         0.104394       0.0184249       0.00269234       0.0002647        -0.932689        0.344635
                        0.311204         0.87549       0.00260169     0.000334962        0.0983809       -0.357135       0.00136379     -0.00229395
                      0.00231791      0.00118346        -0.932791        0.344775       0.00141779     -0.00223635       -0.0673395       0.0818764
250200                  0.324984        0.183153      0.000383787      0.00182921         0.408098        0.833377       0.00228317     0.000952458
                     0.000385767      0.00189971         0.102059       0.0203887       0.00266825    -8.02101e-05        -0.891615        0.440823
                         0.40774        0.833546       0.00261231      2.9604e-05        0.0551071       -0.368743       0.00120061     -0.00236595
                      0.00243619     0.000882728        -0.891624        0.440906       0.00119905     -0.00236711        -0.045842       0.0934691
250400                  0.343914        0.148545       0.00069074      0.00176742         0.499615        0.781263       0.00242036     0.000706445
                     0.000683755      0.00183296          0.10102       0.0227786       0.00260622    -0.000398952        -0.840453        0.532134
                        0.499196         0.78137       0.00258704    -0.000271998        0.0101354       -0.374197       0.00102839     -0.00242094
                       0.0025169     0.000574716        -0.840422        0.532163       0.00096781     -0.00245625       -0.0227144        0.101068
250600                  0.358167        0.111692      0.000987742      0.00165263         0.584903        0.719386       0.00253312     0.000436749
                     0.000974473      0.00171425         0.101316       0.0253369       0.00251323    -0.000691524        -0.779808        0.617488
                        0.584513        0.719498       0.00252715    -0.000565288       -0.0355443         -0.3732      0.000850011     -0.00245734
                      0.00255994     0.000264716        -0.779776        0.617478       0.00073517     -0.00250485       0.00134716        0.104453
250800                  0.367458       0.0733346       0.00126464      0.00148686         0.662973        0.648427       0.00261621     0.000146055
                      0.00124708      0.00154448         0.102944       0.0278064       0.00239474    -0.000958497        -0.710397        0.695886
                        0.662685        0.648569       0.00243451    -0.000846039       -0.0808897       -0.365638       0.00066867     -0.00247419
                      0.00256613    -4.17898e-05        -0.710389        0.695858       0.00051025     -0.00251718        0.0256208        0.103529
251000                  0.371635       0.0342411       0.00151199      0.00127431         0.732899        0.569157       0.00266458    -0.000161649
                       0.0014911      0.00132724         0.105859       0.0299368       0.00225505     -0.00120064        -0.633045        0.766422
                        0.732761        0.569321       0.00231151     -0.00111041        -0.124841       -0.351577      0.000487753     -0.00247132
                      0.00253746    -0.000339149        -0.633072        0.766398       0.00029945     -0.00249936        0.0493812       0.0983223
251200                  0.370672     -0.00481541       0.00172159      0.00102099          0.79382         0.48243       0.00267368    -0.000481039
                      0.00169722      0.00106861         0.109976        0.031491       0.00209759     -0.00141872        -0.548668        0.828291
                        0.793857        0.482591       0.00216099     -0.00135498        -0.166354       -0.331272       0.00031059     -0.00244928
                      0.00247762     -0.00062156        -0.548731        0.828291      0.000106438     -0.00245807        0.0719211       0.0889828
251400                  0.364665      -0.0430789       0.00188678     0.000734295          0.84495        0.389182       0.00263986    -0.000805533
                      0.00185796     0.000776614         0.115173       0.0322506       0.00192522      -0.0016134         -0.45826        0.880799
                        0.845162        0.389308       0.00198619     -0.00157678        -0.204439       -0.305155      0.000140259     -0.00240936
                      0.00239315    -0.000883318        -0.458351         0.88084     -6.74095e-05     -0.00239965        0.0925713       0.0757742
251600                  0.353825      -0.0798281       0.00200259     0.000422524         0.885581         0.29043       0.00256075     -0.00112752
                      0.00196801     0.000460514         0.121298       0.0320214       0.00174041     -0.00178527         -0.36288        0.923374
                        0.885948        0.290489       0.00179072     -0.00177337        -0.238186       -0.273827     -2.05907e-05     -0.00235347
                      0.00229611     -0.00112027        -0.362987        0.923463     -0.000222392      -0.0023295         0.110718       0.0590655
251800                  0.338463        -0.11439       0.00206577     9.44289e-05         0.915091        0.187272        0.0024355     -0.00143871
                       0.0020244     0.000130096         0.128167       0.0306373       0.00154537      -0.0019348        -0.263639        0.955561
                        0.915577        0.187239       0.00157852     -0.00194282        -0.266794       -0.238036     -0.000169866     -0.00228393
                      0.00220895      -0.0013369        -0.263745        0.955703     -0.000359879     -0.00225189         0.125821       0.0393192
252000                  0.318984       -0.146153       0.00207467    -0.000241142         0.932955       0.0808791       0.00226499     -0.00173067
                      0.00202625    -0.000204983         0.135576       0.0279646        0.0013422      -0.0020625         -0.16168        0.977038
                        0.933514       0.0807413        0.0013538     -0.00208387        -0.289598        -0.19866     -0.000306091     -0.00220337
                      0.00216108      -0.0015736        -0.161771        0.977228     -0.000481826     -0.00216996         0.137422       0.0170772
252200                  0.295872       -0.174575       0.00202903    -0.000575507         0.938753      -0.0275021       0.00205186     -0.00199532
                      0.00197447    -0.000535671         0.143299       0.0239044       0.00113286      -0.0021689       -0.0581714        0.987606
                        0.939337      -0.0277445       0.00112102     -0.00219598        -0.306086       -0.156684     -0.000428413      -0.0021145
                      0.00210323     -0.00193479       -0.0582327        0.987837     -0.000590408     -0.00208582          0.14516     -0.00705474
252400                  0.269683       -0.199191       0.00192982    -0.000900308         0.932185       -0.136558       0.00180033     -0.00222558
                      0.00187132    -0.000853793         0.151102       0.0183953      0.000919205     -0.00225467        0.0457162        0.987197
                        0.932746       -0.136892      0.000884671     -0.00227951        -0.315912       -0.113168     -0.000536559     -0.00201997
                      0.00183131     -0.00236212        0.0456947        0.987456     -0.000687782     -0.00200065         0.148776      -0.0324234
252600                  0.241034       -0.219624       0.00177904     -0.00120758          0.91308       -0.244915       0.00151597     -0.00241586
                      0.00172002     -0.00115213         0.158742       0.0114136      0.000702932     -0.00232062         0.148817        0.975868
                         0.91358       -0.245315      0.000649155     -0.00233581        -0.318913      -0.0692253      -0.00063076     -0.00192227
                      0.00141272     -0.00261657         0.148842         0.97614     -0.000775906     -0.00191481         0.148121      -0.0583451
252800                  0.210594        -0.23559       0.00157963     -0.00148976         0.881415       -0.351148       0.00120533     -0.00256241
                      0.00152434     -0.00142437         0.165977      0.00297436       0.00048551     -0.00236776         0.249989        0.953798
                        0.881824       -0.351583      0.000418414     -0.00236729        -0.315115      -0.0259896     -0.000711649     -0.00182362
                      0.00101911     -0.00273117          0.25006        0.954069     -0.000856378     -0.00182794         0.143154      -0.0841233
253000                  0.179068       -0.246906       0.00133537     -0.00173969         0.837324       -0.453799      0.000875624     -0.00266351
                      0.00128841     -0.00166488         0.172569     -0.00686999      0.000268101     -0.00239719         0.348119        0.921286
                        0.837627        -0.45423      0.000195548     -0.00237737        -0.304736       0.0154147     -0.000780169     -0.00172597
                     0.000666828      -0.0027855         0.348235         0.92154     -0.000930216     -0.00173894         0.133948       -0.109066
253200                  0.147188       -0.253499       0.00105092     -0.00195058         0.781115       -0.551385      0.000534333     -0.00271937
                      0.00101661     -0.00186854         0.178294      -0.0180309      5.15012e-05     -0.00241007         0.442144        0.878742
                        0.781309       -0.551777     -1.76025e-05     -0.00237021        -0.288187       0.0539045     -0.000837469     -0.00163091
                     0.000338925     -0.00280575         0.442297        0.878966     -0.000997481     -0.00164603          0.12068       -0.132502
253400                  0.115698       -0.255412      0.000731838     -0.00211604         0.713278        -0.64243      0.000188923     -0.00273179
                     0.000713611     -0.00203047         0.182941      -0.0303861     -0.000163891      -0.0024075         0.531054        0.826681
                        0.713373        -0.64275     -0.000220799     -0.00235025        -0.266067       0.0884722     -0.000884831     -0.00153977
                     2.55033e-05     -0.00279761         0.531234        0.826865      -0.00105662     -0.00154697         0.103635       -0.153798
253600                  0.085332        -0.25281      0.000384718     -0.00223021         0.634497        -0.72548     -0.000153497     -0.00270371
                     0.000384514     -0.00214592         0.186323      -0.0437832     -0.000378053     -0.00239035         0.613906        0.765717
                        0.634512       -0.725704     -0.000415515     -0.00232151        -0.239152        0.118219     -0.000923602     -0.00145357
                    -0.000277006       -0.002762         0.614101        0.765855      -0.00110349     -0.00143993        0.0831881       -0.172375
253800                 0.0567941       -0.245979      1.72641e-05     -0.00228784         0.545651       -0.799135      -0.00048649     -0.00263872
                     3.51509e-05     -0.00221013         0.188277      -0.0580428     -0.000591271     -0.00235917         0.689829         0.69655
                        0.545615       -0.799249     -0.000604732     -0.00228693        -0.208379        0.142387     -0.000955148      -0.0013731
                    -0.000569004      -0.0026991         0.690027         0.69664      -0.00113068     -0.00132581        0.0598041       -0.187718
254000                 0.0307369       -0.235327     -0.000361628     -0.00228463         0.447822       -0.862079     -0.000804568     -0.00254067
                    -0.000327582     -0.00221851         0.188669      -0.0729636     -0.000804027     -0.00231408         0.758036        0.619965
                        0.447764       -0.862082     -0.000792391     -0.00224775        -0.174819        0.160396     -0.000980826     -0.00129895
                    -0.000849448     -0.00260936         0.758223        0.620008      -0.00112921     -0.00121244        0.0340208       -0.199392
254200                0.00773665       -0.221374     -0.000741863     -0.00221752         0.342284       -0.913113      -0.00110336     -0.00241338
                    -0.000695364     -0.00216687         0.187397      -0.0883264      -0.00101685     -0.00225469         0.817826        0.536812
                        0.342233       -0.913015     -0.000982629     -0.00220323         -0.13965        0.171865      -0.00100197     -0.00123152
                     -0.00111668     -0.00249362         0.817992        0.536814      -0.00109609     -0.00111704        0.0064378       -0.207053
254400                -0.0117299       -0.204741      -0.00111227     -0.00208513         0.230495       -0.951189      -0.00137963     -0.00226054
                     -0.00105816     -0.00205198         0.184391       -0.103899      -0.00123017     -0.00218009         0.868593        0.448006
                        0.230476       -0.951011      -0.00117897     -0.00215078        -0.104115        0.176642      -0.00101987     -0.00117111
                     -0.00136885     -0.00235306         0.868728        0.447974      -0.00104413     -0.00105845       -0.0222989       -0.210453
254600                -0.0273063       -0.186127      -0.00146085     -0.00188817         0.114079       -0.975441      -0.00163124     -0.00208562
                     -0.00140418     -0.00187234         0.179618       -0.119444      -0.00144414     -0.00208888         0.909825        0.354511
                        0.114106       -0.975211      -0.00138367     -0.00208631       -0.0694769        0.174814      -0.00103583     -0.00111788
                     -0.00160407     -0.00218915         0.909923        0.354455     -0.000998333     -0.00104046       -0.0515118       -0.209447
254800                -0.0387726       -0.166287      -0.00177527     -0.00162987      -0.00519998       -0.985217      -0.00185691     -0.00189183
                     -0.00172015     -0.00162912         0.173078       -0.134717      -0.00165847     -0.00197922         0.941112        0.257332
                     -0.00512031       -0.984969      -0.00159737     -0.00200491       -0.0369718         0.16672      -0.00105113     -0.00107194
                     -0.00182058     -0.00200359          0.94117        0.257263     -0.000977123     -0.00104843       -0.0805088       -0.203999
255000                -0.0460555       -0.146001      -0.00204347     -0.00131621        -0.125466       -0.980108       -0.0020561     -0.00168213
                     -0.00199214     -0.00132705         0.164808       -0.149482      -0.00187233     -0.00184894         0.962147        0.157505
                        -0.12534       -0.979876      -0.00181896     -0.00190139       -0.0077527        0.152938      -0.00106709     -0.00103332
                     -0.00201673     -0.00179823         0.962165        0.157435     -0.000983009     -0.00106384          -0.1086        -0.19418
255200                -0.0492312       -0.126045      -0.00225446    -0.000956022        -0.244771       -0.959967      -0.00222874     -0.00145918
                     -0.00220688    -0.000974949         0.154877       -0.163507       -0.0020842     -0.00169566         0.972726       0.0560894
                       -0.244617       -0.959781      -0.00204569     -0.00177085        0.0171597        0.134271       -0.0010851     -0.00100197
                     -0.00219106     -0.00157506         0.972707       0.0560293      -0.00100935     -0.00107542        -0.135112       -0.180167
255400                -0.0485212        -0.10716      -0.00239912    -0.000560765        -0.361137       -0.924926      -0.00237511     -0.00122537
                     -0.00235347    -0.000585679         0.143387       -0.176574      -0.00229177     -0.00151694          0.97275      -0.0458458
                       -0.360983       -0.924809      -0.00227343     -0.00160904        0.0369254        0.111716      -0.00110667    -0.000977796
                     -0.00234229     -0.00133612           0.9727      -0.0458866      -0.00104861     -0.00107922        -0.159409        -0.16224
255600                -0.0442799       -0.090019      -0.00247104    -0.000144016        -0.472603       -0.875403       -0.0024957     -0.00098281
                     -0.00242495    -0.000175136         0.130469       -0.188482       -0.0024919      -0.0013105         0.962224       -0.147228
                       -0.472481       -0.875366      -0.00249688     -0.00141263        0.0509253       0.0864235      -0.00113349    -0.000960575
                     -0.00246928     -0.00108355          0.96215       -0.147242       -0.0010955     -0.00107504        -0.180902       -0.140775
255800                -0.0369769      -0.0752075      -0.00246707     0.000279317        -0.577267       -0.812098      -0.00259106    -0.000733367
                     -0.00241943      0.00023949         0.116284        -0.19905      -0.00268054     -0.00107438         0.941257       -0.246991
                       -0.577213       -0.812141      -0.00270983     -0.00117934        0.0587908       0.0596459      -0.00116751     -0.00094993
                     -0.00257108    -0.000819501         0.941169       -0.246972      -0.00114695     -0.00106396        -0.199069       -0.116235
256000                -0.0271738      -0.0632015      -0.00238759     0.000693961         -0.67334       -0.735982      -0.00266176    -0.000478666
                     -0.00234005      0.00064186         0.101014       -0.208123      -0.00285275    -0.000807217          0.91006       -0.344084
                       -0.673388       -0.736094      -0.00290535    -0.000908146        0.0604205       0.0326798        -0.001211    -0.000945216
                     -0.00264688    -0.000546144         0.909968       -0.344031      -0.00120141     -0.00104713         -0.21346      -0.0891615
256200                -0.0154991      -0.0543548      -0.00223654      0.00108531        -0.759183       -0.648281      -0.00270832    -0.000220141
                     -0.00219408      0.00101839         0.084861       -0.215572      -0.00300274     -0.00050852         0.868947       -0.437482
                       -0.759361       -0.648436      -0.00307598    -0.000599323        0.0559836      0.00680791      -0.00126667    -0.000945355
                     -0.00269601    -0.000265681         0.868861       -0.437394      -0.00125819     -0.00102543        -0.223718      -0.0601577
