! TOUCHSTONE file generated by CST MICROWAVE STUDIO
! Date and time: Sun Sep 28 19:09:11 2025
! Project name: biblioteca3_folgaOK.cst
! Parameters = {H=600; Lx=200; Ly=260; Nedge=8; P=520; mesh_pilar_nm=40; t_air=3800; t_sub=6000}
! Header version: 2018
! Port assignment regex: !\s*Touchstone port\s*([0-9]+)\s*=\s*(CST MWS port|CST DS port)\s*([0-9]+|Zmin|Zmax)\s*\(\"(.*)\"\)(\s*mode\s*([0-9]+))?.*
! Touchstone port assignment:
! Touchstone port 1 = CST MWS port Zmin ("") mode 1
! Touchstone port 2 = CST MWS port Zmin ("") mode 2
! Touchstone port 3 = CST MWS port Zmax ("") mode 1
! Touchstone port 4 = CST MWS port Zmax ("") mode 2
! S-Parameters are not renormalized. Each port impedance will be approximated by the real part at minimum frequency. The values are described via the [Reference] keyword.
! Default impedance is overridden by [Reference]
[Version] 2.0
# GHz S RI R 376.73
[Number of Ports] 4
[Reference]
376.73 376.73 376.73 376.73 
[Number of Frequencies] 401
[Network Data]
250000                  0.315883        0.218796       0.00059139     4.68051e-05         0.289898        0.876582       0.00159596     0.000736031
                     0.000726426      2.6667e-06         0.104801       0.0231137       0.00146875     0.000562832        -0.938587        0.327668
                         0.29012        0.876601       0.00137717     0.000663116         0.123237       -0.364003      0.000261879    -0.000133813
                      0.00141938     0.000717681        -0.938464        0.327566      0.000294016    -0.000170002       -0.0676263       0.0833404
250200                   0.33794        0.185421      0.000601092    -5.74453e-06         0.386785         0.83774       0.00162927     0.000583783
                     0.000689056    -0.000108255         0.102869        0.025706       0.00153685     0.000438743        -0.899092        0.424312
                        0.386505        0.837754        0.0014198     0.000517634        0.0796936       -0.378312      0.000227438    -0.000119271
                      0.00150441     0.000615297        -0.899773        0.424395      0.000268679    -0.000192003       -0.0457968        0.095793
250400                  0.355965         0.14956      0.000605914     -6.3626e-05         0.478798        0.788427       0.00165413     0.000426902
                     0.000633526    -0.000205846         0.102395       0.0287243       0.00159525     0.000301914        -0.849477        0.516333
                        0.478178        0.788543       0.00145217     0.000364805        0.0340018        -0.38649      0.000192486    -0.000103698
                      0.00158527     0.000497834        -0.850668        0.516696      0.000237651    -0.000214064       -0.0220733        0.104241
250600                  0.369566        0.111728      0.000604256    -0.000126854         0.564879        0.729233       0.00166977     0.000265625
                     0.000564742    -0.000287099         0.103427       0.0318673       0.00164163     0.000152773        -0.790296        0.602625
                        0.564069        0.729505       0.00147309     0.000205254       -0.0128584       -0.388157      0.000156967    -8.69244e-05
                      0.00165928     0.000364329        -0.791742        0.603284       0.00019994    -0.000235348       0.00284035        0.108394
250800                  0.378426       0.0725181      0.000594169    -0.000195068         0.644034        0.660835       0.00167537     0.000100274
                     0.000487734    -0.000350866          0.10596       0.0348328       0.00167355    -7.82475e-06        -0.722232        0.682153
                        0.643164        0.661273       0.00148138     3.97838e-05       -0.0598366       -0.383106       0.00012082    -6.87429e-05
                      0.00172322      0.00021427        -0.723729        0.683069      0.000154525    -0.000254608        0.0281973        0.108092
251000                  0.382324       0.0325906      0.000573392    -0.000267319         0.715337        0.583986       0.00167004    -6.87258e-05
                     0.000407008    -0.000397512         0.109935       0.0373277       0.00168852    -0.000178533        -0.646086        0.753974
                         0.71451         0.58457       0.00147587    -0.000130611        -0.105845       -0.371318      8.39815e-05    -4.88986e-05
                      0.00177339     4.78155e-05        -0.647483        0.755072      0.000100468    -0.000270066         0.053233         0.10331
251200                  0.381148     -0.00734664      0.000539484    -0.000341806         0.777929        0.499518       0.00165285    -0.000240825
                     0.000326206     -0.00042842         0.115242       0.0390764       0.00168414    -0.000357469        -0.562758        0.817248
                        0.777218        0.500206        0.0014555    -0.000304742        -0.149796       -0.352962      4.63919e-05    -2.70773e-05
                      0.00180573    -0.000133979        -0.563961        0.818432      3.71304e-05    -0.000279303        0.0771907        0.094155
251400                  0.374902      -0.0465587      0.000490118    -0.000415594         0.831021        0.408336       0.00162284    -0.000415333
                     0.000248018    -0.000445523         0.121727       0.0398294       0.00165817    -0.000542186         -0.47324         0.87125
                         0.83047        0.409076       0.00141928    -0.000481226        -0.190632         -0.3284      8.00148e-06    -2.88905e-06
                      0.00181609    -0.000328964        -0.474203        0.872423     -3.55064e-05    -0.000279203         0.099346       0.0808651
251600                  0.363718      -0.0843057      0.000423609    -0.000484427         0.873896         0.31142         0.001579    -0.000591392
                     0.000174262    -0.000450929         0.129197       0.0393695       0.00160874     -0.00072968        -0.378593        0.915376
                        0.873523        0.312158       0.00136637    -0.000658494        -0.227365       -0.298174     -3.12171e-05     2.41517e-05
                      0.00180059    -0.000533765        -0.379313         0.91645      -0.00011639     -0.00026606         0.119029       0.0637972
251800                  0.347852       -0.119867      0.000339657    -0.000542784         0.905914        0.209826       0.00152035    -0.000767955
                     0.000106054    -0.000446679         0.137427       0.0375168       0.00153444    -0.000916441        -0.279933        0.949153
                        0.905716        0.210512       0.00129613     -0.00083481        -0.259105       -0.262991     -7.12488e-05     5.46522e-05
                        0.001756    -0.000743796        -0.280438        0.950061     -0.000202901    -0.000235955         0.135642       0.0434146
252000                  0.327682       -0.152565      0.000240187    -0.000584407         0.926526        0.104683       0.00144588     -0.00094376
                     4.39874e-05    -0.000434616         0.146167       0.0341331        0.0014345     -0.00109855        -0.178416        0.972241
                         0.92648        0.105278       0.00120814      -0.0010083         -0.28509       -0.223711     -0.000112004     8.93732e-05
                      0.00168022    -0.000953441        -0.178754        0.972937     -0.000290482    -0.000185512         0.148678       0.0202707
252200                    0.3037       -0.181789      0.000129936    -0.000603416         0.935274     -0.00280286       0.00135468     -0.00111731
                     -1.1706e-05    -0.000416325         0.155148       0.0291239       0.00130889     -0.00127179       -0.0752153        0.984431
                        0.935347     -0.00232555       0.00110223     -0.00117698        -0.304707       -0.181315     -0.000153265     0.000129267
                      0.00157263     -0.00115642       -0.0754477        0.984897     -0.000372706    -0.000112996         0.157731     -0.00500835
252400                  0.276496       -0.207012      1.63448e-05    -0.000595853         0.931812       -0.111357        0.0012459     -0.00128683
                    -6.10185e-05    -0.000393131         0.164094       0.0224399       0.00115839     -0.00143187        0.0284869        0.985649
                        0.931965       -0.111009      0.000978521     -0.00133883        -0.317517       -0.136887     -0.000194608     0.000175516
                      0.00143431     -0.00134633        0.0283003         0.98589     -0.000442063     -1.9437e-05         0.162507      -0.0317433
252600                  0.246748       -0.227812      -9.1565e-05    -0.000561105         0.915916       -0.219635       0.00111884      -0.0014503
                    -0.000104069    -0.000366126         0.172722       0.0140775      0.000984686     -0.00157456          0.13152         0.97595
                        0.916107       -0.219414      0.000837451     -0.00149183        -0.323267      -0.0915764     -0.000235264     0.000229573
                      0.00126801     -0.00151718         0.131326        0.975994      -0.00049151     9.07708e-05         0.162825      -0.0592207
252800                  0.215194       -0.243887     -0.000185095     -0.00050246         0.887498       -0.326235      0.000973037     -0.00160539
                    -0.000141031      -0.0003362         0.180757      0.00407743      0.000790255     -0.00169597         0.232738        0.955513
                        0.887692       -0.326127      0.000679778     -0.00163402        -0.321906      -0.0465731     -0.000273929     0.000293166
                      0.00107791     -0.00166401         0.232495        0.955402     -0.000516284     0.000210349         0.158623      -0.0867127
253000                  0.182617       -0.255061     -0.000257815    -0.000426422         0.846624       -0.429709      0.000808285     -0.00174951
                    -0.000172084     -0.00030409         0.187933     -0.00747701      0.000578349     -0.00179268         0.331032        0.924637
                        0.846791       -0.429688      0.000506581     -0.00176362        -0.313585     -0.00306858     -0.000308456     0.000368239
                     0.000869196      -0.0017832         0.330716        0.924422     -0.000515145     0.000330693         0.149957       -0.113496
253200                  0.149816       -0.261292     -0.000306684    -0.000341053          0.79353       -0.528573      0.000624756      -0.0018798
                    -0.000197383    -0.000270417         0.194001      -0.0204625      0.000352831     -0.00186194          0.42534        0.883733
                         0.79365       -0.528608      0.000319247     -0.00187908        -0.298668       0.0377777     -0.000335442      0.00045673
                      0.00064746     -0.00187266         0.424944        0.883469     -0.000490433     0.000443858         0.136992       -0.138868
253400                  0.117589       -0.262676     -0.000332017    -0.000254152         0.728633       -0.621334      0.000423074     -0.00199319
                    -0.000217039    -0.000235732         0.198735      -0.0347191      0.000117999     -0.00190179         0.514662        0.833314
                        0.728698       -0.621391      0.000119446     -0.00197918        -0.277717       0.0748753     -0.000349732      0.00056002
                     0.000418236     -0.00193177         0.514196        0.833051     -0.000446997     0.000544077         0.120002       -0.162167
253600                  0.086703       -0.259441     -0.000336571    -0.000171975         0.652548       -0.706511      0.000204408     -0.00208646
                     -0.00023111    -0.000200552         0.201935       -0.050055     -0.000121602     -0.00191109         0.598064        0.773989
                        0.652559       -0.706556     -9.09094e-05     -0.00206314         -0.25149        0.107239     -0.000344017     0.000677839
                     0.000186561     -0.00196117          0.59755        0.773769     -0.000390667     0.000628297         0.099359       -0.182782
253800                 0.0578732       -0.251944     -0.000324364    -9.87492e-05          0.56609       -0.782662     -2.94512e-05     -0.00215634
                    -0.000239598    -0.000165404         0.203433      -0.0662503     -0.000361386     -0.00188957         0.674687         0.70645
                        0.566061       -0.782665     -0.000309705     -0.00213074        -0.220917        0.134026     -0.000309041     0.000806405
                    -4.32835e-05     -0.00196236          0.67416        0.706304      -0.00032695     0.000695849         0.075522       -0.200172
254000                 0.0317422       -0.240657     -0.000299681     -3.6812e-05         0.470284       -0.848418     -0.000276022     -0.00219964
                    -0.000242462    -0.000130866         0.203096       -0.083063     -0.000596903     -0.00183772         0.743754        0.631467
                        0.470236       -0.848358     -0.000534669     -0.00218246         -0.18708        0.154567      -0.00023538     0.000936078
                    -0.000267879     -0.00193742         0.743253        0.631411     -0.000260286     0.000747689        0.0490265       -0.213873
254200                0.00885852       -0.226156     -0.000266445     1.29465e-05         0.366361       -0.902517     -0.000532099     -0.00221343
                    -0.000239634    -9.76078e-05         0.200829       -0.100234      -0.00082399     -0.00175678         0.804575        0.549876
                        0.366319       -0.902381     -0.000763401     -0.00221968        -0.151177        0.168401     -0.000117749         0.00105
                    -0.000484644     -0.00188863         0.804141         0.54991     -0.000193834     0.000785614        0.0204711       -0.223509
254400                -0.0103397       -0.209101     -0.000227956     5.05839e-05         0.255746       -0.943843     -0.000793751     -0.00219515
                    -0.000231055    -6.64398e-05         0.196576       -0.117493      -0.00103888     -0.00164856         0.856551        0.462569
                        0.255738       -0.943627     -0.000993347     -0.00224494        -0.114489        0.175294      3.88873e-05      0.00112668
                    -0.000691719     -0.00181826         0.856219        0.462681     -0.000129584     0.000811672      -0.00949664       -0.228803
254600                -0.0255397       -0.190219      -0.00018684     7.66919e-05         0.140045       -0.971456      -0.00105638      -0.0021429
                     -0.00021673    -3.83543e-05          0.19032       -0.134564      -0.00123829     -0.00151531         0.899176        0.370487
                        0.140098       -0.971168      -0.00122168     -0.00226244       -0.0783259        0.175259      0.000215902       0.0011483
                    -0.000887807     -0.00172837         0.898972        0.370649     -6.86073e-05     0.000827805        -0.040195       -0.229577
254800                -0.0365642       -0.170275     -0.000145142     9.21038e-05         0.021019       -0.984633      -0.00131483     -0.00205555
                    -0.000196816    -1.45617e-05         0.182085       -0.151171      -0.00141941     -0.00135967          0.93204        0.274608
                       0.0211548        -0.98429      -0.00144491     -0.00227868       -0.0439858        0.168565      0.000385954      0.00111076
                       -0.001072     -0.00162075         0.931981        0.274787     -1.13266e-05     0.000835671       -0.0709235        -0.22576
255000                -0.0433781       -0.150053     -0.000104448     9.77144e-05       -0.0994492       -0.982893      -0.00156354     -0.00193292
                     -0.00017174     3.49649e-06         0.171936       -0.167046      -0.00157996     -0.00118445          0.95483        0.175939
                      -0.0992144       -0.982518      -0.00165787     -0.00230373       -0.0126982        0.155731      0.000524934      0.00102635
                      -0.0012436     -0.00149687         0.954919        0.176097      4.22665e-05      0.00083659        -0.100979       -0.217388
255200                -0.0460897       -0.130324     -6.60276e-05     9.43833e-05        -0.219391       -0.966025      -0.00179681     -0.00177595
                    -0.000142362     1.41823e-05         0.159973       -0.181932      -0.00171814     -0.00099262         0.967333       0.0755094
                        -0.21905       -0.965648      -0.00185121     -0.00235303        0.0144267        0.137512      0.000621271     0.000916301
                       -0.001402      -0.0013579         0.967557       0.0756079      9.24411e-05     0.000831556         -0.12967       -0.204604
255400                -0.0449467       -0.111822      -3.0948e-05     8.28976e-05        -0.336798       -0.934105      -0.00200901     -0.00158669
                    -0.000110165      1.5779e-05         0.146335       -0.195588      -0.00183258    -0.000787174         0.969435      -0.0256403
                       -0.336353       -0.933754      -0.00200474     -0.00244989        0.0364472        0.114878      0.000676178     0.000800629
                     -0.00154654      -0.0012048          0.96977      -0.0256343      0.000139607     0.000821274        -0.156335       -0.187653
255600                -0.0403273      -0.0952165     -1.78614e-07     6.39731e-05        -0.449671         -0.8875      -0.00219488     -0.00136829
                    -7.74328e-05     6.73303e-06         0.131194       -0.207797      -0.00192228    -0.000571108         0.961118       -0.126465
                       -0.449134       -0.887205      -0.00207067     -0.00262475         0.052633       0.0889669      0.000698012     0.000692556
                     -0.00167644     -0.00103833         0.961529       -0.126576      0.000184232     0.000806203        -0.180354        -0.16688
255800                -0.0327254      -0.0810902       2.5329e-05     3.82823e-05        -0.556067       -0.826873      -0.00234983     -0.00112494
                    -4.73401e-05    -1.39535e-05         0.114749       -0.218368      -0.00198662    -0.000347373         0.942467       -0.225925
                       -0.555458       -0.826659      -0.00193612     -0.00289057        0.0624995       0.0610465      0.000696689     0.000598385
                     -0.00179075    -0.000859233          0.94291       -0.226163      0.000226778     0.000786605        -0.201167       -0.142718
256000                -0.0227312      -0.0699147      4.45782e-05     6.50397e-06        -0.654153       -0.753167       -0.0024701    -0.000861643
                     -2.3832e-05    -4.62062e-05         0.097226       -0.227139      -0.00202524    -0.000118867         0.913659        -0.32299
                       -0.653498       -0.753053      -0.00139804     -0.00311655        0.0658312       0.0324547      0.000680702     0.000519713
                     -0.00188829    -0.000668239         0.914091       -0.323354      0.000267654     0.000762581        -0.218282       -0.115687
256200                -0.0110073      -0.0620367      5.64818e-05    -3.06081e-05        -0.742246       -0.667585      -0.00255298    -0.000583969
                     -1.1178e-05    -8.83664e-05        0.0788728       -0.233985      -0.00203805     0.000111556         0.874971       -0.416651
                       -0.741576       -0.667581     -0.000453659     -0.00281549         0.062691      0.00454214      0.000656291     0.000455664
                     -0.00196771    -0.000466232          0.87535       -0.417125      0.000307168     0.000734098        -0.231291      -0.0863735
