! TOUCHSTONE file generated by CST MICROWAVE STUDIO
! Date and time: Sun Sep 28 19:32:13 2025
! Project name: biblioteca3_folgaOK.cst
! Parameters = {H=600; Lx=200; Ly=260; Nedge=4; P=520; mesh_pilar_nm=40; t_air=3500; t_sub=4000}
! Header version: 2018
! Port assignment regex: !\s*Touchstone port\s*([0-9]+)\s*=\s*(CST MWS port|CST DS port)\s*([0-9]+|Zmin|Zmax)\s*\(\"(.*)\"\)(\s*mode\s*([0-9]+))?.*
! Touchstone port assignment:
! Touchstone port 1 = CST MWS port Zmin ("") mode 1
! Touchstone port 2 = CST MWS port Zmin ("") mode 2
! Touchstone port 3 = CST MWS port Zmax ("") mode 1
! Touchstone port 4 = CST MWS port Zmax ("") mode 2
! S-Parameters are not renormalized. Each port impedance will be approximated by the real part at minimum frequency. The values are described via the [Reference] keyword.
! Default impedance is overridden by [Reference]
[Version] 2.0
# GHz S RI R 376.73
[Number of Ports] 4
[Reference]
376.73 376.73 376.73 376.73 
[Number of Frequencies] 401
[Network Data]
250000                 -0.255607        0.282894     -5.18127e-05     -0.00015492         0.307636       -0.871589       0.00141317      0.00164595
                     -0.00011692    -0.000219595        -0.114738       0.0412628      0.000342186       0.0022506         0.952818        0.277622
                        0.307509       -0.871879       0.00034416      0.00229341        -0.021545       -0.380647      0.000436447     0.000328302
                      0.00152315      0.00151244           0.9527        0.277334      0.000613683     0.000353433        0.0746335       0.0964617
250200                  -0.23139        0.299001      -6.0177e-05    -0.000130075         0.227432       -0.897642       0.00153236      0.00150737
                    -0.000139788    -0.000182417        -0.118884       0.0443314       0.00053269      0.00223272         0.971745        0.199278
                        0.226793       -0.897852       0.00053902      0.00225203       -0.0605859       -0.373849      0.000494804     0.000318096
                      0.00163396      0.00139574         0.971904        0.198846      0.000682872     0.000312528        0.0914867       0.0874454
250400                  -0.20577        0.312571     -6.61707e-05    -0.000103216         0.144803       -0.916492       0.00164234      0.00136401
                    -0.000159169    -0.000140449        -0.122949       0.0481837      0.000725361      0.00219724         0.984152        0.119643
                         0.14382       -0.916553      0.000732329      0.00219407        -0.098619       -0.362206      0.000558968     0.000301283
                      0.00173772      0.00126974         0.984479         0.11906      0.000751243     0.000262124         0.107196       0.0761222
250600                 -0.179046        0.323445     -6.94289e-05    -7.44146e-05        0.0603708       -0.927901       0.00174303      0.00121586
                    -0.000174116    -9.37536e-05        -0.126835       0.0528097      0.000918297      0.00214337         0.989961       0.0392741
                       0.0591945       -0.927783      0.000922408      0.00211925        -0.134928       -0.345861        0.0006289      0.00027601
                      0.00183357      0.00113477         0.990366       0.0385568      0.000817605     0.000201776          0.12145       0.0626295
250800                  -0.15154        0.331502     -6.95567e-05    -4.37838e-05       -0.0252184       -0.931674       0.00183427      0.00106293
                    -0.000183594    -4.25525e-05        -0.130447       0.0581892       0.00110941      0.00207054         0.989145      -0.0412673
                      -0.0264627       -0.931383       0.00110748      0.00202749        -0.168822       -0.325078      0.000704172     0.000240069
                      0.00192068     0.000991258         0.989558      -0.0420898      0.000880625      0.00013118         0.133952       0.0471504
251000                 -0.123584        0.336664     -6.61304e-05    -1.14868e-05        -0.111297       -0.927669       0.00191582     0.000905263
                    -0.000186494     1.27326e-05        -0.133691       0.0642912       0.00129648      0.00197847         0.981727       -0.121425
                        -0.11251       -0.927233       0.00128572      0.00191895        -0.199657       -0.300234      0.000783768     0.000190925
                      0.00199822     0.000839712         0.982096       -0.122314      0.000938834     5.02043e-05         0.144432       0.0299109
251200                -0.0955252        0.338894     -5.86984e-05     2.22536e-05        -0.197179       -0.915794       0.00198734     0.000742945
                    -0.000181673      7.1443e-05        -0.136479       0.0710752       0.00147717      0.00186718         0.967774       -0.200649
                       -0.198288       -0.915258       0.00145525      0.00179401        -0.226856       -0.271809      0.000865853     0.000125826
                      0.00206539     0.000680703         0.968065       -0.201562      0.000990651    -4.10688e-05         0.152651        0.011176
251400                -0.0677099        0.338198     -4.67845e-05     5.71445e-05        -0.282158       -0.896012       0.00204843     0.000576121
                    -0.000167998     0.000132648         -0.13873       0.0784916       0.00164909      0.00173704         0.947401       -0.278402
                       -0.283118       -0.895428       0.00161419      0.00165332        -0.249927       -0.240375      0.000947517     4.20356e-05
                      0.00212139     0.000514883         0.947598       -0.279297       0.00103441    -0.000142308         0.158405     -0.00875498
251600                -0.0404849        0.334628     -2.98925e-05     9.28097e-05        -0.365516       -0.868344       0.00209864     0.000404998
                     -0.00014441     0.000195119        -0.140365       0.0864821       0.00180987      0.00158874         0.920766       -0.354162
                       -0.366304       -0.867766       0.00176075      0.00149778        -0.268476       -0.206573       0.00102457    -6.27647e-05
                      0.00216547      0.00034298         0.920867       -0.354999       0.00106842    -0.000252898         0.161535      -0.0295546
251800                -0.0141894        0.328278     -7.51375e-06     0.000128776        -0.446521       -0.832873       0.00213745     0.000229856
                    -0.000110003      0.00025732        -0.141315       0.0949806       0.00195718      0.00142337         0.888069       -0.427424
                       -0.447136       -0.832349       0.00189318      0.00132856         -0.28222         -0.1711        0.0010915    -0.000189888
                      0.00219692     0.000165802         0.888084       -0.428172       0.00109097     -0.00037192         0.161927      -0.0508739
252000                 0.0108503        0.319284       2.0862e-05     0.000164459        -0.524436       -0.789749       0.00216428      5.1059e-05
                    -6.41056e-05     0.000317414        -0.141517        0.103914       0.00208885      0.00124234         0.849548       -0.497704
                       -0.524895        -0.78932       0.00200989      0.00114705        -0.290986       -0.134685       0.00114167    -0.000338928
                      0.00221507    -1.57693e-05         0.849496       -0.498341       0.00110047    -0.000498128         0.159515      -0.0723493
252200                 0.0343257        0.307825       5.5732e-05     0.000199143        -0.598521       -0.739188       0.00217852    -0.000130934
                    -6.37983e-06     0.000373301        -0.140918        0.113203       0.00220288      0.00104738         0.805482       -0.564545
                       -0.598851       -0.738884       0.00210947     0.000954882         -0.29472       -0.098075       0.00116801    -0.000507073
                      0.00221927    -0.000200772         0.805386       -0.565055       0.00109543    -0.000629958         0.154284      -0.0936105
252400                 0.0559516        0.294117      9.75594e-05      0.00023197        -0.668043       -0.681483       0.00217955     -0.00031556
                     6.30957e-05     0.000422688        -0.139471        0.122763       0.00229754     0.000840525          0.75618       -0.627514
                       -0.668279        -0.68132       0.00219071     0.000753892        -0.293484      -0.0620091       0.00116411    -0.000688736
                      0.00220898    -0.000388166         0.756068       -0.627893       0.00107461     -0.00076554         0.146269       -0.114287
252600                 0.0754707        0.278412      0.000146747     0.000261919        -0.732278       -0.616999       0.00216671     -0.00050214
                     0.000143753     0.000463181        -0.137139        0.132503       0.00237137     0.000624045         0.701985       -0.686208
                       -0.732458        -0.61698       0.00225265     0.000546061         -0.28745      -0.0272067       0.00112552    -0.000875797
                      0.00218367    -0.000576838         0.701884        -0.68646       0.00103703    -0.000902734         0.135557       -0.134017
252800                 0.0926589        0.260997      0.000203604     0.000287794        -0.790522       -0.546181       0.00213935    -0.000689873
                     0.000234489     0.000492412        -0.133897        0.142332       0.00242324     0.000400401          0.64327       -0.740256
                       -0.790683       -0.546298        0.0022946     0.000333496        -0.276898      0.00565098       0.00105094      -0.0010586
                      0.00214292    -0.000765593         0.643203       -0.740392      0.000982095     -0.00103919          0.12228       -0.152451
253000                  0.107329        0.242184      0.000268298     0.000308215        -0.842103       -0.469554       0.00209683    -0.000877825
                     0.000333665     0.000508175        -0.129727        0.152153        0.0024524     0.000172187         0.580433       -0.789317
                       -0.842277       -0.469786       0.00231615     0.000118373        -0.262207       0.0359357      0.000942737     -0.00122755
                      0.00208637    -0.000953165          0.58042       -0.789357      0.000909582     -0.00117241         0.106616       -0.169263
253200                  0.119335        0.222313      0.000340807     0.000321613        -0.886384       -0.387722       0.00203857     -0.00106492
                     0.000439135     0.000508574        -0.124623        0.161868       0.00245845    -5.79351e-05         0.513895       -0.833087
                       -0.886598       -0.388041       0.00231719    -9.71026e-05        -0.243843       0.0630852       0.00080648     -0.00137472
                      0.00201376     -0.00113821          0.51395       -0.833053      0.000819717     -0.00129986        0.0887863        -0.18415
253400                  0.128577        0.201741      0.000420853     0.000326241        -0.922782       -0.301367       0.00196402     -0.00124995
                     0.000548338     0.000492144        -0.118587         0.17138       0.00244134    -0.000287297           0.4441       -0.871297
                       -0.923051       -0.301741       0.00229788    -0.000310749        -0.222353       0.0866152      0.000649799     -0.00149503
                      0.00192495     -0.00131933         0.444231       -0.871215      0.000713167     -0.00141901        0.0690463       -0.196844
253600                  0.135002        0.180836      0.000507831     0.000320201        -0.950773       -0.211248       0.00187274     -0.00143154
                     0.000658408     0.000457955        -0.111634        0.180591       0.00240141    -0.000513277         0.371507       -0.903712
                       -0.951103        -0.21164       0.00225867    -0.000520449        -0.198347         0.10613      0.000480846     -0.00158657
                      0.00181988     -0.00149504         0.371714       -0.903608      0.000591025      -0.0015275         0.047686       -0.207111
253800                  0.138606        0.159977      0.000600734     0.000301487        -0.969908       -0.118195       0.00176438      -0.0016082
                      0.00076632     0.000405667        -0.103789        0.189405       0.00233931    -0.000733359         0.296592       -0.930139
                       -0.970293        -0.11857       0.00220026    -0.000724191        -0.172493        0.121332      0.000307005     -0.00165018
                      0.00169864     -0.00166382         0.296868       -0.930038      0.000454774     -0.00162317        0.0250219       -0.214757
254000                   0.13944        0.139539       0.00069807     0.000268066         -0.97982      -0.0231001       0.00163873     -0.00177828
                     0.000869041     0.000335542       -0.0950842        0.197727       0.00225599    -0.000945167         0.219839       -0.950419
                       -0.980247      -0.0234259       0.00212358    -0.000920106        -0.145495        0.132028      0.000134097     -0.00168859
                      0.00156145     -0.00182407         0.220174       -0.950343      0.000306231     -0.00170416       0.00139249       -0.219628
254200                  0.137604        0.119891      0.000797799     0.000217981        -0.980238       0.0730891       0.00149576     -0.00194002
                     0.000963671     0.000248408       -0.0855655        0.205468       0.00215268     -0.00114651         0.141747       -0.964432
                       -0.980686       0.0728367       0.00202974     -0.00110649        -0.118081        0.138138     -3.38695e-05     -0.00170547
                       0.0014087     -0.00197417         0.142123         -0.9644      0.000147467     -0.00176894       -0.0228474       -0.221617
254400                  0.133251        0.101384      0.000897281       0.0001495        -0.970996        0.169381       0.00133563     -0.00209154
                      0.00104756     0.000145595       -0.0752865        0.212543       0.00203082      -0.0013354        0.0628147         -0.9721
                       -0.971436        0.169219       0.00192004     -0.00128184       -0.0909847        0.139695     -0.000194554     -0.00170469
                      0.00124092     -0.00211247        0.0632135       -0.972123     -1.92728e-05     -0.00181639       -0.0473326       -0.220662
254600                  0.126584       0.0843496      0.000993273     6.12891e-05         -0.95204        0.264753       0.00115872     -0.00223087
                       0.0011184     2.88329e-05         -0.06431        0.218872       0.00189206     -0.00151009       -0.0164511       -0.973379
                       -0.952443        0.264688        0.0017959     -0.00144483       -0.0649291         0.13685     -0.000346949     -0.00168984
                      0.00105884      -0.0022373       -0.0160514       -0.973464     -0.000191655     -0.00184577       -0.0716928       -0.216746
254800                   0.11785        0.069085       0.00108197    -4.73828e-05        -0.923435        0.358166      0.000965655     -0.00235601
                      0.00117425    -9.98465e-05       -0.0527073        0.224381       0.00173821     -0.00166906        -0.095545       -0.968266
                       -0.923769        0.358197       0.00165882     -0.00159437       -0.0406065         0.12987     -0.000490994     -0.00166394
                      0.00086338     -0.00234699       -0.0951663       -0.968413     -0.000367339     -0.00185672       -0.0955588       -0.209899
255000                  0.107341       0.0558505       0.00115911    -0.000176438         -0.88537        0.448582      0.000757349      -0.0024649
                       0.0012136    -0.000238218       -0.0405576        0.229005       0.00157117     -0.00181103        -0.173964       -0.956796
                       -0.885607        0.448697       0.00151036     -0.00172955       -0.0186595        0.119131     -0.000627229     -0.00162938
                     0.000655657     -0.00243991        -0.173626       -0.957001     -0.000544049     -0.00184925        -0.118567       -0.200197
255200                 0.0953812       0.0448614        0.0012202    -0.000324801        -0.838157        0.534979      0.000534992     -0.00255552
                      0.00123532     -0.00038395       -0.0279473        0.232685       0.00139294     -0.00193498        -0.251208       -0.939043
                       -0.838274        0.535158       0.00135212     -0.00184969      0.000337957        0.105116     -0.000756531     -0.00158792
                      0.00043701     -0.00251448        -0.250929       -0.939293     -0.000719632     -0.00182368        -0.140367        -0.18776
255400                 0.0823265       0.0362827       0.00126077    -0.000490272        -0.782231        0.616369      0.000300078      -0.0026259
                      0.00123864    -0.000534681       -0.0149686        0.235375       0.00120559     -0.00204011        -0.326786       -0.915115
                       -0.782211        0.616586       0.00118568     -0.00195429        0.0158985       0.0883966     -0.000879919     -0.00154074
                     0.000208993     -0.00256918        -0.326579       -0.915396     -0.000892103     -0.00178059        -0.160624        -0.17275
255600                 0.0685516       0.0302243       0.00127671    -0.000669482        -0.718147        0.691815      5.44022e-05     -0.00267421
                      0.00122312    -0.000688073      -0.00171929        0.237034       0.00101121     -0.00212589        -0.400217        -0.88516
                       -0.717982        0.692041       0.00101263     -0.00204302        0.0276378       0.0696232     -0.000998424     -0.00148857
                    -2.66135e-05     -0.00260263         -0.40009       -0.885454      -0.00105968     -0.00172078        -0.179026       -0.155373
255800                 0.0544432       0.0267387       0.00126464    -0.000857978        -0.646571        0.760451     -0.000199944     -0.00269877
                      0.00118858    -0.000841844        0.0116987        0.237634      0.000811883       -0.002192         -0.47103        -0.84936
                       -0.646261        0.760652      0.000834475     -0.00211572        0.0352877       0.0495038      -0.00111301     -0.00143173
                     -0.00026781     -0.00261357        -0.470985       -0.849646      -0.00122077     -0.00164523        -0.195286       -0.135868
256000                 0.0403902       0.0258192       0.00122222     -0.00105043        -0.568269        0.821489     -0.000460592     -0.00269812
                      0.00113509     -0.00099379        0.0251804        0.237159      0.000609706     -0.00223834         -0.53877       -0.807931
                       -0.567824        0.821636      0.000652693     -0.00217237         0.038707       0.0287837      -0.00122451     -0.00137022
                    -0.000512381     -0.00260096        -0.538804       -0.808191      -0.00137402       -0.001555         -0.20915       -0.114513
256200                 0.0267739       0.0274003       0.00114844     -0.00124096          -0.4841        0.874241     -0.000724927      -0.0026711
                      0.00106294     -0.00114178        0.0386185          0.2356      0.000406732     -0.00226507        -0.602999       -0.761125
                       -0.483537        0.874306       0.00046868     -0.00221307        0.0378867      0.00822203      -0.00133362      -0.0013038
                    -0.000757914     -0.00256394        -0.603102       -0.761339      -0.00151828     -0.00145123        -0.220399       -0.091612
