! TOUCHSTONE file generated by CST MICROWAVE STUDIO
! Date and time: Fri Sep 26 05:54:30 2025
! Project name: biblioteca3_folgaOK.cst
! Parameters = {H=600; Lx=200; Ly=260; Nedge=30; P=520; k=0; mesh_pilar_nm=40; n=0; t_air=3500; t_sub=2000; wavelength_nm=0}
! Header version: 2018
! Port assignment regex: !\s*Touchstone port\s*([0-9]+)\s*=\s*(CST MWS port|CST DS port)\s*([0-9]+|Zmin|Zmax)\s*\(\"(.*)\"\)(\s*mode\s*([0-9]+))?.*
! Touchstone port assignment:
! Touchstone port 1 = CST MWS port Zmin ("") mode 1
! Touchstone port 2 = CST MWS port Zmin ("") mode 2
! Touchstone port 3 = CST MWS port Zmax ("") mode 1
! Touchstone port 4 = CST MWS port Zmax ("") mode 2
! S-Parameters are not renormalized. Each port impedance will be approximated by the real part at minimum frequency. The values are described via the [Reference] keyword.
! Default impedance is overridden by [Reference]
[Version] 2.0
# GHz S RI R 376.73
[Number of Ports] 4
[Reference]
376.73 376.73 376.73 376.73 
[Number of Frequencies] 401
[Network Data]
250000                  0.223874        0.230241     -0.000931589     -0.00110783        -0.876404         0.35843     -0.000917128    -4.24863e-06
                    -0.000859572     -0.00105291       -0.0622188        0.183835      8.83817e-05     0.000681291        -0.448097       -0.872678
                       -0.876421        0.359101       7.8893e-05     0.000584215       0.00187596        0.321151        0.0015635     6.66534e-05
                    -0.000931099     4.09276e-05        -0.448066        -0.87279       0.00145501     6.88836e-05        -0.185627      -0.0566424
250200                  0.232514        0.210962      -0.00101665     -0.00105841         -0.84713        0.428849     -0.000938336     7.45946e-05
                     -0.00093449      -0.0010078       -0.0550751        0.189371      0.000159135     0.000672044        -0.505333       -0.840056
                       -0.846845        0.429539      0.000130636     0.000591074        0.0326897          0.3124       0.00160249    -7.15913e-05
                    -0.000950239     0.000131345        -0.505396       -0.840281       0.00149715    -3.98189e-05        -0.193079      -0.0401768
250400                  0.239392        0.191304      -0.00109976     -0.00100126        -0.812037        0.497122     -0.000952277     0.000158826
                     -0.00100847    -0.000957331       -0.0474836        0.194549      0.000230047     0.000657558        -0.560258       -0.803678
                       -0.811503        0.497776      0.000185328     0.000594072        0.0618827        0.300355       0.00162764    -0.000215245
                    -0.000957961     0.000225457        -0.560411       -0.803979       0.00153203    -0.000157162        -0.198949      -0.0228488
250600                  0.244483        0.171431      -0.00118012    -0.000936369         -0.77126        0.562751     -0.000957855     0.000247645
                     -0.00108116    -0.000901274       -0.0394675        0.199332      0.000300534     0.000637701        -0.612623       -0.763706
                       -0.770533        0.563328      0.000242758     0.000592628        0.0890638        0.285263       0.00163837    -0.000362663
                    -0.000953941     0.000321266        -0.612858        -0.76405       0.00155808    -0.000282878        -0.203143     -0.00481887
250800                  0.247776        0.151514      -0.00125695    -0.000863814        -0.724981        0.625241     -0.000954085     0.000340005
                     -0.00115213    -0.000839396       -0.0310529        0.203688      0.000369986     0.000612409        -0.662194       -0.720317
                       -0.724113        0.625717      0.000302617     0.000586139         0.113879        0.267424       0.00163435    -0.000512167
                    -0.000938319     0.000416863        -0.662498       -0.720678       0.00157363    -0.000416408        -0.205582        0.013742
251000                  0.249279        0.131723      -0.00132944    -0.000783759        -0.673422        0.684109     -0.000940164     0.000434639
                     -0.00122094    -0.000771485       -0.0222685        0.207586      0.000437783     0.000581685        -0.708745       -0.673706
                       -0.672466        0.684471      0.000364476     0.000573998         0.136019        0.247179       0.00161547    -0.000662098
                    -0.000911617     0.000510542        -0.709105       -0.674062         0.001577    -0.000556853        -0.206207       0.0326549
251200                  0.249015        0.112228       -0.0013968    -0.000696459        -0.616854        0.738884      -0.00091553     0.000530096
                     -0.00128704     -0.00069735       -0.0131454        0.210994      0.000503307     0.000545599        -0.752067       -0.624079
                       -0.615855        0.739131      0.000427783     0.000555615         0.155222        0.224905       0.00158182    -0.000810842
                    -0.000874633     0.000600882        -0.752467       -0.624416       0.00156651    -0.000702937        -0.204976       0.0517347
251400                  0.247025       0.0932015      -0.00145825    -0.000602254         -0.55559        0.789113     -0.000879908     0.000624815
                     -0.00134984    -0.000616833      -0.00371672        0.213888      0.000565956     0.000504291        -0.791965       -0.571657
                       -0.554586        0.789252      0.000491848     0.000530445         0.171278        0.201011        0.0015337    -0.000956863
                    -0.000828325      0.00068677        -0.792389       -0.571966       0.00154066    -0.000852985        -0.201869       0.0707919
251600                  0.243367       0.0748087      -0.00151305    -0.000501568        -0.489985        0.834366     -0.000833337     0.000717193
                      -0.0014087    -0.000529822       0.00598225        0.216242      0.000625159      0.00045796        -0.828257       -0.516675
                       -0.489008        0.834411      0.000555842     0.000498022         0.184037        0.175928       0.00147156     -0.00109872
                    -0.000773708     0.000767399        -0.828691        -0.51695       0.00149816     -0.00100493        -0.196884       0.0896353
251800                  0.238116       0.0572122      -0.00156048    -0.000394905         -0.42044        0.874237     -0.000776167     0.000805675
                     -0.00146287    -0.000436262        0.0159145        0.218035      0.000680382      0.00040686         -0.86078       -0.459376
                       -0.419514        0.874207      0.000618807     0.000457989         0.193405        0.150104       0.00139595     -0.00123508
                    -0.000711773     0.000842224        -0.861211       -0.459615        0.0014381     -0.00115637        -0.190038        0.108073
252000                  0.231367       0.0405668      -0.00159989    -0.000282843        -0.347395        0.908354     -0.000709033     0.000888827
                     -0.00151156    -0.000336172        0.0260415        0.219247      0.000731143     0.000351292        -0.889385       -0.400017
                       -0.346535         0.90827      0.000679666     0.000410141         0.199348        0.123993       0.00130756     -0.00136471
                    -0.000643426     0.000910911        -0.889801       -0.400222       0.00136001      -0.0013046         -0.18137        0.125916
252200                  0.223228        0.025018      -0.00163067    -0.000166027        -0.271329        0.936379     -0.000632803      0.00096541
                     -0.00155393     -0.00022966        0.0363234        0.219864      0.000777013     0.000291589        -0.913942       -0.338861
                       -0.270542        0.936262      0.000737257     0.000354456         0.201895       0.0980489       0.00120715     -0.00148651
                    -0.000569457     0.000973276        -0.914333       -0.339037       0.00126398     -0.00144677        -0.170937        0.142979
252400                  0.213826       0.0107002      -0.00165225    -4.51629e-05        -0.192756        0.958014     -0.000548511      0.00103441
                     -0.00158906    -0.000116941         0.046719        0.219871      0.000817621      0.00022811        -0.934336        -0.27618
                       -0.192045        0.957885      0.000790365     0.000291123         0.201135       0.0727169       0.00109552     -0.00159944
                    -0.000490527      0.00102923        -0.934696       -0.276333        0.0011507     -0.00158004        -0.158816        0.159082
252600                  0.203302     -0.00226567      -0.00166416      7.8989e-05        -0.112224        0.973007     -0.000457282      0.00109509
                     -0.00161599     1.64155e-06        0.0571863         0.21926      0.000852655     0.000161221        -0.950473       -0.212254
                       -0.111586        0.972883      0.000837773     0.000220566         0.197217       0.0484263      0.000973552      -0.0017026
                    -0.000407175      0.00107872        -0.950798       -0.212392       0.00102144     -0.00170167        -0.145101        0.174053
252800                  0.191811      -0.0137743      -0.00166595      0.00020562       -0.0303103        0.981154     -0.000360255      0.00114692
                     -0.00163373       0.0001256        0.0676827        0.218021      0.000881853     9.12911e-05        -0.962277       -0.147369
                      -0.0297355        0.981048      0.000878321     0.000143448         0.190346       0.0255816      0.000842133     -0.00179513
                    -0.000319826      0.00112171        -0.962564       -0.147498       0.00087805     -0.00180924        -0.129906        0.187731
253000                   0.17952      -0.0237374      -0.00165728     0.000333877        0.0523845        0.982301      -0.00025852      0.00118963
                     -0.00164131     0.000254286        0.0781648        0.216153      0.000904999     1.86793e-05        -0.969688      -0.0818122
                       0.0529067        0.982223      0.000910957       6.066e-05          0.18078      0.00455491      0.000702207     -0.00187627
                    -0.000228824      0.00115812        -0.969938      -0.0819422      0.000722802     -0.00190078         -0.11336        0.199966
253200                  0.166605      -0.0320858      -0.00163785      0.00046287          0.13524        0.976351      -0.00015307       0.0012231
                     -0.00163773     0.000386872         0.088589        0.213654      0.000921907    -5.62724e-05        -0.972668      -0.0158782
                        0.135722        0.976308      0.000934804    -2.67048e-05          0.16883      -0.0143213      0.000554746     -0.00194529
                    -0.000134447      0.00118783        -0.972884       -0.016016      0.000558308     -0.00197484       -0.0956059         0.21062
253400                   0.15325      -0.0387704      -0.00160743     0.000591676         0.217622        0.963268     -4.47661e-05      0.00124733
                     -0.00162209     0.000522345        0.0989117        0.210526      0.000932414    -0.000133242        -0.971197       0.0501382
                        0.218077        0.963259      0.000949195    -0.000117396         0.154846      -0.0307613      0.000400765     -0.00200154
                    -3.69445e-05      0.00121062        -0.971383       0.0499862      0.000387335     -0.00203056       -0.0768033        0.219572
253600                  0.139646      -0.0437636      -0.00156588     0.000719338         0.298887        0.943071      6.56691e-05      0.00126241
                     -0.00159354       0.0006595         0.109089        0.206775      0.000936356    -0.000211927        -0.965274        0.115941
                        0.299328        0.943096      0.000953717    -0.000210061         0.139217       -0.044532      0.000241325     -0.00204442
                     6.34392e-05      0.00122624        -0.965436        0.115769      0.000212653     -0.00206766       -0.0571228        0.226715
253800                  0.125984      -0.0470596      -0.00151313     0.000844873         0.378393        0.915847      0.000177649      0.00126841
                      -0.0015514     0.000796944         0.119079        0.202409      0.000933556    -0.000292042        -0.954916        0.181234
                        0.378828        0.915898       0.00094822    -0.000303311         0.122362      -0.0554586      7.75451e-05     -0.00207337
                     0.000166432      0.00123434        -0.955062        0.181039      3.68879e-05     -0.00208641       -0.0367462        0.231961
254000                  0.112456      -0.0486752      -0.00144917     0.000967271           0.4555        0.881742        0.0002907      0.00126535
                     -0.00149512     0.000933108         0.128837        0.197441      0.000923804    -0.000373304        -0.940162        0.245722
                        0.455938        0.881811      0.000932817    -0.000395789         0.104719      -0.0634287     -8.93886e-05      -0.0020879
                     0.000271709      0.00123451        -0.940298        0.245501     -0.000137591     -0.00208751       -0.0158643        0.235239
254200                 0.0992503      -0.0486494      -0.00137409       0.0010855         0.529581        0.840965      0.000404423      0.00125319
                     -0.00142439      0.00106627         0.138323        0.191885      0.000906839    -0.000455419        -0.921067        0.309113
                        0.530026        0.841042      0.000907862    -0.000486226        0.0867394      -0.0683949     -0.000258214     -0.00208759
                     0.000378862      0.00122626        -0.921203        0.308867     -0.000308749     -0.00207203       0.00532462          0.2365
254400                 0.0865496      -0.0470431      -0.00128807      0.00119851         0.600027        0.793789       0.00051845      0.00123176
                     -0.00133915       0.0011946         0.147495        0.185759      0.000882338    -0.000538055        -0.897708        0.371118
                        0.600482        0.793864      0.000873906    -0.000573496        0.0688741      -0.0703767     -0.000427585     -0.00207209
                     0.000487376      0.00120909        -0.897851        0.370848     -0.000474925     -0.00204122        0.0266173        0.235712
254600                 0.0745279      -0.0439383      -0.00119138      0.00130523         0.666258        0.740546      0.000632384      0.00120075
                     -0.00123964       0.0013162         0.156313        0.179083      0.000849907    -0.000620814        -0.870178        0.431454
                        0.666719        0.740608      0.000831655    -0.000656655        0.0515666      -0.0694604      -0.00059607     -0.00204117
                     0.000596612      0.00118247        -0.870337        0.431163     -0.000634836     -0.00199649        0.0478072        0.232867
254800                 0.0633479      -0.0394366      -0.00108437      0.00140459         0.727721        0.681625      0.000745742      0.00115976
                     -0.00112639      0.00142913          0.16474        0.171883       0.00080908    -0.000703182         -0.83859        0.489843
                        0.728184        0.681665      0.000781912    -0.000734958        0.0352417      -0.0657971     -0.000762151     -0.00199473
                     0.000705784      0.00114588        -0.838771        0.489535     -0.000787549     -0.00193923        0.0686868        0.227976
255000                 0.0531585      -0.0336579     -0.000967545       0.0014955         0.783906         0.61747      0.000857882      0.00110823
                     -0.00100027      0.00153154         0.172738        0.164184      0.000759337    -0.000784493        -0.803076        0.546013
                        0.784363        0.617481      0.000725516    -0.000807869        0.0202953      -0.0595998     -0.000924233     -0.00193283
                     0.000813951      0.00109887        -0.803283        0.545695     -0.000932437     -0.00187081        0.0890494        0.221072
255200                 0.0440929      -0.0267386     -0.000841487      0.00157689         0.834346        0.548573      0.000967944      0.00104556
                    -0.000862433      0.00162167         0.180272        0.156016      0.000700133    -0.000863869        -0.763782        0.599702
                        0.834788        0.548551      0.000663291    -0.000875046       0.00708563      -0.0511379      -0.00108066     -0.00185569
                     0.000920018      0.00104105        -0.764021        0.599381      -0.00106912     -0.00179244         0.108692         0.21221
255400                 0.0362664      -0.0188288     -0.000706925      0.00164772         0.878622        0.475474       0.00107479     0.000971141
                    -0.000714361      0.00169795         0.187311        0.147411      0.000630961    -0.000940174        -0.720875        0.650657
                        0.879039        0.475416      0.000595995    -0.000936328      -0.00407524      -0.0407314      -0.00122973     -0.00176378
                      0.00102274     0.000972197        -0.721149         0.65034       -0.0011974     -0.00170521         0.127417        0.201465
255600                  0.029775      -0.0100908     -0.000564714      0.00170696         0.916373        0.398748       0.00117696     0.000884469
                    -0.000557763      0.00175905         0.193823        0.138404      0.000551433     -0.00101198        -0.674537        0.698635
                        0.916754        0.398656      0.000524279    -0.000991696       -0.0129289      -0.0287424      -0.00136976     -0.00165777
                      0.00112074     0.000892242        -0.674848        0.698331      -0.00131721     -0.00161003         0.145033        0.188933
255800                  0.024694     -0.00069557     -0.000415851      0.00175367         0.947294        0.319005       0.00127267     0.000785239
                    -0.000394557      0.00180391          0.19978        0.129032      0.000461402     -0.00107754        -0.624967        0.743403
                         0.94763        0.318884      0.000448643     -0.00104124       -0.0192765      -0.0155668      -0.00149909     -0.00153862
                      0.00121254     0.000801346        -0.625313        0.743122      -0.00142852     -0.00150763         0.161362        0.174729
256000                 0.0210776      0.00917919     -0.000261469      0.00178695         0.971142        0.236881       0.00135983     0.000673493
                    -0.000226792      0.00183181         0.205157        0.119333      0.000361091     -0.00113485        -0.572379        0.784744
                        0.971425        0.236738      0.000369418     -0.00108509       -0.0229828      -0.0016239      -0.00161613     -0.00140752
                      0.00129663     0.000699924        -0.572759        0.784493      -0.00153134      -0.0013986         0.176234        0.158988
256200                  0.018958       0.0193522     -0.000102839      0.00180602          0.98774        0.153032       0.00143612     0.000549757
                    -5.65876e-05      0.00184237          0.20993         0.10935      0.000251245     -0.00118172        -0.517001        0.822452
                        0.987962        0.152875      0.000286731     -0.00112339       -0.0239791       0.0126534      -0.00171947     -0.00126593
                      0.00137147     0.000588665         -0.51741        0.822239       -0.0016256     -0.00128339         0.189496        0.141862
