! TOUCHSTONE file generated by CST MICROWAVE STUDIO
! Date and time: Sun Sep 28 20:03:49 2025
! Project name: biblioteca3_folgaOK.cst
! Parameters = {H=600; Lx=300; Ly=300; Nedge=24; P=520; mesh_pilar_nm=40; t_air=3500; t_sub=4000}
! Header version: 2018
! Port assignment regex: !\s*Touchstone port\s*([0-9]+)\s*=\s*(CST MWS port|CST DS port)\s*([0-9]+|Zmin|Zmax)\s*\(\"(.*)\"\)(\s*mode\s*([0-9]+))?.*
! Touchstone port assignment:
! Touchstone port 1 = CST MWS port Zmin ("") mode 1
! Touchstone port 2 = CST MWS port Zmin ("") mode 2
! Touchstone port 3 = CST MWS port Zmax ("") mode 1
! Touchstone port 4 = CST MWS port Zmax ("") mode 2
! S-Parameters are not renormalized. Each port impedance will be approximated by the real part at minimum frequency. The values are described via the [Reference] keyword.
! Default impedance is overridden by [Reference]
[Version] 2.0
# GHz S RI R 376.73
[Number of Ports] 4
[Reference]
376.73 376.73 376.73 376.73 
[Number of Frequencies] 401
[Network Data]
250000                  0.218255        0.197177     -0.000845969    -0.000418698        -0.195166        -0.93556      2.78017e-06    -0.000316366
                    -0.000862669    -0.000541006         0.217409        0.197049      2.96869e-05    -0.000306934        -0.194788        -0.93582
                       -0.195204       -0.935709      4.12274e-05    -0.000350762         0.121213       -0.268004     -0.000607178     0.000862238
                    -6.34057e-05    -0.000320246        -0.194855       -0.935764     -0.000587786     0.000855438         0.120789       -0.267423
250200                  0.237873        0.167751     -0.000887021    -0.000308697        -0.296147       -0.909999     -3.02196e-05    -0.000299313
                    -0.000940878    -0.000459377         0.236987        0.167657     -8.55515e-06    -0.000298521        -0.295442       -0.910101
                       -0.296216       -0.910241     -8.03279e-06    -0.000347971        0.0939045       -0.275445     -0.000537469     0.000912799
                     -9.4799e-05    -0.000287417        -0.295355       -0.910286     -0.000491682     0.000902655        0.0934714       -0.274834
250400                   0.25329        0.136212     -0.000917574    -0.000194528        -0.393859       -0.873521     -6.22411e-05    -0.000280284
                      -0.0010118     -0.00035998         0.252371        0.136203      -4.5874e-05    -0.000287416        -0.392959       -0.873629
                       -0.393963       -0.873793     -5.68979e-05    -0.000336035         0.066132       -0.279772     -0.000462316     0.000956229
                    -0.000122756    -0.000254831        -0.392813        -0.87398     -0.000396245     0.000939331         0.065713        -0.27913
250600                  0.264249        0.103217     -0.000936948    -7.71002e-05        -0.487154       -0.826558     -9.31026e-05    -0.000259249
                      -0.0010708    -0.000242781         0.263318         0.10333     -8.20324e-05    -0.000273637        -0.486187       -0.826763
                        -0.48728       -0.826816     -0.000103039    -0.000315149        0.0382801       -0.280956     -0.000382681     0.000991899
                    -0.000147269    -0.000222773        -0.486039       -0.827207     -0.000302245     0.000966485        0.0378919       -0.280287
250800                  0.270606       0.0694521     -0.000944512     4.25708e-05         -0.57494       -0.769648     -0.000122604    -0.000236188
                     -0.00111279    -0.000109158         0.269695       0.0697107     -0.000116785    -0.000257215        -0.574012       -0.769987
                       -0.575067       -0.769869     -0.000144296    -0.000286258        0.0107329       -0.279019     -0.000299599      0.00101936
                    -0.000168372    -0.000191497        -0.573893       -0.770461     -0.000210198     0.000985061        0.0103861        -0.27833
251000                  0.272333       0.0356173     -0.000939694     0.000163357        -0.656182       -0.703433     -0.000150524     -0.00021109
                     -0.00113269     3.77777e-05         0.271477       0.0360307     -0.000149877    -0.000238197        -0.655376       -0.703903
                       -0.656293       -0.703609     -0.000178959    -0.000250918       -0.0161318        -0.27403      -0.00021413      0.00103832
                    -0.000186128     -0.00016122        -0.655294       -0.704354     -0.000120421     0.000995894       -0.0164324       -0.273331
251200                  0.269515      0.00240151     -0.000921995      0.00028401        -0.729919       -0.628652      -0.00017662    -0.000183963
                     -0.00112619     0.000193078         0.268748       0.0029655     -0.000181042    -0.000216644        -0.729287       -0.629225
                           -0.73       -0.628788      -0.00020594    -0.000211052       -0.0419494       -0.266108     -0.000127329       0.0010487
                     -0.00020063    -0.000132127        -0.729235       -0.629617     -3.30831e-05     0.000999696       -0.0422034       -0.265406
251400                  0.262348      -0.0295346     -0.000891005     0.000403153        -0.795261       -0.546138     -0.000200622    -0.000154828
                     -0.00109052      0.00035022         0.261701      -0.0288353     -0.000209998    -0.000192632         -0.79483       -0.546775
                       -0.795306       -0.546244     -0.000224815     -0.00016868       -0.0663735       -0.255415     -4.02108e-05      0.00105054
                    -0.000211988    -0.000104371        -0.794792       -0.547085      5.17526e-05     0.000997043        -0.066584       -0.254714
251600                  0.251128      -0.0595769     -0.000846429     0.000519273        -0.851407       -0.456811     -0.000222231    -0.000123733
                     -0.00102511     0.000501767         0.250624      -0.0587653     -0.000236442    -0.000166253        -0.851178        -0.45747
                       -0.851416       -0.456899     -0.000235746    -0.000125674       -0.0890813       -0.242155      4.62791e-05      0.00104403
                     -0.00022033    -7.80717e-05        -0.851137       -0.457692       0.00013409     0.000988381       -0.0892531       -0.241457
251800                  0.236241      -0.0871726     -0.000788117     0.000630717        -0.897646       -0.361672      -0.00024112    -9.07577e-05
                    -0.000931856     0.000640315         0.235897      -0.0862767     -0.000260047    -0.000137621        -0.897604       -0.362318
                       -0.897626       -0.361755     -0.000239329    -8.36101e-05        -0.109778       -0.226569      0.000131279      0.00102948
                    -0.000225789    -5.33232e-05        -0.897541       -0.362455      0.000213967     0.000974025        -0.109917       -0.225874
252000                  0.218153       -0.111843     -0.000716097     0.000735686         -0.93337       -0.261797     -0.000256926    -5.60179e-05
                    -0.000814976     0.000759513         0.217976       -0.110893     -0.000280448    -0.000106877        -0.933486       -0.262404
                       -0.933333       -0.261882     -0.000236419    -4.36947e-05        -0.128203       -0.208935      0.000214025      0.00100728
                    -0.000228507    -3.01958e-05         -0.93339       -0.262467      0.000291425     0.000954163        -0.128312        -0.20824
252200                  0.197391       -0.133195      -0.00063062     0.000832244        -0.958081       -0.158327     -0.000269249    -1.96813e-05
                    -0.000680303     0.000854842         0.197384       -0.132219     -0.000297238     -7.4196e-05        -0.958322       -0.158881
                       -0.958041       -0.158417      -0.00022798    -6.77687e-06         -0.14413       -0.189558       0.00029385     0.000977869
                    -0.000228623    -8.74075e-06        -0.958185       -0.158887      0.000366483     0.000928868        -0.144212       -0.188858
252400                  0.174534       -0.150925     -0.000532214     0.000918327          -0.9714      -0.0524604     -0.000277652     1.80201e-05
                    -0.000534402     0.000923994         0.174694       -0.149952     -0.000309949    -3.98045e-05        -0.971731      -0.0529582
                       -0.971368      -0.0525513     -0.000214974      2.6603e-05        -0.157373       -0.168772      0.000370188      0.00094173
                    -0.000226277     1.10055e-05        -0.971552      -0.0529245      0.000439108     0.000898103        -0.157428       -0.168061
252600                  0.150195       -0.164829     -0.000421741     0.000991772        -0.973072       0.0545621     -0.000281661     5.67716e-05
                    -0.000383671     0.000966776         0.150513       -0.163883     -0.000318039    -4.00137e-06        -0.973463       0.0541143
                       -0.973058        0.054477     -0.000198288     5.61419e-05        -0.167787       -0.146929      0.000442562     0.000899355
                      -0.0002216     2.90166e-05        -0.973247       0.0541696      0.000509192     0.000861737        -0.167815       -0.146203
252800                  0.125003       -0.174804     -0.000300461      0.00105036        -0.962976        0.161466     -0.000280767     9.61524e-05
                    -0.000233665     0.000984691          0.12547       -0.173908     -0.000320876      3.2806e-05        -0.963403        0.161055
                       -0.962984        0.161397     -0.000178704     8.17019e-05        -0.175274         -0.1244       0.00051057     0.000851235
                    -0.000214721     4.52715e-05         -0.96316        0.161118      0.000576518     0.000819557        -0.175269       -0.123653
253000                 0.0995911       -0.180847     -0.000170095       0.0010919        -0.941128         0.26696     -0.000274439     0.000135607
                     -8.8731e-05     0.000980353         0.100196       -0.180021     -0.000317712     7.00468e-05        -0.941576        0.266569
                       -0.941158        0.266917     -0.000156888     0.000103247         -0.17978       -0.101563      0.000573879     0.000797843
                    -0.000205756     5.97499e-05        -0.941317        0.266628      0.000640737     0.000771292        -0.179738       -0.100793
253200                 0.0745808       -0.183058     -3.28847e-05      0.00111429        -0.907685        0.369747     -0.000262135     0.000174407
                     4.80711e-05     0.000956916        0.0753108       -0.182319     -0.000307677     0.000106902        -0.908148         0.36936
                       -0.907732        0.369739     -0.000133405     0.000120793        -0.181299      -0.0788049      0.000632204      0.00073963
                    -0.000194815     7.24272e-05        -0.907885        0.369409       0.00070133     0.000716643        -0.181213      -0.0780122
253400                 0.0505642       -0.181633       0.00010837      0.00111569        -0.862948        0.468543     -0.000243338     0.000211615
                     0.000174845     0.000917618        0.0514059       -0.180999     -0.000289778     0.000142175        -0.863427        0.468145
                       -0.863002        0.468577     -0.000108737     0.000134368        -0.179875      -0.0565105      0.000685291     0.000677017
                       -0.000182     8.32701e-05        -0.863174        0.468184      0.000757584     0.000655325         -0.17974      -0.0556967
253600                  0.028091        -0.17686      0.000250298      0.00109464        -0.807362        0.562092     -0.000217606     0.000246028
                     0.000290634     0.000865472        0.0290294       -0.176348     -0.000262944     0.000174096        -0.807865        0.561676
                       -0.807412        0.562169     -8.33102e-05     0.000143989        -0.175599      -0.0350589      0.000732907     0.000610398
                    -0.000167401     9.22308e-05        -0.807631        0.561705      0.000808563     0.000587121        -0.175409      -0.0342278
253800                0.00765367       -0.169115      0.000388998      0.00105027        -0.741516        0.649183     -0.000184649     0.000276136
                     0.000395164     0.000803098        0.0086717       -0.168741     -0.000226175      0.00020004        -0.742053        0.648746
                       -0.741547          0.6493      -5.7526e-05     0.000149646         -0.16861      -0.0148172      0.000774818     0.000540141
                    -0.000151104     9.92416e-05        -0.741844        0.648771      0.000853095      0.00051196        -0.168361      -0.0139743
254000                -0.0103259       -0.158848      0.000520129     0.000982484        -0.666135        0.728668      -0.00014445      0.00030008
                     0.000488614     0.000732651      -0.00924838       -0.158628     -0.000178898     0.000216153        -0.666719        0.728213
                       -0.666136        0.728814     -3.17934e-05     0.000151294        -0.159093      0.00386534       0.00081078     0.000466598
                     -0.00013319     0.000104209        -0.666538        0.728241      0.000889777     0.000430009        -0.158785      0.00471376
254200                -0.0255085       -0.146572      0.000639088     0.000892145        -0.582077        0.799474     -9.74316e-05      0.00031564
                     0.000571422     0.000655833       -0.0243953        -0.14652     -0.000121725     0.000216969        -0.582719        0.799015
                        -0.58204        0.799637     -6.56345e-06     0.000148858         -0.14728       0.0206633      0.000840521     0.000390115
                    -0.000113738     0.000107005        -0.582566         0.79905      0.000917011     0.000341776        -0.146914       0.0215112
254400                 -0.037648       -0.132854      0.000741246     0.000781212        -0.490327        0.860627     -4.46864e-05     0.000320282
                      0.00064414     0.000573925       -0.0365271       -0.132982     -5.79069e-05     0.000195303        -0.491034        0.860179
                       -0.490248        0.860788      1.76328e-05     0.000142244        -0.133444       0.0352811      0.000863733     0.000311046
                    -9.28335e-05     0.000107462        -0.490906        0.860226       0.00093308     0.000248226        -0.133022       0.0361231
254600                -0.0466004       -0.118294      0.000822272     0.000652817        -0.391983        0.911258      1.17536e-05     0.000311316
                     0.000707324      0.00048785       -0.0455036       -0.118608      4.39398e-06     0.000143247        -0.392757        0.910843
                       -0.391864        0.911399      4.01456e-05     0.000131371        -0.117896        0.047458       0.00088006     0.000229772
                    -7.05753e-05     0.000105357        -0.392647        0.910904      0.000936285     0.000150877        -0.117423       0.0482906
254800                -0.0523295       -0.103511      0.000878473      0.00051123        -0.288243        0.950624      6.86352e-05     0.000286215
                     0.000761463     0.000398238       -0.0512917       -0.104012       4.9747e-05     5.57106e-05        -0.289081        0.950264
                       -0.288094        0.950727      6.01689e-05     0.000116213        -0.100982       0.0569736      0.000889093     0.000146727
                    -4.70883e-05     0.000100406        -0.288983        0.950339      0.000925129     5.18663e-05        -0.100463       0.0577956
255000                -0.0549101      -0.0891217      0.000907154     0.000361697        -0.180396        0.978118      0.000121289     0.000243154
                     0.000806917     0.000305482       -0.0539684      -0.0898057      5.61263e-05    -6.25193e-05        -0.181288        0.977837
                       -0.180231        0.978169      7.67077e-05      9.6871e-05       -0.0830771       0.0636526      0.000890367     6.24255e-05
                    -2.25437e-05     9.22465e-05        -0.181196        0.977921      0.000898554    -4.60635e-05       -0.0825173       0.0644653
255200                -0.0545285      -0.0757259      0.000906907     0.000210161       -0.0698021        0.993281      0.000163679     0.000181781
                     0.000843886     0.000209801       -0.0537202      -0.0765781      3.57511e-06    -0.000189748       -0.0707334        0.993097
                      -0.0696429        0.993268      8.85647e-05     7.36746e-05        -0.064579        0.067368      0.000883362    -2.25015e-05
                     2.81357e-06     8.04197e-05       -0.0706427        0.993185      0.000856186     -0.00013967       -0.0639829       0.0681754
255400                -0.0514787      -0.0638823      0.000877811       6.288e-05        0.0421219        0.995807      0.000188895     0.000104089
                     0.000872367     0.000111294       -0.0508392      -0.0648805     -0.000110187    -0.000290815        0.0411715        0.995738
                       0.0422528        0.995729      9.43611e-05     4.73143e-05       -0.0459032       0.0680448      0.000867521    -0.000107266
                     2.86208e-05      6.4356e-05        0.0412634        0.995822      0.000798548    -0.000225431       -0.0452732       0.0688532
255600                -0.0461561      -0.0540919      0.000821483    -7.40067e-05         0.153923        0.985556      0.000190221     1.51041e-05
                     0.000892128     9.99375e-06       -0.0457166      -0.0552057     -0.000262428    -0.000335839         0.152977        0.985614
                        0.154002        0.985417      9.26197e-05     1.90018e-05       -0.0274751       0.0656618      0.000842267    -0.000190875
                     5.43333e-05     4.33566e-05         0.153069        0.985685      0.000727177    -0.000299856       -0.0268107       0.0664792
255800                -0.0390467      -0.0467797      0.000740983    -0.000194902         0.264131        0.962553      0.000162699    -7.70272e-05
                      0.00090267    -9.40706e-05       -0.0388326      -0.0479717     -0.000418608    -0.000317507         0.263213        0.962744
                        0.264134        0.962367       8.1941e-05    -9.36784e-06      -0.00972303       0.0602526      0.000807049    -0.000272077
                     7.91251e-05     1.65842e-05         0.263302        0.962795      0.000644609    -0.000359851      -0.00902028       0.0610879
256000                -0.0307143      -0.0422793      0.000640586    -0.000295108         0.371274        0.926993      0.000104734    -0.000161918
                     0.000903194      -0.0002008       -0.0307431      -0.0435062     -0.000552274    -0.000248956         0.370408        0.927318
                        0.371184        0.926779      6.12941e-05    -3.51037e-05       0.00692857       0.0519055      0.000761398    -0.000349307
                     0.000101741    -1.69253e-05         0.370488        0.927345      0.000554198    -0.000403039       0.00767743       0.0527674
256200                -0.0217842      -0.0408193      0.000525468    -0.000371066         0.473905        0.879242      1.90682e-05    -0.000228734
                     0.000892555    -0.000309928       -0.0220643       -0.042034     -0.000652445    -0.000149778         0.473113        0.879695
                        0.473709        0.879026      3.04187e-05     -5.4733e-05        0.0220665       0.0407624      0.000705019    -0.000420634
                     0.000120274     -5.8201e-05         0.473175        0.879695      0.000459818    -0.000427988        0.0228732       0.0416583
