! TOUCHSTONE file generated by CST MICROWAVE STUDIO
! Date and time: Sun Sep 28 19:09:15 2025
! Project name: biblioteca3_folgaOK.cst
! Parameters = {H=600; Lx=200; Ly=260; Nedge=24; P=520; mesh_pilar_nm=40; t_air=3800; t_sub=6000}
! Header version: 2018
! Port assignment regex: !\s*Touchstone port\s*([0-9]+)\s*=\s*(CST MWS port|CST DS port)\s*([0-9]+|Zmin|Zmax)\s*\(\"(.*)\"\)(\s*mode\s*([0-9]+))?.*
! Touchstone port assignment:
! Touchstone port 1 = CST MWS port Zmin ("") mode 1
! Touchstone port 2 = CST MWS port Zmin ("") mode 2
! Touchstone port 3 = CST MWS port Zmax ("") mode 1
! Touchstone port 4 = CST MWS port Zmax ("") mode 2
! S-Parameters are not renormalized. Each port impedance will be approximated by the real part at minimum frequency. The values are described via the [Reference] keyword.
! Default impedance is overridden by [Reference]
[Version] 2.0
# GHz S RI R 376.73
[Number of Ports] 4
[Reference]
376.73 376.73 376.73 376.73 
[Number of Frequencies] 401
[Network Data]
250000                  0.315883        0.218796      0.000591389      4.6807e-05         0.289898        0.876582       0.00159596     0.000736031
                     0.000726426     2.66735e-06         0.104801       0.0231137       0.00146875     0.000562826        -0.938587        0.327668
                         0.29012        0.876601       0.00137718     0.000663118         0.123237       -0.364003      0.000261879    -0.000133812
                      0.00141938     0.000717681        -0.938464        0.327566      0.000294013    -0.000170002       -0.0676263       0.0833404
250200                  0.338744        0.185628      0.000600002     -3.4358e-06         0.386771        0.837666       0.00162734     0.000585317
                     0.000678526    -0.000102672         0.102871       0.0256715       0.00152616     0.000436728        -0.899066         0.42431
                        0.386841        0.837518       0.00142394     0.000511609         0.079986       -0.377957      0.000206249    -0.000130306
                      0.00150746     0.000619432        -0.899816         0.42393      0.000251333    -0.000191193       -0.0458969        0.095615
250400                  0.357319        0.149727      0.000604353     -5.8916e-05          0.47876        0.788309       0.00165082     0.000429792
                     0.000617833    -0.000193377         0.102389       0.0286683       0.00157523     0.000300177        -0.849435        0.516326
                        0.478688        0.788093       0.00145905     0.000353228        0.0345982       -0.385972      0.000152977    -0.000120758
                      0.00159175     0.000504692        -0.850847        0.515916      0.000203977    -0.000209847       -0.0222832        0.103974
250600                  0.371224        0.111712      0.000602916    -0.000119805         0.564814        0.729097       0.00166558     0.000269655
                     0.000548323    -0.000268484          0.10341       0.0318018       0.00161408     0.000153257        -0.790247        0.602611
                        0.564631        0.728886        0.0014814     0.000188817       -0.0120012       -0.387635      0.000102528    -0.000105923
                      0.00166923      0.00037244        -0.792103        0.602333      0.000151699    -0.000225046       0.00253485        0.108109
250800                  0.380173       0.0722645      0.000593775    -0.000185951         0.643947        0.660699       0.00167072     0.000105199
                     0.000473614    -0.000328046         0.105931       0.0347674       0.00164067    -3.65357e-06        -0.722183        0.682133
                        0.643693        0.660544       0.00148997     1.93797e-05       -0.0587994       -0.382696       5.5148e-05    -8.65122e-05
                      0.00173626     0.000222223        -0.724273        0.682075      9.43731e-05    -0.000235673        0.0278252        0.107839
251000                  0.383987       0.0321092       0.00057463    -0.000256664         0.715235        0.583865       0.00166532    -6.31739e-05
                     0.000396774    -0.000372847         0.109897       0.0372692       0.00165276    -0.000169807         -0.64604         0.75395
                        0.714952        0.583791       0.00148379    -0.000153919        -0.104728       -0.371086        1.091e-05    -6.31561e-05
                      0.00178875     5.43946e-05        -0.648179        0.754136       3.2074e-05    -0.000240399        0.0528301        0.103119
251200                  0.382606     -0.00800136      0.000542878    -0.000330424         0.777821        0.499419       0.00164836    -0.000234933
                     0.000320255    -0.000404122         0.115199       0.0390289       0.00164805    -0.000344003        -0.562719        0.817222
                         0.77755        0.499433       0.00146202    -0.000329761        -0.148698       -0.352928     -3.02526e-05    -3.63668e-05
                      0.00182235    -0.000129658        -0.564756        0.817627     -3.48282e-05    -0.000237692        0.0767924       0.0940369
251400                  0.376085      -0.0473083      0.000495882     -0.00040454         0.830916        0.408262       0.00161881    -0.000409393
                      0.00024592    -0.000423333         0.121684       0.0397944        0.0016242    -0.000524513        -0.473209        0.871224
                        0.830689        0.408358       0.00142394    -0.000506685        -0.189639       -0.328544     -6.85058e-05    -6.51898e-06
                       0.0018327    -0.000327334        -0.475034         0.87179     -0.000105551     -0.00022586        0.0989821       0.0808162
251600                  0.364604      -0.0850665      0.000431485    -0.000474858           0.8738         0.31137        0.0015756    -0.000585694
                      0.00017512    -0.000431998         0.129157       0.0393464       0.00157897    -0.000709013         -0.37857        0.915352
                        0.873641         0.31153         0.001369    -0.000683105        -0.226539       -0.298447      -0.00010408     2.61655e-05
                      0.00181592    -0.000534756        -0.380116        0.916003      -0.00017877    -0.000203155          0.11872       0.0638037
251800                  0.348456       -0.120564      0.000348834    -0.000535708         0.905834        0.209796       0.00151766    -0.000762772
                     0.000108788     -0.00043159         0.137394       0.0375037       0.00151039    -0.000894547        -0.279917        0.949133
                        0.905754        0.209998       0.00129682    -0.000857334        -0.258477       -0.263332     -0.000137239     6.16308e-05
                      0.00176897    -0.000746859        -0.281156        0.949786     -0.000252509    -0.000167935           0.1354       0.0434575
252000                  0.328048       -0.153143      0.000249377    -0.000580352         0.926463        0.104669       0.00144393    -0.000939335
                     4.75383e-05    -0.000423466         0.146141       0.0341273       0.00141694     -0.00107753        -0.178405        0.972225
                        0.926465        0.104887       0.00120724     -0.00102762         -0.28466       -0.224055      -0.00016825     0.000100004
                      0.00169014    -0.000957673        -0.179345        0.972804      -0.00032407     -0.00011892         0.148504       0.0203301
252200                  0.303886       -0.182215      0.000137698    -0.000602158          0.93523     -0.00280717       0.00135341     -0.00111384
                    -8.24556e-06     -0.00040885          0.15513       0.0291227       0.00129772     -0.00125383       -0.0752094        0.984419
                        0.935307     -0.00259538       0.00110034     -0.00119216        -0.304452       -0.181609     -0.000197345     0.000141618
                       0.0015793     -0.00116077       -0.0758846        0.984864     -0.000390081    -5.55066e-05          0.15762     -0.00494994
252400                  0.276567       -0.207277       2.1572e-05    -0.000596398         0.931785       -0.111356       0.00124521     -0.00128447
                    -5.83404e-05     -0.00038882         0.164083       0.0224408       0.00115271     -0.00141886        0.0284896        0.985642
                        0.931922       -0.111169      0.000976396      -0.0013492        -0.317395       -0.137092     -0.000224685     0.000187047
                      0.00143801      -0.0013498        0.0280241        0.985911     -0.000446684     2.18849e-05         0.162447      -0.0316987
252600                  0.246761       -0.227931      -8.9214e-05    -0.000562024         0.915904       -0.219633       0.00111859     -0.00144912
                    -0.000102624    -0.000364324         0.172718       0.0140786      0.000982859     -0.00156782         0.131521        0.975946
                         0.91608       -0.219483      0.000835955     -0.00149702         -0.32323      -0.0916775     -0.000250288     0.000237156
                      0.00126942     -0.00151907           0.1312        0.976022     -0.000489924      0.00011154         0.162802      -0.0591974
252800                  0.215194       -0.243887     -0.000185095    -0.000502459         0.887498       -0.326235      0.000973036     -0.00160539
                    -0.000141031      -0.0003362         0.180757      0.00407743      0.000790255     -0.00169597         0.232738        0.955513
                        0.887692       -0.326127      0.000679777     -0.00163402        -0.321906      -0.0465731     -0.000273925     0.000293173
                      0.00107791     -0.00166401         0.232495        0.955402     -0.000516284     0.000210349         0.158623      -0.0867127
253000                  0.182634       -0.254979     -0.000259076    -0.000424818         0.846632       -0.429712      0.000808356     -0.00175059
                    -0.000173521    -0.000305199         0.187936      -0.0074786      0.000578101     -0.00179895         0.331032         0.92464
                        0.846822       -0.429642      0.000508837     -0.00175878        -0.313584     -0.00298745     -0.000294934     0.000356768
                     0.000868658     -0.00178142         0.330806        0.924369     -0.000523287     0.000313992         0.149967       -0.113516
253200                  0.149865       -0.261167      -0.00030806    -0.000337919         0.793542        -0.52858      0.000624733     -0.00188178
                    -0.000200056    -0.000272012         0.194005      -0.0204656      0.000350626     -0.00187309          0.42534        0.883737
                         0.79371       -0.528539      0.000324293     -0.00187012        -0.298641       0.0379098     -0.000311905     0.000430135
                     0.000647074     -0.00186954         0.425085        0.883352     -0.000509967     0.000417402         0.137003       -0.138904
253400                  0.117668       -0.262543     -0.000332723    -0.000250116         0.728646       -0.621345      0.000422834     -0.00199579
                    -0.000220589    -0.000237305         0.198739      -0.0347234      0.000112872     -0.00191572         0.514663        0.833319
                        0.728779       -0.621317      0.000127448     -0.00196719        -0.277657       0.0750249      -0.00032212     0.000515995
                     0.000418403     -0.00192797         0.514346        0.832878     -0.000477091      0.00051545         0.120009        -0.16221
253600                 0.0867999       -0.259325      -0.00033635    -0.000167866         0.652558       -0.706523      0.000203899     -0.00208934
                    -0.000235056    -0.000201747         0.201938      -0.0500596     -0.000129621     -0.00192538         0.598065        0.773993
                        0.652649       -0.706491     -8.03017e-05     -0.00204953        -0.251401        0.107376     -0.000320634     0.000617314
                     0.000187362     -0.00195735         0.597678        0.773559     -0.000427009     0.000603638        0.0993597       -0.182825
253800                 0.0579707       -0.251861     -0.000323419    -9.52919e-05         0.566098       -0.782674     -3.01859e-05      -0.0021591
                    -0.000243384    -0.000166044         0.203435      -0.0662546     -0.000371174     -0.00190189         0.674688        0.706453
                        0.566147       -0.782617     -0.000297535     -0.00211722        -0.220818         0.13413     -0.000298891      0.00073625
                    -4.20449e-05     -0.00195913         0.674244         0.70609     -0.000363219     0.000678633        0.0755171       -0.200208
254000                 0.0318212        -0.24061     -0.000298493    -3.44572e-05         0.470289       -0.848427     -0.000276828     -0.00220187
                    -0.000245504    -0.000130976         0.203097      -0.0830663     -0.000606347     -0.00184634         0.743755        0.631469
                        0.470304        -0.84833     -0.000522885     -0.00217102        -0.186993         0.15463     -0.000243271     0.000871287
                    -0.000266587     -0.00193517         0.743289        0.631231     -0.000289772     0.000738503         0.049019       -0.213898
254200                0.00890309       -0.226138     -0.000265589     1.40595e-05         0.366363       -0.902523     -0.000532699     -0.00221472
                    -0.000241379    -9.74321e-05          0.20083       -0.100236     -0.000830269     -0.00176089         0.804576        0.549877
                        0.366357        -0.90237     -0.000755137      -0.0022126        -0.151125        0.168425     -0.000135595      0.00101116
                    -0.000483769     -0.00188753         0.804142        0.549805     -0.000210699     0.000782675        0.0204652       -0.223522
254400                -0.0103397       -0.209101     -0.000227956     5.05839e-05         0.255746       -0.943843     -0.000793751     -0.00219515
                    -0.000231055    -6.64399e-05         0.196576       -0.117493      -0.00103888     -0.00164856         0.856551        0.462569
                        0.255738       -0.943627     -0.000993347     -0.00224494        -0.114489        0.175294      3.88869e-05      0.00112667
                    -0.000691719     -0.00181826         0.856219        0.462681     -0.000129589     0.000811672      -0.00949664       -0.228803
254600                -0.0255869       -0.190221     -0.000188092     7.58983e-05         0.140045        -0.97145      -0.00105529     -0.00214136
                    -0.000214721    -3.91915e-05          0.19032       -0.134562      -0.00122908     -0.00151292         0.899175        0.370486
                        0.140055        -0.97117      -0.00123696     -0.00227303       -0.0783864        0.175256      0.000270951      0.00117144
                    -0.000889049     -0.00172924         0.899023         0.37077     -4.93474e-05      0.00082677       -0.0401854       -0.229566
254800                -0.0366539       -0.170263     -0.000147871     9.09462e-05        0.0210202       -0.984622      -0.00131209     -0.00205236
                    -0.000192808    -1.70457e-05         0.182086       -0.151168      -0.00139875     -0.00135775         0.932038        0.274606
                       0.0210698       -0.984283       -0.0014859     -0.00230508       -0.0441045        0.168582      0.000510001      0.00111052
                     -0.00107471     -0.00162212         0.932145        0.275018      2.78634e-05     0.000829657       -0.0709019       -0.225743
255000                -0.0434995       -0.150014     -0.000108709     9.66626e-05        -0.099445       -0.982877      -0.00155858     -0.00192813
                    -0.000166107    -1.49627e-06         0.171938       -0.167042      -0.00154668     -0.00118677         0.954827        0.175937
                      -0.0993375       -0.982494      -0.00174036     -0.00235511       -0.0128625        0.155789      0.000689042     0.000959937
                     -0.00124784     -0.00149832         0.955257        0.176393      0.000100572     0.000822159        -0.100944       -0.217368
255200                -0.0462279       -0.130252     -7.17138e-05     9.38924e-05        -0.219383       -0.966006      -0.00178911     -0.00176975
                    -0.000135897     5.91846e-06         0.159976       -0.181927      -0.00167247     -0.00100346          0.96733       0.0755072
                       -0.219203       -0.965598      -0.00199961     -0.00244824        0.0142371        0.137625      0.000777676     0.000777253
                     -0.00140766     -0.00135902         0.968114       0.0758867      0.000167881     0.000806055        -0.129624       -0.204586
255400                -0.0450859       -0.111715     -3.78141e-05     8.33652e-05        -0.336786       -0.934084      -0.00199814     -0.00157944
                    -0.000104072      3.7859e-06          0.14634       -0.195584      -0.00177631    -0.000810822          0.96943      -0.0256423
                       -0.336526       -0.933674      -0.00225618     -0.00263302        0.0362565        0.115049      0.000792073     0.000612351
                     -0.00155339     -0.00120522         0.970543      -0.0254842      0.000229334     0.000782958         -0.15628        -0.18764
255600                -0.0404528      -0.0950794     -7.86671e-06     6.57066e-05        -0.449654        -0.88748      -0.00218059     -0.00136046
                    -7.32111e-05    -8.91451e-06         0.131199       -0.207793      -0.00185876    -0.000611355         0.961113       -0.126467
                       -0.449315       -0.887094      -0.00246987     -0.00301004        0.0524649       0.0891907      0.000764049     0.000484933
                     -0.00168411     -0.00103779         0.962454        -0.12667      0.000284787     0.000754269        -0.180293       -0.166875
255800                -0.0328259      -0.0809317        1.726e-05     4.14736e-05        -0.556047       -0.826855      -0.00233206     -0.00111706
                    -4.65174e-05    -3.24633e-05         0.114755       -0.218364      -0.00192061    -0.000406993         0.942461       -0.225926
                       -0.555635       -0.826519      -0.00244045      -0.0037795        0.0623735       0.0613092      0.000718428     0.000394173
                     -0.00179882    -0.000857578         0.943851       -0.226578        0.0003343     0.000721165        -0.201104       -0.142723
256000                -0.0228002      -0.0697466       3.6619e-05     1.12097e-05         -0.65413       -0.753152      -0.00244902    -0.000854216
                    -2.75739e-05    -6.60343e-05        0.0972326       -0.227137      -0.00196261    -0.000199151         0.913654        -0.32299
                       -0.653661        -0.75289      -0.00128004     -0.00496406        0.0657591       0.0327363      0.000669174     0.000332252
                     -0.00189633    -0.000665464         0.914878       -0.324075      0.000378057     0.000684608        -0.218221       -0.115701
256200                -0.0110431      -0.0618711      4.91351e-05    -2.44809e-05        -0.742222       -0.667574      -0.00252899    -0.000577436
                     -1.9867e-05    -0.000107431        0.0788793       -0.233983      -0.00198535     1.11966e-05         0.874966       -0.416651
                       -0.741717       -0.667403       0.00158876     -0.00403165         0.062676      0.00482104      0.000622737     0.000291133
                     -0.00197528    -0.000462457         0.875843       -0.418039      0.000416302     0.000645375        -0.231235      -0.0863953
