! TOUCHSTONE file generated by CST MICROWAVE STUDIO
! Date and time: Sun Sep 28 17:20:12 2025
! Project name: biblioteca3_folgaOK.cst
! Parameters = {H=600; Lx=200; Ly=260; Nedge=20; P=520; k=0; mesh_pilar_nm=40; n=0; t_air=3800; t_sub=3000; wavelength_nm=0}
! Header version: 2018
! Port assignment regex: !\s*Touchstone port\s*([0-9]+)\s*=\s*(CST MWS port|CST DS port)\s*([0-9]+|Zmin|Zmax)\s*\(\"(.*)\"\)(\s*mode\s*([0-9]+))?.*
! Touchstone port assignment:
! Touchstone port 1 = CST MWS port Zmin ("") mode 1
! Touchstone port 2 = CST MWS port Zmin ("") mode 2
! Touchstone port 3 = CST MWS port Zmax ("") mode 1
! Touchstone port 4 = CST MWS port Zmax ("") mode 2
! S-Parameters are not renormalized. Each port impedance will be approximated by the real part at minimum frequency. The values are described via the [Reference] keyword.
! Default impedance is overridden by [Reference]
[Version] 2.0
# GHz S RI R 376.73
[Number of Ports] 4
[Reference]
376.73 376.73 376.73 376.73 
[Number of Frequencies] 401
[Network Data]
250000                -0.0208426         0.17346      -0.00112934     0.000200453        -0.546762        0.818864      0.000348516      0.00184222
                     -0.00116124     0.000197082         0.236493       0.0285384      0.000298772       0.0019694        -0.797868       -0.553805
                       -0.546925        0.819196      0.000307647      0.00204983         0.152213      -0.0857333       0.00110493      -5.293e-05
                     0.000366306      0.00176944        -0.797472       -0.553884      0.000995391    -6.64411e-05        -0.109429       -0.211614
250200                -0.0072072        0.186461      -0.00112734     0.000297454        -0.471952        0.861965      0.000500719      0.00182859
                     -0.00116509     0.000304136         0.233303       0.0192295      0.000467796      0.00196456        -0.836985       -0.495105
                       -0.472188        0.862096      0.000492821      0.00203914         0.152609       -0.105562       0.00115607    -0.000144307
                     0.000516634      0.00176435        -0.836606        -0.49536       0.00102365    -0.000165829         -0.12932       -0.195638
250400                0.00809617           0.198      -0.00111725     0.000398093        -0.393684        0.898125       0.00065439      0.00180223
                     -0.00115853     0.000414441         0.229634        0.010371      0.000641585      0.00194519        -0.871769       -0.433494
                       -0.393982        0.898133      0.000678079      0.00200832         0.150305       -0.126493       0.00120056    -0.000249006
                     0.000669951      0.00174525        -0.871443       -0.433865       0.00104405    -0.000272754        -0.147135       -0.177493
250600                 0.0248664        0.207883      -0.00109822     0.000501652         -0.31265        0.927082      0.000808373      0.00176272
                     -0.00114085     0.000526813         0.225534      0.00199629      0.000818646      0.00190997        -0.901999       -0.369301
                       -0.312987        0.927031      0.000860608      0.00195741         0.145001       -0.148136       0.00123552    -0.000367117
                     0.000824759      0.00171149        -0.901749       -0.369731       0.00105516     -0.00038678        -0.162611       -0.157466
250800                 0.0428813        0.215948      -0.00106946     0.000607246        -0.229553         0.94865      0.000961434      0.00170973
                     -0.00111149     0.000639924         0.221052     -0.00586629      0.000997187      0.00185775        -0.927482        -0.30287
                       -0.229899        0.948588       0.00103766      0.00188698         0.136459       -0.170026       0.00125774    -0.000498058
                     0.000979448      0.00166261        -0.927315       -0.303307       0.00105548    -0.000507216        -0.175531       -0.135876
251000                 0.0619041        0.222069      -0.00103028      0.00071382          -0.1451        0.962716       0.00111228      0.00164307
                     -0.00107012     0.000752335         0.216242      -0.0131934       0.00117513      0.00178761         -0.94805       -0.234558
                       -0.145422        0.962674       0.00120665      0.00179802         0.124523       -0.191638       0.00126389    -0.000640404
                      0.00113233      0.00159837        -0.947962       -0.234955       0.00104355    -0.000633072        -0.185724       -0.113065
251200                 0.0816898        0.226157     -0.000980082     0.000820152       -0.0599916        0.969241       0.00125957      0.00156268
                     -0.00101659     0.000862531         0.211157      -0.0199669       0.00135016      0.00169893         -0.96356       -0.164734
                      -0.0602563        0.969237       0.00136529      0.00169196         0.109135       -0.212407       0.00125078    -0.000791774
                       0.0012817      0.00151876        -0.963538       -0.165054       0.00101793    -0.000763041         -0.19307      -0.0893932
251400                  0.101991        0.228155     -0.000918459     0.000924869        0.0250821         0.96825       0.00140195      0.00146865
                     -0.00095101     0.000968964         0.205852      -0.0261742       0.00151974      0.00159148          -0.9739       -0.093776
                       0.0249047        0.968289       0.00151159      0.00157056        0.0903423       -0.231746       0.00121564    -0.000948809
                       0.0014258      0.00142398        -0.973924      -0.0939901      0.000977309     -0.00089548          -0.1975       -0.065226
251600                  0.122562        0.228039     -0.000845191      0.00102647          0.10945        0.959832       0.00153802      0.00136124
                    -0.000873722       0.0010701         0.200382      -0.0318081       0.00168123      0.00146543        -0.978983      -0.0220716
                        0.109385        0.959911       0.00164399      0.00143581        0.0683055       -0.249072       0.00115652     -0.00110729
                      0.00156298      0.00131447        -0.979028      -0.0221604      0.000920607     -0.00102841         -0.19899      -0.0409318
251800                  0.143163        0.225818     -0.000760295      0.00112338         0.192466        0.944138       0.00166643      0.00124082
                    -0.000785306      0.00116446         0.194805      -0.0368668       0.00183193      0.00132145         -0.97875       0.0499866
                        0.192531        0.944243        0.0017613      0.00128983        0.0432925       -0.263827       0.00107261      -0.0012624
                      0.00169159      0.00119088         -0.97879       0.0500337      0.000847031     -0.00115956        -0.197567      -0.0168735
252000                  0.163566        0.221523     -0.000664049      0.00121394         0.273508        0.921368       0.00178583      0.00110795
                    -0.000686557      0.00125068         0.189174      -0.0413539       0.00196923      0.00116068        -0.973173        0.122002
                        0.273716        0.921484       0.00186274      0.00113479         0.015673       -0.275503      0.000964366     -0.00140912
                      0.00181014      0.00105404        -0.973182        0.122187      0.000756173     -0.00128639        -0.193299      0.00659662
252200                  0.183554        0.215214     -0.000557007      0.00129655          0.35199        0.891774       0.00189493     0.000963309
                    -0.000578463      0.00132752         0.183545      -0.0452782       0.00209069     0.000984748        -0.962252        0.193573
                        0.352344         0.89188       0.00194792      0.00097284       -0.0140945       -0.283661      0.000833623     -0.00154265
                      0.00191722     0.000904961        -0.962204        0.193891      0.000648091     -0.00140619        -0.186297       0.0291417
252400                  0.202923         0.20697     -0.000440001      0.00136962         0.427356        0.855651        0.0019925      0.00080774
                     -0.00046217      0.00139392         0.177969      -0.0486537       0.00219415      0.00079572        -0.946015        0.264302
                        0.427853        0.855725       0.00201677     0.000806016         -0.04548       -0.287948       0.00068338     -0.00165892
                       0.0020116     0.000744785         -0.94589         0.26474      0.000523362     -0.00151617         -0.17671       0.0504446
252600                  0.221486        0.196888     -0.000314131      0.00143173         0.499089        0.813333       0.00207738     0.000642203
                    -0.000338946      0.00144901         0.172498      -0.0514994       0.00227786     0.000596027        -0.924522        0.333788
                         0.49972        0.813356       0.00206949     0.000636212       -0.0779003       -0.288103      0.000517508     -0.00175484
                      0.00209217     0.000574771        -0.924301         0.33433      0.000383112     -0.00161361        -0.164722       0.0702109
252800                  0.239071        0.185081     -0.000180737      0.00148161         0.566708        0.765189       0.00214852     0.000467785
                    -0.000210137      0.00149211          0.16718      -0.0538386       0.00234048     0.000388378         -0.89786        0.401636
                        0.567457        0.765144       0.00210651      0.00046514        -0.110739       -0.283965      0.000340329     -0.00182855
                        0.002158     0.000396259        -0.897531        0.402261       0.00022901     -0.00169595        -0.150546       0.0881723
253000                  0.255524        0.171677     -4.13608e-05      0.00151822          0.62977        0.711621       0.00220496     0.000285682
                    -7.71312e-05      0.00152277         0.162061      -0.0556995        0.0023812     0.000175656        -0.866148        0.467456
                        0.630618        0.711492       0.00212844     0.000294314        -0.143365       -0.275479      0.000156197     -0.00187936
                      0.00220832      0.00021065        -0.865702        0.468142      6.32241e-05     -0.00176096        -0.134425        0.104089
253200                  0.270706        0.156813      0.000102308      0.00154079         0.687871        0.653054       0.00224588      9.7187e-05
                     5.86788e-05       0.0015407         0.157183      -0.0571138       0.00239973    -3.92082e-05        -0.829533        0.530865
                        0.688796        0.652832       0.00213601     0.000125046        -0.175152       -0.262683     -3.08553e-05     -0.00190765
                      0.00224251     1.93815e-05        -0.828968        0.531588      -0.00011166     -0.00180683        -0.116626        0.117752
253400                  0.284498        0.140636      0.000248485      0.00154883         0.740647        0.589939       0.00227056    -9.63265e-05
                     0.000195928      0.00154583         0.152585      -0.0581175       0.00239628     -0.00025334        -0.788191        0.591491
                        0.741623        0.589619       0.00213001    -4.15497e-05        -0.205492       -0.245713     -0.000217363     -0.00191458
                      0.00226007    -0.000176093         -0.78751        0.592227     -0.000292751     -0.00183228       -0.0974366        0.128984
253600                  0.296794          0.1233      0.000395358      0.00154214         0.787771        0.522748       0.00227842    -0.000293415
                     0.000333305      0.00153823         0.148302      -0.0587495       0.00237151    -0.000464026        -0.742329        0.648972
                        0.788773        0.522328       0.00211128    -0.000204545        -0.233808       -0.224788     -0.000400552     -0.00190185
                      0.00226066    -0.000374315        -0.741538        0.649699     -0.000476981     -0.00183658        -0.077162        0.137643
253800                  0.307508        0.104966      0.000541138       0.0015208         0.828957        0.451969       0.00226903     -0.00049258
                     0.000469571      0.00151811         0.144365      -0.0590519        0.0023265    -0.000668799         -0.69218        0.702963
                        0.829961        0.451454       0.00208066    -0.000363178         -0.25957       -0.200207     -0.000578361     -0.00187141
                      0.00224404    -0.000573835         -0.69129         0.70366     -0.000661249      -0.0018196       -0.0561217        0.143622
254000                  0.316568       0.0857975      0.000684118      0.00148516         0.863957        0.378106       0.00224206    -0.000692284
                     0.000603574      0.00148582           0.1408      -0.0590695       0.00226265      -0.0008655        -0.638004        0.753133
                         0.86494        0.377504       0.00203897    -0.000516832        -0.282293       -0.172334     -0.000749375     -0.00182528
                      0.00221009    -0.000773213        -0.637029        0.753784     -0.000842551     -0.00178178       -0.0346456        0.146851
254200                   0.32392       0.0659631      0.000822716       0.0014358         0.892563        0.301676       0.00219737    -0.000890958
                     0.000734252      0.00144177          0.13763      -0.0588488       0.00218157     -0.00105231        -0.580089        0.799172
                        0.893503        0.300999       0.00198699     -0.00066502        -0.301556       -0.141593     -0.000912727     -0.00176533
                      0.00215878    -0.000971024        -0.579046        0.799763       -0.0010181     -0.00172405       -0.0130703          0.1473
254400                  0.329526       0.0456324      0.000955508      0.00137348         0.914604        0.223205       0.00213491     -0.00108702
                     0.000860642      0.00138646          0.13487      -0.0584385       0.00208505     -0.00122777        -0.518749        0.840788
                        0.915483        0.222468       0.00192547    -0.000807355        -0.316995       -0.108456      -0.00106797     -0.00169326
                      0.00209016     -0.00116585        -0.517654         0.84131      -0.00118541     -0.00164775       0.00826463        0.144977
254600                  0.333362       0.0249759       0.00108125      0.00129912         0.929948        0.143229       0.00205478     -0.00127888
                     0.000981872      0.00132046         0.132534      -0.0578883       0.00197496     -0.00139078        -0.454319        0.877716
                        0.930754         0.14245       0.00185508    -0.000943535        -0.328317      -0.0734378      -0.00121495     -0.00161047
                      0.00200437      -0.0013563        -0.453191        0.878162      -0.00134237     -0.00155455        0.0290213        0.139928
254800                  0.335423      0.00416366       0.00119887      0.00121375         0.938504       0.0622909       0.00195725     -0.00146495
                      0.00109715      0.00124435         0.130629      -0.0572486       0.00185313     -0.00154055        -0.387157        0.909715
                        0.939225       0.0614889       0.00177645     -0.00107333        -0.335294      -0.0370837       -0.0013537     -0.00151808
                      0.00190161     -0.00154095        -0.386015        0.910083      -0.00148725     -0.00144636        0.0488675        0.132241
255000                  0.335717      -0.0166357       0.00130752      0.00111844         0.940218      -0.0190626       0.00184267     -0.00164366
                      0.00120578      0.00115875         0.129158      -0.0565705        0.0017214     -0.00167662        -0.317643        0.936571
                        0.940848      -0.0198683       0.00169013     -0.00119654        -0.337773      3.6671e-05      -0.00148436     -0.00141695
                      0.00178217      -0.0017184        -0.316503        0.936861      -0.00161874     -0.00132518        0.0674814        0.122044
255200                   0.33427      -0.0372564       0.00140649       0.0010143         0.935075       -0.100281       0.00171155     -0.00181346
                      0.00130712      0.00106427         0.128117      -0.0559047       0.00158146     -0.00179877        -0.246173          0.9581
                        0.935612       -0.101071       0.00159664     -0.00131301        -0.335673        0.037338      -0.00160705      -0.0013077
                      0.00164643     -0.00188722         -0.24505        0.958316      -0.00173589     -0.00119307        0.0845565        0.109504
255400                  0.331122      -0.0575367       0.00149527     0.000902449         0.923101       -0.180814       0.00156455     -0.00197282
                      0.00140059      0.00096156         0.127499      -0.0553014        0.0014349     -0.00190699        -0.173159        0.974148
                        0.923547        -0.18157       0.00149642     -0.00142262        -0.328988       0.0742274      -0.00172188     -0.00119071
                      0.00149486     -0.00204599        -0.172066        0.974297      -0.00183812     -0.00105205        0.0998063       0.0948231
255600                  0.326326      -0.0773203       0.00157348     0.000783959         0.904362       -0.260111       0.00140242     -0.00212027
                      0.00148565     0.000851243         0.127292      -0.0548098       0.00128317     -0.00200145        -0.099026        0.984596
                        0.904721       -0.260816       0.00138986     -0.00152523        -0.317787        0.110113      -0.00182883     -0.00106621
                        0.001328     -0.00219324       -0.0979753        0.984685      -0.00192513    -0.000904073         0.112969       0.0782416
255800                  0.319954      -0.0964575       0.00164086     0.000659863         0.878964       -0.337627       0.00122606     -0.00225437
                      0.00156183     0.000733958         0.127478      -0.0544776       0.00112756     -0.00208246        -0.024211        0.989355
                        0.879243       -0.338266       0.00127733      -0.0016207        -0.302216        0.144413      -0.00192777    -0.000934312
                      0.00114656     -0.00232751       -0.0232102        0.989394      -0.00199689    -0.000750936         0.123813       0.0600316
256000                  0.312088       -0.114806       0.00169725     0.000531139         0.847054        -0.41282       0.00103652     -0.00237372
                      0.00162866     0.000610345         0.128035      -0.0543507      0.000969213      -0.0021504        0.0508429        0.988376
                        0.847264        -0.41338       0.00115913     -0.00170891        -0.282496        0.176564      -0.00201843    -0.000795034
                     0.000951354      -0.0024473        0.0517882        0.988374      -0.00205357    -0.000594312         0.132139       0.0404946
256200                  0.302826       -0.132235       0.00174259     0.000398698          0.80882       -0.485157      0.000834933     -0.00247702
                      0.00168571     0.000481049         0.128938      -0.0544725      0.000809107     -0.00220574         0.125687        0.981642
                        0.808973       -0.485631       0.00103556     -0.00178969        -0.258921        0.206031      -0.00210033    -0.000648373
                     0.000743347     -0.00255112         0.126574        0.981609      -0.00209549    -0.000435709         0.137787       0.0199572
