! TOUCHSTONE file generated by CST MICROWAVE STUDIO
! Date and time: Sun Sep 28 19:32:17 2025
! Project name: biblioteca3_folgaOK.cst
! Parameters = {H=600; Lx=200; Ly=260; Nedge=32; P=520; mesh_pilar_nm=40; t_air=3500; t_sub=4000}
! Header version: 2018
! Port assignment regex: !\s*Touchstone port\s*([0-9]+)\s*=\s*(CST MWS port|CST DS port)\s*([0-9]+|Zmin|Zmax)\s*\(\"(.*)\"\)(\s*mode\s*([0-9]+))?.*
! Touchstone port assignment:
! Touchstone port 1 = CST MWS port Zmin ("") mode 1
! Touchstone port 2 = CST MWS port Zmin ("") mode 2
! Touchstone port 3 = CST MWS port Zmax ("") mode 1
! Touchstone port 4 = CST MWS port Zmax ("") mode 2
! S-Parameters are not renormalized. Each port impedance will be approximated by the real part at minimum frequency. The values are described via the [Reference] keyword.
! Default impedance is overridden by [Reference]
[Version] 2.0
# GHz S RI R 376.73
[Number of Ports] 4
[Reference]
376.73 376.73 376.73 376.73 
[Number of Frequencies] 401
[Network Data]
250000                 -0.239658        0.295273     -0.000712938      0.00112004         0.257303       -0.888354     -0.000192641     0.000615701
                    -0.000637633      0.00109477         -0.11636       0.0335565       0.00054809     0.000655581         0.958726        0.257229
                        0.257253        -0.88826      0.000624119     0.000757954       -0.0447402       -0.377653       0.00142339     0.000157318
                    -0.000278442      0.00065524         0.958452        0.257167       0.00136309     0.000347184        0.0839276       0.0873196
250200                 -0.213453        0.309649     -0.000601582      0.00119408         0.174987       -0.910089     -0.000151016     0.000647408
                    -0.000567533      0.00116727        -0.121056       0.0370278      0.000616441     0.000612738         0.975893        0.178252
                        0.175095       -0.909937      0.000695273     0.000689456       -0.0829859       -0.367606        0.0014648     6.70854e-05
                    -0.000226043     0.000676871         0.975679        0.178099       0.00142428     0.000259087         0.100133       0.0775804
250400                 -0.186078        0.321155     -0.000483003       0.0012582        0.0906346       -0.924411     -0.000104546     0.000677549
                    -0.000487343      0.00123688        -0.125604       0.0413248        0.0006835     0.000560543         0.986484        0.098188
                       0.0908564       -0.924244      0.000759557     0.000613023        -0.119742       -0.352755       0.00150075    -3.06937e-05
                    -0.000170352     0.000696158         0.986295       0.0979727       0.00148134     0.000161302         0.114998       0.0654928
250600                 -0.157886        0.329679     -0.000358009      0.00131169       0.00487363       -0.931107     -5.30046e-05     0.000705494
                     -0.00039672      0.00130223        -0.129903       0.0464288      0.000747798     0.000498525         0.990451       0.0175928
                      0.00516687       -0.930951      0.000815943     0.000529433        -0.154272        -0.33333       0.00152999    -0.000135956
                    -0.000111344     0.000712639         0.990263       0.0173456       0.00153288     5.35599e-05         0.128209       0.0512607
250800                  -0.12924        0.335152     -0.000227473       0.0013539       -0.0816412       -0.930005      3.77497e-06     0.000730523
                    -0.000295499      0.00136175        -0.133855       0.0523096       0.00080765     0.000426458         0.987791      -0.0629805
                      -0.0813141       -0.929873      0.000863507     0.000439603        -0.185887       -0.309691       0.00155114     -0.00024847
                    -4.90477e-05     0.000725799         0.987594      -0.0632319       0.00157733    -6.42336e-05         0.139481       0.0351275
251000                 -0.100503        0.337553     -9.23258e-05      0.00138422        -0.168231       -0.920983      6.58743e-05      0.00075182
                    -0.000183744      0.00141375        -0.137366        0.058927      0.000861196      0.00034444         0.978546       -0.142984
                       -0.167901       -0.920878      0.000901456     0.000344576        -0.213964       -0.282316       0.00156269    -0.000367805
                     1.64435e-05      0.00073508         0.978341       -0.143217       0.00161299    -0.000191939         0.148572       0.0173703
251200                -0.0720423        0.336902      4.64401e-05      0.00140212        -0.254193       -0.903971      0.000133265     0.000768477
                    -6.17991e-05      0.00145641        -0.140349       0.0662308      0.000906471      0.00025296         0.962803        -0.22188
                       -0.253884       -0.903888      0.000929139     0.000245499        -0.237976       -0.251786       0.00156298    -0.000493311
                     8.49559e-05     0.000739887         0.962597       -0.222078       0.00163799     -0.00032913         0.155277     -0.00170592
251400                -0.0442137        0.333267      0.000187776      0.00140713        -0.338803       -0.878955      0.000205778     0.000779507
                     6.96735e-05      0.00148785        -0.142722       0.0741618      0.000941498     0.000152956         0.940693       -0.299143
                       -0.338531       -0.878885       0.00094606     0.000143596        -0.257499       -0.218761       0.00155025    -0.000624122
                      0.00015622      0.00073959         0.940496       -0.299297       0.00165043    -0.000475034         0.159434      -0.0217737
251600                -0.0173646        0.326754      0.000330575      0.00139885        -0.421323       -0.845985      0.000283076      0.00078386
                     0.000209649      0.00150617         -0.14441       0.0826526      0.000964412       4.584e-05         0.912386       -0.374261
                       -0.421095       -0.845914      0.000951885     4.01435e-05        -0.272233        -0.18396       0.00152257    -0.000759215
                     0.000229857     0.000733542         0.912211        -0.37437       0.00164834    -0.000628485         0.160929      -0.0424895
251800                0.00817317        0.317511      0.000473675      0.00137697        -0.500997       -0.805174      0.000364621     0.000780451
                     0.000356718      0.00150955        -0.145348       0.0916283      0.000973591    -6.65108e-05         0.878094       -0.446745
                       -0.500815       -0.805091      0.000946443    -6.35477e-05           -0.282       -0.148133       0.00147787    -0.000897577
                     0.000305359     0.000721095         0.877952       -0.446812       0.00162985    -0.000787883          0.15969      -0.0634992
252000                 0.0320868        0.305724      0.000615859      0.00134124        -0.577064        -0.75671      0.000449651     0.000768196
                     0.000509074      0.00149631        -0.145479        0.101007       0.00096779    -0.000181812         0.838064       -0.516122
                       -0.576924       -0.756604      0.000929727    -0.000166158        -0.286749       -0.112045       0.00141411     -0.00103859
                     0.000382084     0.000701625         0.837964       -0.516157       0.00159326    -0.000951178         0.155694      -0.0844439
252200                 0.0540865        0.291618      0.000755856      0.00129153        -0.648762       -0.700855      0.000537158     0.000746064
                     0.000664533      0.00146501        -0.144752        0.110703      0.000946263    -0.000297471          0.79258       -0.581948
                       -0.648655       -0.700719      0.000901886    -0.000266379        -0.286552      -0.0764463        0.0013299     -0.00118265
                     0.000459241     0.000674557         0.792525       -0.581963       0.00153718     -0.00111588         0.148962       -0.104966
252400                 0.0739098         0.27545      0.000892345       0.0012278        -0.715335       -0.637954      0.000625883     0.000713127
                     0.000820564      0.00141457         -0.14313        0.120623      0.000908837    -0.000410729         0.741957         -0.6438
                       -0.715249       -0.637783      0.000863226    -0.000362926        -0.281596      -0.0420587       0.00122632     -0.00133125
                      0.00053589       0.0006394         0.741946        -0.64381        0.0014606     -0.00127911         0.139561       -0.124712
252600                 0.0913257        0.257511       0.00102396      0.00115012        -0.776045       -0.568433      0.000714319     0.000668631
                     0.000974354      0.00134431        -0.140585        0.130673      0.000855951    -0.000518822         0.686543       -0.701288
                       -0.775968       -0.568226      0.000814197     -0.00045456        -0.272173      -0.0095572       0.00110911     -0.00148439
                      0.00061095     0.000595787         0.686569       -0.701305       0.00136307     -0.00143766         0.127602       -0.143344
252800                  0.106139        0.238122       0.00114929      0.00105868        -0.830179       -0.492804      0.000800736     0.000612056
                      0.00112289      0.00125403        -0.137097        0.140755       0.00078863    -0.000619141         0.626711        -0.75405
                       -0.830098       -0.492567      0.000755391    -0.000540095         -0.25867       0.0204436      0.000986023     -0.00163526
                     0.000683208     0.000543506         0.626765       -0.754083       0.00124477     -0.00158817         0.113237       -0.160537
253000                  0.118195        0.217629       0.00126689     0.000953821        -0.877064       -0.411667      0.000883224      0.00054318
                      0.00126308       0.0011441        -0.132658        0.150769      0.000708413    -0.000709385         0.562862       -0.801754
                       -0.876966       -0.411406      0.000687531    -0.000618416        -0.241558       0.0474006      0.000858476      -0.0017719
                     0.000751352     0.000482545         0.562931        -0.80181       0.00110657     -0.00172724        0.0966595       -0.175989
253200                  0.127384          0.1964       0.00137531     0.000836021        -0.916074       -0.325705      0.000959754     0.000462137
                      0.00139181      0.00101543        -0.127272        0.160616      0.000617242    -0.000787666         0.495419       -0.844106
                       -0.915952       -0.325431      0.000611471    -0.000688485        -0.221378       0.0708513      0.000721283     -0.00188682
                     0.000814003     0.000413122         0.495489       -0.844185      0.000950034      -0.0018516        0.0780978       -0.189425
253400                  0.133644        0.174818       0.00147308     0.000705924        -0.946649       -0.235684       0.00102826     0.000369448
                      0.00150614     0.000869492        -0.120951        0.170197      0.000517327    -0.000852575         0.424827       -0.880842
                       -0.946496       -0.235409      0.000528185    -0.000749358        -0.198727       0.0904211      0.000570491     -0.00197902
                     0.000869768      0.00033571         0.424883        -0.88094      0.000777385     -0.00195832        0.0578142       -0.200599
253600                  0.136965        0.153277       0.00155873     0.000564348        -0.968302       -0.142447       0.00108672      0.00026604
                      0.00160332     0.000708258        -0.113719        0.179415      0.000411007    -0.000903206         0.351544       -0.911736
                       -0.968117       -0.142184      0.000438763    -0.000800195        -0.174251        0.105829      0.000406133     -0.00204956
                     0.000917297     0.000251048         0.351576       -0.911845      0.000591415     -0.00204496        0.0361003         -0.2093
253800                  0.137393         0.13217       0.00163083     0.000412294        -0.980634      -0.0469043       0.00113327     0.000153238
                      0.00168092     0.000534179         -0.10561        0.188176      0.000300626    -0.000939125         0.276047       -0.936601
                       -0.980419      -0.0466658      0.000344404    -0.000840276        -0.148626        0.116895       0.00023062     -0.00209907
                     0.000955344     0.000160135         0.276049       -0.936707      0.000395341     -0.00210969        0.0132728       -0.215356
254000                  0.135028        0.111887       0.00168802     0.000250958        -0.983348       0.0499733       0.00116625     3.27235e-05
                      0.00173684     0.000350103        -0.096668        0.196389      0.000188432    -0.000960322         0.198823       -0.955283
                       -0.983106       0.0501764      0.000246408    -0.000869014        -0.122551        0.123538      4.72036e-05      -0.0021277
                     0.000982828      6.4214e-05         0.198793       -0.955373      0.000192634     -0.00215137       -0.0103314       -0.218634
254200                  0.130028       0.0928022       0.00172899     8.17311e-05        -0.976252        0.147169       0.00118434    -9.35152e-05
                      0.00176934     0.000159228       -0.0869453        0.203968      7.65024e-05    -0.000967138         0.120369        -0.96767
                       -0.975993        0.147328      0.000146169    -0.000885975       -0.0967272        0.125788     -0.000140721     -0.00213548
                     0.000998891    -3.52698e-05         0.120312       -0.967728     -1.31637e-05     -0.00216957       -0.0343604       -0.219044
254400                  0.122602       0.0752651       0.00175259    -9.37947e-05        -0.959276        0.243631       0.00118658    -0.000223264
                      0.00177694       -3.49e-05        -0.076504        0.210835     -3.32934e-05    -0.000960187        0.0411879       -0.973686
                       -0.959008        0.243741      4.51542e-05    -0.000890894       -0.0718506        0.123778     -0.000329875     -0.00212263
                      0.00100294    -0.000136724        0.0411129         -0.9737     -0.000218609     -0.00216454       -0.0584524       -0.216542
254600                  0.113014       0.0595928       0.00175776    -0.000273835        -0.932471        0.338295       0.00117238    -0.000354166
                      0.00175831    -0.000228287       -0.0654141        0.216915     -0.000139312    -0.000940281       -0.0382147       -0.973294
                       -0.932206        0.338352     -5.51078e-05    -0.000883699       -0.0485909        0.117752     -0.000517208      -0.0020897
                     0.000994683    -0.000238469       -0.0382922       -0.973258     -0.000420507     -0.00213715       -0.0822414       -0.211128
254800                  0.101569       0.0460607       0.00174368    -0.000456423        -0.896019        0.430092        0.0011416    -0.000483808
                      0.00171184    -0.000416112       -0.0537531        0.222145     -0.000240131    -0.000908369        -0.117331       -0.966498
                       -0.895766        0.430097     -0.000153054     -0.00086452       -0.0275769        0.108061     -0.000699967     -0.00203762
                     0.000974119    -0.000338814        -0.117394       -0.966408     -0.000616029     -0.00208877        -0.105363       -0.202851
255000                 0.0886144       0.0348954       0.00170971    -0.000639427        -0.850229        0.517973       0.00109448      -0.0006098
                      0.00163502    -0.000591576       -0.0416051        0.226466      -0.00033453    -0.000865488        -0.195656       -0.953337
                       -0.849999        0.517931     -0.000247117    -0.000833713      -0.00937881       0.0951542     -0.000875742     -0.00196762
                     0.000941548    -0.000436119        -0.195686       -0.953197     -0.000802777     -0.00202112        -0.127461       -0.191802
255200                 0.0745249       0.0262682       0.00165548    -0.000820573        -0.795538        0.600925       0.00103162    -0.000729846
                      0.00152269    -0.000742047         -0.02906        0.229831     -0.000421466    -0.000812726        -0.272689       -0.933889
                       -0.795339        0.600844     -0.000335757    -0.000791868       0.00551017       0.0795787      -0.00104249     -0.00188121
                     0.000897536    -0.000528857         -0.27267       -0.933711     -0.000978824     -0.00193618         -0.14819        -0.17812
255400                 0.0596972        0.020291        0.0015809    -0.000997485        -0.732505        0.677991      0.000953961    -0.000841796
                      0.00136413    -0.000832528       -0.0162126        0.232201     -0.000500047    -0.000751206        -0.347935       -0.908272
                       -0.732341        0.677879     -0.000417506    -0.000739813         0.016691       0.0619619      -0.00119855     -0.00178007
                     0.000842867    -0.000615665        -0.347855       -0.908071      -0.00114271     -0.00183607        -0.167226       -0.161985
255600                 0.0445381       0.0170131       0.00148619     -0.00116772        -0.661801        0.748281      0.000862745    -0.000943689
                      0.00117399    -0.000700567      -0.00316147        0.233548     -0.000569507    -0.000682081        -0.420912       -0.876639
                       -0.661675        0.748149     -0.000491014    -0.000678612        0.0238751       0.0429994      -0.00134264     -0.00166599
                     0.000778504    -0.000695373        -0.420765       -0.876434       -0.0012934     -0.00172292        -0.184267       -0.143618
255800                 0.0294539       0.0164212       0.00137189     -0.00132881        -0.584202        0.810995      0.000759445     -0.00103378
                      0.00208846    -0.000462502       0.00999202        0.233853     -0.000629189    -0.000606529        -0.491147       -0.839178
                       -0.584114        0.810852      -0.00055509    -0.000609552        0.0268986       0.0234344      -0.00147381      -0.0015408
                     0.000705526    -0.000767027        -0.490933       -0.838991      -0.00143026     -0.00159881         -0.19904       -0.123279
256000                 0.0148406       0.0184404       0.00123889     -0.00147832        -0.500573        0.865429      0.000645751     -0.00111054
                      0.00174676      -0.0015648        0.0231448         0.23311     -0.000678535    -0.000525772        -0.558183       -0.796115
                       -0.500519        0.865287     -0.000608753    -0.000534114        0.0257322      0.00403547      -0.00159144     -0.00140631
                      0.00062508    -0.000829885        -0.557909       -0.795966      -0.00155299     -0.00146569        -0.211308        -0.10126
256200                0.00107336       0.0229377       0.00108844     -0.00161391        -0.411854        0.910992      0.000523527     -0.00117272
                      0.00133703     -0.00174749        0.0361931        0.231321     -0.000717088    -0.000441083         -0.62158        -0.74771
                       -0.411829        0.910859     -0.000651274    -0.000453939        0.0204872      -0.0144295      -0.00169518     -0.00126424
                     0.000538335    -0.000883409         -0.62126       -0.747614      -0.00166155     -0.00132536        -0.220868      -0.0778811
