! TOUCHSTONE file generated by CST MICROWAVE STUDIO
! Date and time: Sun Sep 28 17:45:58 2025
! Project name: biblioteca3_folgaOK.cst
! Parameters = {H=600; Lx=200; Ly=260; Nedge=10; P=520; k=0; mesh_pilar_nm=40; n=0; t_air=3800; t_sub=6000; wavelength_nm=0}
! Header version: 2018
! Port assignment regex: !\s*Touchstone port\s*([0-9]+)\s*=\s*(CST MWS port|CST DS port)\s*([0-9]+|Zmin|Zmax)\s*\(\"(.*)\"\)(\s*mode\s*([0-9]+))?.*
! Touchstone port assignment:
! Touchstone port 1 = CST MWS port Zmin ("") mode 1
! Touchstone port 2 = CST MWS port Zmin ("") mode 2
! Touchstone port 3 = CST MWS port Zmax ("") mode 1
! Touchstone port 4 = CST MWS port Zmax ("") mode 2
! S-Parameters are not renormalized. Each port impedance will be approximated by the real part at minimum frequency. The values are described via the [Reference] keyword.
! Default impedance is overridden by [Reference]
[Version] 2.0
# GHz S RI R 376.73
[Number of Ports] 4
[Reference]
376.73 376.73 376.73 376.73 
[Number of Frequencies] 401
[Network Data]
250000                  0.295679        0.245414      0.000585087      9.8011e-05         0.251506        0.888358       0.00156244     0.000804732
                     0.000723447     6.57725e-05         0.102396       0.0321319       0.00144289      0.00062616        -0.951947        0.286545
                        0.251727        0.888387       0.00134704     0.000722373         0.123237       -0.364003      0.000261878    -0.000133815
                      0.00138683     0.000778722        -0.951821        0.286448      0.000294013    -0.000170002       -0.0676263       0.0833404
250200                  0.298778        0.245318      0.000580618     6.34281e-05         0.306503        0.869775       0.00159078     0.000691773
                     0.000716624      5.8888e-05        0.0962807        0.044542         0.001458     0.000522182        -0.934851        0.338622
                         0.30656        0.869756       0.00141044     0.000639961        0.0792949        -0.37804      0.000162976    -0.000153006
                      0.00148318     0.000726769        -0.934739        0.338463      0.000195261    -0.000231252       -0.0453651       0.0958507
250400                     0.301        0.244711      0.000573776     2.99572e-05         0.360336        0.848255       0.00161665     0.000585654
                      0.00070987      5.1529e-05        0.0900385        0.056818       0.00147168     0.000416549        -0.914712         0.38965
                        0.360317        0.848156       0.00147229     0.000553013        0.0332869       -0.386096      5.74597e-05    -0.000164496
                      0.00157832     0.000658478        -0.914647         0.38941      8.15525e-05    -0.000280566        -0.021367        0.104255
250600                  0.302351        0.243583      0.000564612    -2.26214e-06         0.412934        0.823823       0.00164087     0.000484974
                     0.000703175     4.35771e-05        0.0836836       0.0689185       0.00148384     0.000309488        -0.891615        0.439425
                        0.412891        0.823609       0.00153229     0.000461492       -0.0138798       -0.387756     -5.45111e-05    -0.000165937
                      0.00166832     0.000573528        -0.891625        0.439103     -4.59679e-05    -0.000312521       0.00368228        0.108326
250800                  0.302832        0.241925      0.000553184    -3.30909e-05         0.464211        0.796487       0.00166401     0.000388472
                     0.000696507     3.48862e-05        0.0772289       0.0808041       0.00149436     0.000201251        -0.865661        0.487756
                        0.464168        0.796132       0.00159013     0.000365396       -0.0612017       -0.382758     -0.000172175     -0.00015455
                      0.00174914     0.000472914        -0.865766        0.487358     -0.000183968    -0.000321346        0.0290661        0.107946
251000                  0.302445        0.239731      0.000539556    -6.23909e-05         0.514069        0.766252       0.00168651     0.000295002
                     0.000689809     2.52776e-05        0.0706865       0.0924374       0.00150309     9.21129e-05        -0.836963        0.534464
                        0.514026        0.765737       0.00164548     0.000264756        -0.107609       -0.371019     -0.000293874    -0.000127214
                      0.00181712     0.000358977        -0.837179        0.534004     -0.000326458    -0.000301966        0.0540556        0.103118
251200                  0.301189        0.236997        0.0005238    -9.00242e-05         0.562389        0.733114       0.00170862     0.000203502
                      0.00068298     1.45354e-05        0.0640677        0.103783       0.00150985    -1.76344e-05        -0.805647        0.579383
                        0.562333        0.732434       0.00169798     0.000159644           -0.152       -0.352652     -0.000416714    -8.07207e-05
                      0.00186961      0.00023515        -0.805981         0.57888     -0.000464913    -0.000251435        0.0779293       0.0939607
251400                  0.299064        0.233723      0.000505993    -0.000115853         0.609036         0.69707       0.00173049     0.000112976
                     0.000675854     2.40339e-06        0.0573836        0.114807       0.00151442    -0.000127685         -0.77185        0.622358
                        0.608944        0.696233       0.00174726     5.01807e-05        -0.193284       -0.327975      -0.00053627    -1.22658e-05
                      0.00190523     0.000105458          -0.7723        0.621833     -0.000589325    -0.000170362        0.0999924       0.0807089
251600                  0.296068        0.229909      0.000486223    -0.000139742         0.653856        0.658121       0.00175215     2.24763e-05
                     0.000668172    -1.14117e-05        0.0506447         0.12548       0.00151657    -0.000237726        -0.735717         0.66325
                        0.653703        0.657147       0.00179294    -6.34576e-05        -0.230422       -0.297509     -0.000646479     7.98074e-05
                      0.00192405    -2.60767e-05        -0.736274        0.662725      -0.00069013    -6.36156e-05         0.119596       0.0637087
251800                  0.292197        0.225563      0.000464584    -0.000161554         0.696674        0.616273       0.00177348    -6.89093e-05
                     0.000659536    -2.72275e-05        0.0438614        0.135771       0.00151601    -0.000347441        -0.697399        0.701935
                        0.696438        0.615193       0.00183461    -0.000181035        -0.262469       -0.261968     -0.000739937     0.000195062
                      0.00192727    -0.000155952        -0.698049        0.701428     -0.000760398     6.02421e-05         0.136157       0.0434073
252000                   0.28745        0.220693      0.000441179    -0.000181153         0.737298        0.571544       0.00179426    -0.000162063
                     0.000649361     -4.5351e-05        0.0370443        0.145653       0.00151244    -0.000456518        -0.657052        0.738302
                        0.736961        0.570397       0.00187187    -0.000302246        -0.288613        -0.22224       -0.0008088     0.000330082
                      0.00191694     -0.00028152        -0.657777        0.737829     -0.000797346     0.000190752         0.149169       0.0203418
252200                  0.281822        0.215314       0.00041612    -0.000198406         0.775516        0.523966       0.00181414    -0.000257836
                     0.000636808    -6.60072e-05        0.0302036          0.1551       0.00150552    -0.000564652        -0.614837        0.772254
                         0.77507        0.522796       0.00190427    -0.000426711        -0.308208        -0.17936     -0.000846287     0.000478084
                      0.00189546    -0.000401093        -0.615613        0.771826     -0.000802517     0.000317839         0.158224     -0.00487587
252400                  0.275312        0.209446      0.000389533    -0.000213178         0.811101         0.47359        0.0018326    -0.000357046
                     0.000620741    -8.92115e-05        0.0233499        0.164091       0.00149492    -0.000671552        -0.570915        0.803708
                        0.810546        0.472443       0.00193138    -0.000553968        -0.320804       -0.134471     -0.000848425     0.000629459
                      0.00186522     -0.00051387        -0.571717        0.803331     -0.000780723     0.000433624         0.163015      -0.0315755
252600                  0.267917        0.203111       0.00036155     -0.00022534         0.843808        0.420492       0.00184897    -0.000460457
                     0.000599729    -0.000114566         0.016494        0.172601       0.00148028    -0.000776939        -0.525448        0.832595
                        0.843155        0.419412       0.00195276     -0.00068347        -0.326162      -0.0887912     -0.000815361     0.000773359
                       0.0018284    -0.000619755        -0.526252         0.83227     -0.000738405     0.000533227         0.163351      -0.0590473
252800                  0.259638        0.196339      0.000332321    -0.000234762         0.873384        0.364771       0.00186238     -0.00056876
                     0.000572175    -0.000140993       0.00964674        0.180612       0.00146124    -0.000880549        -0.478597        0.858857
                        0.872654          0.3638       0.00196794    -0.000814576        -0.324269      -0.0435659     -0.000751559      0.00089988
                      0.00178676    -0.000719154         -0.47938         0.85858     -0.000682144     0.000614609         0.159159      -0.0865611
253000                  0.250477        0.189166      0.000302005     -0.00024132         0.899563         0.30656       0.00187177    -0.000682528
                      0.00053667    -0.000166482       0.00281934        0.188106       0.00143745    -0.000982135        -0.430523        0.882447
                        0.898785         0.30573       0.00197644    -0.000946555        -0.315338    -2.79364e-05     -0.000664722      0.00100196
                      0.00174165    -0.000812768        -0.431262        0.882209     -0.000617683     0.000677881         0.150483       -0.113386
253200                   0.24044         0.18163      0.000270778    -0.000244892         0.922076        0.246025       0.00187588    -0.000802177
                     0.000492599    -0.000188051      -0.00397675        0.195065       0.00140859     -0.00108146        -0.381381         0.90333
                        0.921287         0.24536       0.00197781     -0.00107858        -0.299799       0.0406457     -0.000563943      0.00107632
                        0.001694    -0.000901445        -0.382059        0.903118     -0.000549519     0.000724485         0.137483       -0.138811
253400                  0.229536        0.173776       0.00023883    -0.000245365         0.940656        0.183367       0.00187323    -0.000927897
                      0.00044085    -0.000202181       -0.0107298        0.201474       0.00137433     -0.00117829        -0.331326        0.921478
                        0.939895         0.18288       0.00197153     -0.00120975        -0.278292       0.0773733     -0.000457863       0.0011232
                      0.00164442     -0.00098606        -0.331929        0.921278     -0.000480882     0.000756509         0.120432       -0.162161
253600                  0.217781        0.165656      0.000206371    -0.000242632         0.955039        0.118827        0.0018622     -0.00105959
                     0.000384165    -0.000205809       -0.0174279        0.207321        0.0013344     -0.00127242        -0.280506        0.936875
                        0.954346        0.118519       0.00195711     -0.00133907         -0.25164        0.109204     -0.000353446      0.00114542
                      0.00159317     -0.00106745        -0.281026        0.936669     -0.000413915     0.000776207        0.0997037       -0.182814
253800                  0.205194        0.157323      0.000173626    -0.000236598         0.964975        0.052685         0.001841     -0.00119677
                     0.000326683    -0.000197503       -0.0240588        0.212593       0.00128855      -0.0013636        -0.229069        0.949508
                        0.964389       0.0525475       0.00193404     -0.00146551        -0.220824        0.135352     -0.000255527      0.00114712
                      0.00154032     -0.00114635          -0.2295         0.94928     -0.000349925     0.000785731        0.0757648       -0.200221
254000                  0.191803        0.148836      0.000140838    -0.000227177         0.970232      -0.0147378       0.00180783     -0.00133854
                     0.000272698    -0.000178055       -0.0306099        0.217279       0.00123656     -0.00145162        -0.177155        0.959375
                        0.969787      -0.0147258       0.00190179     -0.00158796        -0.186953        0.155218     -0.000166928      0.00113282
                      0.00148573      -0.0012234        -0.177497        0.959106     -0.000289616     0.000786987        0.0491601       -0.213911
254200                  0.177641        0.140255      0.000108273    -0.000214302         0.970604      -0.0830828       0.00176092     -0.00148348
                     0.000225343    -0.000150059       -0.0370686         0.22137       0.00117828     -0.00153624        -0.124902        0.966477
                        0.970326      -0.0829501       0.00185983     -0.00170535        -0.151229        0.168414     -8.88893e-05      0.00110672
                      0.00142914     -0.00129909         -0.12516        0.966152     -0.000233283     0.000781595        0.0204991       -0.223507
254400                  0.162751        0.131644      7.62136e-05    -0.000197924         0.965916       -0.151955       0.00169875     -0.00162967
                     0.000185982    -0.000116811       -0.0434221        0.224859       0.00111358     -0.00161719       -0.0724418         0.97082
                        0.965824       -0.151736       0.00180765      -0.0018166        -0.114903         0.17478     -2.15488e-05      0.00107242
                      0.00137019     -0.00137382       -0.0726244        0.970425     -0.000180959     0.000770893      -0.00955999       -0.228732
254600                  0.147182        0.123066      4.49631e-05    -0.000178015         0.956035       -0.220925       0.00162015     -0.00177469
                     0.000154426    -8.12679e-05       -0.0496574        0.227739       0.00104237     -0.00169422       -0.0199049        0.972414
                        0.956138        -0.22066       0.00174475     -0.00192069       -0.0792413        0.174385      3.56331e-05      0.00103279
                      0.00130842     -0.00144782       -0.0200233        0.971939     -0.000132515     0.000755965       -0.0403262       -0.229416
254800                  0.130993        0.114585      1.48436e-05    -0.000154577         0.940874       -0.289538       0.00152451     -0.00191573
                     0.000129579    -4.55303e-05       -0.0557614        0.230005      0.000964642     -0.00176702        0.0325836        0.971273
                        0.941167       -0.289266       0.00167069     -0.00201673       -0.0454758        0.167534      8.35582e-05     0.000990061
                      0.00124335     -0.00152121        0.0325153         0.97071     -8.77334e-05     0.000737681       -0.0710924       -0.225495
255000                  0.114252         0.10626     -1.38049e-05     -0.00012764         0.920394       -0.357317       0.00141192     -0.00204975
                     0.000110049    -1.07964e-05        -0.061721        0.231653        0.0008804     -0.00183529        0.0849011        0.967412
                        0.920867       -0.357076       0.00158514     -0.00210391       -0.0147641        0.154757      0.000123278      0.00094587
                      0.00117444       -0.001594        0.0848676        0.966758     -4.63508e-05     0.000716729        -0.101152       -0.217015
255200                 0.0970323       0.0981499     -4.06274e-05    -9.72732e-05         0.894617       -0.423773        0.0012832     -0.00217365
                     9.45322e-05     2.24309e-05       -0.0675232         0.23268      0.000789712     -0.00189869         0.136928         0.96085
                        0.895249       -0.423595       0.00148787     -0.00218159        0.0118542        0.136797      0.000155862     0.000901413
                      0.00110116     -0.00166604         0.136913        0.960105     -8.08915e-06     0.000693654        -0.129814        -0.20413
255400                 0.0794168       0.0903061     -6.52565e-05     -6.3587e-05         0.863619        -0.48841          0.00114     -0.00228458
                     8.19766e-05     5.40945e-05       -0.0731551        0.233085      0.000692693     -0.00195686         0.188546        0.951608
                        0.864382       -0.488322       0.00137882     -0.00224932        0.0334973        0.114582      0.000182326     0.000857534
                      0.00102297     -0.00173707         0.188533        0.950775      2.73272e-05     0.000668884         -0.15642       -0.187094
255600                  0.061494        0.082775     -8.73172e-05     -2.6738e-05          0.82754       -0.550739      0.000984608     -0.00238013
                     7.16156e-05     8.43802e-05       -0.0786038        0.232866      0.000589504     -0.00200943          0.23964        0.939707
                        0.828401       -0.550759       0.00125814     -0.00230675        0.0494771          0.0892      0.000203597     0.000814816
                     0.000939355      -0.0018067         0.239614        0.938795      6.01609e-05     0.000642753        -0.180357       -0.166259
255800                 0.0433578       0.0755956     -0.000106432     1.30656e-05         0.786576       -0.610283       0.00081986     -0.00245853
                     6.29361e-05     0.000113581       -0.0838569        0.232024      0.000480356       -0.002056         0.290093        0.925171
                        0.787502       -0.610421       0.00112623     -0.00235373        0.0593294       0.0618519      0.000220499     0.000773649
                     0.000849824     -0.00187443         0.290041        0.924189       9.0656e-05     0.000615522        -0.201072       -0.142066
256000                 0.0251056       0.0687985     -0.000122229     5.55592e-05         0.740983       -0.666589      0.000648862     -0.00251881
                     5.56287e-05     0.000142016       -0.0889021        0.230562       0.00036551     -0.00209617         0.339791        0.908024
                        0.741941       -0.666847      0.000983713     -0.00239018        0.0628351        0.033811      0.000233755     0.000734284
                      0.00075396     -0.00193959         0.339702        0.906986      0.000119036     0.000587391        -0.218084       -0.115035
256200                0.00683755       0.0624056      -0.00013435     0.000100419         0.691069       -0.719237      0.000474758     -0.00256075
                     4.95396e-05     0.000169989       -0.0937276         0.22848      0.000245276     -0.00212951         0.388618        0.888293
                        0.692029        -0.71961      0.000831445     -0.00241613        0.0600327      0.00637035      0.000243995     0.000696875
                     0.000651424     -0.00200143         0.388483        0.887215      0.000145502     0.000558517        -0.230994       -0.085753
