! TOUCHSTONE file generated by CST MICROWAVE STUDIO
! Date and time: Sun Sep 28 19:09:12 2025
! Project name: biblioteca3_folgaOK.cst
! Parameters = {H=600; Lx=200; Ly=260; Nedge=12; P=520; mesh_pilar_nm=40; t_air=3800; t_sub=6000}
! Header version: 2018
! Port assignment regex: !\s*Touchstone port\s*([0-9]+)\s*=\s*(CST MWS port|CST DS port)\s*([0-9]+|Zmin|Zmax)\s*\(\"(.*)\"\)(\s*mode\s*([0-9]+))?.*
! Touchstone port assignment:
! Touchstone port 1 = CST MWS port Zmin ("") mode 1
! Touchstone port 2 = CST MWS port Zmin ("") mode 2
! Touchstone port 3 = CST MWS port Zmax ("") mode 1
! Touchstone port 4 = CST MWS port Zmax ("") mode 2
! S-Parameters are not renormalized. Each port impedance will be approximated by the real part at minimum frequency. The values are described via the [Reference] keyword.
! Default impedance is overridden by [Reference]
[Version] 2.0
# GHz S RI R 376.73
[Number of Ports] 4
[Reference]
376.73 376.73 376.73 376.73 
[Number of Frequencies] 401
[Network Data]
250000                  0.315883        0.218796       0.00059139     4.68053e-05         0.289898        0.876582       0.00159596      0.00073603
                     0.000726426      2.6673e-06         0.104801       0.0231137       0.00146875     0.000562821        -0.938587        0.327668
                         0.29012        0.876601       0.00137717     0.000663116         0.123237       -0.364003      0.000261878    -0.000133815
                      0.00141938     0.000717681        -0.938464        0.327566      0.000294011    -0.000170002       -0.0676263       0.0833404
250200                  0.339277        0.185501      0.000602283    -3.24916e-05         0.386573        0.837483       0.00163848     0.000573032
                     0.000709895    -9.64432e-05         0.102918       0.0258258       0.00152924     0.000402152        -0.898996        0.424732
                        0.386835        0.837458       0.00138333     0.000597596        0.0793816       -0.378561      0.000211926    -0.000133209
                      0.00151763      0.00059799          -0.8993        0.424352      0.000232557    -0.000156657       -0.0454956       0.0960284
250400                  0.358166        0.149358      0.000595237    -0.000118473         0.478383        0.788036       0.00167448     0.000405131
                     0.000677396    -0.000192026         0.102502       0.0289047       0.00156912     0.000231829        -0.849251        0.517001
                        0.478639        0.787961       0.00135843     0.000510715        0.0333614       -0.386795        0.0001569    -0.000131158
                      0.00160709     0.000460137        -0.849831        0.516527      0.000155489    -0.000148205        -0.021503        0.104526
250600                  0.372182        0.111068      0.000567043    -0.000205433         0.564294        0.728808       0.00170242     0.000232497
                     0.000629875    -0.000280698         0.103587        0.032062       0.00158658     5.59406e-05        -0.789944        0.603404
                        0.564505        0.728689       0.00129388     0.000370095       -0.0137751       -0.388352      9.64266e-05    -0.000126938
                       0.0016841     0.000304247        -0.790653        0.602943      6.29117e-05    -0.000148364       0.00360143        0.108597
250800                  0.381076       0.0713768       0.00051703    -0.000286111         0.643328        0.660448       0.00172072     5.54175e-05
                     0.000569147    -0.000359446         0.106156       0.0350098       0.00158109    -0.000120897        -0.721778        0.682944
                        0.643466          0.6603       0.00122634     0.000118029       -0.0609277       -0.383075      3.01883e-05    -0.000119564
                      0.00174469     0.000131289        -0.722493         0.68254     -4.29338e-05    -0.000160086         0.029049        0.108136
251000                  0.384717       0.0310533      0.000447827    -0.000353192         0.714565        0.583684        0.0017278    -0.000125666
                     0.000497713    -0.000425873         0.110147       0.0374685       0.00155366    -0.000294041        -0.645565        0.754709
                        0.714613        0.583528       0.00127675    -0.000228072        -0.106982       -0.370998     -4.20046e-05    -0.000107736
                      0.00178488    -5.67674e-05        -0.646191        0.754365     -0.000158037    -0.000183926        0.0540746        0.103171
251200                  0.383096     -0.00912893      0.000365051    -0.000401127         0.777147        0.499325       0.00172207    -0.000310117
                     0.000418515    -0.000478354         0.115451       0.0391744       0.00150688    -0.000459502         -0.56221        0.817886
                        0.777097        0.499184       0.00145529    -0.000506934        -0.150847       -0.352354     -0.000120103    -8.97665e-05
                      0.00180092    -0.000256879        -0.562687        0.817576     -0.000277979    -0.000216873        0.0779371       0.0938518
251400                  0.376318       -0.048409      0.000275911    -0.000427401         0.830279        0.408257       0.00170196    -0.000497071
                      0.00033466    -0.000516086         0.121916       0.0398867       0.00144471    -0.000614729        -0.472702        0.871773
                        0.830133        0.408151       0.00162221    -0.000682052        -0.191485       -0.327552     -0.000203647      -6.354e-05
                      0.00178967    -0.000464954        -0.473004         0.87146     -0.000399511    -0.000252384        0.0999378       0.0804436
251600                  0.364601      -0.0860548      0.000187418    -0.000432697         0.873236        0.311443       0.00166597    -0.000685403
                     0.000249177    -0.000539028         0.129355       0.0393939       0.00137167    -0.000759329        -0.378094        0.915784
                        0.873003        0.311393       0.00172488    -0.000824241        -0.227943       -0.297173     -0.000291522    -2.65184e-05
                      0.00174895    -0.000676017        -0.378225        0.915428     -0.000521191    -0.000281459         0.119436       0.0633176
251800                  0.348269       -0.121378      0.000105015    -0.000420054         0.905367        0.209928       0.00161267    -0.000873694
                     0.000164828    -0.000547781         0.137549       0.0375189       0.00129167    -0.000895404        -0.279496        0.949456
                        0.905063        0.209949       0.00177285    -0.000973387        -0.259375       -0.261943     -0.000381628     2.41409e-05
                      0.00167779    -0.000884507        -0.279482        0.949027     -0.000642535    -0.000293953         0.135864       0.0429385
252000                  0.327743       -0.153749      3.20363e-05    -0.000393627          0.92611        0.104836       0.00154076     -0.00106022
                     8.39958e-05    -0.000543434         0.146252       0.0341238       0.00120646     -0.00102715        -0.178051        0.972455
                        0.925753        0.104937       0.00177817     -0.00114002        -0.285061       -0.222723     -0.000470516     9.12692e-05
                      0.00157666     -0.00108468        -0.177936        0.971937     -0.000762007    -0.000279648         0.148738       0.0198508
252200                  0.303532       -0.182608     -3.01185e-05    -0.000357627         0.934995     -0.00263185       0.00144917     -0.00124292
                     8.63577e-06    -0.000527399           0.1552       0.0291127       0.00111435     -0.00115941       -0.0749287        0.984576
                        0.934606      -0.0024472       0.00174591      -0.0013241         -0.30443       -0.180477     -0.000553078      0.00017708
                       0.0014474     -0.00127108       -0.0747619        0.983967     -0.000874627    -0.000229449         0.157668      -0.0053352
252400                  0.276226       -0.207478     -8.14612e-05    -0.000315685         0.931665       -0.111198       0.00133707     -0.00141944
                    -5.97177e-05     -0.00050128         0.164119       0.0224338       0.00100999     -0.00129533        0.0286986        0.985744
                        0.931266       -0.110931       0.00167634     -0.00152194        -0.317069       -0.136259     -0.000622514     0.000282225
                      0.00129313      -0.0014389        0.0288659         0.98506     -0.000970243    -0.000137578         0.162366      -0.0319587
252600                   0.24648       -0.227976     -0.000122848    -0.000270613         0.915885       -0.219514       0.00120398     -0.00158711
                    -0.000119911    -0.000466765         0.172729       0.0140804      0.000885761     -0.00143404         0.131665        0.976011
                        0.915496       -0.219172       0.00156742     -0.00172798        -0.322739      -0.0911839       -0.0006709     0.000404654
                      0.00111788     -0.00158439         0.131788        0.975282      -0.00103394    -5.07208e-06         0.162653      -0.0593247
252800                  0.215002       -0.243826     -0.000155536    -0.000224425         0.887561       -0.326172       0.00104982     -0.00174299
                    -0.000171114    -0.000425559         0.180752      0.00409018      0.000734733     -0.00156965         0.232828        0.955554
                          0.8872       -0.325766       0.00141633     -0.00193501        -0.321386      -0.0464051     -0.000690577     0.000538686
                     0.000926229     -0.00170498          0.23287        0.954818       -0.0010501      0.00015696         0.158459      -0.0867206
253000                  0.182539       -0.254862     -0.000180888    -0.000178478         0.846754       -0.429715      0.000875047     -0.00188396
                    -0.000212766    -0.000379349         0.187924     -0.00745571      0.000553645      -0.0016925         0.331079        0.924667
                        0.846436        -0.42926       0.00122076     -0.00213408        -0.313146     -0.00308292     -0.000676255     0.000674996
                     0.000722922     -0.00179932         0.331018        0.923969      -0.00100951     0.000327717         0.149829       -0.113433
253200                  0.149857       -0.261038     -0.000200217    -0.000133641         0.793699       -0.528651      0.000680651     -0.00200676
                    -0.000244523    -0.000329796         0.193992      -0.0204356      0.000344378       -0.001792         0.425359        0.883757
                        0.793432       -0.528165      0.000979961     -0.00231466        -0.298357        0.037644     -0.000627075     0.000802046
                     0.000512475     -0.00186718         0.425184        0.883141     -0.000915185     0.000482907         0.136915       -0.138766
253400                  0.117726       -0.262436     -0.000214713    -9.04467e-05         0.728814       -0.621479      0.000468258     -0.00210814
                    -0.000266233    -0.000278542         0.198728      -0.0346906      0.000113319      -0.0018595         0.514663        0.833334
                        0.728605        -0.62098      0.000695791     -0.00246511        -0.277551       0.0746937     -0.000547483     0.000908764
                     0.000298933     -0.00190922         0.514381         0.83284     -0.000781893     0.000603761         0.119979       -0.162055
253600                 0.0868949       -0.259261     -0.000225423    -4.92233e-05         0.652718        -0.70671      0.000240141     -0.00218498
                    -0.000277918    -0.000227229         0.201932      -0.0500286     -0.000130649     -0.00188996         0.598057        0.774003
                        0.652567       -0.706215      0.000373473     -0.00257354        -0.251455        0.107077     -0.000446229     0.000987317
                     8.57028e-05     -0.00192674         0.597682        0.773665     -0.000629568     0.000682524        0.0993806       -0.182687
253800                 0.0580718       -0.251844      -0.00023326    -1.01934e-05         0.566231       -0.782897     -7.73988e-07     -0.00223442
                    -0.000279788    -0.000177517         0.203433      -0.0662293      -0.00037828     -0.00188206         0.674679        0.706456
                        0.566136       -0.782423      2.19693e-05     -0.00262916        -0.220975        0.133934     -0.000333919      0.00103465
                    -0.000124512     -0.00192144         0.674238        0.706296     -0.000475895     0.000721619        0.0755719       -0.200111
254000                 0.0319018       -0.240635     -0.000239021     2.64444e-05         0.470386       -0.848667     -0.000250947     -0.00225401
                    -0.000272277    -0.000131099         0.203098      -0.0830495     -0.000621441     -0.00183738          0.74375        0.631463
                        0.470341       -0.848229     -0.000346293     -0.00262373        -0.187179        0.154573     -0.000220392      0.00105223
                    -0.000329685     -0.00189517         0.743274         0.63149     -0.000332525     0.000729096        0.0490845       -0.213855
254200                0.00894464        -0.22619       -0.0002434     6.04473e-05         0.366421        -0.90276       -0.0005063     -0.00224188
                    -0.000256087    -8.96848e-05         0.200831       -0.100229     -0.000853746     -0.00175925         0.804578        0.549858
                        0.366415       -0.902368     -0.000716415     -0.00255299        -0.151262        0.168506     -0.000113029      0.00104455
                    -0.000528398     -0.00184973           0.8041        0.550069     -0.000205078     0.000714264        0.0205171       -0.223534
254400                -0.0103459       -0.209158     -0.000246993     9.14677e-05         0.255767       -0.944058     -0.000762333     -0.00219682
                     -0.00023226    -5.49715e-05         0.196574       -0.117496       -0.0010706     -0.00165179          0.85656        0.462535
                        0.255791       -0.943721      -0.00107262     -0.00241737        -0.114511        0.175475     -1.62874e-05       0.0010174
                    -0.000719723     -0.00178672         0.856113        0.462916     -9.49262e-05     0.000685216      -0.00947936       -0.228861
254600                -0.0256393       -0.190262     -0.000250281     0.000118999         0.140036       -0.971627      -0.00101428     -0.00211844
                    -0.000202232    -2.85628e-05         0.190313       -0.134573      -0.00126893     -0.00151925         0.899189        0.370435
                        0.140079       -0.971349       -0.0014001     -0.00222212       -0.0782542        0.175475      6.78891e-05     0.000976454
                      -0.0009031      -0.0017075         0.898804         0.37096     -1.08167e-06     0.000648034       -0.0402173       -0.229655
254800                -0.0367422       -0.170271     -0.000253581     0.000142337         0.020994       -0.984748      -0.00125726     -0.00200719
                    -0.000167885    -1.18523e-05         0.182072       -0.151186       -0.0014468     -0.00136567         0.932055        0.274538
                       0.0210448        -0.98453      -0.00168669     -0.00197643       -0.0438125        0.168765      0.000139322     0.000926595
                      -0.0010782     -0.00161304         0.931754        0.275173      7.84581e-05     0.000606902       -0.0709895       -0.225842
255000                -0.0436076       -0.149979      -0.00025697     0.000160567       -0.0994742       -0.982947      -0.00148649     -0.00186435
                    -0.000131545    -5.86463e-06         0.171915       -0.167063      -0.00160309     -0.00119466         0.954845        0.175852
                       -0.099424       -0.982788      -0.00192391     -0.00169209       -0.0124388        0.155869       0.00019887      0.00087164
                      -0.0012448     -0.00150398         0.954644         0.17656       0.00014594     0.000564524        -0.101086       -0.217457
255200                -0.0463372        -0.13017      -0.00026018      0.00017262          -0.2194       -0.966019      -0.00169746     -0.00169206
                    -9.59152e-05    -1.10736e-05         0.159945       -0.181948      -0.00173721     -0.00100939         0.967345       0.0754076
                       -0.219357       -0.965915      -0.00210735     -0.00138186        0.0147374        0.137554      0.000247878     0.000814398
                     -0.00140265     -0.00138055         0.967251       0.0761472      0.000203483     0.000522563        -0.129809       -0.204646
255400                -0.0451786       -0.111592     -0.000262515     0.000177414        -0.336778       -0.934046       -0.0018861     -0.00149318
                    -6.39297e-05    -2.72291e-05         0.146302       -0.195602      -0.00184888     -0.00081263         0.969441      -0.0257536
                       -0.336747       -0.933991      -0.00223632     -0.00105804        0.0367625        0.114807      0.000287828     0.000756847
                     -0.00155134     -0.00124266         0.969451      -0.0250216      0.000252931     0.000481994        -0.156493       -0.187659
255600                -0.0405151      -0.0949258     -0.000262861     0.000174087        -0.449611       -0.887399       -0.0020489      -0.0012712
                    -3.85114e-05    -5.32384e-05         0.131157       -0.207807      -0.00193801    -0.000606805         0.961116       -0.126586
                       -0.449595       -0.887389      -0.00231308    -0.000731469        0.0529046       0.0887919       0.00032014     0.000700334
                     -0.00169015     -0.00108986         0.961222       -0.125897      0.000295828     0.000443358        -0.180517       -0.166846
255800                -0.0328496       -0.080762     -0.000259881     0.000162272        -0.555964       -0.826745      -0.00218304     -0.00103007
                    -2.22766e-05    -8.71464e-05          0.11471       -0.218372      -0.00200459    -0.000394061         0.942456       -0.226049
                       -0.555962       -0.826775      -0.00234189    -0.000410981        0.0626874       0.0607946      0.000346077      0.00064575
                     -0.00181796    -0.000921481         0.942639       -0.225433      0.000333437     0.000406932        -0.201319       -0.142647
256000                -0.0227834      -0.0695766     -0.000252417     0.000142244        -0.654005       -0.753026      -0.00228642    -0.000774072
                    -1.72289e-05    -0.000126247        0.0971884       -0.227138      -0.00204861    -0.000176346         0.913639       -0.323113
                       -0.654018       -0.753093      -0.00232809    -0.000103273        0.0659118       0.0321683      0.000366717     0.000593677
                       -0.001933      -0.0007367         0.913878       -0.322593       0.00036678     0.000372851        -0.218412       -0.115585
256200                  -0.01099       -0.061715     -0.000239995     0.000114837         -0.74206       -0.667447       -0.0023577    -0.000507646
                    -2.45111e-05    -0.000167323        0.0788377       -0.233978      -0.00207007     4.45208e-05         0.874944       -0.416769
                       -0.742085       -0.667548      -0.00227743     0.000186911        0.0626623       0.0042695      0.000382949     0.000544493
                     -0.00203276    -0.000534726         0.875213       -0.416358      0.000396677     0.000341186        -0.231391      -0.0862523
