! TOUCHSTONE file generated by CST MICROWAVE STUDIO
! Date and time: Fri Sep 26 07:21:59 2025
! Project name: biblioteca3_folgaOK.cst
! Parameters = {H=600; Lx=200; Ly=260; Nedge=16; P=520; k=0; mesh_pilar_nm=40; n=0; t_air=3500; t_sub=2000; wavelength_nm=0}
! Header version: 2018
! Port assignment regex: !\s*Touchstone port\s*([0-9]+)\s*=\s*(CST MWS port|CST DS port)\s*([0-9]+|Zmin|Zmax)\s*\(\"(.*)\"\)(\s*mode\s*([0-9]+))?.*
! Touchstone port assignment:
! Touchstone port 1 = CST MWS port Zmin ("") mode 1
! Touchstone port 2 = CST MWS port Zmin ("") mode 2
! Touchstone port 3 = CST MWS port Zmax ("") mode 1
! Touchstone port 4 = CST MWS port Zmax ("") mode 2
! S-Parameters are not renormalized. Each port impedance will be approximated by the real part at minimum frequency. The values are described via the [Reference] keyword.
! Default impedance is overridden by [Reference]
[Version] 2.0
# GHz S RI R 376.73
[Number of Ports] 4
[Reference]
376.73 376.73 376.73 376.73 
[Number of Frequencies] 401
[Network Data]
250000                 -0.291376       -0.112714      0.000532046     -0.00124446         0.650753       -0.692062      0.000530905      0.00163414
                     0.000566436     -0.00128927       -0.0143004        -0.19666     -0.000667792      0.00170461         0.762533        0.616156
                        0.650614        -0.69208      -0.00069127      0.00165557         -0.13045       -0.283892      0.000146052    -0.000815579
                     0.000542382      0.00167972         0.762747        0.616062      8.07146e-05    -0.000870863          0.19525      -0.0272907
250200                 -0.290703      -0.0925883      0.000418948     -0.00126835         0.595975       -0.742842        0.0006356      0.00160943
                     0.000450652     -0.00132364       -0.0229965       -0.198851     -0.000556389      0.00178256         0.800457        0.565151
                        0.596042       -0.742972     -0.000577349      0.00174362        -0.153454       -0.264573      0.000110248    -0.000840633
                     0.000653121      0.00164238         0.800691        0.565023      4.17045e-05    -0.000891545         0.195175      -0.0448089
250400                 -0.288362      -0.0728538      0.000303593     -0.00128454         0.537029       -0.789456      0.000740339      0.00157833
                     0.000330974     -0.00134857       -0.0319392       -0.200558     -0.000434524      0.00185345         0.834989        0.511765
                        0.537236       -0.789689     -0.000451528      0.00182358        -0.173913       -0.242917      7.16534e-05    -0.000864877
                     0.000762214      0.00159991         0.835233         0.51161      1.70452e-07    -0.000911074         0.193403      -0.0624814
250600                 -0.284396       -0.053669      0.000186476     -0.00129273         0.474216        -0.83154      0.000844773      0.00154069
                     0.000208274     -0.00136353       -0.0410982        -0.20176     -0.000302559       0.0019158         0.865978        0.456226
                        0.474509       -0.831858     -0.000314399       0.0018936        -0.191526       -0.219283      3.01423e-05    -0.000888085
                     0.000869573      0.00155213         0.866224        0.456054     -4.39719e-05    -0.000929233         0.189911      -0.0801288
250800                 -0.278864      -0.0351885      6.81308e-05     -0.00129263         0.407871       -0.868747      0.000948535      0.00149639
                      8.3496e-05     -0.00136809       -0.0504413       -0.202434     -0.000161083      0.00196813         0.893292        0.398775
                        0.408207       -0.869129     -0.000166894      0.00195191        -0.206053       -0.194072      -1.4404e-05    -0.000910005
                     0.000975067      0.00149887         0.893536        0.398594     -9.07989e-05    -0.000945782         0.184697      -0.0975704
251000                 -0.271845      -0.0175615     -5.08649e-05     -0.00128397         0.338362       -0.900755       0.00105124       0.0014453
                    -4.23542e-05     -0.00136192       -0.0599343       -0.202565     -1.09347e-05      0.00200896         0.916814        0.339658
                         0.33871       -0.901176     -1.02764e-05      0.00199683        -0.217313       -0.167719     -6.20945e-05    -0.000930353
                      0.00107852      0.00143996         0.917052        0.339474     -0.000140376    -0.000960457         0.177778       -0.114626
251200                 -0.263429    -0.000929856     -0.000169892     -0.00126653         0.266092       -0.927267       0.00115248      0.00138732
                    -0.000168224      -0.0013448       -0.0695413       -0.202135      0.000146799      0.00203691         0.936445        0.279126
                        0.266428       -0.927703      0.000153878      0.00202687        -0.225195       -0.140682     -0.000113024    -0.000948811
                       0.0011797      0.00137521         0.936676        0.278945     -0.000192752    -0.000972963          0.16919        -0.13112
251400                 -0.253726       0.0145741      -0.00028829     -0.00124013         0.191492       -0.948015       0.00125182      0.00132236
                     -0.00029303     -0.00131664        -0.079225       -0.201133      0.000310788       0.0020507         0.952101        0.217438
                        0.191801       -0.948442      0.000323722      0.00204082        -0.229659       -0.113428     -0.000167268    -0.000965029
                      0.00127834      0.00130445         0.952325        0.217263     -0.000247959    -0.000982978         0.158989       -0.146879
251600                 -0.242855        0.028829     -0.000405354     -0.00120462         0.115022       -0.962767       0.00134883      0.00125034
                    -0.000415673     -0.00127747       -0.0889466       -0.199547      0.000479476      0.00204924         0.963717        0.154855
                        0.115298       -0.963162      0.000497201      0.00203779        -0.230734      -0.0864247     -0.000224877    -0.000978617
                      0.00137412      0.00122752         0.963933        0.154689     -0.000306004    -0.000990149          0.14725       -0.161742
251800                 -0.230953       0.0417262     -0.000520344     -0.00115991          0.03717       -0.971324       0.00144301       0.0011712
                    -0.000535056     -0.00122744       -0.0986664       -0.197371      0.000651109      0.00203166         0.971244       0.0916395
                       0.0374128        -0.97167      0.000672128      0.00201724        -0.228516       -0.060126     -0.000285872     -0.00098915
                      0.00146667      0.00114428         0.971453       0.0914858     -0.000366863    -0.000994094         0.134062       -0.175551
252000                 -0.218167       0.0531714     -0.000632478     -0.00110598       -0.0415526        -0.97353       0.00153387      0.00108489
                    -0.000650096     -0.00116683        -0.108344       -0.194601      0.000823779      0.00199733          0.97465       0.0280591
                      -0.0413396       -0.973812      0.000846265      0.00197901        -0.223168      -0.0349639     -0.000350233    -0.000996163
                      0.00155556       0.0010546         0.974852       0.0279175     -0.000430476    -0.000994396         0.119531       -0.188163
252200                 -0.204653       0.0630862     -0.000740945     -0.00104286        -0.120614       -0.969271       0.00162088     0.000991412
                    -0.000759748     -0.00109603        -0.117937       -0.191235      0.000995469      0.00194594         0.973919      -0.0356199
                       -0.120424       -0.969479       0.00101741      0.00192332        -0.214911      -0.0113388     -0.000417893    -0.000999154
                      0.00164033     0.000958378         0.974116      -0.0357496      -0.00049674     -0.00099061         0.103776       -0.199445
252400                 -0.190579       0.0714093     -0.000844906    -0.000970678        -0.199466       -0.958479       0.00170347     0.000890778
                    -0.000863012     -0.00101555        -0.127405       -0.187276       0.00116412      0.00187746         0.969052      -0.0991308
                       -0.199289       -0.958607       0.00118346      0.00185072        -0.204018       0.0103893     -0.000488727    -0.000997587
                      0.00172045      0.00085557         0.969244      -0.0992493     -0.000565498    -0.000982262        0.0869292       -0.209278
252600                 -0.176116       0.0780975       -0.0009435    -0.000889624        -0.277548       -0.941138       0.00178106     0.000783042
                    -0.000958951     -0.00092601        -0.136707       -0.182728       0.00132766      0.00179218         0.960069       -0.162208
                       -0.277373       -0.941184       0.00134252      0.00176208        -0.190809       0.0299062     -0.000562546    -0.000990893
                      0.00179537      0.00074616         0.960256       -0.162317     -0.000636529    -0.000968853        0.0691338       -0.217554
252800                 -0.161442       0.0831269      -0.00103586    -0.000799988         -0.35429        -0.91728       0.00185302     0.000668296
                      -0.0010467    -0.000828123          -0.1458       -0.177599       0.00148412      0.00169071         0.947003       -0.224587
                       -0.354108       -0.917246       0.00149287       0.0016585        -0.175642       0.0469496     -0.000639077    -0.000978478
                      0.00186447     0.000630188         0.947184       -0.224688     -0.000709542    -0.000949865        0.0505424       -0.224182
253000                 -0.146737       0.0864933       -0.0011211    -0.000702156        -0.429123       -0.886991       0.00191871     0.000546682
                     -0.00112548    -0.000722687        -0.154643       -0.171902       0.00163162      0.00157391         0.929905       -0.286008
                       -0.428923       -0.886883       0.00163308      0.00154126        -0.158901       0.0613125     -0.000717962    -0.000959731
                       0.0019271     0.000507756          0.93008       -0.286103     -0.000784161    -0.000924766        0.0313162       -0.229086
253200                  -0.13218       0.0882127      -0.00119837    -0.000596614        -0.501477       -0.850413       0.00197744     0.000418396
                      -0.0011946    -0.000610575        -0.163196        -0.16565       0.00176846      0.00144293         0.908842       -0.346213
                       -0.501252       -0.850237       0.00176196      0.00141175        -0.140993       0.0728458      -0.00079874    -0.000934032
                      0.00198258     0.000379039          0.90901       -0.346304      -0.00085992    -0.000893027        0.0116229       -0.232206
253400                 -0.117949       0.0883215      -0.00126682    -0.000483951        -0.570793       -0.807739       0.00202852     0.000283697
                     -0.00125348    -0.000492719        -0.171419       -0.158862       0.00189316      0.00129908         0.883896        -0.40495
                       -0.570538       -0.807506       0.00187859      0.00127142        -0.122339       0.0814599     -0.000880837    -0.000900774
                      0.00203018     0.000244287         0.884055       -0.405039     -0.000936245    -0.000854129      -0.00836417       -0.233497
253600                 -0.104217       0.0868758      -0.00132564    -0.000364864        -0.636526       -0.759219       0.00207121     0.000142915
                     -0.00130162    -0.000370101        -0.179273       -0.151557       0.00200444      0.00114386         0.855165       -0.461971
                       -0.636236       -0.758941       0.00198225      0.00112171        -0.103361       0.0871247     -0.000963561    -0.000859374
                      0.00206918      0.00010384         0.855314       -0.462059      -0.00101245    -0.000807584       -0.0284677       -0.232934
253800                -0.0911491       0.0839516       -0.0013741    -0.000240156        -0.698152       -0.705157       0.00210479    -3.53949e-06
                     -0.00133865    -0.000243739        -0.186722        -0.14376       0.00210128     0.000978887         0.822761       -0.517036
                       -0.697826       -0.704845       0.00207247     0.000964042        -0.084478        0.089869      -0.00104609    -0.000809296
                      0.00209883    -4.18682e-05         0.822898       -0.517125      -0.00108774    -0.000752956       -0.0485082       -0.230505
254000                -0.0789014       0.0796434      -0.00141151    -0.000110728        -0.755173       -0.645907        0.0021285    -0.000155169
                     -0.00136429    -0.000114674         -0.19373       -0.135497       0.00218293     0.000805819         0.786814        -0.56991
                       -0.754811       -0.645573        0.0021489     0.000799758        -0.066098       0.0897792      -0.00112748    -0.000750081
                       0.0021184    -0.000192301         0.786935       -0.570002      -0.00116119    -0.000689888       -0.0683052       -0.226218
254200                -0.0676179        0.074063      -0.00143727     2.24182e-05        -0.807124       -0.581874       0.00214161    -0.000311378
                     -0.00137836     1.60441e-05        -0.200263       -0.126798       0.00224883     0.000626348         0.747463       -0.620368
                       -0.806729       -0.581528       0.00221137     0.000630128       -0.0486095       0.0869961      -0.00120664    -0.000681367
                      0.00212715    -0.000346818         0.747568       -0.620463      -0.00123176    -0.000618125       -0.0876789       -0.220098
254400                -0.0574286       0.0673382      -0.00145088     0.000158197        -0.853576       -0.513506       0.00214338     -0.00047147
                     -0.00138081     0.000147363         -0.20629       -0.117694       0.00229869     0.000442143         0.704866       -0.668193
                       -0.853154        -0.51316       0.00225979     0.000456336       -0.0323747       0.0817121      -0.00128239    -0.000602927
                      0.00212441    -0.000504665          0.70495        -0.66829      -0.00129829    -0.000537554        -0.106452       -0.212188
254600                -0.0484475       0.0596112      -0.00145196     0.000295446        -0.894147       -0.441296       0.00213312    -0.000634638
                     -0.00137166     0.000278242         -0.21178       -0.108219       0.00233238     0.000254821          0.65919       -0.713176
                       -0.893703       -0.440959       0.00229412     0.000279481       -0.0177234       0.0741669      -0.00135342    -0.000514693
                      0.00210952    -0.000664979         0.659253       -0.713277      -0.00135955    -0.000448226        -0.124451       -0.202548
254800                -0.0407709       0.0510362      -0.00144027     0.000432943        -0.928497       -0.365774       0.00211017    -0.000799961
                     -0.00135106      0.00040766        -0.216706      -0.0984107       0.00234999      6.5926e-05          0.61062       -0.755121
                        -0.92804       -0.365452       0.00231438     0.000100591      -0.00494668       0.0646425      -0.00141835     -0.00041679
                      0.00208191     -0.00082679         0.610658       -0.755223      -0.00141424    -0.000350393        -0.141508       -0.191254
255000                -0.0344763        0.041777      -0.00141568     0.000569425        -0.956344         -0.2875       0.00207395    -0.000966403
                     -0.00131921     0.000534626        -0.221044      -0.0883074       0.00235173    -0.000123095         0.559347        -0.79384
                       -0.955881       -0.287199       0.00232064     -7.9365e-05       0.00570841       0.0534578      -0.00147574    -0.000309562
                      0.00204109    -0.000989021          0.55936       -0.793944      -0.00146101    -0.000244535        -0.157464       -0.178401
255200                -0.0296206        0.032005      -0.00137823     0.000703602        -0.977457       -0.207062       0.00202396     -0.00113281
                     -0.00127643     0.000658186        -0.224771      -0.0779503       0.00233793    -0.000310898          0.50558       -0.829159
                       -0.976996       -0.206786       0.00231293    -0.000259458        0.0140435       0.0409618      -0.00152416     -0.00019359
                      0.00198668      -0.0011505         0.505566       -0.829262      -0.00149856    -0.000131376        -0.172165       -0.164098
255400                -0.0262402       0.0218964      -0.00132811     0.000834186        -0.991665       -0.125067        0.0019598     -0.00129794
                      -0.0012231     0.000777428         -0.22787       -0.067382       0.00230904     -0.00049625         0.449535       -0.860915
                       -0.991214       -0.124818       0.00229132    -0.000438782        0.0199126        0.027527       -0.0015622    -6.97076e-05
                       0.0019184     -0.00130997         0.449493       -0.861016      -0.00152565    -1.18962e-05        -0.185473       -0.148469
255600                -0.0243497       0.0116293      -0.00126565     0.000959905        -0.998854      -0.0421376        0.0018812     -0.00146042
                     -0.00115969      0.00089149        -0.230323      -0.0566469       0.00226555    -0.000678026         0.391441       -0.888959
                       -0.998421      -0.0419166       0.00225587    -0.000616434        0.0232254       0.0135415      -0.00158855     6.10003e-05
                      0.00183613      -0.0014661          0.39137       -0.889057      -0.00154115     0.000112676        -0.197259       -0.131656
255800                -0.0239429      0.00138125      -0.00119134      0.00107953        -0.998973       0.0410989       0.00178804     -0.00161882
                     -0.00108673     0.000999567        -0.232119      -0.0457908       0.00220803    -0.000855215         0.331534       -0.913155
                       -0.998565       0.0412926       0.00220666    -0.000791496        0.0239487    -0.000598453      -0.00160202     0.000197205
                      0.00173989     -0.00161752         0.331434       -0.913247      -0.00154417     0.000240883        -0.207407       -0.113809
256000                -0.0249921      -0.0086736       -0.0011058       0.0011919        -0.992031        0.124013       0.00168038     -0.00177163
                     -0.00100481      0.00110091        -0.233248      -0.0348607       0.00213704     -0.00102691         0.270063       -0.933381
                       -0.991655        0.124182       0.00214378    -0.000963022         0.022107      -0.0144976      -0.00160164     0.000337361
                      0.00162985     -0.00176282         0.269934       -0.933466      -0.00153403     0.000371081         -0.21582      -0.0950936
256200                -0.0274498       -0.018367      -0.00100979      0.00129593        -0.978097        0.205983       0.00155846     -0.00191731
                    -0.000914562      0.00119484        -0.233705      -0.0239045       0.00205319      -0.0011923         0.207282       -0.949532
                       -0.977758        0.206128       0.00206734     -0.00113003        0.0177826      -0.0277694      -0.00158666     0.000479738
                      0.00150638     -0.00190058         0.207125       -0.949607      -0.00151037     0.000501495        -0.222414      -0.0756844
