! TOUCHSTONE file generated by CST MICROWAVE STUDIO
! Date and time: Sun Sep 28 19:09:13 2025
! Project name: biblioteca3_folgaOK.cst
! Parameters = {H=600; Lx=200; Ly=260; Nedge=16; P=520; mesh_pilar_nm=40; t_air=3800; t_sub=6000}
! Header version: 2018
! Port assignment regex: !\s*Touchstone port\s*([0-9]+)\s*=\s*(CST MWS port|CST DS port)\s*([0-9]+|Zmin|Zmax)\s*\(\"(.*)\"\)(\s*mode\s*([0-9]+))?.*
! Touchstone port assignment:
! Touchstone port 1 = CST MWS port Zmin ("") mode 1
! Touchstone port 2 = CST MWS port Zmin ("") mode 2
! Touchstone port 3 = CST MWS port Zmax ("") mode 1
! Touchstone port 4 = CST MWS port Zmax ("") mode 2
! S-Parameters are not renormalized. Each port impedance will be approximated by the real part at minimum frequency. The values are described via the [Reference] keyword.
! Default impedance is overridden by [Reference]
[Version] 2.0
# GHz S RI R 376.73
[Number of Ports] 4
[Reference]
376.73 376.73 376.73 376.73 
[Number of Frequencies] 401
[Network Data]
250000                  0.315883        0.218796      0.000591391     4.68044e-05         0.289898        0.876582       0.00159596     0.000736031
                     0.000726426      2.6674e-06         0.104801       0.0231137       0.00146875     0.000562832        -0.938587        0.327668
                         0.29012        0.876601       0.00137717     0.000663115         0.123237       -0.364003      0.000261879    -0.000133812
                      0.00141938     0.000717681        -0.938464        0.327566      0.000294016    -0.000170002       -0.0676263       0.0833404
250200                   0.33941          0.1856      0.000584778    -3.13981e-05         0.386645        0.837579       0.00165022     0.000576363
                     0.000708784    -0.000105161          0.10287       0.0257418       0.00151092     0.000413845        -0.899081        0.424545
                        0.386517        0.837704       0.00147124     0.000503151        0.0797437       -0.378255      0.000232078    -0.000126468
                       0.0015174     0.000599276         -0.89865        0.424543      0.000232837    -0.000222935       -0.0456689       0.0960067
250400                  0.358395        0.149478      0.000565772    -0.000110379         0.478513        0.788178       0.00169318     0.000410671
                     0.000671443    -0.000207575         0.102412       0.0287901        0.0015407     0.000257357        -0.849409        0.516737
                        0.478198        0.788409       0.00155035     0.000327927        0.0340315       -0.386419      0.000195911    -0.000118635
                      0.00160621     0.000463085        -0.848823        0.516709      0.000158504    -0.000269223       -0.0217765        0.104544
250600                  0.372459        0.111164      0.000533609    -0.000187509          0.56446         0.72896       0.00172397     0.000239515
                     0.000616487    -0.000299884          0.10347        0.031953        0.0015567     9.43983e-05        -0.790145        0.603139
                        0.564082        0.729266       0.00161176     0.000138895       -0.0129159       -0.388074      0.000152224    -0.000110269
                      0.00168227     0.000309523        -0.789543        0.603021      7.11719e-05    -0.000304999       0.00329981        0.108678
250800                  0.381354       0.0714322      0.000488228    -0.000259798         0.643505        0.660587       0.00174173     6.35613e-05
                     0.000547302    -0.000378399         0.106034       0.0349263       0.00155762    -7.37542e-05        -0.721988        0.682722
                        0.643148        0.660918       0.00165285    -6.19266e-05       -0.0600291       -0.382978      9.96878e-05    -0.000101202
                      0.00174194     0.000139806        -0.721482          0.6825     -2.77073e-05    -0.000325956        0.0287782        0.108274
251000                  0.384959       0.0310736      0.000430441    -0.000324125         0.714728        0.583798       0.00174555    -0.000116407
                     0.000468039    -0.000440788          0.11004       0.0374164       0.00154226    -0.000245572        -0.645751        0.754551
                         0.71444          0.5841       0.00167126    -0.000271963        -0.106191        -0.37109      3.67828e-05    -9.10213e-05
                      0.00178163    -4.39637e-05         -0.64542        0.754247     -0.000135025    -0.000327865        0.0538738        0.103338
251200                  0.383279     -0.00912467      0.000361993    -0.000377555         0.777276        0.499413       0.00173452    -0.000299471
                     0.000383029    -0.000486141         0.115373       0.0391498       0.00150957     -0.00041928        -0.562347        0.817795
                        0.777073        0.499633       0.00166507    -0.000488124        -0.150279       -0.352575     -3.81944e-05    -7.88678e-05
                      0.00179813    -0.000238793        -0.562239        0.817448     -0.000245905    -0.000307326        0.0778237       0.0940125
251400                  0.376434      -0.0483964      0.000285494    -0.000417682         0.830357        0.408322       0.00170775    -0.000484556
                     0.000296288    -0.000514793         0.121878       0.0398795       0.00145873     -0.00059287        -0.472771        0.871738
                        0.830232        0.408421       0.00163291    -0.000706893        -0.191207       -0.327804     -0.000127081    -6.31211e-05
                       0.0017888    -0.000440874        -0.472903        0.871398     -0.000354011    -0.000262639        0.0999087       0.0805629
251600                  0.364658      -0.0860114      0.000204198    -0.000442918         0.873251        0.311497       0.00166435    -0.000670417
                     0.000211198       -0.000528         0.129358       0.0393916       0.00138916    -0.000764127        -0.378088        0.915789
                         0.87318        0.311449       0.00157404    -0.000924447         -0.22796       -0.297339      -0.00023168    -4.09185e-05
                      0.00175188    -0.000645753        -0.378452        0.915503     -0.000452345    -0.000194493         0.119473       0.0633685
251800                  0.348283       -0.121288       0.00012168     -0.00045268         0.905316        0.209985       0.00160349    -0.000855618
                     0.000130371    -0.000527585         0.137588       0.0375098       0.00130058    -0.000930668        -0.279416        0.949482
                        0.905265         0.20978       0.00148847     -0.00113681        -0.259639        -0.26192     -0.000353312    -7.48204e-06
                      0.00168662    -0.000848589        -0.279982        0.949289     -0.000534389    -0.000106176         0.135938       0.0429058
252000                  0.327736       -0.153607      4.14642e-05    -0.000447422         0.925994        0.104909       0.00152443     -0.00103852
                     5.56584e-05    -0.000515622          0.14632       0.0340989        0.0011931     -0.00108999        -0.177908        0.972484
                        0.925926        0.104557       0.00137698     -0.00134004        -0.285482       -0.222436     -0.000491804     4.46822e-05
                      0.00159337     -0.00104445        -0.178634         0.97241     -0.000595252    -3.13757e-06         0.148816       0.0197331
252200                  0.303527       -0.182417      -3.3314e-05    -0.000428513         0.934821     -0.00253018       0.00142653     -0.00121726
                     -1.1746e-05    -0.000494205         0.155285       0.0290668       0.00106718     -0.00123953       -0.0747361        0.984593
                        0.934704     -0.00300636       0.00124108     -0.00153039        -0.304892       -0.179899     -0.000643403     0.000126321
                      0.00147355     -0.00122865       -0.0755721        0.984652     -0.000632413     0.000107983         0.157722     -0.00552666
252400                  0.276241        -0.20725     -0.000100149    -0.000398002         0.931445       -0.111057       0.00130932     -0.00138975
                    -7.11687e-05    -0.000465296          0.16421       0.0223663      0.000923666     -0.00137673        0.0289232        0.985741
                        0.931253       -0.111622       0.00108296     -0.00170447        -0.317455       -0.135413     -0.000797245     0.000250536
                      0.00132952     -0.00139697        0.0280277        0.985931     -0.000645851     0.000220524         0.162373      -0.0322028
252600                  0.246525        -0.22773     -0.000157284    -0.000358345         0.915634       -0.219328       0.00117256      -0.0015537
                    -0.000122313     -0.00043066         0.172815       0.0139942      0.000763843     -0.00149912         0.131903        0.975984
                        0.915354       -0.219939      0.000905422     -0.00185943        -0.322951      -0.0901375     -0.000931138     0.000428104
                      0.00116438     -0.00154594         0.130996         0.97629     -0.000637595     0.000328767         0.162601      -0.0595945
252800                  0.215081        -0.24358     -0.000203713    -0.000312134         0.887296        -0.32594       0.00101627     -0.00170657
                    -0.000165132    -0.000391837         0.180826      0.00399133      0.000589365     -0.00160439         0.233063        0.955503
                        0.886927       -0.326551      0.000711673     -0.00199301         -0.32136       -0.045258      -0.00101113     0.000656888
                     0.000981686     -0.00167291         0.232183        0.955902     -0.000610979     0.000428482         0.158347      -0.0869877
253000                  0.182648       -0.254633     -0.000239094    -0.000261875         0.846493       -0.429439      0.000840821     -0.00184566
                    -0.000199737    -0.000350164         0.187979     -0.00755957      0.000402257     -0.00169043         0.331296        0.924598
                        0.846048       -0.430006      0.000505238     -0.00210364        -0.312865     -0.00195065      -0.00100301     0.000909697
                     0.000785238     -0.00177609         0.330474        0.925059     -0.000569865     0.000517034         0.149664       -0.113672
253200                  0.149986       -0.260841     -0.000263622    -0.000209847         0.793456        -0.52834      0.000646985     -0.00196812
                    -0.000226316    -0.000306803         0.194028      -0.0205364      0.000204863     -0.00175543         0.425546        0.883678
                        0.792959       -0.528823      0.000289793     -0.00219047        -0.297849       0.0386506     -0.000896007      0.00113646
                     0.000578812     -0.00185449         0.424802        0.884166     -0.000518043     0.000593176         0.136714       -0.138957
253400                   0.11786       -0.262277     -0.000277877    -0.000158023         0.728603       -0.621146      0.000436008     -0.00207101
                    -0.000245097    -0.000262793         0.198746       -0.034781     -2.04705e-07     -0.00179793         0.514814        0.833253
                        0.728088       -0.621515      6.90336e-05     -0.00225333        -0.276888       0.0754865     -0.000716876      0.00129055
                     0.000365999      -0.0019078         0.514159        0.833736      -0.00045887     0.000656707         0.119763       -0.162187
253600                 0.0870196       -0.259141     -0.000282695    -0.000108045         0.652546       -0.706368      0.000209663     -0.00215139
                    -0.000256319    -0.000219093         0.201936      -0.0501028     -0.000210131     -0.00181683         0.598169        0.773931
                        0.652053       -0.706605     -0.000153424     -0.00229271        -0.250734        0.107605     -0.000513306      0.00135612
                     0.000150087     -0.00193629         0.597602        0.774377     -0.000395106     0.000708112        0.0991733       -0.182757
253800                 0.0581745       -0.251757     -0.000279057     -6.1245e-05         0.566103       -0.782564     -2.97066e-05     -0.00220642
                    -0.000260228    -0.000176633         0.203428      -0.0662838     -0.000421968     -0.00181144         0.674753        0.706402
                        0.565676       -0.782664     -0.000374116     -0.00230969        -0.220307        0.134192     -0.000324744      0.00134805
                    -6.60073e-05      -0.0019406         0.674268        0.706787     -0.000328903     0.000748267        0.0753939       -0.200126
254000                 0.0319739        -0.24057     -0.000268013    -1.86807e-05         0.470301        -0.84836     -0.000279167     -0.00223348
                    -0.000257091    -0.000136358          0.20309      -0.0830831       -0.0006327     -0.00178146          0.74379        0.631434
                        0.469981       -0.848331     -0.000589752      -0.0023059        -0.186664          0.1546     -0.000169651      0.00129292
                    -0.000279745     -0.00192165         0.743372        0.631737     -0.000261869     0.000778211        0.0489523       -0.213827
254200                0.00898273       -0.226135     -0.000250628     1.88146e-05         0.366373       -0.902493     -0.000535201     -0.00223031
                    -0.000247226    -9.92665e-05         0.200825       -0.100243      -0.00083932       -0.001727          0.80459        0.549859
                        0.366195       -0.902355      -0.00079719     -0.00228347        -0.150975        0.168379     -5.02123e-05      0.00121401
                    -0.000488942      -0.0018805         0.804223        0.550069     -0.000195162     0.000799012        0.0204409       -0.223481
254400                -0.0103397       -0.209101     -0.000227954     5.05837e-05         0.255746       -0.943843     -0.000793749     -0.00219516
                    -0.000231055    -6.64398e-05         0.196576       -0.117493      -0.00103888     -0.00164857         0.856551        0.462569
                        0.255738       -0.943627     -0.000993347     -0.00224494        -0.114489        0.175294       3.8886e-05      0.00112666
                    -0.000691719     -0.00181826         0.856219        0.462681     -0.000129592     0.000811671      -0.00949663       -0.228803
254600                -0.0256583       -0.190193     -0.000201025      7.6101e-05         0.140031       -0.971472       -0.0010503      -0.0021269
                    -0.000209169    -3.90491e-05         0.190326       -0.134558      -0.00122856       -0.001547         0.899168        0.370502
                        0.140209       -0.971216      -0.00117502     -0.00219329       -0.0784906        0.175347      0.000104685      0.00103945
                    -0.000886437     -0.00173603         0.898852        0.370517     -6.57141e-05     0.000817088         -0.04018        -0.22961
254800                -0.0367767       -0.170184     -0.000170862     9.49365e-05        0.0209885       -0.984657      -0.00129999      -0.0020252
                    -0.000182419    -1.83408e-05         0.182097       -0.151162      -0.00140568     -0.00142345         0.932029        0.274635
                       0.0213565       -0.984401       -0.0013386     -0.00213183       -0.0442577        0.168786      0.000153484     0.000956594
                     -0.00107163     -0.00163486         0.931714        0.274561     -3.90042e-06     0.000816039       -0.0709079       -0.225825
255000                -0.0436466       -0.149872     -0.000138489     0.000106729       -0.0994935       -0.982918      -0.00153781     -0.00189058
                    -0.000152008    -5.57808e-06         0.171953       -0.167037      -0.00156779     -0.00127937          0.95482        0.175976
                      -0.0989448       -0.982704      -0.00147956     -0.00206416       -0.0130096        0.156104       0.00019019     0.000879802
                     -0.00124594     -0.00151577         0.954495        0.175825      5.55977e-05     0.000809181        -0.100974       -0.217479
255200                -0.0463705       -0.130046     -0.000104961     0.000111173        -0.219446       -0.966046      -0.00175875     -0.00172446
                    -0.000119589    -1.92828e-06         0.159994       -0.181925      -0.00171262     -0.00111643         0.967327       0.0755527
                       -0.218737        -0.96591      -0.00159169     -0.00199377        0.0141427         0.13803      0.000218397     0.000809499
                     -0.00140805     -0.00137971         0.966983       0.0753383      0.000112605     0.000797057        -0.129685       -0.204712
255400                -0.0451983       -0.111456     -7.13952e-05      0.00010801        -0.336859       -0.934118      -0.00195803      -0.0015292
                    -8.73201e-05    -8.28577e-06         0.146359       -0.195584      -0.00183817      -0.0009365         0.969434      -0.0255941
                       -0.336023        -0.93409      -0.00166598     -0.00192308         0.036247         0.11551      0.000240663     0.000745479
                     -0.00155665     -0.00122761         0.969067      -0.0258556      0.000166986     0.000780112        -0.156373       -0.187768
255600                -0.0405167      -0.0947865     -3.90109e-05     9.70472e-05        -0.449734       -0.887503       -0.0021313     -0.00130802
                    -5.78599e-05    -2.50335e-05         0.131218       -0.207797      -0.00194265    -0.000741635         0.961123       -0.126419
                       -0.448808       -0.887604      -0.00168927     -0.00185113        0.0525549       0.0896656      0.000258787     0.000687268
                     -0.00169039     -0.00106043         0.960733       -0.126712      0.000218621     0.000758711        -0.180415       -0.166991
255800                -0.0328322      -0.0806278     -9.16712e-06     7.81823e-05        -0.556129       -0.826867      -0.00227484      -0.0010649
                    -3.42322e-05    -5.17734e-05         0.114773       -0.218371      -0.00202456    -0.000534018         0.942476       -0.225881
                       -0.555156       -0.827106      -0.00164426     -0.00176829        0.0625599       0.0617565       0.00027403     0.000634303
                     -0.00180785    -0.000879197         0.942066       -0.226189      0.000267385     0.000733149        -0.201247       -0.142817
256000                -0.0227494      -0.0694552      1.65984e-05     5.14578e-05        -0.654208       -0.753152      -0.00238568    -0.000804417
                    -1.95475e-05    -8.70907e-05        0.0972481       -0.227145      -0.00208261    -0.000315953         0.913672       -0.322951
                       -0.653233       -0.753528      -0.00151512      -0.0016478         0.066024        0.033122      0.000287278     0.000586018
                     -0.00190754    -0.000685042         0.913248       -0.323261      0.000313131     0.000703674        -0.218376       -0.115767
256200                -0.0109441      -0.0616119      3.65389e-05       1.714e-05        -0.742293       -0.667564      -0.00246176    -0.000531543
                    -1.65769e-05    -0.000128446         0.078892       -0.233993      -0.00211579    -8.98506e-05         0.874987       -0.416618
                       -0.741358       -0.668065      -0.00130708     -0.00144134        0.0629915      0.00512223      0.000299155     0.000541884
                     -0.00198795    -0.000479276         0.874556        -0.41692       0.00035568       0.0006705        -0.231391      -0.0864321
