! TOUCHSTONE file generated by CST MICROWAVE STUDIO
! Date and time: Sun Sep 28 19:09:13 2025
! Project name: biblioteca3_folgaOK.cst
! Parameters = {H=600; Lx=200; Ly=260; Nedge=18; P=520; mesh_pilar_nm=40; t_air=3800; t_sub=6000}
! Header version: 2018
! Port assignment regex: !\s*Touchstone port\s*([0-9]+)\s*=\s*(CST MWS port|CST DS port)\s*([0-9]+|Zmin|Zmax)\s*\(\"(.*)\"\)(\s*mode\s*([0-9]+))?.*
! Touchstone port assignment:
! Touchstone port 1 = CST MWS port Zmin ("") mode 1
! Touchstone port 2 = CST MWS port Zmin ("") mode 2
! Touchstone port 3 = CST MWS port Zmax ("") mode 1
! Touchstone port 4 = CST MWS port Zmax ("") mode 2
! S-Parameters are not renormalized. Each port impedance will be approximated by the real part at minimum frequency. The values are described via the [Reference] keyword.
! Default impedance is overridden by [Reference]
[Version] 2.0
# GHz S RI R 376.73
[Number of Ports] 4
[Reference]
376.73 376.73 376.73 376.73 
[Number of Frequencies] 401
[Network Data]
250000                  0.315883        0.218796      0.000591388     4.68095e-05         0.289898        0.876582       0.00159596      0.00073603
                     0.000726427     2.66317e-06         0.104801       0.0231137       0.00146875     0.000562819        -0.938587        0.327668
                         0.29012        0.876601       0.00137718     0.000663121         0.123237       -0.364003      0.000261878    -0.000133814
                      0.00141938      0.00071768        -0.938464        0.327566       0.00029401    -0.000170001       -0.0676263       0.0833404
250200                  0.339351        0.185506       0.00061726     -3.1867e-05         0.385663        0.837074       0.00161837     0.000528554
                     0.000624253    -4.27882e-05         0.102921       0.0258572       0.00152449     0.000447168        -0.899139         0.42433
                        0.387392        0.837924       0.00144571     0.000601447        0.0792051       -0.378517         0.000249    -0.000120173
                      0.00151954     0.000592219        -0.899569         0.42468      0.000174825    -0.000170031       -0.0452161       0.0960397
250400                  0.358281        0.149362      0.000630455    -0.000121821         0.476819        0.787495       0.00162699     0.000330809
                      0.00053651    -8.89627e-05         0.102517       0.0289521       0.00157362     0.000320146         -0.84955        0.516371
                        0.479676        0.788636       0.00151435     0.000529398        0.0331241       -0.386682      0.000233625     -0.00010573
                      0.00160805      0.00045028        -0.850259        0.517124      8.09383e-05    -0.000166216       -0.0210729        0.104472
250600                  0.372317        0.111075      0.000626289    -0.000220672         0.562321        0.728315       0.00162358     0.000141998
                     0.000459681    -0.000133621         0.103614       0.0321133       0.00161416     0.000181431        -0.790379        0.602679
                        0.565914        0.729385       0.00158185     0.000445623       -0.0139847       -0.388193      0.000215436     -9.0382e-05
                      0.00168194     0.000293013        -0.791161        0.603742      3.08247e-06    -0.000159357       0.00407487        0.108459
250800                  0.381219       0.0713937      0.000600484    -0.000323823         0.641164        0.660102       0.00160954    -3.87095e-05
                     0.000390945    -0.000175508         0.106193       0.0350564       0.00164384     3.09888e-05        -0.722314        0.682219
                        0.645123        0.660893       0.00164645     0.000348712       -0.0610594        -0.38292      0.000194079    -7.39797e-05
                      0.00173837     0.000122182        -0.723028        0.683476     -6.42089e-05    -0.000149676         0.029491        0.107934
251000                  0.384868       0.0310855      0.000550408    -0.000424451         0.712395        0.583523       0.00158595     -0.00021217
                     0.000328095    -0.000213909         0.110191       0.0375053       0.00166006    -0.000130811        -0.646158        0.754046
                          0.7164        0.583948       0.00170577     0.000237265        -0.107026       -0.370906      0.000169158    -5.63105e-05
                      0.00177481    -5.98564e-05        -0.646724        0.755379     -0.000124363    -0.000137073        0.0544445        0.102942
251200                  0.383257     -0.00907985      0.000476391    -0.000514301         0.775113        0.499341       0.00155364    -0.000379268
                     0.000269426    -0.000248378         0.115496       0.0391992          0.00166    -0.000303063        -0.562817        0.817321
                        0.778906        0.499402       0.00175659     0.000110019        -0.150827       -0.352371      0.000140237    -3.70669e-05
                      0.00178915    -0.000250209        -0.563205        0.818619     -0.000179613    -0.000121234        0.0782238       0.0936326
251400                  0.376494      -0.0483463      0.000382507    -0.000585368         0.828479        0.408412       0.00151318    -0.000540929
                     0.000213637     -0.00027858          0.12196       0.0398996       0.00164071    -0.000484187        -0.473285        0.871318
                        0.831876        0.408173       0.00179457     -3.3966e-05        -0.191447       -0.327705      0.000106845    -1.58047e-05
                      0.00177984    -0.000445557        -0.473502        0.872493     -0.000231427    -0.000101672         0.100151       0.0802643
251600                  0.364797      -0.0859863      0.000276181    -0.000631918         0.871729        0.311686       0.00146486    -0.000698132
                     0.000159761    -0.000304193         0.129395       0.0393964       0.00159924    -0.000671804        -0.378624        0.915436
                        0.874614        0.311244        0.0018139    -0.000195014        -0.227941       -0.297458      6.84907e-05     8.11584e-06
                      0.00174602    -0.000642303        -0.378706        0.916424     -0.000280727    -7.77347e-05         0.119599       0.0631945
251800                  0.348484       -0.121314      0.000166618    -0.000651967         0.904176        0.210203       0.00140867    -0.000851929
                     0.000107123    -0.000324851         0.137582       0.0375135        0.0015329    -0.000862642        -0.279953        0.949202
                        0.906497        0.209667       0.00180673    -0.000372462        -0.259457       -0.262332      2.47003e-05     3.56119e-05
                      0.00168757     -0.00083674         -0.27995        0.949968     -0.000327983    -4.86121e-05         0.136001       0.0428733
252000                  0.327974       -0.153701      6.27264e-05    -0.000647513         0.925226        0.105092       0.00134419     -0.00100343
                     5.53169e-05    -0.000340115         0.146278        0.034113       0.00143957     -0.00105252        -0.178426        0.972278
                        0.926987        0.104566       0.00176206    -0.000564278        -0.285259       -0.223167     -2.49088e-05      6.7987e-05
                      0.00160516     -0.00102525        -0.178394        0.972813     -0.000373232     -1.3346e-05          0.14887       0.0198339
252200                  0.303771       -0.182584     -2.84695e-05    -0.000623593          0.93439     -0.00243415       0.00127048     -0.00115376
                     4.22253e-06    -0.000349466          0.15522        0.029099       0.00131797     -0.00123645       -0.0752197        0.984457
                        0.935635      -0.0028636        0.0016635    -0.000767199        -0.304752        -0.18092      -8.0483e-05     0.000107067
                      0.00150024      -0.0012045       -0.0752085        0.984773     -0.000416036       2.914e-05         0.157809     -0.00532056
252400                  0.276462       -0.207483      -0.00010231    -0.000586831         0.931293       -0.111083       0.00118589     -0.00130393
                    -4.59692e-05    -0.000352317         0.164133       0.0224191       0.00116805     -0.00140883        0.0284858        0.985664
                        0.932097       -0.111356        0.0014837    -0.000979917        -0.317498       -0.136645     -0.000141669     0.000155342
                      0.00137507     -0.00137169        0.0284349        0.985794     -0.000455393     7.99664e-05          0.16252      -0.0319315
252600                  0.246699       -0.228012     -0.000155743    -0.000544231         0.915694       -0.219491        0.0010879     -0.00145455
                    -9.47074e-05    -0.000348069         0.172737       0.0140661      0.000991168     -0.00156386          0.13152        0.975956
                        0.916146       -0.219576       0.00117249     -0.00122278        -0.323239      -0.0914724     -0.000207155     0.000216066
                      0.00123281     -0.00152494          0.13138        0.975942     -0.000489628      0.00014015         0.162817      -0.0593015
252800                  0.215194       -0.243887     -0.000185095    -0.000502455         0.887498       -0.326235      0.000973039      -0.0016054
                    -0.000141031      -0.0003362         0.180757      0.00407742      0.000790255     -0.00169597         0.232738        0.955513
                        0.887692       -0.326127      0.000679776     -0.00163402        -0.321906      -0.0465731     -0.000273949     0.000293137
                      0.00107791     -0.00166401         0.232496        0.955402     -0.000516284     0.000210349         0.158623      -0.0867127
253000                  0.182695       -0.254939     -0.000180493    -0.000466077          0.84677       -0.429845      0.000836971     -0.00175472
                    -0.000183536     -0.00031642         0.187926     -0.00746643      0.000569694     -0.00180037         0.331031        0.924633
                        0.846794       -0.429564      0.000381854     -0.00246093        -0.313634     -0.00313188      -0.00033639     0.000390478
                      0.00091722     -0.00179292         0.330688        0.924472     -0.000532116      0.00029047          0.14998       -0.113445
253200                  0.149973       -0.261121     -0.000112401    -0.000420375         0.793752        -0.52882      0.000675137     -0.00189847
                    -0.000220408    -0.000288872         0.193992      -0.0204441      0.000335028     -0.00187349         0.425338        0.883726
                        0.793682       -0.528405      0.000625694     -0.00290985        -0.298766       0.0376909     -0.000385222     0.000510417
                     0.000762727     -0.00193234         0.424911        0.883558     -0.000533272      0.00037916         0.137042       -0.138795
253400                  0.117801       -0.262512      7.43013e-06    -0.000241107         0.728873       -0.621654      0.000483995     -0.00202977
                    -0.000249545    -0.000254379         0.198728      -0.0346967      9.24882e-05     -0.00191334         0.514658        0.833307
                        0.728767       -0.621154      0.000598194     -0.00289868        -0.277851       0.0747966     -0.000407718     0.000650738
                     0.000591041     -0.00221785         0.514172        0.833165     -0.000515824      0.00047329         0.120074       -0.162093
253600                 0.0869352       -0.259319     -9.97917e-05    -1.54192e-05         0.652763       -0.706856      0.000262791     -0.00213929
                    -0.000268851    -0.000214656         0.201931      -0.0500325     -0.000151576      -0.0019196         0.598059        0.773981
                        0.652661       -0.706327      0.000342067     -0.00283303        -0.251637        0.107188     -0.000390568     0.000801203
                    -0.000202297      -0.0021373         0.597544        0.773888     -0.000476706     0.000567685        0.0994396       -0.182723
253800                 0.0580862       -0.251875     -0.000207752     1.96381e-05         0.566254       -0.782983      1.50981e-05     -0.00221683
                    -0.000276665    -0.000172395         0.203433      -0.0662311     -0.000391241     -0.00189347         0.674682        0.706444
                        0.566177       -0.782476      6.58361e-06     -0.00274714        -0.221051        0.134007     -0.000326355     0.000942617
                    -0.000200233     -0.00191341         0.674171        0.706411     -0.000414914     0.000655448        0.0755977       -0.200134
254000                 0.0319018       -0.240635      -0.00023902     2.64447e-05         0.470386       -0.848667     -0.000250948     -0.00225401
                    -0.000272277    -0.000131099         0.203098      -0.0830495     -0.000621445     -0.00183737          0.74375        0.631463
                        0.470341       -0.848229     -0.000346293     -0.00262373        -0.187179        0.154573      -0.00022039      0.00105224
                    -0.000329685     -0.00189517         0.743274         0.63149     -0.000332521     0.000729099        0.0490845       -0.213855
254200                0.00894231       -0.226159     -0.000239961     3.73575e-05         0.366405       -0.902656     -0.000524293     -0.00224658
                    -0.000256353     -9.4615e-05         0.200832       -0.100227     -0.000838245     -0.00175454         0.804573        0.549874
                        0.366384       -0.902319     -0.000685728     -0.00245545        -0.151229        0.168415     -9.10188e-05      0.00111422
                    -0.000504555     -0.00186756         0.804159        0.549951     -0.000234865     0.000782333        0.0205022       -0.223505
254400                -0.0103397       -0.209101     -0.000227955     5.05838e-05         0.255746       -0.943843     -0.000793755     -0.00219515
                    -0.000231055    -6.64398e-05         0.196576       -0.117493      -0.00103888     -0.00164853         0.856551        0.462569
                        0.255738       -0.943627     -0.000993347     -0.00224494        -0.114489        0.175294      3.88895e-05      0.00112671
                    -0.000691719     -0.00181826         0.856219        0.462681     -0.000129567     0.000811674      -0.00949665       -0.228803
254600                -0.0256165       -0.190187      -0.00020918     6.32117e-05         0.140023       -0.971302       -0.0010504     -0.00210402
                    -0.000199754    -4.90272e-05         0.190316       -0.134569      -0.00122169     -0.00152285         0.899178        0.370488
                        0.140013       -0.971213      -0.00125843     -0.00200056       -0.0782823        0.175226      0.000152046      0.00109969
                    -0.000880011     -0.00174672         0.898939        0.370613     -2.47154e-05     0.000817213       -0.0402252        -0.22957
254800                -0.0366987       -0.170189     -0.000186359     7.33878e-05        0.0209997       -0.984324      -0.00128847     -0.00197911
                    -0.000166411    -4.33615e-05         0.182076       -0.151181      -0.00138587     -0.00138063         0.932044         0.27461
                       0.0209733       -0.984356      -0.00147608     -0.00173289       -0.0439153        0.168483      0.000240782      0.00104745
                     -0.00106395     -0.00165372         0.931902        0.274724      7.29439e-05     0.000802117       -0.0709786       -0.225738
255000                -0.0435432         -0.1499      -0.00016101     7.99509e-05       -0.0994417       -0.982441      -0.00150496     -0.00182617
                    -0.000134851    -4.89363e-05         0.171921       -0.167058      -0.00153124     -0.00122447         0.954837        0.175941
                      -0.0994924       -0.982578       -0.0016458     -0.00145236       -0.0126223        0.155595      0.000305067      0.00098255
                     -0.00124001     -0.00154026         0.954786        0.176023      0.000159044     0.000771328         -0.10105       -0.217345
255200                -0.0462555       -0.130103     -0.000134189     8.21037e-05        -0.219337       -0.965454       -0.0016986     -0.00164996
                    -0.000108201    -6.40858e-05         0.159953       -0.181943      -0.00165797     -0.00105641         0.967342       0.0755114
                       -0.219414       -0.965675      -0.00177011     -0.00116796        0.0144858        0.137327       0.00034872     0.000913582
                     -0.00140551     -0.00140745          0.96737       0.0755423      0.000231697     0.000730157        -0.129748       -0.204538
255400                 -0.045086       -0.111543     -0.000106796     7.92334e-05        -0.336685       -0.933446      -0.00186884     -0.00145404
                    -8.86177e-05    -8.64801e-05         0.146311       -0.195597      -0.00176631    -0.000877892         0.969445       -0.025639
                       -0.336784       -0.933728      -0.00185326    -0.000886683        0.0364709        0.114656      0.000376573     0.000845514
                     -0.00155818     -0.00125647         0.969533       -0.025673      0.000290956     0.000683301        -0.156409       -0.187564
255600                -0.0404196       -0.094899     -7.97289e-05     7.08254e-05        -0.449493        -0.88679      -0.00201522     -0.00124108
                    -7.72933e-05    -0.000113592         0.131167       -0.207803      -0.00185641    -0.000689934          0.96113       -0.126465
                       -0.449605       -0.887111      -0.00190024    -0.000613476        0.0526095       0.0887263      0.000393055     0.000780795
                     -0.00169599     -0.00108859         0.961256       -0.126572      0.000338078      0.00063439        -0.180417       -0.166773
255800                -0.0327594      -0.0807573     -5.39831e-05      5.6434e-05        -0.555829        -0.82615      -0.00213703     -0.00101329
                    -7.46302e-05    -0.000143027         0.114721       -0.218369      -0.00192816    -0.000493254         0.942478       -0.225926
                       -0.555941       -0.826491       -0.0019161    -0.000351552        0.0624258       0.0608085      0.000401726     0.000720377
                     -0.00181701    -0.000905184          0.94262       -0.226106      0.000374883     0.000585946        -0.201212         -0.1426
256000                -0.0227053      -0.0695909     -3.07343e-05     3.56948e-05        -0.653863       -0.752465      -0.00223329    -0.000772755
                    -8.04752e-05     -0.00017269        0.0971992       -0.227136      -0.00198116    -0.000288458          0.91367       -0.322992
                       -0.653963       -0.752815      -0.00190552     -0.00010273        0.0657123       0.0322389      0.000405266     0.000664417
                     -0.00191945    -0.000707806         0.913805        -0.32324      0.000403315     0.000539546        -0.218306       -0.115566
256200                -0.0109289      -0.0617433     -1.14077e-05     8.37766e-06        -0.741921       -0.666936      -0.00230283    -0.000521714
                    -9.43322e-05     -0.00020083        0.0788482       -0.233978      -0.00201462    -7.62251e-05         0.874982       -0.416654
                       -0.741997       -0.667287      -0.00187259     0.000132182        0.0625387      0.00436399      0.000405621     0.000612695
                     -0.00200158    -0.000498176         0.875089       -0.416959      0.000425195     0.000496058        -0.231295      -0.0862572
