! TOUCHSTONE file generated by CST MICROWAVE STUDIO
! Date and time: Sun Sep 28 21:29:18 2025
! Project name: biblioteca3_folgaOK.cst
! Parameters = {H=600; Lx=300; Ly=300; Nedge=24; P=520; mesh_pilar_nm=40; t_air=3500; t_sub=4000}
! Header version: 2018
! Port assignment regex: !\s*Touchstone port\s*([0-9]+)\s*=\s*(CST MWS port|CST DS port)\s*([0-9]+|Zmin|Zmax)\s*\(\"(.*)\"\)(\s*mode\s*([0-9]+))?.*
! Touchstone port assignment:
! Touchstone port 1 = CST MWS port Zmin ("") mode 1
! Touchstone port 2 = CST MWS port Zmin ("") mode 2
! Touchstone port 3 = CST MWS port Zmax ("") mode 1
! Touchstone port 4 = CST MWS port Zmax ("") mode 2
! S-Parameters are not renormalized. Each port impedance will be approximated by the real part at minimum frequency. The values are described via the [Reference] keyword.
! Default impedance is overridden by [Reference]
[Version] 2.0
# GHz S RI R 376.73
[Number of Ports] 4
[Reference]
376.73 376.73 376.73 376.73 
[Number of Frequencies] 401
[Network Data]
250000                  0.209316        0.217245      0.000255825     8.08827e-05          0.16782        0.938522      0.000712491    -0.000238015
                     0.000254218     8.11421e-05         0.211604        0.215825      0.000726634     -0.00017028         0.168142        0.938278
                        0.167821        0.938524      0.000724235    -0.000171587          0.12106       -0.276323     -0.000219455     -0.00035462
                     0.000713509    -0.000237793         0.168143        0.938284     -0.000219543    -0.000357646         0.123491       -0.275873
250200                  0.227289        0.194858      0.000287413      6.2073e-05            0.257        0.919078      0.000687027    -0.000307883
                     0.000274317     5.44732e-05         0.229532        0.193174      0.000708712       -0.000241         0.257258        0.918382
                        0.257336        0.918974       0.00070569    -0.000241348        0.0938379       -0.284401      -0.00023076    -0.000339852
                     0.000689518    -0.000306405         0.256992        0.918262     -0.000230863    -0.000342338        0.0962442       -0.283942
250400                  0.242718        0.170704      0.000315955     3.44534e-05         0.344088        0.891168      0.000654391    -0.000375317
                     0.000292482     2.44451e-05          0.24486        0.168725      0.000683422    -0.000309714         0.344235        0.890205
                        0.344608        0.890945      0.000680102     -0.00030919        0.0659833       -0.289464     -0.000241353    -0.000325023
                     0.000658177    -0.000373394         0.343791        0.890049      -0.00024154    -0.000327081        0.0684386       -0.289037
250600                  0.255382        0.145105      0.000339027    -9.23895e-07         0.428279        0.855019      0.000614863    -0.000439456
                      0.00030813    -8.94111e-06         0.257357        0.142814       0.00065109    -0.000375556         0.428311        0.853941
                        0.428861        0.854692      0.000647734    -0.000374304        0.0378692        -0.29145     -0.000251258    -0.000310173
                     0.000619592    -0.000437774         0.427774        0.853804     -0.000251598    -0.000311891        0.0404243        -0.29111
250800                  0.265103        0.118418      0.000354757      -4.226e-05         0.508795         0.81093      0.000568841    -0.000499488
                     0.000320617    -4.55844e-05         0.266842        0.115817      0.000612151    -0.000437734         0.508738        0.809856
                         0.50935        0.810536      0.000608957    -0.000435935        0.0098744       -0.290348     -0.000260508    -0.000295339
                     0.000574036    -0.000498572         0.508184        0.809766      -0.00026106     -0.00029678        0.0125563       -0.290159
251000                  0.271758       0.0910235      0.000362052    -8.73407e-05         0.584891        0.759269      0.000516832    -0.000554669
                      0.00032926      -8.526e-05         0.273192       0.0881327      0.000567137    -0.000495543          0.58479        0.758284
                        0.585357        0.758858      0.000564231    -0.000493396       -0.0176242       -0.286198     -0.000269132    -0.000280552
                     0.000521937    -0.000554859          0.58428        0.758249      -0.00026995     -0.00028176       -0.0148117       -0.286223
251200                  0.275278       0.0633203      0.000360629    -0.000133905         0.655858        0.700476      0.000459439    -0.000604338
                     0.000333355    -0.000127597         0.276344       0.0601773       0.00051665    -0.000548381         0.655766        0.699631
                        0.656202          0.7001      0.000514094    -0.000546083       -0.0442583       -0.279089     -0.000277166    -0.000265843
                     0.000463874    -0.000605783         0.655349        0.699641     -0.000278291    -0.000266845       -0.0413329       -0.279388
251400                  0.275653       0.0357148       0.00035087    -0.000179942         0.721029         0.63505      0.000397339    -0.000647931
                     0.000332214    -0.000172058         0.276299       0.0323726      0.000461345    -0.000595748         0.721003        0.634366
                        0.721242         0.63476      0.000459142     -0.00059348       -0.0696755       -0.269156     -0.000284645    -0.000251236
                     0.000400553    -0.000650598         0.720711        0.634401     -0.000286108    -0.000252044       -0.0666728        -0.26978
251600                  0.272934      0.00861177      0.000333604    -0.000223855         0.779787        0.563553      0.000331265    -0.000684987
                     0.000325205    -0.000217929         0.273117      0.00513556      0.000401906    -0.000637247         0.779877        0.563027
                         0.77988        0.563392      0.000400013    -0.000635161        -0.093545       -0.256582     -0.000291605    -0.000236754
                     0.000332784    -0.000688681         0.779727        0.563059     -0.000293424    -0.000237368       -0.0905144       -0.257565
251800                  0.267226      -0.0175951       0.00030988    -0.000264509         0.831566        0.486601       0.00026199    -0.000715155
                     0.000311801    -0.000264321         0.266922      -0.0211315       0.00033903    -0.000672582          0.83181        0.486209
                        0.831565          0.4866       0.00033737    -0.000670795        -0.115563       -0.241587     -0.000298084    -0.000222415
                      0.00026145    -0.000719552         0.831805         0.48621     -0.000300265    -0.000222828        -0.112563       -0.242949
252000                  0.258694       -0.042532      0.000280792     -0.00030118         0.875856        0.404863      0.000190304     -0.00073819
                     0.000291632    -0.000310182         0.257892      -0.0460502      0.000273412    -0.000701549         0.876281        0.404566
                        0.875796         0.40504      0.000271888    -0.000700137        -0.135458       -0.224428     -0.000304123    -0.000208234
                      0.00018748    -0.000742878         0.876411        0.404509     -0.000306656    -0.000208432        -0.132551       -0.226172
252200                   0.24755      -0.0658534      0.000247359     -0.00033347         0.912211        0.319052      0.000116999    -0.000753951
                     0.000264538    -0.000354334         0.246259      -0.0692745      0.000205731    -0.000724027         0.912826        0.318803
                        0.912131        0.319412      0.000204236    -0.000723026        -0.152993       -0.205393      -0.00030976    -0.000194221
                     0.000111819    -0.000758473         0.913072        0.318667     -0.000312623    -0.000194189        -0.150242       -0.207506
252400                  0.234054      -0.0872487      0.000210465    -0.000361208         0.940249        0.229926      4.28542e-05    -0.000762393
                      0.00023061     -0.00039552         0.232297      -0.0904974      0.000136642    -0.000739969         0.941048        0.229674
                        0.940189         0.23046      0.000135075    -0.000739377        -0.167973       -0.184796     -0.000315037    -0.000180384
                     3.53945e-05    -0.000766294         0.941383        0.229443     -0.000318194    -0.000180105        -0.165434       -0.187249
252600                  0.218506       -0.106449      0.000170849    -0.000384366         0.959656        0.138276     -3.13773e-05    -0.000763563
                     0.000190219    -0.000432477          0.21632       -0.109457      6.67726e-05    -0.000749391         0.960617        0.137974
                        0.959653        0.138963      6.50402e-05    -0.000749174        -0.180241       -0.162973     -0.000319995    -0.000166726
                    -4.08985e-05    -0.000766423          0.96101         0.13764     -0.000323399    -0.000166189        -0.177964       -0.165724
252800                  0.201238       -0.123231      0.000129103    -0.000402988         0.970192        0.044926     -0.000104977    -0.000757582
                     0.000144018    -0.000464003         0.198673       -0.125939     -3.28677e-06    -0.000752359         0.971281       0.0445306
                        0.970275       0.0457363     -5.25641e-06    -0.000752459        -0.189684       -0.140273     -0.000324675    -0.000153246
                    -0.000116222    -0.000759056         0.971699       0.0440959     -0.000328267    -0.000152443        -0.187706       -0.143271
253000                  0.182609       -0.137423      8.57018e-05    -0.000417145         0.971692      -0.0492763      -0.00017727    -0.000744642
                     9.29256e-05    -0.000489044         0.179723       -0.139782     -7.29788e-05    -0.000748984         0.972863       -0.049798
                        0.971883      -0.0483801      -7.5235e-05    -0.000749326        -0.196236       -0.117058     -0.000329121    -0.000139941
                    -0.000189808    -0.000744481         0.973275      -0.0503247     -0.000332831    -0.000138872        -0.194581       -0.120244
253200                  0.162993       -0.148903       4.1023e-05    -0.000426899         0.964071       -0.143465     -0.000247625     -0.00072499
                      3.8079e-05    -0.000506754         0.159851        -0.15088     -0.000141781    -0.000739412         0.965272       -0.144134
                         0.96438       -0.142524     -0.000144348     -0.00073991        -0.199872      -0.0936917     -0.000333375    -0.000126801
                    -0.000260963     -0.00072306          0.96565       -0.144736     -0.000337127    -0.000125476        -0.198553      -0.0970069
253400                  0.142779       -0.157606     -4.62232e-06    -0.000432282         0.947322       -0.236761     -0.000315463    -0.000698921
                    -1.92284e-05     -0.00051655         0.139448       -0.159176     -0.000209202    -0.000723816         0.948497       -0.237586
                         0.94775       -0.235817     -0.000212079    -0.000724384        -0.200614      -0.0705394     -0.000337481    -0.000113815
                    -0.000329077    -0.000695212         0.948819       -0.238242      -0.00034119    -0.000112256        -0.199628      -0.0739241
253600                  0.122355       -0.163518     -5.09652e-05    -0.000433288         0.921525       -0.328283      -0.00038025    -0.000666767
                    -7.76244e-05    -0.000518142         0.118903       -0.164673     -0.000274781    -0.000702391         0.922619       -0.329258
                        0.922062       -0.327376     -0.000277945    -0.000702949        -0.198528      -0.0479601     -0.000341481    -0.000100964
                    -0.000393617     -0.00066139         0.922869       -0.329943     -0.000345061    -9.92063e-05        -0.197861       -0.051359
253800                  0.102107        -0.16668     -9.77554e-05    -0.000429864         0.886841       -0.417151     -0.000441502    -0.000628891
                    -0.000135737    -0.000511525        0.0985991       -0.167422     -0.000338084    -0.000675354         0.887801       -0.418259
                        0.887467       -0.416317     -0.000341491     -0.00067583        -0.193722      -0.0263025     -0.000345419    -8.82263e-05
                    -0.000454128    -0.000622074         0.887971       -0.418945     -0.000348782    -8.63203e-05         -0.19335       -0.029667
254000                 0.0824093       -0.167187     -0.000144739    -0.000421908         0.843519       -0.502498      -0.00049878    -0.000585678
                    -0.000192266    -0.000496968        0.0789072       -0.167527     -0.000398697    -0.000642933         0.844299       -0.503708
                        0.844206       -0.501765     -0.000402289    -0.000643272        -0.186348     -0.00589958      -0.00034934    -7.55745e-05
                    -0.000510223     -0.00057775         0.844388       -0.504368       -0.0003524    -7.35861e-05        -0.186239     -0.00918986
254200                 0.0636191       -0.165181     -0.000191637    -0.000409276          0.79189       -0.583473     -0.000551683     -0.00053753
                     -0.00024604    -0.000474965        0.0601785       -0.165139     -0.000456228    -0.000605373         0.792454       -0.584746
                        0.792606       -0.582861     -0.000459937     -0.00060554        -0.176597       0.0129353     -0.000353287    -6.29754e-05
                    -0.000561578    -0.000528907         0.792468       -0.585355     -0.000355964    -6.09869e-05        -0.176713      0.00974943
254400                 0.0460695       -0.160854     -0.000238129    -0.000391783         0.732372       -0.659255     -0.000599853    -0.000484865
                    -0.000296057    -0.000446183          0.04274       -0.160456     -0.000510296    -0.000562935         0.732695       -0.660546
                         0.73308       -0.658775      -0.00051405    -0.000562912        -0.164696       0.0299136     -0.000357305    -5.03894e-05
                    -0.000607922    -0.000476027         0.732646       -0.661083     -0.000359527    -4.84995e-05        -0.164998       0.0268519
254600                  0.030064        -0.15444     -0.000283826    -0.000369212         0.665464       -0.729058     -0.000642962    -0.000428108
                    -0.000341502     -0.00041141        0.0268884       -0.153718     -0.000560535    -0.000515894         0.665532       -0.730317
                        0.666128        -0.72871     -0.000564264    -0.000515684        -0.150908       0.0447754     -0.000361437    -3.77699e-05
                    -0.000649029     -0.00041958         0.665439       -0.730765     -0.000363146    -3.60931e-05        -0.151357       0.0418476
254800                 0.0158717       -0.146214      -0.00032826    -0.000341333         0.591748       -0.792142     -0.000680714    -0.000367698
                    -0.000381751    -0.000371499        0.0128861       -0.145203      -0.00060659    -0.000464541          0.59156       -0.793317
                        0.592331       -0.791916     -0.000610231    -0.000464166        -0.135529       0.0572937     -0.000365728    -2.50623e-05
                    -0.000684707    -0.000360026         0.591443       -0.793668     -0.000366882    -2.37277e-05        -0.136087       0.0545005
255000                0.00372138       -0.136487     -0.000370854    -0.000307916          0.51188       -0.847817     -0.000712838    -0.000304082
                    -0.000416358    -0.000327319      0.000955697       -0.135223      -0.00064811    -0.000409192         0.511446       -0.848859
                         0.51235       -0.847695     -0.000651612    -0.000408688         -0.11888       0.0672779     -0.000370221    -1.22029e-05
                    -0.000714792    -0.000297808         0.511329       -0.849109     -0.000370799     -1.1352e-05        -0.119515       0.0646123
255200               -0.00620195         -0.1256     -0.000410912    -0.000268757          0.42659       -0.895458     -0.000739088    -0.000237717
                    -0.000445034    -0.000279725      -0.00872346       -0.124122     -0.000684756    -0.000350183         0.425933       -0.896321
                        0.426921       -0.895412     -0.000688084    -0.000349599        -0.101308       0.0745772     -0.000374959     8.82262e-07
                     -0.00073914    -0.000233362         0.425836       -0.896476     -0.000374965     1.09851e-06        -0.101992       0.0720264
255400                -0.0137617       -0.113919       -0.0004476    -0.000223719         0.336673       -0.934506     -0.000759237    -0.000169073
                    -0.000467624    -0.000229525       -0.0160197       -0.112265     -0.000716194     -0.00028788         0.335825       -0.935153
                        0.336847       -0.934503     -0.000719333    -0.000287271       -0.0831765       0.0790837     -0.000379983     1.42794e-05
                    -0.000757621    -0.000167112         0.335768       -0.935222     -0.000379452     1.37045e-05       -0.0838894       0.0766309
255600                -0.0188728       -0.101832     -0.000479934    -0.000172769         0.242988       -0.964482     -0.000773079    -9.86376e-05
                    -0.000484075    -0.000177471       -0.0208521        -0.10004       -0.0007421    -0.000222683         0.241987       -0.964882
                        0.242994       -0.964484     -0.000745054    -0.000222104       -0.0648645       0.0807344     -0.000385333     2.80887e-05
                    -0.000770115    -9.94841e-05         0.241986       -0.964882      -0.00038433     2.65659e-05        -0.065593       0.0783611
255800                -0.0215045      -0.0897364     -0.000506786     -0.00011604         0.146444       -0.984989     -0.000780424    -2.69157e-05
                    -0.000494413    -0.000124244       -0.0231936       -0.087846     -0.000762161    -0.000155029         0.145335       -0.985122
                        0.146283       -0.984956     -0.000764956     -0.00015453        -0.046759       0.0795129     -0.000391047     4.24268e-05
                    -0.000776505    -3.09033e-05           0.1454       -0.985072     -0.000389674     3.98057e-05       -0.0474959       0.0772007
256000                -0.0216827      -0.0780387     -0.000526901    -5.38925e-05        0.0479953        -0.99572     -0.000781103      4.5562e-05
                    -0.000498716    -7.04623e-05       -0.0230734      -0.0760886      -0.00077608    -8.53995e-05        0.0468244       -0.995576
                       0.0476766        -0.99561     -0.000778761    -8.50194e-05       -0.0292499       0.0754506     -0.000397156     5.74301e-05
                    -0.000776678     3.81926e-05        0.0469605       -0.995499     -0.000395554     5.35746e-05       -0.0299934       0.0731828
256200                -0.0194908      -0.0671441     -0.000538941     1.30116e-05       -0.0513675       -0.996462     -0.000774965     0.000118235
                    -0.000497102    -1.66753e-05       -0.0205781      -0.0651743      -0.00078358    -1.43256e-05       -0.0525536       -0.996041
                      -0.0518232       -0.996237     -0.000786209    -1.40845e-05       -0.0127238       0.0686267     -0.000403688     7.32585e-05
                    -0.000770523     0.000107348       -0.0523482        -0.99596     -0.000402036     6.80557e-05       -0.0134766       0.0663895
