! TOUCHSTONE file generated by CST MICROWAVE STUDIO
! Date and time: Fri Sep 26 20:22:17 2025
! Project name: biblioteca3_folgaOK.cst
! Parameters = {H=600; Lx=200; Ly=260; Nedge=30; P=520; k=0; mesh_pilar_nm=40; n=0; t_air=3800; t_sub=3000; wavelength_nm=0}
! Header version: 2018
! Port assignment regex: !\s*Touchstone port\s*([0-9]+)\s*=\s*(CST MWS port|CST DS port)\s*([0-9]+|Zmin|Zmax)\s*\(\"(.*)\"\)(\s*mode\s*([0-9]+))?.*
! Touchstone port assignment:
! Touchstone port 1 = CST MWS port Zmin ("") mode 1
! Touchstone port 2 = CST MWS port Zmin ("") mode 2
! Touchstone port 3 = CST MWS port Zmax ("") mode 1
! Touchstone port 4 = CST MWS port Zmax ("") mode 2
! S-Parameters are not renormalized. Each port impedance will be approximated by the real part at minimum frequency. The values are described via the [Reference] keyword.
! Default impedance is overridden by [Reference]
[Version] 2.0
# GHz S RI R 376.73
[Number of Ports] 4
[Reference]
376.73 376.73 376.73 376.73 
[Number of Frequencies] 401
[Network Data]
250000                  0.149635      -0.0682218      -0.00206209     -0.00147066         0.959489       -0.226855     -0.000991015     0.000315858
                     -0.00181632     -0.00145344       -0.0997273       -0.220727     -0.000744134      0.00119052         0.211238        0.946217
                        0.960009       -0.226608      -0.00090943      0.00137637        -0.164331      0.00582681       0.00189598      0.00137619
                    -0.000748587      0.00100006         0.212494        0.946652        0.0019692      0.00116529       0.00398589        0.242143
250200                  0.151315       -0.090663      -0.00219768     -0.00122132          0.92843       -0.325391     -0.000907279     0.000500352
                     -0.00199114     -0.00124523         -0.11288        -0.20945     -0.000632067      0.00128976         0.295516        0.924586
                        0.929068       -0.325231     -0.000755389      0.00147453        -0.174666        0.023139       0.00199284      0.00120321
                    -0.000658936      0.00107956         0.296456        0.925016       0.00210574     0.000992513        0.0297358        0.235984
250400                  0.149702       -0.113914      -0.00231043    -0.000958286         0.887305       -0.419871     -0.000788839      0.00066782
                     -0.00214378     -0.00101437        -0.124756       -0.197408     -0.000499312      0.00137852         0.377707        0.895414
                        0.887935       -0.419828     -0.000584798      0.00155503        -0.182836       0.0428174       0.00208387      0.00101541
                    -0.000559302      0.00115246         0.378392        0.895863       0.00222844     0.000804447        0.0544069        0.226986
250600                  0.144655       -0.137449      -0.00239832    -0.000683647         0.836633       -0.509264     -0.000642079     0.000810058
                     -0.00227078    -0.000763407        -0.135311       -0.184753     -0.000346688       0.0014516         0.457131         0.85889
                        0.837154        -0.50933     -0.000400357      0.00161446        -0.188391       0.0645607       0.00216773     0.000813476
                    -0.000450054       0.0012174         0.457616        0.859375       0.00233521     0.000602299         0.077673        0.215299
250800                  0.136124       -0.160726      -0.00245957    -0.000399823         0.777041       -0.592606     -0.000475478     0.000922018
                     -0.00236908    -0.000495506        -0.144525        -0.17164     -0.000176612      0.00150373         0.533124        0.815267
                        0.777378        -0.59275     -0.000205606      0.00164995        -0.190926       0.0879803       0.00224285     0.000598553
                    -0.000331754      0.00127299         0.533454        0.815794       0.00242408     0.000387609        0.0992282        0.201114
251000                  0.124157       -0.183209      -0.00249263    -0.000109531         0.709253       -0.669015     -0.000297946      0.00100214
                     -0.00243607    -0.000214309        -0.152394       -0.158224      6.78102e-06      0.00153012         0.605044        0.764856
                        0.709361       -0.669188      -4.7564e-06      0.00165949        -0.190107        0.112611       0.00230736     0.000372171
                    -0.000205167      0.00131788         0.605257        0.765427        0.0024933     0.000162231         0.118792        0.184657
251200                  0.108891       -0.204379      -0.00249631     0.000184249         0.634079       -0.737702      -0.00011739      0.00105182
                     -0.00246975      7.6135e-05        -0.158935       -0.144653       0.00019779      0.00152721         0.672275        0.708029
                        0.633941       -0.737849      0.000197558      0.00164203        -0.185683        0.137925       0.00235914     0.000136212
                    -7.12651e-05      0.00135079         0.672403        0.708642       0.00254133    -7.16959e-05         0.136111        0.166185
251400                 0.0905405       -0.223758      -0.00246976     0.000478316         0.552401       -0.797971      6.01409e-05      0.00107445
                     -0.00246872     0.000371493        -0.164182       -0.131069      0.000389638       0.0014932         0.734236        0.645212
                        0.552023       -0.798039      0.000396583      0.00159761        -0.177492        0.163352       0.00239588    -0.000107182
                     6.87789e-05      0.00137051         0.734304        0.645864       0.00256695    -0.000311794         0.150967        0.145986
251600                 0.0693919       -0.240912      -0.00241253     0.000769305         0.465162       -0.849235      0.000230694      0.00107434
                     -0.00243223     0.000667263        -0.168184       -0.117606      0.000575214      0.00142846         0.790384        0.576888
                        0.464574       -0.849178      0.000587754      0.00152733        -0.165477        0.188294       0.00241518    -0.000355687
                     0.000213597      0.00137595         0.790411        0.577573       0.00256931    -0.000555503         0.163177        0.124371
251800                 0.0457862       -0.255468      -0.00232463      0.00105375         0.373356       -0.891011      0.000392221      0.00105587
                     -0.00236021     0.000958895        -0.171005       -0.104388      0.000747926       0.0013355         0.840218        0.503588
                        0.372598       -0.890796      0.000766969      0.00143322        -0.149679        0.212146       0.00241473    -0.000606859
                     0.000361641      0.00136617          0.84022          0.5043       0.00254789    -0.000800143         0.172596        0.101674
252000                  0.020109       -0.267111      -0.00220649      0.00132813         0.278008       -0.922928      0.000544162      0.00102291
                     -0.00225324       0.0012419        -0.172723      -0.0915256      0.000902444      0.00121852         0.883287        0.425889
                        0.277132       -0.922536      0.000930795      0.00131803        -0.130242         0.23432       0.00239248    -0.000858167
                     0.000511204      0.00134043         0.883274        0.426625       0.00250261     -0.00104299         0.179121       0.0782413
252200                -0.0072224       -0.275594      -0.00205902      0.00158898         0.180169       -0.944726      0.000686997     0.000978599
                     -0.00211248      0.00151196        -0.173425      -0.0791186       0.00103517      0.00108284         0.919191        0.344414
                        0.179231       -0.944153       0.00107659        0.001185        -0.107402        0.254252       0.00234679     -0.00110701
                      0.00066044      0.00129817         0.919171        0.345168       0.00243373     -0.00128134         0.182691       0.0544313
252400                -0.0357696       -0.280732      -0.00188358      0.00183293        0.0808986       -0.956257       0.00082185     0.000925201
                     -0.00193964      0.00176499        -0.173209      -0.0672513       0.00114435     0.000934036         0.947587        0.259821
                       0.0799542       -0.955513       0.00120253      0.00103761       -0.0814828        0.271425       0.00227654     -0.00135073
                     0.000807399      0.00123908         0.947565        0.260589       0.00234194     -0.00151259         0.183288       0.0306078
252600                -0.0650828       -0.282404      -0.00168196      0.00205676       -0.0187426       -0.957479      0.000950182     0.000864135
                     -0.00173691      0.00199722        -0.172178      -0.0559936       0.00122991     0.000777392         0.968191          0.1728
                       -0.019644       -0.956588       0.00130758     0.000879367       -0.0528831        0.285379       0.00218122     -0.00158661
                     0.000950051      0.00116308         0.968172         0.17358       0.00222822     -0.00173428         0.180942      0.00713439
252800                 -0.094709        -0.28055      -0.00145634       0.0022575        -0.117706       -0.948461       0.00107357     0.000796032
                     -0.00150688       0.0022052        -0.170443      -0.0454001       0.00129302     0.000617366         0.980786       0.0840703
                       -0.118523       -0.947457       0.00139138      0.00071361        -0.022067         0.29572       0.00206094     -0.00181195
                      0.00108632      0.00107036         0.980771       0.0848598       0.00209387     -0.00194415         0.175724      -0.0156305
253000                 -0.124199        -0.27517      -0.00120926      0.00243244        -0.214964       -0.929371       0.00119355     0.000720795
                      -0.0012525      0.00238589        -0.168114      -0.0355104       0.00133569     0.000457382         0.985216     -0.00562863
                       -0.215666       -0.928294       0.00145409      0.00054341        0.0104493        0.302128       0.00191646     -0.00202407
                      0.00121414      0.00096136          0.98521     -0.00483131       0.00194046     -0.00214021         0.167749      -0.0373394
253200                 -0.153115       -0.266317     -0.000943584       0.0025792        -0.309521       -0.900476       0.00131149     0.000637648
                    -0.000976973      0.00253662        -0.165306      -0.0263481       0.00136025     0.000299779           0.9814      -0.0955417
                       -0.310088       -0.899373       0.00149633     0.000371496        0.0441096         0.30436       0.00174909     -0.00222046
                      0.00133143     0.000836796         0.981403      -0.0947378       0.00176973     -0.00232072         0.157175      -0.0576607
253400                 -0.181034       -0.254098     -0.000662439      0.00269577        -0.400417       -0.862139       0.00142848     0.000545153
                    -0.000683752      0.00265511        -0.162131       -0.017922       0.00136906     0.000145901         0.969322       -0.184905
                       -0.400842       -0.861055       0.00151896     0.000200238        0.0783297        0.302259       0.00156068     -0.00239876
                      0.00143619     0.000697643         0.969336       -0.184096       0.00158359     -0.00248422         0.144201      -0.0762841
253600                 -0.207553       -0.238669     -0.000369147      0.00278049        -0.486742       -0.814807       0.00154518     0.000441215
                    -0.000376457      0.00273944        -0.158701      -0.0102259       0.00136417    -3.73897e-06         0.949041       -0.272953
                        -0.48703       -0.813787       0.00152304      3.1653e-05         0.112509        0.295747       0.00135349     -0.00255695
                      0.00152652     0.000545134         0.949067       -0.272138       0.00138399     -0.00262957         0.129061      -0.0929256
253800                 -0.232294        -0.22023     -6.71916e-05      0.00283212        -0.567637       -0.759013       0.00166166     0.000323068
                     -5.8863e-05       0.0027881        -0.155119     -0.00323919       0.00134715    -0.000149263         0.920687       -0.358923
                       -0.567803       -0.758094       0.00150969    -0.000132546         0.146042        0.284834       0.00113014     -0.00269332
                      0.00160061     0.000380753         0.920726       -0.358105       0.00117297     -0.00275589         0.112026       -0.107332
254000                 -0.254912       -0.199027      0.000239846      0.00284981        -0.642305       -0.695363       0.00177716     0.000187285
                     0.000265135      0.00279994        -0.151488      0.00307199       0.00131894    -0.000291216         0.884461       -0.442066
                       -0.642372       -0.694578       0.00148006    -0.000290906         0.178329         0.26961      0.000893447     -0.00280657
                      0.00165682     0.000206223         0.884513       -0.441245       0.00095254     -0.00286256        0.0933955       -0.119284
254200                  -0.27509       -0.175342       0.00054833      0.00283309        -0.710012       -0.624535       0.00188967     2.98458e-05
                     0.000591534      0.00277416        -0.147898      0.00875419       0.00127973    -0.000430333         0.840636        -0.52165
                       -0.710009       -0.623907       0.00143529    -0.000442175         0.208787        0.250247      0.000646375     -0.00289584
                      0.00169367     2.34952e-05         0.840702       -0.520828      0.000724656     -0.00294921        0.0734948       -0.128603
254400                 -0.292555       -0.149492      0.000854613      0.00278188        -0.770096       -0.547268       0.00199554    -0.000153667
                     0.000916241      0.00271033        -0.144433       0.0138653       0.00122888    -0.000567272         0.789554       -0.596969
                       -0.770056       -0.546811       0.00137649    -0.000585248         0.236859        0.226997      0.000391901     -0.00296065
                      0.00170989    -0.000165269         0.789634       -0.596148      0.000491218     -0.00301568        0.0526706        -0.13515
254600                 -0.307071       -0.121827       0.00115507      0.00269646         -0.82197       -0.464359       0.00208886    -0.000367609
                      0.00123508      0.00260843        -0.141165       0.0184735       0.00116486    -0.000702268         0.731625       -0.667351
                       -0.821927       -0.464076       0.00130472    -0.000719118         0.262024        0.200183       0.00013294     -0.00300097
                      0.00170446    -0.000357712         0.731718        -0.66653      0.000254027     -0.00306199        0.0312852       -0.138834
254800                 -0.318451      -0.0927216       0.00144615      0.00257748        -0.865124       -0.376655       0.00216096     -0.00061543
                      0.00154382      0.00246879        -0.138157       0.0226555       0.00108534    -0.000834681         0.667322       -0.732159
                       -0.865112       -0.376541       0.00122106    -0.000842836         0.283805        0.170199     -0.000127731     -0.00301712
                       0.0016766    -0.000551302         0.667428       -0.731341      1.47767e-05     -0.00308833       0.00971055       -0.139606
255000                 -0.326553      -0.0625691       0.00172436      0.00242591        -0.899132       -0.285044           0.0022    -0.000898266
                      0.00183816      0.00229221        -0.135456       0.0264951      0.000987447    -0.000962423          0.59718       -0.790805
                        -0.89918       -0.285084       0.00112658    -0.000955487         0.301782        0.137505     -0.000387531     -0.00300973
                      0.00162583    -0.000743355         0.597298        -0.78999     -0.000224952     -0.00309498       -0.0116774       -0.137467
255200                 -0.331291      -0.0317781       0.00198632      0.00224302        -0.923652        -0.19045       0.00219145     -0.00121297
                       0.0021138      0.00207989        -0.133097       0.0300817      0.000868393     -0.00108137         0.521789        -0.84275
                       -0.923787       -0.190624        0.0010224     -0.00105617         0.315595        0.102615      -0.00064412      -0.0029797
                      0.00155198    -0.000931065         0.521917       -0.841939     -0.000463694     -0.00308236        -0.032505       -0.132466
255400                 -0.332628    -0.000764266       0.00222876      0.00203043        -0.938433       -0.093827       0.00211964     -0.00154991
                      0.00236644      0.00183357        -0.131102       0.0335081      0.000726719     -0.00118503         0.441791       -0.887513
                       -0.938672      -0.0941081      0.000909756     -0.00114402         0.324956       0.0660926     -0.000895418     -0.00292815
                      0.00145525     -0.00111153         0.441928       -0.886707     -0.000700097     -0.00305092       -0.0524066       -0.124698
255600                 -0.330584       0.0300571       0.00244857         0.00179        -0.943311      0.00385173       0.00197118     -0.00189139
                      0.00259186      0.00155546        -0.129475       0.0368687       0.00056393       -0.001265         0.357872       -0.924674
                       -0.943666      0.00349412      0.000789982      -0.0012182         0.329655       0.0285416      -0.00113962     -0.00285634
                      0.00133618     -0.00128181         0.358017       -0.923874     -0.000932914      -0.0030012       -0.0710311       -0.114305
255800                 -0.325231       0.0602778       0.00264273      0.00152391        -0.938217        0.101599       0.00173974     -0.00221231
                      0.00278594      0.00124836         -0.12821       0.0402576      0.000386016     -0.00131268         0.270759       -0.953883
                        -0.93869        0.101197      0.000664576     -0.00127797         0.329565     -0.00940539      -0.00137518     -0.00276561
                      0.00119574     -0.00143896         0.270911       -0.953087      -0.00116099     -0.00293374       -0.0880475       -0.101473
256000                 -0.316695       0.0895048       0.00280842      0.00123462        -0.923173        0.198421       0.00143051     -0.00248405
                      0.00294478     0.000915624        -0.127283       0.0437666      0.000203663     -0.00132223         0.181212       -0.974855
                       -0.923762        0.198006      0.000535209     -0.00132269         0.324646      -0.0470979      -0.00160083     -0.00265735
                      0.00103531     -0.00158006         0.181369       -0.974064      -0.00138327     -0.00284913        -0.103151      -0.0864294
256200                 -0.305151        0.117367       0.00294297     0.000924858        -0.898298        0.293329       0.00106172     -0.00268139
                       0.0030648     0.000561201        -0.126656       0.0474831      3.01923e-05     -0.00129345        0.0900166       -0.987382
                       -0.898991        0.292931      0.000403719     -0.00135194          0.31495      -0.0838802      -0.00181551     -0.00253296
                      0.00085669     -0.00170236        0.0901779       -0.986596      -0.00159874     -0.00274795        -0.116066       -0.069439
