! TOUCHSTONE file generated by CST MICROWAVE STUDIO
! Date and time: Sun Sep 28 17:45:59 2025
! Project name: biblioteca3_folgaOK.cst
! Parameters = {H=600; Lx=200; Ly=260; Nedge=16; P=520; k=0; mesh_pilar_nm=40; n=0; t_air=3800; t_sub=6000; wavelength_nm=0}
! Header version: 2018
! Port assignment regex: !\s*Touchstone port\s*([0-9]+)\s*=\s*(CST MWS port|CST DS port)\s*([0-9]+|Zmin|Zmax)\s*\(\"(.*)\"\)(\s*mode\s*([0-9]+))?.*
! Touchstone port assignment:
! Touchstone port 1 = CST MWS port Zmin ("") mode 1
! Touchstone port 2 = CST MWS port Zmin ("") mode 2
! Touchstone port 3 = CST MWS port Zmax ("") mode 1
! Touchstone port 4 = CST MWS port Zmax ("") mode 2
! S-Parameters are not renormalized. Each port impedance will be approximated by the real part at minimum frequency. The values are described via the [Reference] keyword.
! Default impedance is overridden by [Reference]
[Version] 2.0
# GHz S RI R 376.73
[Number of Ports] 4
[Reference]
376.73 376.73 376.73 376.73 
[Number of Frequencies] 401
[Network Data]
250000                  0.295679        0.245414      0.000585086     9.80121e-05         0.251506        0.888358       0.00156244     0.000804731
                     0.000723447     6.57732e-05         0.102396       0.0321319       0.00144289     0.000626145        -0.951947        0.286545
                        0.251727        0.888387       0.00134704     0.000722375         0.123237       -0.364003      0.000261877    -0.000133816
                      0.00138683     0.000778722        -0.951821        0.286448      0.000294006    -0.000170001       -0.0676263       0.0833404
250200                  0.298798        0.245361      0.000580993     6.62127e-05         0.306482        0.869843       0.00159301      0.00069227
                     0.000716543     5.89981e-05        0.0962914       0.0445625       0.00145711     0.000498286        -0.934813        0.338641
                        0.306676        0.869782       0.00141384     0.000644202        0.0791928       -0.378457      0.000174165    -0.000152925
                      0.00148197     0.000724346        -0.934741        0.338428      0.000193012    -0.000258931       -0.0454574       0.0959283
250400                  0.301026         0.24476      0.000574468     3.36173e-05         0.360319         0.84834       0.00161935     0.000586218
                     0.000709772      5.1684e-05        0.0900521       0.0568412       0.00146854     0.000388991        -0.914665        0.389669
                        0.360459        0.848176       0.00147711     0.000558638        0.0330821       -0.386587      7.27768e-05     -0.00016547
                      0.00157609      0.00065556        -0.914653        0.389369      7.06318e-05    -0.000315586       -0.0214614        0.104364
250600                  0.302369        0.243615      0.000565274     4.28462e-07         0.412929        0.823881       0.00164272     0.000485342
                     0.000703109     4.36997e-05        0.0836931       0.0689332       0.00148058     0.000291642        -0.891583        0.439435
                        0.412988        0.823615       0.00153611     0.000465683       -0.0140729       -0.388069     -4.28669e-05    -0.000167642
                      0.00166624     0.000571702        -0.891632        0.439076      -5.9364e-05    -0.000335575       0.00363139        0.108407
250800                  0.302832        0.241925      0.000553184    -3.30912e-05         0.464211        0.796488       0.00166401     0.000388479
                     0.000696507     3.48864e-05        0.0772289       0.0808041       0.00149438     0.000201275        -0.865661        0.487756
                        0.464168        0.796132       0.00159013     0.000365396       -0.0612017       -0.382758      -0.00017218    -0.000154564
                      0.00174914     0.000472914        -0.865766        0.487358     -0.000183944    -0.000321321        0.0290661        0.107946
251000                  0.302418        0.239693      0.000537991    -6.66112e-05         0.514059        0.766175       0.00168384     0.000294547
                     0.000689886     2.50542e-05        0.0706731       0.0924206       0.00150998     0.000114238        -0.837008        0.534457
                        0.513899        0.765749       0.00163845     0.000257896        -0.107218       -0.370691     -0.000312634    -0.000120518
                      0.00182138     0.000360324        -0.837163        0.534037     -0.000293956    -0.000279771        0.0540856        0.102997
251200                  0.301129        0.236921      0.000519533     -9.9727e-05          0.56235        0.732953       0.00170262     0.000202537
                     0.000683114     1.39796e-05        0.0640387         0.10375       0.00152676     2.78512e-05        -0.805744        0.579374
                        0.562066        0.732482       0.00168038     0.000143346        -0.151054       -0.352089     -0.000458912    -5.96762e-05
                      0.00187984     0.000236114        -0.805941        0.578945     -0.000384898    -0.000219305        0.0779517       0.0937006
251400                  0.298968        0.233611      0.000497706    -0.000131958         0.608949        0.696831       0.00172059      0.00011151
                     0.000675987     1.40645e-06        0.0573382        0.114761       0.00154378    -5.98352e-05        -0.771999        0.622356
                         0.60854         0.69634       0.00171532     2.19407e-05        -0.191683       -0.327348     -0.000602341     3.24655e-05
                      0.00192211     0.000103412        -0.772229        0.621925     -0.000455976    -0.000147475        0.0999645       0.0803146
251600                  0.295936         0.22977      0.000472499    -0.000162748         0.653705        0.657816       0.00173785     2.05823e-05
                     0.000668196    -1.29457e-05        0.0505838        0.125423        0.0015599    -0.000150201        -0.735914        0.663262
                        0.653179        0.657334       0.00174272    -0.000106121        -0.228158       -0.297029     -0.000731214     0.000157057
                      0.00194678     -3.3992e-05        -0.736169        0.662836     -0.000508592    -7.00137e-05          0.11948       0.0632051
251800                  0.292032        0.225405      0.000444023    -0.000191478         0.696448        0.615922       0.00175435    -7.10739e-05
                     0.000659289    -2.93606e-05        0.0437869        0.135707       0.00157385    -0.000244158        -0.697637        0.701968
                        0.695819        0.615473       0.00176218    -0.000240672        -0.259625       -0.261845     -0.000832578     0.000309936
                      0.00195367    -0.000172068        -0.697909        0.701549     -0.000545077      9.2323e-06         0.135925       0.0428344
252000                  0.287256        0.220525      0.000412538    -0.000217487         0.736994        0.571172       0.00176994    -0.000164244
                     0.000648628    -4.80809e-05        0.0369589        0.145587        0.0015843     -0.00034221        -0.657321        0.738359
                        0.736281        0.570777       0.00177353    -0.000381621        -0.285358       -0.222645     -0.000895396     0.000480955
                      0.00194385    -0.000307017        -0.657604        0.737949     -0.000567883     8.79451e-05         0.148812       0.0197474
252200                  0.281606        0.215147      0.000378489    -0.000240099         0.775137        0.523598       0.00178436    -0.000259672
                     0.000635338    -6.92285e-05        0.0301108        0.155036       0.00158992    -0.000444491        -0.615124        0.772338
                        0.774364        0.523274       0.00177685    -0.000529021         -0.30477       -0.180393     -0.000913914     0.000655575
                      0.00191938    -0.000435679        -0.615413        0.771935     -0.000579167     0.000164887         0.157749     -0.00544317
252400                  0.275082        0.209286      0.000342518    -0.000258672         0.810659        0.473252       0.00179724    -0.000358064
                     0.000618294     -9.2675e-05        0.0232535         0.16403       0.00158939    -0.000550794        -0.571208        0.803819
                        0.809852        0.473008       0.00177276    -0.000683132        -0.317435       -0.136145     -0.000889408     0.000818444
                      0.00188304    -0.000555814        -0.571499        0.803423      -0.00058063     0.000239509         0.162445      -0.0320732
252600                  0.267682        0.202967      0.000305478    -0.000272649         0.843322        0.420202       0.00180812    -0.000460086
                     0.000596159    -0.000117858        0.0163978        0.172547       0.00158153    -0.000660602        -0.525734        0.832728
                        0.842507        0.420043        0.0017627    -0.000844469        -0.323105      -0.0910263     -0.000829292     0.000957248
                       0.0018379    -0.000666202        -0.526025        0.832338     -0.000573493     0.000311656         0.162721      -0.0594441
252800                  0.259408        0.196216      0.000268415    -0.000281615         0.872876        0.364546       0.00181644    -0.000566364
                     0.000567549    -0.000143571       0.00955444        0.180566       0.00156528    -0.000773116        -0.478864        0.859006
                        0.872079        0.364469       0.00174951      -0.0010137        -0.321721      -0.0462026     -0.000744274      0.00106497
                        0.001787    -0.000766604        -0.479154        0.858621     -0.000558527     0.000381353         0.158511        -0.08684
253000                  0.250261        0.189065      0.000232528    -0.000285351         0.899061        0.306406       0.00182157    -0.000677486
                     0.000531374    -0.000167806       0.00273436        0.188068       0.00153979    -0.000887306        -0.430761        0.882605
                        0.898305        0.306405       0.00173856     -0.00119108        -0.313425     -0.00284795     -0.000645232      0.00113992
                      0.00173306    -0.000857616        -0.431048        0.882224     -0.000536111     0.000448657          0.14986       -0.113546
253200                  0.240247        0.181553      0.000199106    -0.000283873         0.921609        0.245942        0.0018228    -0.000794007
                     0.000487351    -0.000187817      -0.00405147        0.195035       0.00150446     -0.00100197        -0.381583        0.903486
                        0.920914        0.246004       0.00173918     -0.00137441        -0.298559       0.0378879     -0.000541119      0.00118434
                      0.00167835    -0.000940482        -0.381867        0.903111     -0.000506286     0.000513535         0.136925       -0.138865
253400                  0.229374        0.173723      0.000169438    -0.000277448         0.940249        0.183345       0.00181948    -0.000916479
                     0.000436502    -0.000200552       -0.0107919        0.201453       0.00145896     -0.00111578        -0.331487        0.921623
                         0.93963        0.183456       0.00176505     -0.00155353        -0.277669       0.0749164     -0.000438202      0.00120257
                      0.00162452      -0.0010169        -0.331767        0.921253     -0.000468817     0.000575764          0.11997       -0.162133
253600                  0.217655        0.165623      0.000144711     -0.00026657         0.954717         0.11885       0.00181107     -0.00104551
                     0.000381343    -0.000203466       -0.0174755        0.207307       0.00140323     -0.00122738        -0.280624        0.936997
                        0.954182        0.118991       0.00182654     -0.00170063        -0.251496        0.107247     -0.000340246      0.00119956
                      0.00157261     -0.00108887        -0.280901        0.936635     -0.000423271     0.000634833        0.0993589       -0.182739
253800                  0.205109        0.157307      0.000125898    -0.000251909         0.964754       0.0527294       0.00179744     -0.00118191
                     0.000325449    -0.000195379       -0.0240908        0.212585       0.00133752     -0.00133546        -0.229144        0.949599
                        0.964307        0.052884       0.00190403     -0.00177158        -0.220961        0.134027     -0.000249105      0.00118002
                      0.00152304     -0.00115849        -0.229416        0.949246     -0.000369112     0.000689841        0.0755441       -0.200136
254000                   0.19176         0.14883      0.000113662     -0.00023423         0.970121      -0.0147004        0.0017795     -0.00132704
                      0.00027251    -0.000176888       -0.0306259        0.217276       0.00126229     -0.00143877         -0.17719        0.959424
                        0.969762      -0.0145495       0.00193112     -0.00175362        -0.187138        0.154574     -0.000165367      0.00114799
                      0.00147553     -0.00122791        -0.177456        0.959084     -0.000305854     0.000739407        0.0490582       -0.213852
254200                  0.177641        0.140255      0.000108269    -0.000214297         0.970604      -0.0830829       0.00176092     -0.00148348
                     0.000225343    -0.000150059       -0.0370686         0.22137       0.00117825     -0.00153623        -0.124902        0.966477
                        0.970326      -0.0829501       0.00185983     -0.00170535        -0.151229        0.168414     -8.88831e-05      0.00110671
                      0.00142914     -0.00129909         -0.12516        0.966152     -0.000233265     0.000781602        0.0204991       -0.223507
254400                  0.162792        0.131644      0.000109528    -0.000192792         0.966018       -0.152022       0.00175406     -0.00165622
                     0.000185387    -0.000117627       -0.0434068        0.224861       0.00108623     -0.00162695       -0.0724141        0.970765
                        0.965813       -0.151919         0.001715     -0.00168796        -0.114516        0.175304     -1.91377e-05       0.0010587
                      0.00138227     -0.00137367       -0.0726619        0.970459     -0.000151663     0.000813966      -0.00948372       -0.228815
254600                  0.147261         0.12306      0.000116768    -0.000170259         0.956222       -0.221088       0.00180573     -0.00184788
                     0.000152787      -8.219e-05       -0.0496279        0.227741      0.000987192     -0.00171024       -0.0198576        0.972301
                        0.956078        -0.22102       0.00154173     -0.00171198       -0.0783232        0.175251      4.45122e-05      0.00100586
                      0.00133269     -0.00145266       -0.0200921        0.972017     -6.22528e-05      0.00083366       -0.0402051       -0.229597
254800                  0.131104        0.114568      0.000128839    -0.000147094          0.94112       -0.289818       0.00208608     -0.00190264
                     0.000126835    -4.57332e-05       -0.0557192        0.230005      0.000882125     -0.00178562        0.0326414          0.9711
                        0.941024       -0.289789       0.00136419     -0.00176281       -0.0439559        0.168522      0.000102696     0.000949574
                      0.00127775     -0.00153624        0.0324234        0.970843      3.25549e-05     0.000837834       -0.0709601       -0.225779
255000                  0.114389        0.106229      0.000144178    -0.000123585         0.920668       -0.357729       0.00182402     -0.00137379
                     0.000106446    -9.50269e-06       -0.0616679        0.231651      0.000772018     -0.00185281        0.0849602        0.967181
                         0.92061       -0.357736       0.00118933     -0.00182574       -0.0126529        0.155641      0.000155952     0.000890851
                      0.00121472     -0.00162349         0.084762        0.966954      0.000128987     0.000824228        -0.101041       -0.217397
255200                 0.0971882       0.0981029      0.000160912    -9.99697e-05         0.894883       -0.424322       0.00135513     -0.00161854
                     9.04948e-05     2.59003e-05       -0.0674612        0.232675      0.000657808     -0.00191172         0.136979        0.960565
                        0.894852       -0.424359       0.00101722     -0.00189131        0.0144698        0.137372      0.000204688     0.000830386
                      0.00114132     -0.00171235         0.136804        0.960373      0.000222107     0.000791909        -0.129753       -0.204594
255400                 0.0795845       0.0902419      0.000177027    -7.64835e-05         0.863842       -0.489092       0.00116815     -0.00184945
                     7.79986e-05     6.03615e-05       -0.0730863        0.233075      0.000540347     -0.00196239         0.188581        0.951273
                        0.863831       -0.489151      0.000845995     -0.00195405        0.0364689        0.114691      0.000249163     0.000768657
                      0.00105622     -0.00179991          0.18843        0.951121      0.000306471     0.000741924        -0.156431       -0.187619
255600                 0.0616663       0.0826941       0.00019055    -5.33664e-05         0.827685       -0.551539        0.0010213     -0.00201366
                     6.81524e-05     9.41252e-05       -0.0785303        0.232852      0.000420382       -0.002005         0.239652         0.93933
                        0.827691       -0.551611      0.000673417     -0.00201077        0.0526171        0.088748      0.000289478     0.000705985
                     0.000959417     -0.00188291         0.239524        0.939223      0.000377161     0.000677504        -0.180454       -0.166819
255800                  0.043528       0.0754996      0.000199735       -3.08e-05         0.786613       -0.611179      0.000875415     -0.00214007
                     6.02494e-05     0.000127741       -0.0837808        0.232006      0.000298537     -0.00203979         0.290076        0.924761
                        0.786638       -0.611252       0.00049707     -0.00205936        0.0624363        0.060815      0.000325572     0.000642594
                     0.000852215     -0.00195852         0.289969        0.924704       0.00043085     0.000603639        -0.201262       -0.142634
256000                 0.0252681       0.0686902      0.000203202      -8.793e-06          0.74089       -0.667553      0.000723922     -0.00224017
                      5.3382e-05     0.000162086       -0.0888253         0.23054      0.000175307     -0.00206705         0.339742        0.907591
                        0.740938       -0.667617      0.000313948     -0.00209798        0.0657191       0.0322338      0.000357218     0.000578665
                     0.000736785     -0.00202482         0.339646        0.907588      0.000466455     0.000526098        -0.218365       -0.115584
256200                0.00698773       0.0622884      0.000200024     1.29507e-05         0.690832       -0.720234      0.000566577     -0.00231851
                     4.55429e-05     0.000198151        -0.093652        0.228455      5.10638e-05     -0.00208711         0.388535        0.887848
                        0.690912       -0.720283      0.000119471     -0.00212417        0.0625377      0.00435417      0.000384019     0.000514397
                     0.000615554     -0.00208104         0.388436        0.887899      0.000485129     0.000450278        -0.231357      -0.0862589
