! TOUCHSTONE file generated by CST MICROWAVE STUDIO
! Date and time: Sun Sep 28 19:32:16 2025
! Project name: biblioteca3_folgaOK.cst
! Parameters = {H=600; Lx=200; Ly=260; Nedge=20; P=520; mesh_pilar_nm=40; t_air=3500; t_sub=4000}
! Header version: 2018
! Port assignment regex: !\s*Touchstone port\s*([0-9]+)\s*=\s*(CST MWS port|CST DS port)\s*([0-9]+|Zmin|Zmax)\s*\(\"(.*)\"\)(\s*mode\s*([0-9]+))?.*
! Touchstone port assignment:
! Touchstone port 1 = CST MWS port Zmin ("") mode 1
! Touchstone port 2 = CST MWS port Zmin ("") mode 2
! Touchstone port 3 = CST MWS port Zmax ("") mode 1
! Touchstone port 4 = CST MWS port Zmax ("") mode 2
! S-Parameters are not renormalized. Each port impedance will be approximated by the real part at minimum frequency. The values are described via the [Reference] keyword.
! Default impedance is overridden by [Reference]
[Version] 2.0
# GHz S RI R 376.73
[Number of Ports] 4
[Reference]
376.73 376.73 376.73 376.73 
[Number of Frequencies] 401
[Network Data]
250000                 -0.250789        0.298918      -0.00041551      0.00100464         0.285436       -0.875389     -0.000509873     0.000223286
                    -0.000353416     0.000966408        -0.117611       0.0391812      0.000367227     0.000264716         0.954486        0.272003
                        0.285206       -0.875618       0.00032128     0.000187547       -0.0265145       -0.389284       0.00100474     0.000347815
                    -0.000459546     0.000209402          0.95423        0.271537       0.00102408     0.000428371        0.0792725       0.0952902
250200                 -0.224686        0.314244     -0.000303458       0.0010589         0.204632       -0.899504     -0.000475829     0.000274815
                     -0.00025565      0.00102642        -0.122088       0.0426518      0.000397575     0.000226675         0.972782        0.193431
                        0.204807       -0.899546      0.000356783     0.000159241        -0.066384        -0.38055       0.00103661     0.000315341
                    -0.000437856      0.00025571         0.972526        0.193051       0.00108447     0.000372773        0.0966228       0.0862761
250400                 -0.197341        0.326825     -0.000184706      0.00110428         0.121649       -0.916396     -0.000439073     0.000322658
                    -0.000147861       0.0010792        -0.126444       0.0469294      0.000425605     0.000183208         0.984556        0.113655
                        0.122107       -0.916367      0.000390701      0.00012518        -0.104768       -0.367114       0.00107406     0.000284107
                    -0.000412283      0.00030108          0.98432        0.113351       0.00114379      0.00031032          0.11269       0.0747272
250600                 -0.169067         0.33653     -5.97866e-05      0.00113986        0.0370834       -0.925849     -0.000399624     0.000366869
                    -3.03038e-05      0.00112305        -0.130577       0.0520045      0.000450301     0.000134097         0.989741       0.0332281
                       0.0377101       -0.925822      0.000422054     8.50731e-05        -0.141042       -0.349191       0.00112041     0.000252337
                    -0.000382637     0.000345157          0.98954       0.0329889       0.00120136      0.00024062         0.127139       0.0608596
250800                 -0.140194        0.343265      7.06459e-05      0.00116468       -0.0484422       -0.927686     -0.000357497     0.000407429
                      9.6476e-05       0.0011562        -0.134385        0.057855       0.00047046     7.92909e-05         0.988317      -0.0472942
                      -0.0477483         -0.9277      0.000449688     3.87825e-05        -0.174612        -0.32709         0.001179     0.000215828
                    -0.000348744     0.000387519         0.988161      -0.0474829       0.00125641     0.000163322         0.139671       0.0449264
251000                 -0.111063        0.346974      0.000205806      0.00117782        -0.134282       -0.921774     -0.000312715      0.00044425
                     0.000231601      0.00117686        -0.137772       0.0644465      0.000484713     1.89878e-05         0.980312       -0.127361
                       -0.133605       -0.921841      0.000472301    -1.36197e-05        -0.204929       -0.301204       0.00125134     0.000167328
                    -0.000310466     0.000427666         0.980206       -0.127513       0.00130802      7.8141e-05         0.150031       0.0272111
251200                -0.0820252        0.347643      0.000344769      0.00117838        -0.219765       -0.908025     -0.000265315     0.000477186
                     0.000373823      0.00118322        -0.140644       0.0717333      0.000491569    -4.62847e-05         0.965802       -0.206429
                       -0.219171       -0.908136      0.000488466    -7.17855e-05          -0.2315       -0.272007       0.00133443     9.75837e-05
                    -0.000267714      0.00046502         0.965747       -0.206559       0.00135518    -1.51246e-05         0.158001      0.00802241
251400                -0.0534321        0.345302      0.000486467      0.00116551          -0.3042       -0.886405     -0.000215363     0.000506029
                     0.000521506      0.00117364        -0.142916       0.0796592      0.000489488    -0.000115583         0.944905       -0.283966
                       -0.303735       -0.886536      0.000496694    -0.000135028        -0.253901       -0.240041       0.00141906    -9.08084e-07
                    -0.000220479     0.000498921           0.9449       -0.284087       0.00139677     -0.00011656         0.163409      -0.0123104
251600                -0.0256336        0.340022      0.000629679      0.00113843        -0.386877       -0.856933     -0.000162962     0.000530522
                     0.000672622      0.00114664        -0.144507       0.0881582      0.000477014    -0.000187481         0.917785       -0.359457
                       -0.386566       -0.857054      0.000495518    -0.000202269        -0.271789       -0.205911       0.00149204    -0.000129169
                    -0.000168853      0.00052863         0.917824       -0.359579       0.00143156    -0.000226109         0.166125      -0.0334425
251800                0.00102829        0.331917      0.000773034      0.00109644        -0.467068       -0.819691     -0.000108268      0.00055036
                     0.000824782      0.00110109        -0.145347       0.0971558       0.00045294    -0.000260044         0.884646       -0.432403
                       -0.466919        -0.81977      0.000483605    -0.000272009         -0.28491       -0.170273         0.001542    -0.000280423
                    -0.000113062     0.000553345         0.884721       -0.432535       0.00145821    -0.000343537         0.166063      -0.0550182
252000                 0.0262249        0.321144      0.000915009      0.00103896        -0.544034       -0.774825     -5.14952e-05     0.000565199
                     0.000975298      0.00103626        -0.145375         0.10657      0.000416505    -0.000330869         0.845728       -0.502329
                        -0.54404       -0.774835      0.000459886    -0.000342334        -0.293106       -0.133816       0.00156387    -0.000443871
                    -5.35015e-05     0.000572222         0.845832       -0.502477       0.00147535    -0.000468402         0.163183      -0.0766752
252200                 0.0496462        0.307903       0.00105393     0.000965561        -0.617034       -0.722557      7.06417e-06     0.000574666
                      0.00112127      0.00095192        -0.144539        0.116312      0.000367591    -0.000397219         0.801312       -0.568782
                       -0.617175       -0.722472      0.000423694    -0.000410972        -0.296322      -0.0972528        0.0015587    -0.000609804
                     9.23879e-06     0.000584411         0.801434        -0.56895       0.00148155    -0.000600024         0.157487      -0.0980501
252400                 0.0710065        0.292432         0.001188     0.000875989        -0.685323       -0.663179      6.70316e-05     0.000578376
                      0.00125972     0.000848419        -0.142796        0.126289      0.000306873    -0.000456241         0.751709       -0.631337
                       -0.685571       -0.662986       0.00037489    -0.000475391        -0.294612      -0.0613024       0.00153063     -0.00077212
                     7.43485e-05     0.000589104         0.751839       -0.631526       0.00147538    -0.000737458         0.149026       -0.118783
252600                 0.0900498        0.275007       0.00131529     0.000770185        -0.748169       -0.597066       0.00012793     0.000575943
                      0.00138773     0.000726685        -0.140116        0.136403      0.000235865    -0.000505267         0.697263       -0.689598
                       -0.748493       -0.596759      0.000313951    -0.000532956        -0.288136      -0.0266733       0.00148406    -0.000928043
                     0.000140788       0.0005856         0.697393       -0.689807        0.0014555    -0.000879476         0.137892       -0.138523
252800                  0.106555         0.25594       0.00143377     0.000648328         -0.80486       -0.524676      0.000189174     0.000567005
                      0.00150261     0.000588218        -0.136479        0.146554      0.000156833    -0.000542127         0.638345       -0.743199
                       -0.805224       -0.524259      0.000242004     -0.00058111        -0.277163      0.00595276       0.00142239     -0.00107681
                     0.000207298     0.000573376         0.638467       -0.743425       0.00142066     -0.00102456         0.124221       -0.156933
253000                  0.120343        0.235568       0.00154134     0.000510858        -0.854712       -0.446551      0.000250067     0.000551252
                        0.001602     0.000435015        -0.131876         0.15664      7.25698e-05    -0.000565407         0.575353       -0.791807
                       -0.855084       -0.446037      0.000160797    -0.000617569        -0.262066        0.035938       0.00134779     -0.00121852
                     0.000272437     0.000552161         0.575461       -0.792044       0.00136981     -0.00117091         0.108192       -0.173694
253200                  0.131277        0.214256       0.00163587     0.000358505        -0.897081       -0.363315      0.000309797     0.000528448
                      0.00168407     0.000269447        -0.126308         0.16656     -1.39355e-05    -0.000574586         0.508706       -0.835123
                       -0.897435       -0.362726      7.25972e-05    -0.000640491        -0.243316       0.0627058       0.00126145     -0.00135341
                      0.00033464     0.000522002         0.508796       -0.835366       0.00130216     -0.00131648        0.0900212       -0.188512
253400                   0.13927        0.192387       0.00171523     0.000192308         -0.93138       -0.275679      0.000367449     0.000498471
                      0.00174753     9.41085e-05        -0.119789        0.176211      -9.9855e-05     -0.00057001         0.438846       -0.872881
                       -0.931694        -0.27504     -1.99558e-05      -0.0006486        -0.221473       0.0857567       0.00116396     -0.00148157
                     0.000392315     0.000483315         0.438913       -0.873123       0.00121724     -0.00145898        0.0699611       -0.201122
253600                  0.144289        0.170356       0.00177736      1.3628e-05        -0.957085       -0.184431      0.000422017      0.00046134
                      0.00179168     -8.8368e-05        -0.112343        0.185495     -0.000182822    -0.000552707         0.366228       -0.904854
                       -0.957347       -0.183771     -0.000114031    -0.000641256        -0.197174        0.104684       0.00105554     -0.00160278
                     0.000443949     0.000436895         0.366272       -0.905089       0.00111496     -0.00159601        0.0482967       -0.211293
253800                  0.146354        0.148562        0.0018203     -0.00017584        -0.973753      -0.0904316      0.000472429     0.000417249
                      0.00181639    -0.000275493        -0.104002        0.194314     -0.000261106    -0.000524097         0.291325       -0.930849
                       -0.973958      -0.0897803     -0.000206784    -0.000618447        -0.171116        0.119185      0.000936265     -0.00171655
                     0.000488226     0.000383895         0.291346       -0.931071      0.000995634     -0.00172507        0.0253408       -0.218828
254000                   0.14554          0.1274       0.00184229    -0.000374076         -0.98103      0.00539198      0.000517588     0.000366596
                      0.00182194    -0.000465082       -0.0948127        0.202578     -0.000333635     -0.00048566         0.214619       -0.950711
                       -0.981181      0.00600652     -0.000295514     -0.00058074        -0.144041        0.129075      0.000806215     -0.00182211
                     0.000524129      0.00032576          0.21462       -0.950915      0.000860033      -0.0018437       0.00142925       -0.223574
254200                  0.141981        0.107254       0.00184178    -0.000578746        -0.978665        0.102059      0.000556414     0.000309998
                      0.00180892    -0.000655379       -0.0848269        0.210198     -0.000399857    -0.000438656         0.136603       -0.964325
                       -0.978772        0.102613     -0.000377781    -0.000529182        -0.116717        0.134294      0.000665551     -0.00191851
                     0.000551018     0.000264122         0.136586       -0.964505      0.000709355     -0.00194954       -0.0230841       -0.225419
254400                  0.135863       0.0884859       0.00181756    -0.000787232        -0.966517        0.198545      0.000587897     0.000248298
                      0.00177796    -0.000845106       -0.0741077        0.217094     -0.000459488    -0.000383938        0.0577734        -0.97161
                       -0.966596        0.199021     -0.000451473    -0.000465192       -0.0899118        0.134908      0.000514581      -0.0020046
                     0.000568665     0.000200685        0.0577441       -0.971763      0.000545205     -0.00204046       -0.0478331       -0.224297
254600                  0.127423       0.0714307       0.00176877    -0.000996674        -0.944566        0.293801      0.000611158      0.00018256
                      0.00172954     -0.00103343       -0.0627258        0.223189       -0.0005122    -0.000321933        -0.021367       -0.972526
                       -0.944636        0.294187     -0.000514836    -0.000390454       -0.0643753        0.131113      0.000353806     -0.00207915
                     0.000577246      0.00013709       -0.0214041       -0.972651      0.000369541     -0.00211462       -0.0724451       -0.220188
254800                  0.116947       0.0563844       0.00169499     -0.00120402        -0.912918        0.386764        0.0006255     0.000114037
                      0.00166376     -0.00121984       -0.0507596        0.228419     -0.000557338     -0.00025279        -0.100316       -0.967069
                          -0.913        0.387057     -0.000566472    -0.000306823       -0.0408145        0.123231      0.000183946     -0.00214088
                     0.000577289     7.48159e-05        -0.100356       -0.967165      0.000184594     -0.00217053       -0.0965468       -0.213121
255000                   0.10476       0.0435989       0.00159628     -0.00140609        -0.871806         0.47638      0.000630461      4.4139e-05
                      0.00158012     -0.00140386        -0.038294        0.232723     -0.000593756    -0.000176672        -0.178574       -0.955275
                       -0.871918        0.476582      -0.00060531    -0.000216262       -0.0198721          0.1117       5.9491e-06     -0.00218851
                     0.000569595     1.50868e-05        -0.178611       -0.955342     -7.21589e-06     -0.00220713         -0.11977        -0.20317
255200                 0.0912226       0.0332751        0.0014732     -0.00159964        -0.821591        0.561618       0.00062585    -2.56327e-05
                      0.00147756     -0.00158473       -0.0254202        0.236052     -0.000619841    -9.41312e-05        -0.255644       -0.937214
                       -0.821751        0.561739     -0.000630583    -0.000120789      -0.00210579       0.0970627     -0.000179001     -0.00222081
                     0.000555142    -4.11695e-05        -0.255673       -0.937255     -0.000203376     -0.00222377        -0.141758       -0.190456
255400                 0.0767196       0.0255576       0.00132688     -0.00178146         -0.76276        0.641488      0.000611769    -9.37443e-05
                       0.0013545     -0.00176102        -0.012234        0.238367     -0.000633777    -6.40337e-06        -0.331036       -0.912996
                        -0.76298        0.641543     -0.000641795    -2.24643e-05        0.0120299       0.0799493     -0.000369495     -0.00223668
                     0.000534983    -9.33372e-05        -0.331054       -0.913014     -0.000401376     -0.00222023        -0.162171       -0.175143
255600                 0.0616526       0.0205315       0.00115893     -0.00194841        -0.695918        0.715063      0.000588609    -0.000158701
                      0.00120924     -0.00193027       0.00116462        0.239637     -0.000633942     8.44762e-05         -0.40427       -0.882766
                       -0.696206        0.715071     -0.000638706     7.66276e-05         0.022198       0.0610588     -0.000563918     -0.00223515
                     0.000510156    -0.000141097        -0.404273       -0.882765     -0.000598787     -0.00219666        -0.180691       -0.157439
255800                 0.0464296       0.0182201      0.000971507     -0.00209752        -0.621783        0.781492      0.000557038    -0.000219114
                       0.0010405     -0.00208885        0.0146728        0.239841     -0.000619315     0.000175818        -0.474877       -0.846703
                       -0.622139        0.781473     -0.000621335     0.000174374          0.02819       0.0411364     -0.000760475     -0.00221545
                     0.000481614     -0.00018439        -0.474863        -0.84669     -0.000793336     -0.00215358        -0.197026       -0.137589
256000                 0.0314544       0.0185847      0.000767172     -0.00222606        -0.541168        0.840016      0.000517962    -0.000273756
                     0.000848011     -0.00223212        0.0281858        0.238973     -0.000589733     0.000264616        -0.542402       -0.805025
                       -0.541587        0.839988     -0.000589969     0.000268639        0.0299324       0.0209491     -0.000957225     -0.00217705
                     0.000450161    -0.000223368         -0.54237       -0.805003     -0.000982956     -0.00209177        -0.210919       -0.115875
256200                 0.0171176        0.021527      0.000548853     -0.00233157        -0.454974        0.889978       0.00047248    -0.000321604
                     0.000633054     -0.00235494        0.0415979        0.237033     -0.000545912     0.000347951        -0.606406        -0.75798
                       -0.455446        0.889958     -0.000545197      0.00035728        0.0274876      0.00126096      -0.00115212     -0.00211966
                      0.00041641    -0.000258341        -0.606357       -0.757955      -0.00116582     -0.00201222        -0.222148        -0.09261
