! TOUCHSTONE file generated by CST MICROWAVE STUDIO
! Date and time: Fri Sep 26 07:22:02 2025
! Project name: biblioteca3_folgaOK.cst
! Parameters = {H=600; Lx=200; Ly=260; Nedge=40; P=520; k=0; mesh_pilar_nm=40; n=0; t_air=3500; t_sub=2000; wavelength_nm=0}
! Header version: 2018
! Port assignment regex: !\s*Touchstone port\s*([0-9]+)\s*=\s*(CST MWS port|CST DS port)\s*([0-9]+|Zmin|Zmax)\s*\(\"(.*)\"\)(\s*mode\s*([0-9]+))?.*
! Touchstone port assignment:
! Touchstone port 1 = CST MWS port Zmin ("") mode 1
! Touchstone port 2 = CST MWS port Zmin ("") mode 2
! Touchstone port 3 = CST MWS port Zmax ("") mode 1
! Touchstone port 4 = CST MWS port Zmax ("") mode 2
! S-Parameters are not renormalized. Each port impedance will be approximated by the real part at minimum frequency. The values are described via the [Reference] keyword.
! Default impedance is overridden by [Reference]
[Version] 2.0
# GHz S RI R 376.73
[Number of Ports] 4
[Reference]
376.73 376.73 376.73 376.73 
[Number of Frequencies] 401
[Network Data]
250000                  -0.29756       -0.128262      -0.00121304    -0.000690545         0.652534       -0.685235     -0.000718915     -0.00103951
                     -0.00117172    -0.000699515      -0.00210142       -0.188228     -8.66745e-05    -0.000934321         0.763852        0.617662
                        0.652487       -0.684798     -1.07566e-05     -0.00085069         -0.14266        -0.29092       0.00061865    -0.000992182
                    -0.000688286    -0.000973973         0.763682        0.617766      0.000667558     -0.00102941           0.1845      -0.0373311
250200                 -0.298275       -0.107301      -0.00127169    -0.000601203         0.598584       -0.735782     -0.000796917    -0.000979108
                     -0.00124426    -0.000602728       -0.0100063       -0.191427     -0.000125738    -0.000931416         0.801808        0.566306
                        0.598584       -0.735506     -4.49242e-05    -0.000859591        -0.166237       -0.270077      0.000582027     -0.00102485
                    -0.000768795    -0.000927462         0.802516        0.565532      0.000615578      -0.0010589         0.183729      -0.0545293
250400                 -0.297233      -0.0865852      -0.00132559    -0.000504449         0.540509       -0.782347     -0.000870138    -0.000912713
                     -0.00130851    -0.000498274       -0.0182469       -0.194193     -0.000166079    -0.000927181          0.83634        0.512599
                        0.540514        -0.78219     -8.09986e-05    -0.000867712        -0.186889        -0.24709      0.000542421     -0.00105663
                    -0.000845981    -0.000873314         0.837344        0.511292      0.000561783      -0.0010864         0.181289      -0.0718038
250600                 -0.294457      -0.0662823      -0.00137363    -0.000400344          0.47858       -0.824556     -0.000938054    -0.000840771
                     -0.00136353    -0.000386905       -0.0267949       -0.196499     -0.000207717    -0.000921496         0.867305        0.456771
                        0.478562       -0.824476     -0.000119051      -0.0008749        -0.204425        -0.22237      0.000499765     -0.00108722
                    -0.000918984    -0.000811853         0.868268        0.455265      0.000506237     -0.00111177         0.177161      -0.0889847
250800                 -0.289993      -0.0465583      -0.00141464    -0.000289111         0.413103       -0.862052       -0.0010002    -0.000763775
                     -0.00140844    -0.000269497       -0.0356204       -0.198318     -0.000250668    -0.000914235         0.894571         0.39906
                        0.413045        -0.86201      -0.00015915    -0.000880983        -0.218714       -0.196335      0.000454022     -0.00111632
                    -0.000986997    -0.000743522         0.895335        0.397638      0.000449013     -0.00113485         0.171348         -0.1059
251000                   -0.2839      -0.0275762      -0.00144742    -0.000171164         0.344424       -0.894498      -0.00105616     -0.00068226
                     -0.00144248    -0.000147043       -0.0446912       -0.199629     -0.000294942    -0.000905263         0.918024        0.339709
                        0.344319        -0.89446     -0.000201356    -0.000885769        -0.229673       -0.169407       0.00040519     -0.00114358
                     -0.00104928    -0.000668868         0.918553        0.338591      0.000390202     -0.00115547         0.163868       -0.122377
251200                 -0.276256     -0.00949326      -0.00147071    -4.71342e-05          0.27292       -0.921581      -0.00110559    -0.000596792
                     -0.00146499     -2.0642e-05       -0.0539735       -0.200408     -0.000340543    -0.000894435         0.937569        0.278972
                        0.272771       -0.921518     -0.000245723    -0.000889046        -0.237274        -0.14201      0.000353306     -0.00116866
                      -0.0011052    -0.000588523         0.937901        0.278304      0.000329912     -0.00117347          0.15476       -0.138247
251400                 -0.267158      0.00754032      -0.00148329     8.21095e-05         0.199008       -0.943016      -0.00114822    -0.000507963
                     -0.00147544     0.000108522       -0.0634318       -0.200638     -0.000387465    -0.000881597         0.953123        0.217103
                        0.198823       -0.942905     -0.000292294    -0.000890576        -0.241534       -0.114557      0.000298453     -0.00119119
                      -0.0011542    -0.000503191          0.95334        0.216966      0.000268263      -0.0011887          0.14408       -0.153343
251600                 -0.256716       0.0233836      -0.00148401     0.000215447         0.123135       -0.958551      -0.00118381    -0.000416377
                     -0.00147344      0.00023919        -0.073029       -0.200302     -0.000435696    -0.000866587         0.964623        0.154364
                        0.122926       -0.958376     -0.000341099      -0.0008901        -0.242519      -0.0874552      0.000240759      -0.0012108
                     -0.00119583    -0.000413624         0.964825         0.15478      0.000205396       -0.001201         0.131902       -0.167505
251800                 -0.245057        0.037907      -0.00147184     0.000351504        0.0457783       -0.967969      -0.00121224    -0.000322644
                     -0.00145873     0.000370051       -0.0827266       -0.199385     -0.000485206    -0.000849234         0.972021       0.0910176
                       0.0455611       -0.967722     -0.000392146     -0.00088733         -0.24034      -0.0610953      0.000180406     -0.00122712
                     -0.00122976    -0.000320604         0.972308       0.0919623      0.000141467     -0.00121022         0.118314       -0.180581
252000                 -0.232323        0.050994      -0.00144594     0.000488669       -0.0325581       -0.971096      -0.00123339    -0.000227373
                     -0.00143124     0.000499763       -0.0924848       -0.197875     -0.000535956    -0.000829358         0.975286       0.0273307
                      -0.0327673       -0.970772     -0.000445424    -0.000881955        -0.235154      -0.0358512       0.00011763     -0.00123979
                     -0.00125576    -0.000224925         0.975746       0.0287415      7.66502e-05     -0.00121622         0.103424       -0.192429
252200                  -0.21867       0.0625429      -0.00140572     0.000625116        -0.111346         -0.9678      -0.00124725    -0.000131163
                     -0.00139101     0.000626966        -0.102263       -0.195764     -0.000587888    -0.000806771         0.974406      -0.0364305
                       -0.111532       -0.967401      -0.00050089    -0.000873633        -0.227158      -0.0120741      5.27198e-05     -0.00124848
                     -0.00127369    -0.000127376         0.975106      -0.0346408      1.11381e-05     -0.00121888        0.0873499       -0.202917
252400                 -0.204263       0.0724687      -0.00135089      0.00075886        -0.190039       -0.957995      -0.00125384    -3.45961e-05
                     -0.00133828     0.000750308        -0.112019       -0.193047     -0.000640924    -0.000781279         0.969384      -0.0999989
                       -0.190187        -0.95753     -0.000558471       -0.000862        -0.216591      0.00991149     -1.39843e-05     -0.00125286
                     -0.00128351    -2.87288e-05         0.970367      -0.0979331     -5.48603e-05     -0.00121806         0.070226       -0.211927
252600                 -0.189279       0.0807047      -0.00128153     0.000887815        -0.268074       -0.941649      -0.00125322      6.1765e-05
                     -0.00127342     0.000868463         -0.12171       -0.189719     -0.000694964    -0.000752684         0.960239       -0.163109
                       -0.268173       -0.941128     -0.000618048    -0.000846664        -0.203729       0.0298122     -8.20923e-05     -0.00125268
                     -0.00128525     7.02733e-05         0.961526       -0.160876     -0.000121119     -0.00121367        0.0521973       -0.219353
252800                 -0.173902       0.0872032      -0.00119807      0.00100987        -0.344881        -0.91878      -0.00124552     0.000157383
                     -0.00119695     0.000980147        -0.131294        -0.18578     -0.000749879    -0.000720784         0.947009       -0.225497
                       -0.344924       -0.918216     -0.000679457    -0.000827209        -0.188884       0.0473706     -0.000151171     -0.00124769
                     -0.00127904     0.000168923         0.948595       -0.223203     -0.000187395     -0.00120561         0.033419       -0.225106
253000                 -0.158322       0.0919375      -0.00110133      0.00112298        -0.419885        -0.88946       -0.0012309     0.000251748
                     -0.00110956      0.00108414        -0.140726       -0.181235     -0.000805512    -0.000685377         0.929746       -0.286901
                       -0.419867       -0.888869     -0.000742474    -0.000803203        -0.172401       0.0623704     -0.000220751     -0.00123773
                     -0.00126503     0.000266554         0.931607       -0.284645     -0.000253431     -0.00119382        0.0140553        -0.22911
253200                 -0.142731        0.094902     -0.000992525      0.00122526        -0.492511       -0.853817      -0.00120954     0.000344381
                     -0.00101204      0.00117929        -0.149965        -0.17609     -0.000861665    -0.000646263          0.90852       -0.347065
                       -0.492431       -0.853215     -0.000806811    -0.000774198        -0.154649       0.0746407     -0.000290336     -0.00122268
                     -0.00124344     0.000362543         0.910613       -0.344933     -0.000318957     -0.00117823      -0.00572239       -0.231308
253400                 -0.127323       0.0961131     -0.000873169      0.00131503        -0.562194       -0.812037      -0.00118167     0.000434833
                    -0.000905329      0.00126454        -0.158965       -0.170353     -0.000918102    -0.000603247         0.883415       -0.405736
                       -0.562056       -0.811438     -0.000872106    -0.000739742        -0.136022       0.0840607     -0.000359413     -0.00120251
                     -0.00121455     0.000456311         0.885685       -0.403799      -0.00038369     -0.00115882       -0.0257374        -0.23166
253600                 -0.112288       0.0956091     -0.000745064      0.00139093        -0.628383       -0.764359      -0.00114752     0.000522688
                     -0.00079048      0.00133896        -0.167685       -0.164038     -0.000974537    -0.000556147         0.854533       -0.462668
                        -0.62819       -0.763777     -0.000937913    -0.000699387        -0.116927       0.0905632     -0.000427464     -0.00117723
                     -0.00117864     0.000547324         0.856916       -0.460978     -0.000447337     -0.00113559       -0.0458092       -0.230143
253800                -0.0978142       0.0934504     -0.000610203      0.00145194        -0.690544       -0.711076      -0.00110736      0.00060756
                    -0.000668644       0.0014017        -0.176082       -0.157162      -0.00103063    -0.000504793         0.821989       -0.517621
                       -0.690306       -0.710524       -0.0010037    -0.000652701       -0.0977793       0.0941382     -0.000493974     -0.00114693
                     -0.00113605     0.000635088         0.824417       -0.516211     -0.000509599     -0.00110856       -0.0657553       -0.226751
254000                -0.0840796        0.089719     -0.000470691      0.00149742        -0.748171       -0.652538      -0.00106146     0.000689094
                    -0.000541065      0.00145206        -0.184114       -0.149742      -0.00108598    -0.000449036         0.785913       -0.570362
                       -0.747898       -0.652024      -0.00106882    -0.000599287       -0.0789953       0.0948342      -0.00055845     -0.00111177
                     -0.00108712     0.000719153         0.788319       -0.569248     -0.000570171     -0.00107778       -0.0853929       -0.221498
254200                -0.0712532       0.0845173     -0.000328655      0.00152712        -0.800792       -0.589141      -0.00101011     0.000766963
                     -0.00040906      0.00148949        -0.191742       -0.141803      -0.00114012    -0.000388752          0.74645       -0.620667
                       -0.800494       -0.588672      -0.00113257    -0.000538799        -0.060981       0.0927594     -0.000620422     -0.00107197
                     -0.00103223     0.000799108          0.74877       -0.619849     -0.000628749     -0.00104332        -0.104541       -0.214415
254400                -0.0594912        0.077967     -0.000186172      0.00154111        -0.847969        -0.52133     -0.000953614      0.00084087
                    -0.000274009      0.00151356        -0.198926       -0.133369       -0.0011925    -0.000323844         0.703759        -0.66832
                       -0.847657        -0.52091      -0.00119409    -0.000470965       -0.0441248       0.0880807      -0.00067946      -0.0010278
                     -0.00097176     0.000874582         0.705938       -0.667783     -0.000685027     -0.00100531        -0.123021       -0.205551
254600                -0.0489344       0.0702077     -4.51936e-05      0.00153982        -0.889308       -0.449594     -0.000892265      0.00091054
                    -0.000137337      0.00152401         -0.20563        -0.12447      -0.00124252    -0.000254254         0.658012       -0.713117
                       -0.888993       -0.449223      -0.00125247    -0.000395609       -0.0287876       0.0810209     -0.000735177    -0.000979577
                     -0.00090612     0.000945239         0.660001       -0.712833     -0.000738708    -0.000963866         -0.14066       -0.194972
254800                -0.0397062       0.0613946      9.25049e-05      0.00152394        -0.924463       -0.374457     -0.000826372     0.000975724
                     -4.9407e-07      0.00152075        -0.211818       -0.115138      -0.00128948    -0.000179962         0.609393       -0.754861
                       -0.924155       -0.374135      -0.00130668    -0.000312679       -0.0152939        0.071855     -0.000787238    -0.000927663
                    -0.000835721      0.00101078         0.611157       -0.754796       -0.0007895    -0.000919168        -0.157293       -0.182763
255000                -0.0319106       0.0516967      0.000225359      0.00149437        -0.953139       -0.296478     -0.000756241      0.00103619
                      0.00013506      0.00150384        -0.217457       -0.105406      -0.00133259    -0.000100992         0.558098        -0.79337
                       -0.952847       -0.296202      -0.00135566    -0.000222267      -0.00392352       0.0609044     -0.000835361    -0.000872445
                    -0.000760986      0.00107095         0.559613       -0.793481     -0.000837124    -0.000871411         -0.17276       -0.169023
255200                -0.0256308       0.0412938      0.000352038      0.00145217        -0.975097       -0.216246     -0.000682181      0.00109174
                     0.000267876       0.0014735        -0.222516      -0.0953129      -0.00137103    -1.74178e-05         0.504335       -0.828473
                       -0.974827       -0.216011      -0.00139826    -0.000124637       0.00509552       0.0485292     -0.000879318    -0.000814325
                    -0.000682344      0.00112552         0.505591       -0.828716     -0.000881317     -0.00082082        -0.186914       -0.153869
255400                -0.0209273        0.030374      0.000471442       0.0013985        -0.990154       -0.134366     -0.000604501      0.00114216
                     0.000396536      0.00143013        -0.226967      -0.0848986      -0.00140388     7.06301e-05         0.448324       -0.860009
                       -0.989912       -0.134167      -0.00143334    -2.02412e-05        0.0115932       0.0351198     -0.000918938    -0.000753718
                    -0.000600227      0.00117429         0.449319       -0.860341     -0.000921835    -0.000767646        -0.199618        -0.13743
255600                -0.0178378       0.0191307      0.000582703      0.00133458        -0.998188      -0.0514618     -0.000523511      0.00118729
                     0.000519672      0.00137429        -0.230785      -0.0742053      -0.00143022     0.000162959         0.390293       -0.887834
                       -0.997976      -0.0512921      -0.00145978     9.02651e-05        0.0154617       0.0210873     -0.000954103    -0.000691038
                    -0.000515067      0.00121712         0.391037       -0.888213     -0.000958452    -0.000712164        -0.210748       -0.119851
255800                 -0.016376      0.00775976      0.000685159      0.00126162        -0.999137       0.0318359     -0.000439519      0.00122696
                     0.000635989      0.00130671        -0.233948       -0.063278      -0.00144908     0.000259303         0.330481       -0.911816
                       -0.998958       0.0319821      -0.00147652     0.000206019        0.0166581      0.00685283     -0.000984743    -0.000626691
                    -0.000427295      0.00125388         0.330994       -0.912206      -0.00099097    -0.000654671        -0.220195       -0.101287
256000                -0.0165319     -0.00354398      0.000778334       0.0011808        -0.993001        0.114894     -0.000352835      0.00126101
                     0.000744285      0.00122824        -0.236436      -0.0521632      -0.00145952     0.000359311         0.269133       -0.931839
                       -0.992854        0.115023      -0.00148259     0.000325953         0.015205     -0.00716262      -0.00101083    -0.000561069
                    -0.000337335      0.00128448         0.269442       -0.932208      -0.00101922    -0.000595483        -0.227866      -0.0819078
256200                -0.0182725      -0.0145893      0.000861909      0.00109328         -0.97984        0.197086     -0.000263772      0.00128931
                      0.00084347      0.00113988        -0.238234      -0.0409095      -0.00146065     0.000462532         0.206506       -0.947798
                       -0.979723        0.197202       -0.0014772     0.000448818        0.0111891      -0.0205492      -0.00103239    -0.000494544
                    -0.000245602      0.00130885         0.206641       -0.948125      -0.00104304    -0.000534929        -0.233682      -0.0618886
