! TOUCHSTONE file generated by CST MICROWAVE STUDIO
! Date and time: Sun Sep 28 19:09:24 2025
! Project name: biblioteca3_folgaOK.cst
! Parameters = {H=600; Lx=200; Ly=260; Nedge=50; P=520; mesh_pilar_nm=40; t_air=3800; t_sub=6000}
! Header version: 2018
! Port assignment regex: !\s*Touchstone port\s*([0-9]+)\s*=\s*(CST MWS port|CST DS port)\s*([0-9]+|Zmin|Zmax)\s*\(\"(.*)\"\)(\s*mode\s*([0-9]+))?.*
! Touchstone port assignment:
! Touchstone port 1 = CST MWS port Zmin ("") mode 1
! Touchstone port 2 = CST MWS port Zmin ("") mode 2
! Touchstone port 3 = CST MWS port Zmax ("") mode 1
! Touchstone port 4 = CST MWS port Zmax ("") mode 2
! S-Parameters are not renormalized. Each port impedance will be approximated by the real part at minimum frequency. The values are described via the [Reference] keyword.
! Default impedance is overridden by [Reference]
[Version] 2.0
# GHz S RI R 376.73
[Number of Ports] 4
[Reference]
376.73 376.73 376.73 376.73 
[Number of Frequencies] 401
[Network Data]
250000                  0.303918        0.211059     -0.000201838     0.000422689         0.311895        0.875021      0.000766756      0.00033261
                    -0.000266471     0.000455688         0.103813       0.0175703      0.000908979     0.000464049        -0.929696        0.352851
                        0.311927        0.874992      0.000981119     0.000455677         0.102068       -0.355678      2.14742e-05    -0.000568261
                      0.00083664     0.000253643        -0.929748         0.35291      7.59832e-05    -0.000779256       -0.0660252       0.0820204
250200                  0.326516        0.180223     -0.000228708     0.000422227         0.408506        0.833636      0.000837419     0.000249681
                    -0.000191648     0.000481862         0.100855       0.0192666      0.000946792     0.000360428        -0.886609        0.450785
                        0.409102        0.833769       0.00104158     0.000347262        0.0599289       -0.367798     -7.42283e-06    -0.000576017
                     0.000864062     0.000159756        -0.888616        0.448538     -1.22062e-05    -0.000789074       -0.0460487       0.0942923
250400                  0.345152        0.146258     -0.000267427     0.000422314         0.500024        0.781775      0.000895019      0.00015088
                    -0.000114774     0.000497078        0.0993065       0.0217084      0.000972131        0.000252        -0.833456        0.542578
                        0.501043        0.781896       0.00108572     0.000229387         0.015743       -0.373981     -3.83328e-05    -0.000582947
                     0.000881417     6.14881e-05        -0.837209        0.539453     -9.95651e-05    -0.000784996       -0.0236687         0.10269
250600                  0.359292        0.109793     -0.000325435     0.000422964         0.585366        0.720041      0.000935707     3.92434e-05
                    -3.72794e-05     0.000501477        0.0992715         0.02453      0.000984296     0.000140745        -0.771122        0.627503
                        0.586655        0.720041        0.0011119     0.000105262       -0.0295074       -0.373812     -7.14552e-05    -0.000588866
                      0.00088789    -4.00316e-05        -0.776127        0.624481     -0.000183086    -0.000768007      0.000287873        0.106734
250800                  0.368526       0.0715622     -0.000417811     0.000423391         0.663513        0.649131      0.000956698    -8.11725e-05
                     3.95472e-05     0.000495298         0.100766       0.0273705      0.000983002     2.87383e-05        -0.700457        0.704886
                        0.664928        0.648957       0.00111931    -2.16223e-05       -0.0747504       -0.367063     -0.000107023    -0.000593543
                     0.000882792    -0.000143525        -0.706114        0.702542     -0.000260324     -0.00073984        0.0249068        0.106154
251000                  0.372588       0.0323698     -0.000580156     0.000418621         0.733518        0.569832      0.000956539    -0.000205772
                     0.000114529     0.000478831         0.103731       0.0298921      0.000968381    -8.19595e-05        -0.622307         0.77409
                         0.73493        0.569476         0.001108     -0.00014775        -0.118867       -0.353712     -0.000145312    -0.000596689
                     0.000865591    -0.000247575        -0.628031        0.772667     -0.000329575    -0.000702688        0.0492467        0.100894
251200                  0.371367     -0.00693926     -0.000918665     0.000376224         0.794506        0.483013      0.000935138    -0.000329953
                     0.000186553     0.000452388         0.108046       0.0317931      0.000940956    -0.000189401        -0.537543        0.834515
                        0.795811        0.482505       0.00107879    -0.000269829        -0.160734       -0.333955     -0.000186652    -0.000597929
                     0.000835934     -0.00035064        -0.542844        0.834005     -0.000389896    -0.000658899        0.0723956       0.0911049
251400                  0.364912      -0.0455157       -0.0018722    -6.26261e-05         0.845682        0.389628      0.000893558    -0.000449549
                      0.00025453     0.000416298         0.113543       0.0328152      0.000901587    -0.000291837        -0.447079        0.885607
                        0.846806         0.38902       0.00103319     -0.00038499        -0.199276       -0.308199     -0.000231438    -0.000596772
                     0.000793676    -0.000451082        -0.451602        0.885839     -0.000441028    -0.000610722        0.0935172        0.077122
251600                  0.353423      -0.0825383      0.000272492     -0.00378167         0.886332        0.290708      0.000833692    -0.000561112
                     0.000317345     0.000370921         0.120019        0.032746      0.000851397     -0.00038778         -0.35188        0.926874
                        0.887232        0.290066      0.000973158    -0.000490907          -0.2335       -0.277048     -0.000280153    -0.000592556
                     0.000738904    -0.000547188        -0.355419        0.927584     -0.000483243    -0.000560141         0.111885       0.0594277
251800                  0.337241       -0.117243       0.00132066     -0.00066799         0.915832        0.187362        0.0007579    -0.000662006
                     0.000373824     0.000316675          0.12725       0.0314202       0.00079169    -0.000476037        -0.252966        0.957898
                        0.916494        0.186756      0.000900948    -0.000585855        -0.262538       -0.241285     -0.000333383    -0.000584364
                     0.000671959     -0.00063721        -0.255455        0.958796     -0.000517178    -0.000508787         0.126903       0.0386163
252000                  0.316831       -0.148945      0.000872994    -0.000153074         0.933656       0.0807717      0.000668705    -0.000750357
                     0.000422709     0.000254088         0.134994       0.0287171      0.000723872    -0.000555722        -0.151407        0.978357
                        0.934093       0.0802673      0.000818908    -0.000668698        -0.285679       -0.201837     -0.000391834    -0.000570886
                     0.000593452    -0.000719399        -0.152897        0.979171     -0.000543681    -0.000457921         0.138114       0.0153577
252200                  0.292757       -0.177062      0.000662019     -9.0989e-06         0.939385      -0.0278074       0.00056858    -0.000824921
                     0.000462651     0.000183858         0.143006       0.0245588      0.000649375    -0.000626243        -0.048313        0.988031
                        0.939633      -0.0281573      0.000729336    -0.000738827        -0.302386       -0.159746     -0.000456334    -0.000550191
                     0.000504274    -0.000792051       -0.0489441        0.988541     -0.000563688    -0.000408456         0.145199     -0.00963526
252400                  0.265664        -0.20112      0.000546201     4.54044e-05         0.932721       -0.137055      0.000459831    -0.000884907
                     0.000492221     0.000106923         0.151036       0.0189073      0.000569595    -0.000687275        0.0551763        0.986818
                        0.932828       -0.137214      0.000634381    -0.000796077         -0.31232       -0.116133     -0.000527762    -0.000519332
                     0.000405601    -0.000853562        0.0552097        0.986871     -0.000578138    -0.000361012         0.147973      -0.0356327
252600                  0.236254       -0.220764       0.00047434     6.56448e-05         0.913496       -0.245593      0.000344566    -0.000929827
                     0.000509963     2.45445e-05         0.158841        0.011762      0.000485845    -0.000738719          0.15791        0.974738
                        0.913521       -0.245541      0.000535972    -0.000840622        -0.315339      -0.0721593       -0.0006068    -0.000473657
                     0.000298886    -0.000902472         0.158388        0.974257     -0.000587916    -0.000315972         0.146371      -0.0619096
252800                  0.205263       -0.235761       0.00042558     6.86405e-05         0.881687       -0.351992      0.000224731    -0.000959369
                     0.000514464    -6.16227e-05         0.166182      0.00315706      0.000399324    -0.000780664         0.258741        0.951938
                        0.881693        -0.35173      0.000435788    -0.000872884         -0.31151      -0.0289931     -0.000693125    -0.000405638
                     0.000185842    -0.000937525         0.259447        0.950914      -0.00059382    -0.000273533         0.140442      -0.0877612
253000                  0.173446       -0.245999      0.000389861     6.10982e-05         0.837432       -0.454787      0.000102164    -0.000973322
                     0.000504483    -0.000149474         0.172831     -0.00684071      0.000311098    -0.000813334         0.356544        0.918692
                        0.837475       -0.454336      0.000335254    -0.000893449        -0.301098       0.0122261     -0.000783078    -0.000303048
                     6.84168e-05    -0.000957725         0.357282        0.917175     -0.000596555    -0.000233763         0.130338       -0.112516
253200                  0.141552       -0.251485      0.000361582     4.60732e-05          0.78104       -0.552496     -2.13267e-05    -0.000971547
                     0.000479102    -0.000236439         0.178575       -0.018134      0.000222096    -0.000837053          0.45023        0.875393
                        0.781167       -0.551889       0.00023556    -0.000902989        -0.284565       0.0504204      -0.00086321    -0.000147328
                    -5.12561e-05    -0.000962379         0.450845        0.873479     -0.000596724    -0.000196632         0.116299       -0.135545
253400                  0.110317       -0.252342      0.000337184     2.50872e-05         0.713002       -0.643634     -0.000143895    -0.000953987
                     0.000437912     -0.00031952         0.183217      -0.0305971      0.000133108    -0.000852208         0.538767        0.822554
                        0.713251       -0.642919      0.000137683    -0.000902217        -0.262551       0.0846049     -0.000894958      8.1486e-05
                    -0.000170906    -0.000951146         0.539145        0.820366     -0.000594837     -0.00016205        0.0986499       -0.156269
253600                  0.080439       -0.248804      0.000314071    -1.04508e-06         0.634006       -0.726746     -0.000263607    -0.000920717
                     0.000381199    -0.000395411         0.186579      -0.0440782      4.48013e-05    -0.000859213         0.621185        0.760793
                        0.634395       -0.725974      4.24203e-05    -0.000891844        -0.235862        0.113917     -0.000795583     0.000368698
                    -0.000288194    -0.000924068         0.621261        0.758467     -0.000591322    -0.000129886        0.0777895       -0.174167
253800                 0.0525709       -0.241208      0.000290062    -3.18239e-05         0.544936       -0.800427     -0.000378422    -0.000872014
                     0.000310095    -0.000460696         0.188507      -0.0584018     -4.22732e-05    -0.000858488         0.696594        0.690826
                        0.545467       -0.799654     -4.95748e-05     -0.00087255         -0.20545        0.137645     -0.000491494     0.000580636
                    -0.000400785    -0.000881585         0.696349        0.688495     -0.000586531    -9.99892e-05        0.0541832       -0.188783
254000                 0.0273018       -0.229992      0.000263077    -6.68242e-05         0.446877       -0.863357     -0.000486211    -0.000808436
                     0.000226668    -0.000512126         0.188871      -0.0733721      -0.00012766     -0.00085044         0.764194        0.613456
                        0.447538       -0.862634     -0.000137762    -0.000844973        -0.172384        0.155252     -0.000113897     0.000530998
                    -0.000506433    -0.000824539         0.763645        0.611238     -0.000580756    -7.21955e-05        0.0283555        -0.19973
254200                0.00514332       -0.215679      0.000230928    -0.000105487         0.341109       -0.914334     -0.000584813    -0.000730901
                     0.000133887    -0.000546931         0.187571      -0.0887755     -0.000210984    -0.000835444         0.823275        0.529558
                        0.341872       -0.913704     -0.000221684      -0.0008097        -0.137823          0.1664      9.58678e-05     0.000288864
                    -0.000603057    -0.000754157         0.822472        0.527549     -0.000574232    -4.63404e-05       0.00088124       -0.206704
254400                -0.0134841       -0.198874      0.000191179    -0.000146878         0.229098       -0.952307     -0.000672125     -0.00064074
                     3.54725e-05    -0.000563129         0.184537       -0.104385     -0.000291932     -0.00081384         0.873232        0.440069
                        0.229926         -0.9518     -0.000300941    -0.000767267        -0.102977        0.170968       0.00011984     5.20764e-05
                     -0.00068882    -0.000672009         0.872241        0.438339     -0.000567154    -2.22624e-05       -0.0276241       -0.209481
254600                -0.0282654       -0.180243        0.0001411    -0.000189354         0.112476       -0.976409      -0.00074623    -0.000539723
                    -6.43814e-05    -0.000559755         0.179733       -0.119966     -0.000370236    -0.000785919         0.913562        0.345978
                        0.113325       -0.976041     -0.000375163    -0.000718161       -0.0690727        0.169061      5.49846e-05    -0.000107839
                      -0.0007622    -0.000579959          0.91246        0.344564     -0.000559676     1.93492e-07        -0.056515       -0.207931
254800                -0.0390031       -0.160501      7.77661e-05    -0.000230116      -0.00698156       -0.985989     -0.000805523    -0.000430026
                    -0.000161358    -0.000536979         0.173155       -0.135277     -0.000445656    -0.000751925         0.943866        0.248309
                     -0.00615646       -0.985762     -0.000443999    -0.000662831       -0.0373034        0.161017     -3.56808e-05    -0.000200116
                    -0.000822039    -0.000480092         0.942733        0.247224     -0.000551925     2.11733e-05       -0.0851287        -0.20202
255000                -0.0456269        -0.14039     -1.54091e-06    -0.000264624        -0.127391       -0.980643     -0.000848841    -0.000314158
                    -0.000251386    -0.000496066         0.164836       -0.150078     -0.000517964    -0.000712053         0.963855        0.148114
                       -0.126631        -0.98054     -0.000507094    -0.000601694       -0.0087866        0.147402     -0.000126983    -0.000246038
                    -0.000867582     -0.00037463         0.962764        0.147345        -0.000544     4.08133e-05        -0.112799       -0.191813
255200                -0.0482005       -0.120656     -9.84056e-05    -0.000286054        -0.246794       -0.960227     -0.000875554    -0.000194837
                    -0.000330952    -0.000439216         0.154842       -0.164136     -0.000586928    -0.000666449         0.973346       0.0464627
                       -0.246132       -0.960223     -0.000564077    -0.000535151        0.0154842        0.128997     -0.000210715    -0.000261321
                    -0.000898497    -0.000265852         0.972356       0.0459777     -0.000535983       5.924e-05        -0.138869        -0.17748
255400                -0.0469233       -0.102023     -0.000211607    -0.000285176        -0.363206       -0.924884     -0.000885614    -7.48372e-05
                    -0.000397324    -0.000369296         0.143273       -0.177227     -0.000652297    -0.000615214          0.97226      -0.0555699
                       -0.362662       -0.924942     -0.000614556    -0.000463598        0.0346836        0.106767     -0.000284714     -0.00025582
                    -0.000914864    -0.000155997         0.971417      -0.0558172     -0.000527936     7.65697e-05        -0.162713       -0.159287
255600                -0.0421265      -0.0851669     -0.000334831    -0.000251517        -0.474656       -0.875041      -0.00087955     4.31732e-05
                    -0.000448635    -0.000289551         0.130262       -0.189146     -0.000713785    -0.000558413         0.960624       -0.156911
                       -0.474237       -0.875119     -0.000658107    -0.000387446        0.0481932       0.0818335       -0.0003487    -0.000235627
                    -0.000917157     -4.7184e-05         0.959956       -0.156974     -0.000519908     9.29089e-05        -0.183745       -0.137599
255800                -0.0342628      -0.0706896     -0.000454872    -0.000176717        -0.579241        -0.81141     -0.000858405      0.00015678
                    -0.000483871    -0.000203322         0.115969       -0.199705     -0.000771056    -0.000496079         0.938568       -0.256497
                       -0.578936       -0.811468     -0.000694269     -0.00030713        0.0556334       0.0554222     -0.000402848     -0.00020467
                    -0.000906202     5.86639e-05         0.938084       -0.256431     -0.000511937     0.000108355        -0.201438       -0.112874
256000                -0.0238909      -0.0590933     -0.000552655    -5.98106e-05        -0.675168       -0.734978      -0.00082363      0.00026394
                    -0.000502771    -0.000113824         0.100582       -0.208743     -0.000823709    -0.000428227          0.90632       -0.353286
                       -0.674953        -0.73498     -0.000722546    -0.000223134        0.0568831       0.0288138     -0.000447323    -0.000165677
                    -0.000883124     0.000159887         0.906016       -0.353144     -0.000504051     0.000122996        -0.215341      -0.0856488
256200                -0.0116528      -0.0507608     -0.000608988     8.86279e-05        -0.760801       -0.646983     -0.000776957      0.00036305
                    -0.000505671    -2.39981e-05        0.0843097        -0.21613     -0.000871262    -0.000354866         0.864208       -0.446262
                       -0.760638       -0.646907     -0.000742407    -0.000136008        0.0520878      0.00328679     -0.000482181    -0.000120749
                    -0.000849272     0.000255143         0.864066       -0.446088     -0.000496269     0.000136911        -0.225089      -0.0565298
