! TOUCHSTONE file generated by CST MICROWAVE STUDIO
! Date and time: Fri Sep 26 20:22:14 2025
! Project name: biblioteca3_folgaOK.cst
! Parameters = {H=600; Lx=200; Ly=260; Nedge=10; P=520; k=0; mesh_pilar_nm=40; n=0; t_air=3800; t_sub=3000; wavelength_nm=0}
! Header version: 2018
! Port assignment regex: !\s*Touchstone port\s*([0-9]+)\s*=\s*(CST MWS port|CST DS port)\s*([0-9]+|Zmin|Zmax)\s*\(\"(.*)\"\)(\s*mode\s*([0-9]+))?.*
! Touchstone port assignment:
! Touchstone port 1 = CST MWS port Zmin ("") mode 1
! Touchstone port 2 = CST MWS port Zmin ("") mode 2
! Touchstone port 3 = CST MWS port Zmax ("") mode 1
! Touchstone port 4 = CST MWS port Zmax ("") mode 2
! S-Parameters are not renormalized. Each port impedance will be approximated by the real part at minimum frequency. The values are described via the [Reference] keyword.
! Default impedance is overridden by [Reference]
[Version] 2.0
# GHz S RI R 376.73
[Number of Ports] 4
[Reference]
376.73 376.73 376.73 376.73 
[Number of Frequencies] 401
[Network Data]
250000                  0.149635      -0.0682218      -0.00206208     -0.00147068         0.959489       -0.226855     -0.000991012     0.000315865
                     -0.00181632     -0.00145344       -0.0997273       -0.220727     -0.000744135      0.00119052         0.211238        0.946217
                        0.960009       -0.226608     -0.000909433      0.00137636        -0.164331      0.00582682       0.00189599      0.00137619
                    -0.000748585      0.00100006         0.212494        0.946652        0.0019692      0.00116529       0.00398589        0.242143
250200                  0.151418      -0.0907905      -0.00223381     -0.00124494         0.928595       -0.325589     -0.000790625     0.000481462
                      -0.0019941     -0.00124812        -0.112876       -0.209426     -0.000633151      0.00128937         0.296621        0.923978
                        0.928871       -0.325292     -0.000768793       0.0014756        -0.174777       0.0228144        0.0020092      0.00119616
                    -0.000659478      0.00107841         0.296658        0.924981       0.00210059     0.000990545        0.0297493        0.236008
250400                  0.149831       -0.114134      -0.00237633    -0.000989846         0.887515       -0.420201     -0.000619652     0.000620523
                     -0.00214872     -0.00101861        -0.124746       -0.197372     -0.000502385      0.00137805         0.379029         0.89432
                         0.88762       -0.419885     -0.000608913      0.00156027        -0.183095       0.0423383       0.00211254      0.00100421
                    -0.000560592      0.00115055         0.378698        0.895775       0.00221968     0.000802438        0.0544318        0.227018
250600                  0.144761       -0.137714      -0.00248387    -0.000711278         0.836813       -0.509658      -0.00046586     0.000738112
                     -0.00227656    -0.000767968        -0.135298       -0.184715      -0.00035253      0.00145182         0.458253        0.857584
                        0.836793       -0.509351     -0.000431551      0.00162583        -0.188771       0.0640633       0.00220437     0.000800845
                    -0.000452191      0.00121514         0.457946        0.859235       0.00232443     0.000601592         0.077705        0.215332
250800                  0.136192       -0.160985      -0.00255252    -0.000416413         0.777154       -0.593001     -0.000321728     0.000837607
                     -0.00237453    -0.000499828         -0.14451       -0.171608     -0.000185645      0.00150582          0.53391        0.813993
                        0.777032       -0.592725     -0.000239769      0.00166799        -0.191367        0.087553       0.00228298     0.000586807
                    -0.000334728       0.0012708         0.533752        0.815621       0.00241285     0.000388986        0.0992624        0.201141
251000                  0.124193       -0.183421      -0.00258045    -0.000113027          0.70929       -0.669362     -0.000182425     0.000921106
                     -0.00244017    -0.000218274        -0.152382       -0.158201     -5.29297e-06      0.00153552         0.605503        0.763779
                        0.709073       -0.669128     -3.79127e-05      0.00168311        -0.190534        0.112292       0.00234668     0.000363088
                    -0.000208863      0.00131615         0.605487        0.765247       0.00248299     0.000165969         0.118823        0.184677
251200                  0.108918        -0.20452      -0.00256798      0.00019128         0.634048       -0.737964     -4.47724e-05     0.000989751
                      -0.0024717     7.22986e-05        -0.158929        -0.14464      0.000183531      0.00153731         0.672485        0.707233
                        0.633737       -0.737771      0.000168585      0.00166871        -0.186029         0.13771       0.00239384     0.000130949
                    -7.54722e-05      0.00134983         0.672548        0.708482       0.00253309    -6.57495e-05         0.136137        0.166198
251400                 0.0905878       -0.223819      -0.00251729     0.000489767         0.552324       -0.798131       9.3309e-05      0.00104395
                     -0.00246805     0.000367329        -0.164185       -0.131067      0.000374722      0.00150899         0.734291         0.64472
                        0.551916       -0.797969      0.000373614      0.00162383        -0.177714        0.163204        0.0024229    -0.000108072
                      6.4344e-05      0.00137053         0.734363        0.645748       0.00256161    -0.000304122         0.150985        0.145995
251600                  0.069486       -0.240905      -0.00243185     0.000777033         0.465064       -0.849288      0.000233087      0.00108356
                     -0.00242884     0.000662219        -0.168197       -0.117612      0.000561626      0.00145024         0.790369        0.576676
                         0.46456       -0.849137      0.000570936      0.00154923        -0.165559        0.188163       0.00243248    -0.000352175
                     0.000209262      0.00137708         0.790394         0.57752       0.00256734    -0.000546806         0.163187        0.124378
251800                 0.0459453       -0.255414      -0.00231586      0.00104924         0.373259       -0.890966      0.000375174      0.00110801
                     -0.00235432     0.000952451         -0.17103       -0.104401      0.000737735      0.00136264         0.840201        0.503607
                        0.372664       -0.890802      0.000754797      0.00144739        -0.149637        0.211985       0.00242136    -0.000599306
                     0.000357743       0.0013684         0.840144        0.504321        0.0025494    -0.000791221         0.172598        0.101681
252000                 0.0203388       -0.267041      -0.00217363       0.0013041         0.277932       -0.922803      0.000519595      0.00111641
                     -0.00224537      0.00123369        -0.172759      -0.0915419      0.000897379      0.00124955         0.883312        0.426078
                        0.277259       -0.922599       0.00092048       0.0013222         -0.13011        0.234092       0.00238861    -0.000847189
                     0.000508051      0.00134364         0.883162        0.426721       0.00250734     -0.00103463         0.179117       0.0782508
252200               -0.00692957       -0.275535      -0.00200914      0.00154067         0.180127       -0.944545      0.000665812      0.00110765
                     -0.00210335      0.00150183         -0.17347      -0.0791352       0.00103625       0.0011156         0.919278        0.344707
                        0.179393       -0.944275       0.00106469      0.00117849        -0.107229        0.253943       0.00233356     -0.00109337
                     0.000658276      0.00130212         0.919045        0.345332       0.00244114     -0.00127421         0.182683        0.054444
252400                 -0.035433       -0.280708       -0.0018256      0.00175907        0.0808953       -0.956044       0.00081273      0.00108056
                      -0.0019301      0.00175309        -0.173261      -0.0672656       0.00115169     0.000966112         0.947738        0.260159
                       0.0801275       -0.955687       0.00118575      0.00102151       -0.0813166        0.271042       0.00225591     -0.00133526
                     0.000806364      0.00124346         0.947446        0.260807       0.00235125     -0.00150717          0.18328       0.0306237
252600                  -0.06473       -0.282429       -0.0016253      0.00196006       -0.0187092        -0.95726      0.000958694      0.00103398
                      -0.0017278        0.001984        -0.172234      -0.0560037       0.00124265     0.000806464         0.968394        0.173136
                      -0.0194809       -0.956802       0.00128352     0.000856374       -0.0527629         0.28495        0.0021557      -0.0015702
                     0.000950159      0.00116753         0.968076        0.173832       0.00223852      -0.0017308         0.180936      0.00715251
252800                -0.0943708       -0.280626      -0.00140943       0.0021447        -0.117644       -0.948256        0.0011015     0.000966945
                     -0.00149894      0.00219141        -0.170497      -0.0454052       0.00130951     0.000641579         0.981017       0.0843678
                       -0.118386        -0.94769       0.00135925     0.000687572        -0.022015        0.295284       0.00203336     -0.00179553
                      0.00108745      0.00107449         0.980707       0.0851224        0.0021042     -0.00194258          0.17572      -0.0156118
253000                 -0.123905       -0.275286       -0.0011781      0.00231399        -0.214886       -0.929196       0.00123845     0.000878825
                     -0.00124626       0.0023725        -0.168164      -0.0355104       0.00135368     0.000475594         0.985451     -0.00539182
                       -0.215565       -0.928525       0.00141526     0.000518674        0.0104309        0.301729       0.00188969     -0.00200866
                        0.001216     0.000964852         0.985179     -0.00458267        0.0019499     -0.00214026         0.167748       -0.037322
253200                 -0.152888       -0.266451      -0.00093038      0.00246841         -0.30944       -0.900343        0.0013664      0.00076949
                    -0.000972711      0.00252478        -0.165348      -0.0263443       0.00137723     0.000311701         0.981608      -0.0953749
                       -0.310026       -0.899577       0.00145467     0.000352066        0.0440384        0.304038       0.00172588     -0.00220713
                      0.00133362     0.000839403         0.981401      -0.0945264       0.00177749     -0.00232187         0.157177      -0.0576464
253400                 -0.180886        -0.25422     -0.000664404      0.00260762         -0.40035       -0.862052       0.00148194     0.000639447
                     -0.00068141      0.00264604        -0.162161      -0.0179164       0.00138248     0.000152133         0.969479       -0.184807
                       -0.400814       -0.861209       0.00148103     0.000188759         0.078239        0.302041       0.00154344     -0.00238868
                      0.00143822     0.000699257         0.969352       -0.183942       0.00158905      -0.0024858         0.144204      -0.0762743
253600                 -0.207485       -0.238746     -0.000377626      0.00272998        -0.486702       -0.814766       0.00158151     0.000489952
                    -0.000375647      0.00273436        -0.158716      -0.0102213       0.00137176    -1.73859e-06         0.949127       -0.272912
                       -0.487024       -0.813871       0.00149816     2.81252e-05         0.112442        0.295643       0.00134417     -0.00255131
                      0.00152782     0.000545816         0.949085       -0.272057       0.00138679     -0.00263078         0.129064      -0.0929208
253800                 -0.232294        -0.22023     -6.71915e-05      0.00283212        -0.567637       -0.759013       0.00166166     0.000323068
                    -5.88628e-05       0.0027881        -0.155119     -0.00323919       0.00134715    -0.000149264         0.920687       -0.358923
                       -0.567803       -0.758094       0.00150969    -0.000132547         0.146042        0.284834       0.00113014     -0.00269332
                      0.00160061     0.000380753         0.920726       -0.358105       0.00117297     -0.00275589         0.112026       -0.107332
254000                 -0.254955       -0.198923      0.000269442      0.00290857        -0.642353       -0.695395        0.0017193     0.000141647
                     0.000265342       0.0028059        -0.151472      0.00306374       0.00131033    -0.000290338         0.884369       -0.442086
                       -0.642357       -0.694486       0.00151839    -0.000298879         0.178435        0.269686       0.00090358     -0.00281334
                      0.00165501     0.000205985         0.884475       -0.441329      0.000949849     -0.00286056        0.0933903       -0.119287
254200                 -0.275145       -0.175116      0.000633582      0.00295144        -0.710112       -0.624588       0.00175185    -5.07651e-05
                     0.000593201      0.00278665        -0.147866      0.00873402       0.00126245    -0.000425226         0.840453       -0.521669
                       -0.709958        -0.62372       0.00152429    -0.000480673         0.209024        0.250357      0.000666857     -0.00291035
                      0.00168968     2.36371e-05         0.840605       -0.520991      0.000719603      -0.0029445        0.0734825       -0.128608
254400                 -0.292581       -0.149139       0.00102403      0.00295054        -0.770249       -0.547331       0.00175752    -0.000250097
                     0.000920776      0.00272958        -0.144388       0.0138299       0.00120411    -0.000554373         0.789289       -0.596967
                       -0.769948       -0.546535       0.00151995    -0.000692895         0.237234         0.22709      0.000422395      -0.0029837
                      0.00170352    -0.000163989         0.789461       -0.596379      0.000484314     -0.00300772        0.0526502       -0.135154
254600                  -0.30703       -0.121356        0.0014356      0.00289408        -0.822171        -0.46442       0.00173536    -0.000451975
                      0.00124395      0.00263425         -0.14111       0.0184202       0.00113523      -0.0006782          0.73129        -0.66731
                       -0.821742       -0.463724       0.00148011    -0.000951853         0.262525        0.200206      0.000172616     -0.00303306
                      0.00169574    -0.000354453         0.731455       -0.666814       0.00024592      -0.0030504        0.0312566       -0.138832
254800                 -0.318305      -0.0921518       0.00185772      0.00277041        -0.865367       -0.376705       0.00168536    -0.000651978
                      0.00155843      0.00250057        -0.138095       0.0225825       0.00105509    -0.000796851         0.666935       -0.732066
                       -0.864834        -0.37613       0.00135057     -0.00125253         0.284402        0.170108     -8.01086e-05     -0.00305844
                      0.00166583    -0.000545214         0.667066       -0.731656      6.19586e-06     -0.00307294        0.0096747       -0.139596
255000                 -0.326275      -0.0619338        0.0022739      0.00257074        -0.899408       -0.285074       0.00160835    -0.000845883
                      0.00185977      0.00232891        -0.135392       0.0264017      0.000962316    -0.000909863          0.59676       -0.790652
                       -0.898801       -0.284636       0.00107664     -0.00152094         0.302429        0.137265     -0.000333507     -0.00306014
                      0.00161356    -0.000733661         0.596834       -0.790314      -0.00023325     -0.00307586       -0.0117185       -0.137447
255200                 -0.330862      -0.0311184       0.00266286      0.00229242        -0.923951       -0.190456        0.0015059     -0.00102987
                      0.00214337      0.00212012        -0.133035       0.0299683      0.000855051     -0.00101574         0.521358       -0.842534
                       -0.923301       -0.190164       0.00070619     -0.00163504         0.316238        0.102211     -0.000585441     -0.00303871
                      0.00153903    -0.000917147         0.521356       -0.842249     -0.000470979     -0.00305976       -0.0325482       -0.132432
255400                 -0.332045    -0.000125227       0.00300166       0.0019416        -0.938742      -0.0938071       0.00138016     -0.00120066
                      0.00240456       0.0018756        -0.131046       0.0333764      0.000731395     -0.00111149         0.441368       -0.887237
                       -0.938083      -0.0936607      0.000383342     -0.00158128         0.325537       0.0655287     -0.000833933     -0.00299491
                      0.00144263     -0.00109302         0.441279        -0.88698     -0.000705713      -0.0030253       -0.0524483        -0.12465
255600                 -0.329856       0.0306304       0.00327043      0.00153379        -0.943619      0.00389736       0.00123361     -0.00135562
                      0.00263862      0.00159738         -0.12943       0.0367215      0.000590243     -0.00119218         0.357476       -0.924346
                       -0.942984      0.00390361      0.000174769     -0.00146051          0.33012       0.0278415      -0.00107718     -0.00292968
                      0.00132506     -0.00125864         0.357296       -0.924091     -0.000936321     -0.00297318       -0.0710674       -0.114243
255800                 -0.324383        0.060745       0.00345686       0.0010914        -0.938514        0.101667       0.00106893     -0.00149273
                      0.00284093      0.00128817        -0.128178       0.0400988      0.000432629     -0.00125109         0.270405       -0.953513
                       -0.937932        0.101546      5.19617e-05     -0.00134744         0.329872      -0.0102013      -0.00131357      -0.0028441
                       0.0011873     -0.00141144         0.270139       -0.953232       -0.0011618     -0.00290407       -0.0880746       -0.101398
256000                 -0.315761       0.0898345       0.00355858     0.000639156        -0.923451        0.198508       0.00088877     -0.00161055
                      0.00300701     0.000951389        -0.127267       0.0436008      0.000263272     -0.00128079         0.180911       -0.974457
                       -0.922948        0.198279     -2.65758e-05     -0.00126202          0.32477      -0.0479373      -0.00154166     -0.00273932
                      0.00103067      -0.0015489          0.18057       -0.974128      -0.00138126     -0.00281865        -0.103165      -0.0863447
256200                 -0.304176         0.11754       0.00358247      0.00019909        -0.898551        0.293427      0.000695641     -0.00170811
                      0.00313272     0.000591196        -0.126657       0.0473154      9.13843e-05      -0.0012756        0.0897751       -0.986972
                       -0.898147        0.293114      -8.5977e-05     -0.00120108         0.314886      -0.0847056       -0.0017602     -0.00261658
                     0.000856743     -0.00166862        0.0893779       -0.986575      -0.00159389     -0.00271754        -0.116066      -0.0693479
