! TOUCHSTONE file generated by CST MICROWAVE STUDIO
! Date and time: Sun Sep 28 21:29:17 2025
! Project name: biblioteca3_folgaOK.cst
! Parameters = {H=600; Lx=300; Ly=300; Nedge=16; P=520; mesh_pilar_nm=40; t_air=3500; t_sub=4000}
! Header version: 2018
! Port assignment regex: !\s*Touchstone port\s*([0-9]+)\s*=\s*(CST MWS port|CST DS port)\s*([0-9]+|Zmin|Zmax)\s*\(\"(.*)\"\)(\s*mode\s*([0-9]+))?.*
! Touchstone port assignment:
! Touchstone port 1 = CST MWS port Zmin ("") mode 1
! Touchstone port 2 = CST MWS port Zmin ("") mode 2
! Touchstone port 3 = CST MWS port Zmax ("") mode 1
! Touchstone port 4 = CST MWS port Zmax ("") mode 2
! S-Parameters are not renormalized. Each port impedance will be approximated by the real part at minimum frequency. The values are described via the [Reference] keyword.
! Default impedance is overridden by [Reference]
[Version] 2.0
# GHz S RI R 376.73
[Number of Ports] 4
[Reference]
376.73 376.73 376.73 376.73 
[Number of Frequencies] 401
[Network Data]
250000                  0.209316        0.217244      0.000255468     7.99159e-05         0.167822        0.938523      0.000711629    -0.000237229
                     0.000254305     8.09319e-05         0.211604        0.215826      0.000724739    -0.000168823         0.168141        0.938279
                        0.167822        0.938524      0.000723334    -0.000170593         0.121061       -0.276322      -0.00021676     -0.00035361
                     0.000712063    -0.000237108         0.168145        0.938284     -0.000219078     -0.00035473          0.12349       -0.275874
250200                  0.227499        0.194582      0.000276097     5.08266e-05          0.25708        0.918863      0.000688756     -0.00030811
                     0.000275611     5.58497e-05         0.229667        0.192764      0.000707484     -0.00023635         0.257384        0.918614
                        0.257079        0.918872      0.000705543    -0.000238104        0.0936132        -0.28434     -0.000229206    -0.000337941
                     0.000685673    -0.000307812         0.257393        0.918629     -0.000227311    -0.000333968        0.0962073       -0.284004
250400                  0.243007        0.170212      0.000294296      1.8967e-05          0.34418        0.890812      0.000657587    -0.000377022
                     0.000295016     2.69071e-05         0.244999        0.168025      0.000683277    -0.000302807         0.344472        0.890557
                         0.34418        0.890827      0.000680826    -0.000304393        0.0656283        -0.28932     -0.000240708    -0.000322631
                     0.000652315    -0.000375902         0.344486        0.890576     -0.000236523    -0.000315484         0.068368       -0.289132
250600                  0.255654        0.144475      0.000309569    -1.55559e-05         0.428345        0.854592      0.000618444    -0.000442727
                     0.000311768    -5.86149e-06         0.257419        0.141956      0.000652166    -0.000367289         0.428629        0.854328
                        0.428347        0.854609      0.000649289    -0.000368569        0.0374662       -0.291226     -0.000251378    -0.000307662
                     0.000612229    -0.000440549         0.428646        0.854346     -0.000246192     -0.00029888        0.0403287       -0.291215
250800                  0.265302        0.117737      0.000321394    -5.25506e-05          0.50882        0.810492      0.000571875    -0.000504087
                     0.000325067    -4.22585e-05         0.266796        0.114927      0.000614354    -0.000428895         0.509098        0.810216
                        0.508823        0.810509      0.000611186    -0.000429763       0.00948848       -0.290068     -0.000261312    -0.000293008
                     0.000565772    -0.000500954         0.509116        0.810231     -0.000255986    -0.000283784        0.0124479       -0.290257
251000                  0.271862       0.0903757       0.00032924    -9.17285e-05         0.584874        0.758871      0.000518619    -0.000560108
                     0.000334109    -8.18982e-05         0.273047       0.0873185      0.000570185    -0.000486762         0.585147        0.758579
                        0.584878        0.758886      0.000566902    -0.000487157       -0.0179475       -0.285897     -0.000270593    -0.000278642
                     0.000513419    -0.000556369         0.585165         0.75859     -0.000265699    -0.000269874        -0.014919       -0.286305
251200                  0.275297         0.06278      0.000332587    -0.000132693         0.655811        0.700154       0.00045956    -0.000609982
                     0.000338135    -0.000124195         0.276141       0.0595223      0.000520142    -0.000540093         0.656081        0.699842
                        0.655817        0.700166      0.000516945    -0.000540013       -0.0444937       -0.278809     -0.000279289    -0.000264538
                     0.000455747    -0.000606121         0.656095        0.699849     -0.000275207    -0.000256879       -0.0414253        -0.27945
251400                  0.275621       0.0353379      0.000330946    -0.000174934         0.720973        0.634828      0.000395671    -0.000653099
                     0.000336493    -0.000168373         0.276098       0.0319291      0.000464827     -0.00058818         0.721238        0.634492
                        0.720979        0.634838      0.000461921    -0.000587688       -0.0698165        -0.26894     -0.000287461    -0.000250666
                     0.000393423    -0.000649623         0.721249        0.634495     -0.000284436    -0.000244576        -0.066738       -0.269822
251600                  0.272898      0.00843185      0.000323887    -0.000217822         0.779745        0.563443       0.00032796    -0.000689053
                     0.000328696     -0.00021349          0.27299      0.00492361      0.000404938     -0.00063043         0.780004        0.563079
                        0.779751        0.563449      0.000402514    -0.000629656       -0.0936016       -0.256465      -0.00029516    -0.000236998
                     0.000327186    -0.000686393         0.780011        0.563079     -0.000293345    -0.000232782       -0.0905429       -0.257594
251800                  0.267243      -0.0175685      0.000311072    -0.000260622         0.831562        0.486603      0.000257424    -0.000717623
                     0.000314464    -0.000258495         0.266936      -0.0211225      0.000341242    -0.000666375          0.83181        0.486207
                        0.831567        0.486606      0.000339456    -0.000665506        -0.115558       -0.241598     -0.000302429    -0.000223506
                     0.000257826     -0.00071606         0.831814        0.486205     -0.000301911    -0.000221346        -0.112549       -0.242974
252000                  0.258817      -0.0423124       0.00029228    -0.000302496         0.875912        0.404968      0.000185009    -0.000738752
                     0.000293756    -0.000302287         0.258105      -0.0458572      0.000274548    -0.000695679         0.876146        0.404535
                        0.875915        0.404967        0.0002735    -0.000694954        -0.135423       -0.224583     -0.000309306    -0.000210163
                     0.000186165     -0.00073837         0.876145        0.404533     -0.000310122    -0.000210143        -0.132493       -0.226202
252200                  0.247826      -0.0654742      0.000267437    -0.000342537         0.912343        0.319243      0.000111586    -0.000752515
                     0.000266763    -0.000343786         0.246711      -0.0689541      0.000205677    -0.000718142         0.912557        0.318772
                        0.912345         0.31924      0.000205404    -0.000717825        -0.152964       -0.205696     -0.000315821    -0.000196942
                     0.000113032    -0.000753186         0.912554         0.31877     -0.000317973    -0.000199071        -0.150141       -0.207551
252400                  0.234515      -0.0867585      0.000236642    -0.000379791         0.940466         0.23018      3.79388e-05    -0.000759085
                     0.000233885    -0.000381999         0.233006      -0.0901184      0.000135438    -0.000733689         0.940655         0.22967
                        0.940466        0.230176        0.0001359    -0.000734055        -0.167985       -0.185239        -0.000322    -0.000183817
                     3.92464e-05    -0.000760483          0.94065        0.229668     -0.000325459    -0.000188042        -0.165296        -0.18732
252600                  0.219167       -0.105906      0.000200176    -0.000413304         0.959963        0.138569     -3.52474e-05    -0.000758703
                     0.000195684    -0.000416063         0.217282       -0.109091      6.46038e-05    -0.000742359          0.96012        0.138018
                        0.959961        0.138564      6.56864e-05    -0.000743668        -0.180325       -0.163534     -0.000327865    -0.000170762
                    -3.44015e-05    -0.000760344         0.960113        0.138017     -0.000332576     -0.00017698        -0.177797       -0.165827
252800                  0.202096       -0.122695      0.000158507    -0.000442159         0.970586       0.0452327     -0.000107376    -0.000751646
                     0.000152826    -0.000445268         0.199859       -0.125656     -6.10562e-06     -0.00074429         0.970703       0.0446424
                        0.970582       0.0452272     -4.58922e-06    -0.000746767        -0.189866       -0.140924     -0.000333433    -0.000157754
                    -0.000107165    -0.000752944         0.970695       0.0446423     -0.000339321    -0.000165823        -0.187522        -0.14341
253000                  0.183641       -0.136952      0.000112282    -0.000465521         0.972163      -0.0489794     -0.000177931    -0.000738209
                     0.000106029    -0.000469053         0.181086       -0.139639     -7.60374e-05    -0.000739699         0.972233      -0.0496077
                        0.972158      -0.0489849     -7.43334e-05    -0.000743511        -0.196529       -0.117763     -0.000338718    -0.000144769
                    -0.000178354    -0.000738542         0.972226      -0.0496069     -0.000345685    -0.000154511        -0.194391       -0.120422
253200                  0.164163       -0.148545       6.2309e-05    -0.000482682         0.964605       -0.143198     -0.000246461    -0.000718683
                     5.60143e-05    -0.000486975          0.16133       -0.150916     -0.000144613    -0.000728865          0.96462       -0.143861
                        0.964599       -0.143203      -0.00014301    -0.000734104        -0.200281      -0.0944131      -0.00034373    -0.000131785
                    -0.000247345    -0.000717463         0.964614        -0.14386      -0.00035166    -0.000142995        -0.198368      -0.0972209
253400                  0.144036       -0.157395      9.51692e-06     -0.00049309         0.947901       -0.236541     -0.000312568    -0.000693346
                     3.49241e-06    -0.000498675         0.140971       -0.159415      -0.00021133    -0.000712107         0.947853       -0.237234
                        0.947894       -0.236545     -0.000210141    -0.000718773        -0.201133      -0.0712392     -0.000348476    -0.000118778
                    -0.000313583    -0.000690086         0.947849       -0.237233     -0.000357231    -0.000131227        -0.199459      -0.0741692
253600                  0.123643       -0.163474     -4.50778e-05    -0.000496376         0.922126        -0.32812      -0.00037588    -0.000662459
                    -5.08343e-05    -0.000503833         0.120399       -0.165113     -0.000275765     -0.00068977         0.922009       -0.328838
                        0.922119       -0.328124     -0.000275295    -0.000697764         -0.19914       -0.048604      -0.00035296    -0.000105729
                     -0.00037659    -0.000656831         0.922007       -0.328836     -0.000362383    -0.000119162        -0.197718      -0.0516273
253800                  0.103367       -0.166806     -0.000100418    -0.000492361         0.887443       -0.417051     -0.000436044    -0.000626261
                    -0.000106239    -0.000502136              0.1       -0.168043     -0.000337566    -0.000662201          0.88725       -0.417786
                        0.887436       -0.417054     -0.000338089    -0.000671322        -0.194403      -0.0268625     -0.000357183    -9.26164e-05
                    -0.000435964    -0.000618143         0.887249       -0.417785     -0.000367096    -0.000106757        -0.193239      -0.0299484
254000                 0.0835871       -0.167466     -0.000155452    -0.000481056         0.844099        -0.50246     -0.000492706    -0.000584979
                     -0.00016192    -0.000493274        0.0801565        -0.16829     -0.000396446    -0.000629742         0.843824       -0.503204
                        0.844093       -0.502461     -0.000398171    -0.000639688        -0.187066     -0.00635607     -0.000361144    -7.94199e-05
                    -0.000491374    -0.000574479         0.843824       -0.503204     -0.000371345    -9.39711e-05        -0.186164     -0.00947296
254200                 0.0646673       -0.165584     -0.000209168    -0.000462649         0.792429       -0.583492     -0.000545496    -0.000538833
                    -0.000216945    -0.000476969        0.0612337       -0.165993     -0.000452178    -0.000592715         0.792066       -0.584234
                        0.792423       -0.583492     -0.000455213    -0.000603093        -0.177317       0.0125924     -0.000364839    -6.61204e-05
                    -0.000542563    -0.000526301         0.792067       -0.584236     -0.000375101    -8.07615e-05        -0.176674      0.00947647
254400                 0.0469532       -0.161338     -0.000260634    -0.000437483         0.732851        -0.65932     -0.000594024    -0.000488049
                    -0.000270205    -0.000453046        0.0435768       -0.161341     -0.000504578    -0.000551409         0.732397       -0.660052
                        0.732846        -0.65932     -0.000508897    -0.000561755        -0.165382       0.0296841      -0.00036826    -5.26987e-05
                    -0.000589343    -0.000474065         0.732399       -0.660054     -0.000378331    -6.70847e-05        -0.164992       0.0266005
254600                 0.0307632       -0.154956     -0.000309016    -0.000406022         0.665871       -0.729156     -0.000637868    -0.000432876
                    -0.000320419    -0.000421533        0.0275022        -0.15457     -0.000553501    -0.000506072         0.665324       -0.729864
                        0.665866       -0.729155     -0.000558904    -0.000515878        -0.151528       0.0446493     -0.000371397    -3.91363e-05
                    -0.000631589    -0.000418212         0.665325       -0.729867     -0.000380999    -5.28946e-05        -0.151378       0.0416279
254800                 0.0163822        -0.14671     -0.000353597    -0.000368825         0.592072       -0.792255     -0.000676574      -0.0003736
                    -0.000366189    -0.000382776        0.0132912       -0.145961      -0.00059882    -0.000456906          0.59143       -0.792928
                        0.592069       -0.792254     -0.000604901    -0.000465663        -0.136052       0.0572522     -0.000374238    -2.54147e-05
                    -0.000669239    -0.000359163         0.591432       -0.792931      -0.00038306    -3.81417e-05        -0.136126       0.0543204
255000                0.00405518       -0.136913     -0.000393775    -0.000326513         0.512118       -0.847928      -0.00070966    -0.000310568
                    -0.000406125    -0.000337524       0.00118373       -0.135835     -0.000640419    -0.000404055         0.511381       -0.848553
                        0.512115       -0.847927     -0.000646529     -0.00041131        -0.119285       0.0672951     -0.000376764    -1.15159e-05
                    -0.000702291    -0.000297313         0.511383       -0.848556     -0.000384469    -2.27716e-05        -0.119562       0.0644771
255200               -0.00601864       -0.125913     -0.000429068    -0.000279739         0.426742       -0.895549     -0.000736627    -0.000244201
                    -0.000439027    -0.000286939      -0.00862718       -0.124548     -0.000678169    -0.000347603         0.425913       -0.896112
                         0.42674       -0.895547      -0.00068339    -0.000353034         -0.10158       0.0746223     -0.000378955     2.57837e-06
                    -0.000730804    -0.000233028         0.425913       -0.896115     -0.000385171    -6.72312e-06        -0.102035       0.0719383
255400                 -0.013691       -0.114087     -0.000459096    -0.000229165         0.336745        -0.93456      -0.00075697    -0.000175016
                    -0.000464058    -0.000232513       -0.0160005       -0.112482     -0.000711912    -0.000287565         0.335828       -0.935048
                        0.336744       -0.934558     -0.000715046    -0.000291083       -0.0833107       0.0791235     -0.000380787     1.68864e-05
                    -0.000754902    -0.000166646         0.335827        -0.93505      -0.00038511     1.00735e-05       -0.0839168       0.0765888
255600                 -0.018869       -0.101833     -0.000483572    -0.000175445         0.242989       -0.964484     -0.000770205     -0.00010364
                    -0.000480865      -0.0001759       -0.0208512        -0.10004     -0.000741433    -0.000223882         0.241988       -0.964884
                        0.242988       -0.964482     -0.000741004    -0.000225761       -0.0648652       0.0807357     -0.000382229     3.14272e-05
                    -0.000774777     -9.8467e-05         0.241988       -0.964884     -0.000384223     2.76991e-05       -0.0655932       0.0783605
255800                -0.0215182      -0.0895652     -0.000502285    -0.000119207         0.146387       -0.984926     -0.000775893    -3.08175e-05
                    -0.000489596    -0.000118702       -0.0231533      -0.0876408      -0.00076642    -0.000156419         0.145309       -0.985225
                        0.146387       -0.984924     -0.000760727    -0.000157453       -0.0466391       0.0794454     -0.000383243     4.62206e-05
                    -0.000790714    -2.87636e-05         0.145309       -0.985222     -0.000382444     4.62489e-05       -0.0474592       0.0772341
256000                -0.0216653      -0.0777049      -0.00051508    -6.10529e-05        0.0478961       -0.995584     -0.000773676     4.25886e-05
                    -0.000490823    -6.22797e-05       -0.0229421      -0.0757056     -0.000786419    -8.49629e-05        0.0467509       -0.995768
                       0.0478961       -0.995582     -0.000773642    -8.66609e-05       -0.0290299       0.0752888     -0.000383786     6.12886e-05
                    -0.000803108     4.22212e-05         0.046751       -0.995763     -0.000379706     6.58358e-05       -0.0299121       0.0732402
256200                 -0.019399      -0.0666707     -0.000521843    -1.54731e-06        -0.051492        -0.99625     -0.000763309     0.000115603
                    -0.000485386    -7.63277e-06       -0.0203148      -0.0646543      -0.00080076    -9.23777e-06       -0.0526943       -0.996306
                      -0.0514916       -0.996247      -0.00077916    -1.40381e-05         -0.01243       0.0683518     -0.000383804     7.66558e-05
                    -0.000812512     0.000114261       -0.0526931       -0.996298     -0.000375938     8.65958e-05       -0.0133459       0.0664591
