! TOUCHSTONE file generated by CST MICROWAVE STUDIO
! Date and time: Sun Sep 28 19:09:17 2025
! Project name: biblioteca3_folgaOK.cst
! Parameters = {H=600; Lx=200; Ly=260; Nedge=28; P=520; mesh_pilar_nm=40; t_air=3800; t_sub=6000}
! Header version: 2018
! Port assignment regex: !\s*Touchstone port\s*([0-9]+)\s*=\s*(CST MWS port|CST DS port)\s*([0-9]+|Zmin|Zmax)\s*\(\"(.*)\"\)(\s*mode\s*([0-9]+))?.*
! Touchstone port assignment:
! Touchstone port 1 = CST MWS port Zmin ("") mode 1
! Touchstone port 2 = CST MWS port Zmin ("") mode 2
! Touchstone port 3 = CST MWS port Zmax ("") mode 1
! Touchstone port 4 = CST MWS port Zmax ("") mode 2
! S-Parameters are not renormalized. Each port impedance will be approximated by the real part at minimum frequency. The values are described via the [Reference] keyword.
! Default impedance is overridden by [Reference]
[Version] 2.0
# GHz S RI R 376.73
[Number of Ports] 4
[Reference]
376.73 376.73 376.73 376.73 
[Number of Frequencies] 401
[Network Data]
250000                  0.315883        0.218796       0.00059139     4.68056e-05         0.289898        0.876582       0.00159596      0.00073603
                     0.000726426      2.6674e-06         0.104801       0.0231137       0.00146875     0.000562817        -0.938587        0.327668
                         0.29012        0.876601       0.00137717     0.000663117         0.123237       -0.364003      0.000261878    -0.000133815
                      0.00141938     0.000717681        -0.938464        0.327566      0.000294009    -0.000170001       -0.0676263       0.0833404
250200                  0.339184        0.185865      0.000601642    -5.94136e-06         0.386802        0.837728       0.00162941     0.000583469
                     0.000691723    -0.000111966         0.102737       0.0257298       0.00153707     0.000437769        -0.899081        0.424296
                        0.386605        0.837738       0.00143749     0.000502847        0.0794894       -0.379325      0.000229531    -8.25023e-05
                      0.00150677     0.000613212        -0.901174        0.422634      0.000259621    -0.000202182       -0.0458257       0.0958919
250400                  0.358113        0.150004      0.000606933    -6.41401e-05         0.478822        0.788402       0.00165436     0.000426336
                     0.000636674     -0.00021298         0.102188       0.0287975       0.00159546      0.00030009        -0.849462        0.516306
                        0.478342        0.788499       0.00148221     0.000335137        0.0333223       -0.388125      0.000193962    -3.95835e-05
                       0.0015891     0.000493431         -0.85361        0.513939      0.000217763     -0.00023254        -0.022094         0.10441
250600                  0.372253        0.111896      0.000605621    -0.000127792         0.564904          0.7292       0.00167003     0.000264865
                     0.000566841    -0.000296631         0.103196       0.0319947       0.00164162     0.000150263        -0.790282        0.602591
                        0.564265         0.72943       0.00151039     0.000161633       -0.0141053       -0.390021      0.000156883    -3.65218e-06
                      0.00166365     0.000357619        -0.796173        0.600235      0.000167807    -0.000259486         0.002849        0.108603
250800                   0.38131       0.0722824      0.000595718    -0.000196508         0.644055        0.660796       0.00167562     9.93809e-05
                     0.000488027    -0.000361496          0.10574       0.0350049       0.00167317    -1.08159e-05        -0.722222        0.682116
                        0.643366         0.66117       0.00152134    -1.59188e-05       -0.0615931        -0.38486      0.000119308      2.6737e-05
                      0.00172724     0.000205532        -0.729428        0.680334      0.000109426    -0.000281021        0.0282427        0.108311
251000                  0.385115       0.0319437      0.000574924    -0.000269287         0.715353        0.583945       0.00167026     -6.9694e-05
                     0.000405405    -0.000408029         0.109751       0.0375271       0.00168769    -0.000181771         -0.64608        0.753937
                        0.714699        0.584446       0.00151457    -0.000195709        -0.107949       -0.372719      8.17453e-05     5.29374e-05
                      0.00177631     3.75855e-05        -0.654099        0.753125      4.27823e-05     -0.00029476        0.0533122        0.103515
251200                  0.383629     -0.00832712      0.000540777    -0.000344253         0.777939        0.499479       0.00165302    -0.000241814
                     0.000323059    -0.000437918         0.115104       0.0392835       0.00168283    -0.000360711        -0.562757        0.817214
                        0.777383        0.500071       0.00148982    -0.000375908        -0.152033       -0.353882      4.43618e-05      7.6174e-05
                      0.00180703    -0.000144958        -0.571049        0.817599     -3.12542e-05    -0.000298049        0.0772941        0.094331
251400                  0.376942      -0.0477447      0.000490965    -0.000418382         0.831025          0.4083       0.00162294    -0.000416294
                     0.000243895    -0.000453457         0.121637        0.040026       0.00165646    -0.000545204        -0.473242        0.871221
                        0.830605         0.40894       0.00144708    -0.000554706        -0.192786       -0.328819      7.09429e-06     9.75587e-05
                      0.00181557     -0.00033983        -0.481265        0.872862     -0.000110903    -0.000288192        0.0994608       0.0810031
251600                  0.365262      -0.0855518      0.000423862    -0.000487319         0.873895         0.31139       0.00157905     -0.00059228
                     0.000169774    -0.000457087         0.129149       0.0395417       0.00160675    -0.000732284        -0.378597        0.915352
                        0.873625         0.31203       0.00138652    -0.000730346        -0.229257       -0.298162     -3.02697e-05     0.000118134
                      0.00179837    -0.000543666        -0.385833        0.918148     -0.000193351    -0.000262808         0.119142       0.0638955
251800                  0.348915       -0.121038      0.000339287    -0.000545479         0.905911        0.209802       0.00152034    -0.000768733
                     0.000101739    -0.000451106         0.137411       0.0376561       0.00153235    -0.000918503        -0.279938        0.949135
                        0.905787          0.2104       0.00130852     -0.00090116        -0.260618       -0.262677     -6.80373e-05     0.000138935
                      0.00175254    -0.000752029        -0.285928        0.952817     -0.000274802    -0.000220287         0.135743       0.0434769
252000                  0.328331       -0.153553      0.000239321    -0.000586606         0.926521        0.104666       0.00144584    -0.000944399
                     4.02559e-05    -0.000437524         0.146171       0.0342362       0.00143251     -0.00110001        -0.178421        0.972228
                        0.926524        0.105188       0.00121362      -0.0010656        -0.286177       -0.223245     -0.000106567     0.000161061
                      0.00167619    -0.000959577        -0.182807        0.976355     -0.000350751    -0.000160242         0.148759       0.0203043
252200                  0.304033       -0.182528      0.000128849    -0.000604919         0.935269     -0.00281432       0.00135461     -0.00111779
                    -1.45864e-05    -0.000418017         0.155162       0.0291922        0.0013072     -0.00127268       -0.0752196        0.984423
                        0.935371     -0.00239189       0.00110249     -0.00122225         -0.30539       -0.180844     -0.000146226     0.000185772
                      0.00156881     -0.00116038       -0.0778321        0.988373     -0.000416503    -8.38285e-05          0.15779     -0.00499473
252400                  0.276623       -0.207479      1.53801e-05    -0.000596642         0.931808       -0.111363       0.00124583     -0.00128715
                     -6.2918e-05    -0.000393945         0.164108       0.0224784       0.00115719     -0.00143229        0.0284839        0.985644
                        0.931975        -0.11105      0.000975908     -0.00136988        -0.317868       -0.136522     -0.000187319     0.000214607
                      0.00143139     -0.00134838        0.0274753        0.988667     -0.000467834       6.213e-06         0.162542      -0.0317409
252600                   0.24677       -0.228023     -9.21142e-05    -0.000561351         0.915914       -0.219637        0.0011188     -0.00145045
                    -0.000104976    -0.000366389         0.172731        0.014093      0.000984065     -0.00157468         0.131519        0.975948
                         0.91611       -0.219433      0.000834715     -0.00150742        -0.323389      -0.0913851     -0.000229978     0.000249538
                      0.00126647     -0.00151788         0.131427         0.97741     -0.000501626     0.000105855          0.16284      -0.0592221
252800                  0.215194       -0.243887     -0.000185095     -0.00050246         0.887498       -0.326235      0.000973038     -0.00160539
                    -0.000141031    -0.000336201         0.180757      0.00407743      0.000790255     -0.00169597         0.232738        0.955513
                        0.887692       -0.326127      0.000679778     -0.00163402        -0.321906      -0.0465731     -0.000273935     0.000293158
                      0.00107791     -0.00166401         0.232495        0.955402     -0.000516284     0.000210349         0.158623      -0.0867127
253000                   0.18265       -0.254913     -0.000257324    -0.000426471         0.846626       -0.429707      0.000808344     -0.00174939
                    -0.000171334     -0.00030406         0.187924     -0.00748539      0.000578917     -0.00179275         0.331033        0.924639
                        0.846792       -0.429673      0.000511944     -0.00174904        -0.313558     -0.00323472     -0.000318098     0.000348892
                     0.000870575     -0.00178314         0.329908        0.923741      -0.00051182     0.000314909         0.149946       -0.113491
253200                  0.149908       -0.261066     -0.000305898    -0.000341338         0.793533       -0.528571       0.00062488     -0.00187958
                    -0.000196091     -0.00027052         0.193985      -0.0204735      0.000353832     -0.00186223         0.425342        0.883735
                        0.793655       -0.528584      0.000331987      -0.0018521        -0.298679       0.0375005     -0.000359764     0.000421106
                     0.000649808     -0.00187299         0.423442        0.882955     -0.000489628       0.0004153         0.136977       -0.138858
253400                  0.117739       -0.262434     -0.000331173    -0.000254711         0.728638       -0.621333      0.000423261     -0.00199291
                    -0.000215441    -0.000236056         0.198714      -0.0347288      0.000119243     -0.00190237         0.514665        0.833316
                        0.728707       -0.621363      0.000140538      -0.0019431        -0.277797        0.074555     -0.000393267     0.000514795
                     0.000421015     -0.00193271          0.51253        0.833045     -0.000452052     0.000508216         0.119987       -0.162153
253600                 0.0868883       -0.259231     -0.000335862    -0.000172719         0.652552        -0.70651      0.000204641     -0.00208617
                    -0.000229452    -0.000201106         0.201913      -0.0500613     -0.000120333     -0.00191195         0.598066         0.77399
                        0.652571       -0.706529     -6.20051e-05     -0.00202229        -0.251634         0.10694     -0.000408026     0.000634035
                     0.000189234     -0.00196265         0.596144        0.774171     -0.000401912     0.000591403        0.0993464       -0.182766
253800                 0.0580603       -0.251793     -0.000323892    -9.95212e-05         0.566094       -0.782662        -2.92e-05     -0.00215607
                    -0.000238115    -0.000166116         0.203414      -0.0662529     -0.000360298     -0.00189059         0.674689         0.70645
                        0.566074       -0.782642     -0.000275611     -0.00209034        -0.221093        0.133796     -0.000386957     0.000777722
                    -4.11391e-05     -0.00196411         0.673191        0.706868     -0.000342098     0.000663585        0.0755135       -0.200157
254000                 0.0318944       -0.240573      -0.00029945    -3.74449e-05         0.470287       -0.848418     -0.000275796     -0.00219945
                    -0.000241357    -0.000131586         0.203083      -0.0830628      -0.00059615      -0.0018387         0.743756        0.631467
                        0.470248       -0.848342     -0.000500819     -0.00214853        -0.187242        0.154428     -0.000308934      0.00093173
                    -0.000266496     -0.00193902         0.742717        0.631911      -0.00027529     0.000724264        0.0490222       -0.213861
254200                0.00894461       -0.226126     -0.000266388     1.25884e-05         0.366363       -0.902518     -0.000531953     -0.00221332
                    -0.000239052    -9.81115e-05         0.200823       -0.100233     -0.000823637     -0.00175744         0.804576        0.549876
                        0.366326       -0.902373     -0.000739081     -0.00219894        -0.151278        0.168346     -0.000161486      0.00106243
                    -0.000484041     -0.00188963         0.803939        0.550197     -0.000203812     0.000773495        0.0204698       -0.223503
254400                -0.0103397       -0.209101     -0.000227958     5.05841e-05         0.255746       -0.943843      -0.00079375     -0.00219515
                    -0.000231055    -6.64398e-05         0.196576       -0.117493      -0.00103888     -0.00164857         0.856551        0.462569
                        0.255738       -0.943627     -0.000993347     -0.00224495        -0.114489        0.175294      3.88863e-05      0.00112666
                    -0.000691719     -0.00181826         0.856219        0.462681     -0.000129593     0.000811671      -0.00949663       -0.228803
254600                -0.0256312       -0.190218      -0.00018677     7.70765e-05         0.140044       -0.971455      -0.00105659     -0.00214301
                    -0.000217257    -3.75232e-05         0.190326       -0.134567      -0.00123846     -0.00151437         0.899175        0.370487
                        0.140089       -0.971175      -0.00126917     -0.00229201        -0.078208        0.175269      0.000244487      0.00110311
                    -0.000888083      -0.0017271         0.899042        0.370356      -5.4189e-05     0.000839356       -0.0401957       -0.229583
254800                 -0.036738       -0.170242     -0.000144872     9.28467e-05        0.0210164       -0.984631      -0.00131532     -0.00205573
                    -0.000197671    -1.25695e-05         0.182096       -0.151179      -0.00141945      -0.0013575         0.932038        0.274608
                       0.0211344       -0.984301      -0.00157695     -0.00234932       -0.0437555        0.168536       0.00040815      0.00101069
                     -0.00107214     -0.00161808         0.932009         0.27424      2.11458e-05     0.000857162       -0.0709269       -0.225772
255000                -0.0436127       -0.149964     -0.000103873     9.87464e-05       -0.0994524        -0.98289      -0.00156437     -0.00193315
                    -0.000172558     6.92468e-06          0.17195        -0.16706      -0.00157945     -0.00118087         0.954828         0.17594
                      -0.0992461       -0.982532      -0.00193687     -0.00243326       -0.0123828         0.15562       0.00051231     0.000888345
                     -0.00124317     -0.00149286         0.954825        0.175366      9.53871e-05     0.000865684        -0.100986       -0.217405
255200                -0.0463555       -0.130164     -6.50692e-05     9.56037e-05        -0.219394       -0.966021      -0.00179802     -0.00177617
                    -0.000142615     1.91861e-05         0.159987       -0.181951      -0.00171654    -0.000987583         0.967331       0.0755108
                       -0.219093        -0.96566      -0.00239154     -0.00257606        0.0147843        0.137295      0.000565279     0.000766922
                     -0.00140062     -0.00135278         0.967298       0.0747772      0.000167661     0.000865456        -0.129682       -0.204623
255400                -0.0452118        -0.11159     -2.95659e-05     8.41855e-05        -0.336801       -0.934099      -0.00201062     -0.00158682
                    -0.000109205     2.22663e-05         0.146348       -0.195612      -0.00182929    -0.000780797         0.969432      -0.0256384
                       -0.336405       -0.933763      -0.00304481     -0.00285062        0.0367973        0.114547      0.000583686     0.000661025
                     -0.00154394     -0.00119891         0.969334      -0.0264788      0.000237179      0.00085695        -0.156352       -0.187672
255600                -0.0405622      -0.0949232      1.62914e-06     6.51984e-05        -0.449673       -0.887493       -0.0021969     -0.00136829
                    -7.45965e-05     1.42905e-05         0.131203       -0.207825       -0.0019167    -0.000563706         0.961116       -0.126463
                       -0.449193       -0.887209      -0.00422286     -0.00346376        0.0529285       0.0885376      0.000581886     0.000574094
                     -0.00167247     -0.00103212         0.960933       -0.127357      0.000303177     0.000840584        -0.180376       -0.166896
255800                -0.0329077      -0.0807537      2.75244e-05     3.93168e-05        -0.556069       -0.826866      -0.00235222     -0.00112474
                    -4.21227e-05    -6.09793e-06         0.114754       -0.218397      -0.00197814    -0.000339491         0.942464       -0.225922
                       -0.555521       -0.826657      -0.00768684     -0.00529607        0.0627049         0.06055      0.000569509     0.000504568
                     -0.00178541     -0.00085316         0.942194       -0.226823      0.000364883     0.000816751        -0.201191       -0.142732
256000                -0.0228479      -0.0695597      4.70843e-05     7.23226e-06        -0.654153       -0.753159      -0.00247282    -0.000861195
                    -1.61059e-05     -3.9111e-05        0.0972271       -0.227169      -0.00201334    -0.000111308         0.913657       -0.322987
                       -0.653562       -0.753043       -0.0290359       0.0531696         0.065927       0.0319324      0.000552307     0.000449424
                     -0.00188176    -0.000662752         0.913307       -0.323854      0.000421491     0.000785857        -0.218308       -0.115696
256200                -0.0110558      -0.0616886      5.91864e-05    -3.02773e-05        -0.742245       -0.667578      -0.00255596    -0.000583255
                    -1.36771e-06    -8.31525e-05        0.0788695       -0.234013      -0.00202237     0.000117697         0.874969       -0.416648
                       -0.741638       -0.667565       0.00330327      0.00464312        0.0626762      0.00403739      0.000533498     0.000405673
                     -0.00196028    -0.000461702         0.874557       -0.417451      0.000472161     0.000748361        -0.231317      -0.0863785
