! TOUCHSTONE file generated by CST MICROWAVE STUDIO
! Date and time: Fri Sep 26 06:38:31 2025
! Project name: biblioteca3_folgaOK.cst
! Parameters = {H=600; Lx=200; Ly=260; Nedge=24; P=520; k=0; mesh_pilar_nm=40; n=0; t_air=3500; t_sub=2000; wavelength_nm=0}
! Header version: 2018
! Port assignment regex: !\s*Touchstone port\s*([0-9]+)\s*=\s*(CST MWS port|CST DS port)\s*([0-9]+|Zmin|Zmax)\s*\(\"(.*)\"\)(\s*mode\s*([0-9]+))?.*
! Touchstone port assignment:
! Touchstone port 1 = CST MWS port Zmin ("") mode 1
! Touchstone port 2 = CST MWS port Zmin ("") mode 2
! Touchstone port 3 = CST MWS port Zmax ("") mode 1
! Touchstone port 4 = CST MWS port Zmax ("") mode 2
! S-Parameters are not renormalized. Each port impedance will be approximated by the real part at minimum frequency. The values are described via the [Reference] keyword.
! Default impedance is overridden by [Reference]
[Version] 2.0
# GHz S RI R 376.73
[Number of Ports] 4
[Reference]
376.73 376.73 376.73 376.73 
[Number of Frequencies] 401
[Network Data]
250000                  0.219086        0.236949       0.00118498      0.00050739        -0.882706        0.341872      5.42199e-05    -0.000864183
                     0.000943494     0.000275849        -0.064148         0.18862      0.000890053    -0.000826883        -0.437259       -0.877003
                       -0.882732         0.34125       0.00104964    -0.000930831      -0.00273879        0.322688       -0.0012802    -0.000765981
                     4.40794e-05    -0.000920189        -0.437059       -0.876469      -0.00134492    -0.000810503        -0.189227      -0.0622777
250200                  0.227929        0.218088       0.00119622     0.000348722        -0.854566        0.412465     -1.40577e-05    -0.000877955
                     0.000964054     0.000206219       -0.0565394         0.19433      0.000820868    -0.000882418         -0.49476       -0.845173
                       -0.854722        0.412056      0.000930504    -0.000992951          0.02873        0.314135      -0.00132918     -0.00066612
                    -2.25272e-05    -0.000956492        -0.494307       -0.844721       -0.0013899    -0.000710361        -0.197102      -0.0458483
250400                   0.23503        0.198853       0.00119605     0.000207177        -0.820692        0.481041     -8.55534e-05    -0.000886478
                     0.000978903     0.000132397       -0.0484717         0.19962      0.000748287    -0.000931495        -0.549987       -0.809574
                       -0.820923        0.480826      0.000814244     -0.00104153        0.0585821        0.302226      -0.00136903    -0.000562867
                    -0.000111788    -0.000979187        -0.549391       -0.809242      -0.00142697     -0.00060727        -0.203409      -0.0285082
250600                  0.240368        0.179414       0.00118646      7.9068e-05        -0.781193        0.547116     -0.000159862    -0.000889201
                      0.00098726     5.50255e-05       -0.0399762        0.204457      0.000673069    -0.000973968        -0.602696       -0.770367
                       -0.781452        0.547071      0.000701725     -0.00107823        0.0864336        0.287202      -0.00139962    -0.000457371
                    -0.000206154    -0.000974011        -0.602044       -0.770169      -0.00145594    -0.000502013        -0.208047      -0.0104192
250800                   0.24394        0.159944       0.00116883    -3.81704e-05        -0.736219        0.610208     -0.000236487      -0.0008856
                     0.000988445    -2.50956e-05       -0.0310856         0.20881      0.000595954      -0.0010098        -0.652655       -0.727727
                       -0.736472        0.610303      0.000593503     -0.00110456         0.111933        0.269349      -0.00142098    -0.000350741
                     -0.00028843    -0.000951931        -0.652011       -0.727664       -0.0014767    -0.000395377        -0.210933      0.00824639
251000                  0.245761        0.140615        0.0011441    -0.000146354        -0.685966        0.669835     -0.000314847    -0.000875191
                     0.000981928    -0.000107028       -0.0218343        0.212651      0.000517645     -0.00103904        -0.699644       -0.681847
                       -0.686186        0.670041      0.000489908     -0.00112184         0.134766        0.248998      -0.00143332    -0.000244019
                    -0.000360691    -0.000925992        -0.699055       -0.681904      -0.00148925    -0.000288138        -0.212005       0.0273085
251200                  0.245864        0.121597       0.00111295    -0.000246777        -0.630675        0.725526     -0.000394271    -0.000857549
                     0.000967352    -0.000189735       -0.0122587        0.215954        0.0004388     -0.00106183        -0.743455       -0.632929
                       -0.630845        0.725815      0.000391097     -0.00113127         0.154662        0.226512      -0.00143699    -0.000138155
                    -0.000429242    -0.000899145        -0.742951       -0.633087      -0.00149367    -0.000181052        -0.211217        0.046581
251400                  0.244297        0.103056       0.00107589    -0.000340359        -0.570634        0.776822     -0.000474009     -0.00083232
                      0.00094456    -0.000272127      -0.00239647        0.218695      0.000360022     -0.00107837        -0.783896       -0.581191
                       -0.570745        0.777168      0.000297109     -0.00113386         0.171399         0.20229      -0.00143245    -3.39837e-05
                    -0.000497412    -0.000870137        -0.783492       -0.581424      -0.00149009     -7.4844e-05        -0.208545       0.0658739
251600                  0.241127       0.0851537       0.00103331    -0.000427748        -0.506176        0.823285     -0.000553242     -0.00079924
                     0.000913593     -0.00035311       0.00771315        0.220853      0.000281854     -0.00108893        -0.820785        -0.52686
                       -0.506223        0.823662      0.000207898     -0.00113048         0.184806        0.176757      -0.00142024     6.77783e-05
                    -0.000566241     -0.00083721        -0.820487       -0.527145      -0.00147873      2.9793e-05        -0.203983        0.084995
251800                  0.236437       0.0680433      0.000985504    -0.000509389         -0.43768        0.864499     -0.000631092    -0.000758146
                     0.000874685    -0.000431631        0.0180295        0.222411      0.000204778     -0.00109379         -0.85396       -0.470177
                       -0.437665        0.864886      0.000123363     -0.00112191         0.194766        0.150356      -0.00140095     0.000166542
                    -0.000635677    -0.000798923        -0.853763       -0.470489      -0.00145988     0.000132206        -0.197547        0.103752
252000                  0.230327       0.0518692      0.000932739    -0.000585571        -0.365569        0.900074     -0.000706636    -0.000708985
                     0.000828237    -0.000506723        0.0285107        0.223352      0.000129213      -0.0010933        -0.883271        -0.41139
                       -0.365497        0.900454      4.33669e-05     -0.00110877         0.201224        0.123545       -0.0013752     0.000261839
                    -0.000705154      -0.0007542        -0.883165       -0.411708      -0.00143387     0.000231783         -0.18927        0.121956
252200                  0.222911       0.0367651      0.000875239    -0.000656461        -0.290308         0.92966      -0.00077893    -0.000651827
                     0.000774791    -0.000577532        0.0391138        0.223664      5.55172e-05     -0.00108781        -0.908585       -0.350758
                       -0.290185        0.930019     -3.22432e-05     -0.00109162         0.204184       0.0967868      -0.00134363     0.000353321
                    -0.000773837    -0.000702249        -0.908555       -0.351066      -0.00140107      0.00032795        -0.179205        0.139418
252400                  0.214316       0.0228518      0.000813214    -0.000722135          -0.2124         0.95294     -0.000847019    -0.000586868
                     0.000714986    -0.000643338         0.049795        0.223338      -1.6008e-05     -0.00107767        -0.929786       -0.288548
                       -0.212236        0.953268     -0.000103629     -0.00107094         0.203713       0.0705399      -0.00130684     0.000440743
                    -0.000840715    -0.000642519        -0.929814       -0.288832       -0.0013619     0.000420174        -0.167426         0.15596
252600                  0.204683       0.0102361      0.000746869    -0.000782595        -0.132386        0.969646     -0.000909966    -0.000514428
                     0.000649525     -0.00070356        0.0605097        0.222368     -8.51145e-05     -0.00106327        -0.946775       -0.225034
                       -0.132189        0.969935     -0.000170951     -0.00104711         0.199939       0.0452523      -0.00126543     0.000523955
                    -0.000904649    -0.000574674        -0.946843       -0.225285      -0.00131686      0.00050796        -0.154022        0.171407
252800                  0.194164     -0.00099102      0.000676411    -0.000837782       -0.0508368        0.979555     -0.000966864    -0.000434953
                     0.000579142    -0.000757756        0.0712129        0.220751     -0.000151603     -0.00104496        -0.959471       -0.160497
                       -0.050616        0.979802     -0.000234363     -0.00102048         0.193052        0.021351      -0.00121995     0.000602887
                    -0.000964407    -0.000498595         -0.95956        -0.16071      -0.00126646     0.000590855        -0.139102        0.185595
253000                  0.182921      -0.0107559      0.000602058    -0.000887597        0.0316503          0.9825      -0.00101686    -0.000349005
                     0.000504568     -0.00080561        0.0818593        0.218486     -0.000215318     -0.00102311         -0.96781        -0.09522
                       0.0318865        0.982702     -0.000294007    -0.000991349           0.1833     -0.00076648      -0.00117091     0.000677541
                     -0.00101869    -0.000414387        -0.967904       -0.095396       -0.0012113     0.000668454        -0.122791         0.19837
253200                  0.171122      -0.0190031      0.000524043    -0.000931901         0.114456        0.978367      -0.00105916    -0.000257254
                     0.000426512    -0.000846917        0.0924038        0.215577     -0.000276143    -0.000998065        -0.971747      -0.0294939
                          0.1147        0.978524     -0.000350013    -0.000959963         0.170984      -0.0207405      -0.00111875      0.00074797
                     -0.00106618     -0.00032239        -0.971832      -0.0296347      -0.00115204     0.000740412        -0.105228        0.209593
253400                  0.158942      -0.0256965      0.000442619    -0.000970534         0.196945        0.967104      -0.00109306    -0.000160463
                     0.000345646    -0.000881561         0.102801        0.212031     -0.000333998    -0.000970166        -0.971257       0.0363896
                         0.19719        0.967216     -0.000402495    -0.000926546         0.156455      -0.0382576      -0.00106388     0.000814273
                     -0.00110557    -0.000223192        -0.971321       0.0362792      -0.00108939     0.000806464       -0.0865688        0.219136
253600                  0.146557        -0.03082       0.00035806     -0.00100332         0.278474         0.94872      -0.00111796    -5.94794e-05
                     0.000262592    -0.000909498         0.113007        0.207859      -0.00038883    -0.000939739        -0.966332        0.102137
                        0.278715        0.948789     -0.000451549    -0.000891295         0.140105      -0.0530575      -0.00100665     0.000876581
                     -0.00113562    -0.000117621        -0.966366         0.10205      -0.00102418      0.00086646       -0.0669807        0.226888
253800                  0.134145       -0.034378      0.000270669     -0.00103006         0.358397        0.923286      -0.00113333     4.47859e-05
                     0.000177926    -0.000930737         0.122978        0.203073     -0.000440618    -0.000907096        -0.956983        0.167453
                        0.358629        0.923313     -0.000497258    -0.000854389         0.122359      -0.0649394     -0.000947333     0.000935048
                      -0.0011552    -6.74458e-06        -0.956981        0.167383     -0.000957276     0.000920409        -0.046643        0.232755
254000                  0.121881       -0.036395      0.000180772     -0.00105057         0.436072        0.890938      -0.00113877      0.00015137
                     9.21722e-05    -0.000945326         0.132671        0.197692     -0.000489361    -0.000872538        -0.943241        0.232045
                         0.43629        0.890925     -0.000539685       -0.000816         0.103667      -0.0737666      -0.00088618     0.000989842
                     -0.00116335     0.000108155        -0.943201        0.231984      -0.00088957     0.000968521       -0.0257449        0.236662
254200                  0.109937      -0.0369161       8.8724e-05     -0.00106467         0.510869        0.851874      -0.00113397     0.000259273
                     5.81011e-06    -0.000953333         0.142045        0.191733     -0.000535084    -0.000836352        -0.925155         0.29562
                         0.51107        0.851824     -0.000578883    -0.000776291        0.0844919        -0.07947     -0.000823374      0.00104114
                      -0.0011593     0.000225614        -0.925077        0.295561     -0.000821922      0.00101125      -0.00448315        0.238551
254400                 0.0984776      -0.0360055     -5.09002e-06     -0.00107218         0.582177        0.806356      -0.00111874     0.000367472
                    -8.07182e-05    -0.000954842          0.15106        0.185222     -0.000577831    -0.000798813        -0.902795        0.357889
                        0.582357         0.80627     -0.000614887    -0.000735431         0.065303      -0.0820501     -0.000759052      0.00108911
                     -0.00114255      0.00034403        -0.902681        0.357827     -0.000755051       0.0010493         0.016939        0.238385
254600                 0.0876565      -0.0337463     -0.000100259     -0.00107294          0.64941        0.754706      -0.00109297      0.00047493
                    -0.000167002    -0.000949946         0.159677        0.178183     -0.000617667    -0.000760186        -0.876248        0.418569
                        0.649564        0.754585     -0.000647725      -0.0006936        0.0465613      -0.0815762     -0.000693305      0.00113394
                     -0.00111284     0.000461716        -0.876101        0.418497     -0.000689426      0.00108362        0.0383143         0.23615
254800                 0.0776172      -0.0302386     -0.000196344     -0.00106683         0.712015        0.697301      -0.00105667     0.000580609
                    -0.000252656    -0.000938737         0.167861        0.170646      -0.00065468    -0.000720725        -0.845619        0.477378
                        0.712139        0.697149     -0.000677419    -0.000650996        0.0287111      -0.0781854     -0.000626179      0.00117577
                     -0.00107024     0.000576957        -0.845445        0.477295     -0.000625164      0.00111525         0.059434         0.23185
255000                 0.0684889       -0.025598     -0.000292881     -0.00105374         0.769476        0.634575      -0.00100994      0.00068347
                    -0.000337309    -0.000921308         0.175578        0.162642     -0.000688978    -0.000680675        -0.811032        0.534045
                        0.769565        0.634394     -0.000703994    -0.000607847         0.012169      -0.0720788     -0.000557679      0.00121475
                     -0.00101504     0.000688069        -0.810837        0.533948     -0.000561976      0.00114521        0.0800892        0.225513
255200                 0.0603854       -0.019954     -0.000389387     -0.00103363         0.821322        0.567009     -0.000952942     0.000782485
                    -0.000420603    -0.000897755         0.182796        0.154205     -0.000720699    -0.000640271        -0.772631        0.588304
                         0.82137        0.566805     -0.000727489     -0.00056442      -0.00268507      -0.0635163      -0.00048777      0.00125101
                    -0.000947841     0.000793451        -0.772421        0.588193     -0.000499201      0.00117434         0.100074        0.217187
255400                 0.0534032      -0.0134472     -0.000485356     -0.00100648         0.867131        0.495129     -0.000885964     0.000876637
                    -0.000502185    -0.000868171         0.189487        0.145371     -0.000750004    -0.000599734        -0.730575        0.639899
                        0.867133        0.494907     -0.000747973    -0.000521033       -0.0155166      -0.0528104     -0.000416378      0.00128465
                    -0.000869455     0.000891638        -0.730356        0.639776     -0.000435918      0.00120312         0.119187        0.206943
255600                 0.0476208     -0.00622757     -0.000580272    -0.000972363         0.906533          0.4195      -0.00080936      0.00096492
                    -0.000581703    -0.000832657         0.195625        0.136179     -0.000777091    -0.000559271         -0.68504        0.688583
                        0.906485        0.419267     -0.000765573    -0.000478063       -0.0260436      -0.0403181     -0.000343394      0.00131574
                    -0.000780895     0.000981333        -0.684817         0.68845     -0.000371119      0.00123163         0.137234         0.19487
255800                 0.0430971      0.00154826     -0.000673606    -0.000931432         0.939216        0.340719      -0.00072357      0.00104634
                    -0.000658801    -0.000791316         0.201186         0.12667     -0.000802195    -0.000519069         -0.63622         0.73412
                        0.939116        0.340484     -0.000780504    -0.000435958       -0.0340427      -0.0264321     -0.000268674      0.00134431
                    -0.000683327      0.00106144        -0.635997        0.733981     -0.000303873      0.00125955          0.15403        0.181082
256000                 0.0398717      0.00971966     -0.000764826    -0.000883949          0.96493        0.259407     -0.000629129      0.00111994
                    -0.000733122    -0.000744264          0.20615        0.116885     -0.000825592    -0.000479285        -0.584324        0.776288
                        0.964775        0.259182     -0.000793125    -0.000395233       -0.0393536      -0.0115718     -0.000192043      0.00137035
                    -0.000578021      0.00113106        -0.584103        0.776147     -0.000233458      0.00128629         0.169401        0.165708
256200                 0.0379643       0.0181244     -0.000853396    -0.000830351         0.983483        0.176208     -0.000526661      0.00118475
                    -0.000804301    -0.000691629         0.210502        0.106867     -0.000847605    -0.000440037        -0.529575        0.814876
                        0.983275        0.176004     -0.000804005    -0.000356447       -0.0418815      0.00382755     -0.000113296      0.00139381
                    -0.000466311      0.00118952         -0.52936        0.814737     -0.000159408      0.00131111         0.183189        0.148897
