! TOUCHSTONE file generated by CST MICROWAVE STUDIO
! Date and time: Sun Sep 28 19:09:22 2025
! Project name: biblioteca3_folgaOK.cst
! Parameters = {H=600; Lx=200; Ly=260; Nedge=46; P=520; mesh_pilar_nm=40; t_air=3800; t_sub=6000}
! Header version: 2018
! Port assignment regex: !\s*Touchstone port\s*([0-9]+)\s*=\s*(CST MWS port|CST DS port)\s*([0-9]+|Zmin|Zmax)\s*\(\"(.*)\"\)(\s*mode\s*([0-9]+))?.*
! Touchstone port assignment:
! Touchstone port 1 = CST MWS port Zmin ("") mode 1
! Touchstone port 2 = CST MWS port Zmin ("") mode 2
! Touchstone port 3 = CST MWS port Zmax ("") mode 1
! Touchstone port 4 = CST MWS port Zmax ("") mode 2
! S-Parameters are not renormalized. Each port impedance will be approximated by the real part at minimum frequency. The values are described via the [Reference] keyword.
! Default impedance is overridden by [Reference]
[Version] 2.0
# GHz S RI R 376.73
[Number of Ports] 4
[Reference]
376.73 376.73 376.73 376.73 
[Number of Frequencies] 401
[Network Data]
250000                  0.304685        0.212127      -0.00122805     0.000163029         0.303101        0.877645     -0.000729991      -0.0001792
                     -0.00120574     6.99876e-05         0.100284       0.0183182     -0.000128647    -9.67463e-05        -0.933182        0.344762
                        0.302852        0.877654     -0.000238722    -0.000199007         0.108821        -0.35493     -0.000722106    -0.000984792
                    -0.000682454    -4.95571e-05        -0.933299        0.344877     -0.000542364    -0.000925301       -0.0642646       0.0791536
250200                  0.327544        0.179677      -0.00118921     0.000317338         0.399889        0.836744     -0.000723355      -3.126e-05
                     -0.00119135     0.000265562        0.0980544       0.0208741     -0.000134183    -0.000102218        -0.891962        0.440974
                        0.399803        0.836999     -0.000291954    -0.000142787        0.0660794       -0.367583     -0.000742467     -0.00096175
                    -0.000672999      1.2545e-05        -0.891545        0.441064     -0.000588363    -0.000918006       -0.0429374       0.0905859
250400                  0.345994        0.144441      -0.00113043     0.000472182         0.491678        0.785575     -0.000688216     8.51444e-05
                     -0.00114712     0.000459823        0.0972059       0.0238374     -0.000141846    -0.000108252        -0.840687        0.532296
                        0.491724        0.785951     -0.000340577    -7.77306e-05        0.0215556       -0.374161     -0.000764214    -0.000935847
                    -0.000657234     7.54949e-05        -0.839943        0.532349      -0.00063804    -0.000905619        -0.020024       0.0980515
250600                  0.359673        0.107096      -0.00105013     0.000624568         0.577425         0.72467     -0.000641099      0.00017335
                     -0.00107279     0.000647882        0.0977796       0.0269329     -0.000152169    -0.000114624        -0.779952        0.617653
                        0.577559         0.72508      -0.00038298    -3.98352e-06       -0.0237855       -0.374374     -0.000787482    -0.000906859
                    -0.000634107     0.000138193        -0.779035        0.617683     -0.000691768     -0.00088748       0.00379586        0.101341
250800                   0.36833       0.0683658     -0.000947166     0.000770882         0.656134        0.654662     -0.000591026     0.000239672
                     -0.00096899     0.000824724         0.099768       0.0298852      -0.00016577    -0.000120947         -0.71047        0.696047
                        0.656311        0.655053     -0.000417467     7.79691e-05       -0.0689292       -0.368098     -0.000812398    -0.000874558
                    -0.000602734     0.000198916        -0.709488        0.696081     -0.000749834    -0.000863139        0.0278158        0.100361
251000                  0.371827       0.0290011     -0.000821008     0.000906924         0.726864        0.576277     -0.000542253     0.000289998
                    -0.000837273     0.000985388         0.103117       0.0324269     -0.000183338    -0.000126596        -0.633059        0.766572
                        0.727041        0.576622     -0.000442336     0.000167252        -0.112842       -0.355386     -0.000839078    -0.000838714
                    -0.000562766     0.000255242        -0.632083        0.766639     -0.000812264    -0.000832411        0.0513237       0.0951391
251200                  0.370144      -0.0102383     -0.000671993        0.001028         0.788735        0.490334     -0.000496459     0.000328916
                    -0.000680114      0.00112516         0.107729        0.034306     -0.000205582     -0.00013062        -0.548635        0.828423
                        0.788879        0.490624     -0.000455989      0.00026257        -0.154502       -0.336463     -0.000867613    -0.000799093
                    -0.000514913     0.000304216        -0.547702        0.828548     -0.000878623    -0.000795333        0.0736224       0.0858189
251400                  0.363375      -0.0486004      -0.00050153      0.00112913         0.840934         0.39774     -0.000454055     0.000359765
                    -0.000500844      0.00123974         0.113464       0.0352931     -0.000233132    -0.000131634         -0.45819        0.880905
                        0.841021        0.397984     -0.000457053       0.0003622        -0.192933        -0.31173     -0.000898057    -0.000755461
                    -0.000461432     0.000342948        -0.457317        0.881105     -0.000947906    -0.000752009        0.0940492       0.0726585
251600                  0.351726      -0.0853577      -0.00031228      0.00120527         0.882725        0.299495     -0.000414866     0.000384921
                    -0.000303566      0.00132545         0.120151       0.0351866     -0.000266351    -0.000127726        -0.362785        0.923446
                        0.882744        0.299705     -0.000444522     0.000464034        -0.227227       -0.281749     -0.000930416    -0.000707579
                    -0.000406178     0.000369629        -0.361973        0.923726       -0.0010186    -0.000702432         0.111994       0.0560209
251800                   0.33551       -0.119823     -0.000108254      0.00125173         0.913459         0.19668     -0.000378474     0.000406061
                    -9.30276e-05      0.00137931         0.127586       0.0338181     -0.000305049    -0.000116417        -0.263531        0.955593
                        0.913408        0.196874     -0.000417885     0.000565655        -0.256579        -0.24723      -0.00096463    -0.000655206
                    -0.000353846     0.000384579        -0.262771         0.95595      -0.00108887    -0.000646428         0.126918       0.0363634
252000                  0.315138       -0.151364      0.000105205      0.00126455         0.932582       0.0904622     -0.000344377      0.00042438
                      0.00012553      0.00139921         0.135542       0.0310557     -0.000348089    -9.47748e-05        -0.161575        0.977024
                        0.932467       0.0906572     -0.000377248     0.000664458        -0.280306       -0.209019      -0.00100056    -0.000598091
                    -0.000308497     0.000390561        -0.160855        0.977445       -0.0011568    -0.000583725         0.138363       0.0142237
252200                  0.291114       -0.179418      0.000321591      0.00124094         0.939646      -0.0179154     -0.000312058     0.000440726
                     0.000346533      0.00138393         0.143778       0.0268067     -0.000392962    -5.97831e-05        -0.058084        0.987546
                        0.939482      -0.0177055     -0.000323422     0.000757802        -0.297873        -0.16807      -0.00103795    -0.000535982
                    -0.000272167     0.000391948        -0.057392        0.988009      -0.00122058    -0.000514116         0.145969     -0.00979528
252400                  0.264022       -0.203502      0.000533564      0.00117967         0.934326       -0.127136     -0.000281016     0.000455711
                     0.000564249      0.00133325         0.152039        0.021019      -0.00043552    -9.04951e-06        0.0457695        0.987093
                        0.934129       -0.126903     -0.000257979     0.000843167        -0.308906       -0.125421      -0.00107646    -0.000468619
                    -0.000244443     0.000393197        0.0464417        0.987573      -0.00127856    -0.000437622         0.149476      -0.0350421
252600                  0.234516        -0.22323      0.000733413      0.00108129         0.916429        -0.23582     -0.000250771     0.000469771
                     0.000772953      0.00124786         0.160069       0.0136818     -0.000470143     5.82184e-05         0.148821        0.975727
                        0.916219       -0.235559     -0.000183293     0.000918304        -0.313211      -0.0821727      -0.00111559    -0.000395743
                    -0.000223108     0.000397579         0.149477        0.976198      -0.00132934    -0.000354585         0.148736      -0.0608347
252800                  0.203305       -0.238317        0.0009136     0.000948236         0.885909       -0.342534      -0.00022086     0.000483211
                     0.000967094      0.00112945         0.167612      0.00482491     -0.000490594     0.000140316         0.249929        0.953633
                        0.885705       -0.342248     -0.000102588     0.000981322        -0.310783      -0.0394516      -0.00115469    -0.000317104
                    -0.000205222     0.000406735         0.250568        0.954067      -0.00137176    -0.000265683         0.143711      -0.0864784
253000                  0.171137       -0.248596       0.00106731     0.000784733         0.842882       -0.445806     -0.000190836     0.000496233
                      0.00114144     0.000980555         0.174423     -0.00548274      -0.00049145     0.000232762         0.347986        0.921112
                        0.842701       -0.445502     -2.00534e-05      0.00103067        -0.301813      0.00161824      -0.00119295    -0.000232479
                    -0.000187994     0.000420912         0.348601        0.921487      -0.00140499    -0.000171889         0.134474       -0.111284
253200                  0.138783       -0.254018       0.00118892     0.000596465         0.787638       -0.544141     -0.000160257     0.000508948
                      0.00129124     0.000804568         0.180271      -0.0171351     -0.000469549     0.000329018         0.441931        0.878577
                        0.787492        -0.54383      5.88705e-05      0.00106485        -0.286685       0.0399505      -0.00122939    -0.000141696
                    -0.000169203     0.000439458         0.442513        0.878875      -0.00142849    -7.43881e-05         0.121207       -0.134584
253400                  0.107015       -0.254662       0.00127436     0.000390158         0.720655       -0.636046     -0.000128679     0.000521388
                       0.0014123     0.000605611         0.184943      -0.0299922     -0.000424707     0.000421993         0.530759        0.826547
                        0.720552       -0.635742      0.000126918       0.0010816        -0.265977       0.0745313      -0.00126284     -4.4667e-05
                     -0.00014728     0.000461284         0.531298        0.826754      -0.00144207     2.55371e-05         0.104194       -0.155751
253600                 0.0765877       -0.250733       0.00132124     0.000173075         0.642602        -0.72005     -9.56579e-05     0.000533503
                      0.00150113      0.00038845         0.188253      -0.0438837     -0.000359361     0.000505604         0.613534        0.765635
                        0.642546       -0.719767      0.000174172      0.00107547        -0.240444        0.104454      -0.00129196     5.85646e-05
                    -0.000121202     0.000485155         0.614016        0.765745      -0.00144582      0.00012661         0.083813       -0.174211
253800                 0.0482144       -0.242563       0.00132884    -4.74715e-05         0.554353       -0.794736       -6.074e-05     0.000545154
                      0.00155504     0.000158381          0.19004      -0.0586134     -0.000277447     0.000575686         0.689391        0.696543
                        0.554342       -0.794486      0.000188518      0.00103136        -0.211005        0.128955      -0.00131528     0.000167774
                    -9.03609e-05     0.000509842         0.689805        0.696554      -0.00144011      0.00022766        0.0605266       -0.189458
254000                 0.0225454       -0.230603       0.00129797    -0.000264549         0.456981       -0.858767     -2.34705e-05     0.000556106
                       0.0015722    -7.88959e-05         0.190176      -0.0739635     -0.000183188     0.000630039         0.757547         0.62005
                        0.457009       -0.858565      0.000167141     0.000910616        -0.178715        0.147443      -0.00133118     0.000282494
                    -5.44293e-05     0.000534189         0.757885        0.619965      -0.00142552     0.000327692          0.03487       -0.201064
254200               0.000145648       -0.215413       0.00123071    -0.000471918         0.351757       -0.910927       1.6601e-05     0.000566011
                      0.00155169     -0.00031741         0.188568      -0.0897002     -8.02709e-05     0.000667898         0.817308        0.537006
                        0.351814        -0.91078      0.000169427      0.00065365        -0.144732        0.159531      -0.00133802     0.000401957
                    -1.32772e-05     0.000557112         0.817564        0.536833      -0.00140273     0.000425939       0.00743755       -0.208691
254400                -0.0185256       -0.197645       0.00113009    -0.000664231         0.240139       -0.950147      5.99049e-05     0.000574392
                      0.00149358    -0.000551066         0.185157       -0.105578      2.84706e-05     0.000689226         0.868071         0.44832
                        0.240212       -0.950061      0.000347155      0.00031811        -0.110282        0.165052      -0.00133417     0.000525048
                      3.3086e-05      0.00057759          0.86824        0.448068      -0.00137247     0.000521869       -0.0211317       -0.212096
254600                -0.0331326       -0.178027      0.000999815    -0.000837122         0.123752       -0.975541      0.000106827     0.000580627
                      0.00139894    -0.000773801         0.179922       -0.121348      0.000140975     0.000694119         0.909326        0.354949
                        0.123828       -0.975518      0.000664169     0.000125168       -0.0766099        0.164081      -0.00131815     0.000650269
                     8.45406e-05      0.00059464         0.909412        0.354629      -0.00133544     0.000615184       -0.0501688       -0.211142
254800                -0.0434766       -0.157336      0.000844039    -0.000987216       0.00436698       -0.986442      0.000157673     0.000583933
                      0.00126982    -0.000979746         0.172879       -0.136757      0.000255669     0.000682419         0.940667        0.257892
                      0.00443204        -0.98648      0.000920569     7.37684e-05        -0.044932        0.156934      -0.00128873      0.00077575
                     0.000140866     0.000607299         0.940673        0.257517      -0.00129225     0.000705786       -0.0789914       -0.205791
255000                -0.0495057       -0.136372      0.000667139     -0.00111207        -0.116134       -0.982422       0.00021262     0.000583363
                      0.00110926      -0.0011634         0.164078       -0.151561      0.000371092     0.000653524         0.961785         0.15818
                       -0.116093       -0.982515       0.00108094     5.00203e-05       -0.0163882        0.144164      -0.00124508     0.000899289
                     0.000201737     0.000614607         0.961719         0.15776      -0.00124334     0.000793735        -0.106919       -0.196115
255200                -0.0513173        -0.11593      0.000473609     -0.00121011        -0.235793       -0.963322      0.000271658     0.000577804
                     0.000921211     -0.00131978         0.153606       -0.165525      0.000485516     0.000606384         0.972474       0.0568633
                       -0.235788       -0.963461       0.00118024      1.0208e-05        0.0080092        0.126543      -0.00118691      0.00101845
                     0.000266709     0.000615599         0.972346       0.0564074      -0.00118899     0.000879195        -0.133288       -0.182288
255400                -0.0491558      -0.0967694         0.000268     -0.00128049        -0.352622       -0.929261       0.00033452     0.000566013
                     0.000710444     -0.00144463         0.141582       -0.178428      0.000596579     0.000539645         0.972633      -0.0449944
                       -0.352662       -0.929434       0.00124325    -5.07631e-05        0.0274207        0.105035       -0.0011145      0.00113072
                     0.000335198     0.000609308         0.972454      -0.0454783      -0.00112925     0.000962381        -0.157471       -0.164585
255600                -0.0434029      -0.0795848      5.49088e-05     -0.00132299        -0.464646       -0.880646       0.00040061     0.000546669
                     0.000482445     -0.00153453         0.128157       -0.190071      0.000700968     0.000451962         0.962262       -0.146326
                       -0.464737        -0.88084       0.00128179    -0.000129196        0.0412181       0.0807572       -0.0010288      0.00123367
                     0.000406458     0.000594771         0.962043       -0.146833      -0.00106396      0.00104349        -0.178886       -0.143377
255800                -0.0345624      -0.0649818     -0.000160993     -0.00133793        -0.569953       -0.818172      0.000468941     0.000518464
                     0.000243248     -0.00158703         0.113506       -0.200278      0.000794215     0.000342477         0.941463        -0.24607
                       -0.570097       -0.818373       0.00130109    -0.000220667        0.0490144        0.054931     -0.000931356      0.00132516
                      0.00047955     0.000571054         0.941217       -0.246596     -0.000992719      0.00112264        -0.197015       -0.119117
256000                -0.0232392      -0.0534529     -0.000374938     -0.00132595         -0.66674       -0.742807      0.000538103     0.000480226
                     -7.4748e-07     -0.00160078        0.0978288       -0.208898      0.000870699     0.000211472         0.910442       -0.343179
                       -0.666937          -0.743       0.00130341    -0.000321424        0.0506813       0.0288295     -0.000824211      0.00140352
                      0.00055332     0.000537284         0.910178       -0.343724     -0.000914932      0.00119979        -0.211412      -0.0923388
256200                 -0.010114      -0.0453612     -0.000582079     -0.00128794        -0.753358       -0.655772      0.000606277     0.000431078
                    -0.000242982     -0.00157559        0.0813442       -0.215815      0.000923991     6.11009e-05         0.869503       -0.436628
                       -0.753604       -0.655944       0.00128961    -0.000428372        0.0463556      0.00372112     -0.000709752      0.00146766
                     0.000626379     0.000492695          0.86923       -0.437193     -0.000829791      0.00127469        -0.221719       -0.063638
