! TOUCHSTONE file generated by CST MICROWAVE STUDIO
! Date and time: Fri Sep 26 06:38:35 2025
! Project name: biblioteca3_folgaOK.cst
! Parameters = {H=600; Lx=200; Ly=260; Nedge=44; P=520; k=0; mesh_pilar_nm=40; n=0; t_air=3500; t_sub=2000; wavelength_nm=0}
! Header version: 2018
! Port assignment regex: !\s*Touchstone port\s*([0-9]+)\s*=\s*(CST MWS port|CST DS port)\s*([0-9]+|Zmin|Zmax)\s*\(\"(.*)\"\)(\s*mode\s*([0-9]+))?.*
! Touchstone port assignment:
! Touchstone port 1 = CST MWS port Zmin ("") mode 1
! Touchstone port 2 = CST MWS port Zmin ("") mode 2
! Touchstone port 3 = CST MWS port Zmax ("") mode 1
! Touchstone port 4 = CST MWS port Zmax ("") mode 2
! S-Parameters are not renormalized. Each port impedance will be approximated by the real part at minimum frequency. The values are described via the [Reference] keyword.
! Default impedance is overridden by [Reference]
[Version] 2.0
# GHz S RI R 376.73
[Number of Ports] 4
[Reference]
376.73 376.73 376.73 376.73 
[Number of Frequencies] 401
[Network Data]
250000                  0.219309        0.235847       0.00161266     0.000302128        -0.882428        0.342467      0.000718538     -0.00168041
                      0.00163045     0.000260667       -0.0635088         0.18976       0.00089012      -0.0018307        -0.438951       -0.875927
                       -0.882798        0.342126      0.000960876      -0.0019613      -0.00299815        0.322026      -0.00194024     -0.00166465
                     0.000651527     -0.00160835        -0.439075       -0.875688      -0.00200771     -0.00161775        -0.189999      -0.0627049
250200                  0.228209         0.21695       0.00164526     0.000145423        -0.854361        0.413204      0.000599211     -0.00176524
                      0.00166349      0.00010793       -0.0557691        0.195617      0.000754768      -0.0018925        -0.496398       -0.843978
                       -0.854758        0.412959      0.000795159     -0.00197755        0.0288344        0.313434      -0.00206287     -0.00153355
                     0.000523778     -0.00167347        -0.496302       -0.843441      -0.00212777     -0.00149242        -0.198027      -0.0463445
250400                  0.235364        0.197669       0.00166361    -1.41426e-05        -0.820507        0.481885      0.000466318     -0.00184031
                      0.00168205    -4.85916e-05       -0.0475704        0.201049      0.000612002     -0.00194275        -0.551552       -0.808253
                       -0.820904        0.481728      0.000628744      -0.0019851        0.0588089        0.301428      -0.00217572     -0.00139181
                     0.000388605     -0.00172857        -0.551268       -0.807547      -0.00223845     -0.00135493        -0.204517       -0.029048
250600                  0.240752         0.17817       0.00166739    -0.000175181        -0.780992        0.548027      0.000320839     -0.00190313
                      0.00168564    -0.000207428       -0.0389392        0.206023      0.000463194     -0.00198027        -0.604168       -0.768919
                       -0.781365        0.547944       0.00046262     -0.00198377        0.0865897        0.286333      -0.00227766     -0.00124036
                     0.000246775     -0.00177273        -0.603738       -0.768142      -0.00233818     -0.00120627        -0.209362      -0.0109711
250800                  0.244366        0.158625       0.00165638    -0.000336269        -0.735979        0.611144      0.000164317     -0.00195134
                      0.00167391    -0.000367035       -0.0299047        0.210508      0.000309944     -0.00200409        -0.654013       -0.726155
                       -0.736312        0.611122      0.000297787     -0.00197347         0.111888         0.26849      -0.00236766     -0.00108028
                     9.91776e-05     -0.00180506        -0.653481        -0.72538      -0.00242558     -0.00104764        -0.212472      0.00771832
251000                  0.246215        0.139204       0.00163057    -0.000495966        -0.685676        0.670762     -1.15061e-06     -0.00198285
                      0.00164672    -0.000525822       -0.0204986        0.214475      0.000154044     -0.00201352        -0.700869       -0.680158
                       -0.685958        0.670782      0.000135237     -0.00195424         0.134453        0.248254      -0.00244481    -0.000912761
                     -5.3172e-05     -0.00182475        -0.700277       -0.679434      -0.00249942    -0.000880483        -0.213776       0.0268428
251200                  0.246326        0.120079       0.00159007    -0.000652834        -0.630335        0.726413     -0.000172994     -0.00199605
                      0.00160411     -0.00068217       -0.0107554        0.217894     -2.58807e-06     -0.00200817        -0.744529       -0.631134
                       -0.630559        0.726459     -2.40587e-05      -0.0019262         0.154072         0.22599      -0.00250838    -0.000739118
                     -0.00020914     -0.00183106        -0.743916       -0.630492      -0.00255873    -0.000706391        -0.213222       0.0462171
251400                  0.244745        0.101417       0.00153515     -0.00080545        -0.570252        0.777646     -0.000348299     -0.00198988
                       0.0015463    -0.000834463     -0.000711793        0.220741     -0.000157978     -0.00198801        -0.784801       -0.579304
                       -0.570416        0.777701     -0.000179169     -0.00188957         0.170566        0.202078       -0.0025578     -0.00056074
                     -0.00036748     -0.00182338        -0.784201       -0.578759      -0.00260278    -0.000527092        -0.210778       0.0656508
251600                  0.241532       0.0833832       0.00146623    -0.000952431        -0.505764        0.824029     -0.000523978     -0.00196396
                      0.00147373    -0.000981114       0.00959319        0.222992     -0.000310172     -0.00195337        -0.821509       -0.524899
                       -0.505872        0.824078     -0.000329214     -0.00184466         0.183796        0.176914      -0.00259265    -0.000379074
                    -0.000526841     -0.00180121         -0.82095       -0.524454      -0.00263113    -0.000344385        -0.206432         0.08495
251800                  0.236768       0.0661349       0.00138386     -0.00109244        -0.437253        0.865151     -0.000696976     -0.00191863
                      0.00138701     -0.00112059        0.0201185        0.224626     -0.000457314     -0.00190488        -0.854491       -0.468161
                       -0.437311        0.865182     -0.000473379     -0.00179186         0.193658        0.150912      -0.00261274    -0.000195596
                    -0.000685779     -0.00176418        -0.853993       -0.467812      -0.00264358    -0.000160087        -0.200193         0.10392
252000                  0.230548        0.049822       0.00128874     -0.00122421        -0.365144        0.900633     -0.000864469     -0.00185486
                      0.00128691     -0.00125143        0.0308215        0.225627     -0.000597713     -0.00184352        -0.883602       -0.409341
                        -0.36516        0.900637     -0.000610926     -0.00173164         0.200097        0.124498      -0.00261801    -1.17868e-05
                    -0.000842779      -0.0017121        -0.883177       -0.409077      -0.00264023     2.40173e-05        -0.192091        0.122368
252200                  0.222984       0.0345845       0.00118168     -0.00134654          -0.2899        0.930128      -0.00102404     -0.00177418
                       0.0011744     -0.00137229        0.0416576         0.22598     -0.000729908     -0.00177049        -0.908711       -0.348699
                       -0.289884        0.930097     -0.000741198     -0.00166454         0.203107       0.0981102      -0.00260861     0.000170899
                    -0.000996265     -0.00164494        -0.908367       -0.348505      -0.00262142     0.000206221        -0.182175        0.140103
252400                  0.214203       0.0205501       0.00106361     -0.00145833        -0.212023        0.953326       -0.0011738     -0.00167853
                      0.00105057     -0.00148193        0.0525814        0.225673     -0.000852701     -0.00168721        -0.929707       -0.286501
                       -0.211986        0.953258     -0.000863627     -0.00159115         0.202738       0.0721911      -0.00258483      0.00035105
                     -0.00114463     -0.00156285        -0.929444       -0.286363      -0.00258771     0.000384936        -0.170514         0.15694
252600                  0.204347      0.00783256      0.000935549     -0.00155856        -0.132048        0.969962      -0.00131248     -0.00157002
                     0.000916672     -0.00157927        0.0635463        0.224699      -0.00096519      -0.0015952        -0.946493       -0.223022
                       -0.132001        0.969854     -0.000977738     -0.00151208         0.199098       0.0471812      -0.00254711      0.00052732
                     -0.00128626     -0.00146619        -0.946307       -0.222924      -0.00253982     0.000558722        -0.157196        0.172704
252800                  0.193568     -0.00346981      0.000798635     -0.00164633       -0.0505432        0.979815      -0.00143942     -0.00145082
                     0.000774033     -0.00166336         0.074505        0.223055      -0.00106677     -0.00149608        -0.958991       -0.158541
                      -0.0504963        0.979671      -0.00108315       -0.001428         0.192357       0.0235086      -0.00249603     0.000698442
                     -0.00141955      -0.0013555        -0.958873        -0.15847      -0.00247867     0.000726307        -0.142327        0.187224
253000                  0.182032      -0.0132761      0.000654074     -0.00172084        0.0318988        0.982717      -0.00155453     -0.00132292
                      0.00062409     -0.00173344        0.0854099        0.220739      -0.00115712     -0.00139143        -0.967142      -0.0933415
                       0.0319361        0.982542      -0.00117955     -0.00133957         0.182748      0.00157872      -0.00243229     0.000863242
                     -0.00154295     -0.00123154         -0.96708       -0.093286      -0.00240523     0.000886602        -0.126031        0.200346
253200                  0.169911      -0.0215242      0.000503151     -0.00178141         0.114663        0.978556       -0.0016582     -0.00118799
                     0.000468337     -0.00178889        0.0962134        0.217755      -0.00123621     -0.00128279        -0.970903      -0.0277122
                        0.114683        0.978355      -0.00126675     -0.00124748         0.170561      -0.0182366      -0.00235668      0.00102065
                     -0.00165498     -0.00109525        -0.970884      -0.0276636      -0.00232058       0.0010387        -0.108447        0.211923
253400                  0.157384      -0.0281717      0.000347212     -0.00182748         0.197117        0.967277      -0.00175119     -0.00104726
                     0.000308313      -0.0018293         0.106868        0.214109       -0.0013042      -0.0011716        -0.970249       0.0380574
                        0.197115        0.967058      -0.00134461     -0.00115241         0.156143      -0.0356098      -0.00227007      0.00116969
                     -0.00175426    -0.000947765        -0.970258       0.0381043      -0.00222582      0.00118187       -0.0897277        0.221825
253600                  0.144636       -0.033197       0.00018766     -0.00185865         0.278622        0.948885      -0.00183445    -0.000901409
                      0.00014558      -0.0018544         0.117327        0.209813      -0.00136149     -0.00105917        -0.965176        0.103676
                        0.278593        0.948657      -0.00141306     -0.00105503         0.139887      -0.0502671      -0.00217338       0.0013095
                     -0.00183954    -0.000790389        -0.965199        0.103723      -0.00212207      0.00131555       -0.0700408        0.229939
253800                  0.131852      -0.0366001      2.59383e-05     -0.00187461         0.358532        0.923449      -0.00190898     -0.00075052
                    -1.83026e-05     -0.00186412         0.127544        0.204879       -0.0014086    -0.000946647        -0.955697        0.168851
                        0.358476        0.923219      -0.00147211     -0.00095598         0.122224      -0.0619967      -0.00206759      0.00143932
                     -0.00190974    -0.000624586         -0.95572        0.168897      -0.00201041      0.00143934       -0.0495646        0.236166
254000                  0.119215      -0.0384022     -0.000136478     -0.00187524         0.436207        0.891099      -0.00197562    -0.000594014
                    -0.000181794     -0.00185854         0.137475        0.199326       -0.0014462    -0.000835005        -0.941843        0.233291
                        0.436124        0.890877      -0.00152181      -0.0008559         0.103613      -0.0706548      -0.00195369      0.00155847
                     -0.00196393    -0.000451953        -0.941854        0.233333      -0.00189191      0.00155297       -0.0284879        0.240425
254200                  0.106906      -0.0386462     -0.000298096     -0.00186053         0.511015         0.85203      -0.00203477    -0.000430667
                    -0.000343392     -0.00183792         0.147076        0.193175      -0.00147501    -0.000725057        -0.923663        0.296707
                        0.510909        0.851823      -0.00156225    -0.000755395        0.0845289      -0.0761696      -0.00183267      0.00166638
                     -0.00200141    -0.000274193        -0.923654         0.29674      -0.00176755      0.00165628      -0.00700738        0.242658
254400                 0.0950994      -0.0373957     -0.000457421     -0.00183065         0.582344        0.806499      -0.00208613    -0.000258671
                    -0.000501645     -0.00180263         0.156304        0.186449       -0.0014958    -0.000617447        -0.901228        0.358813
                        0.582219        0.806314      -0.00159355    -0.000655048        0.0654499      -0.0785425      -0.00170552      0.00176251
                     -0.00202167    -9.30911e-05         -0.90119        0.358829      -0.00163828      0.00174922        0.0146736        0.242822
254600                 0.0839587      -0.0347345     -0.000612968     -0.00178591         0.649605        0.754824      -0.00212835    -7.58127e-05
                    -0.000655171     -0.00175324         0.165121        0.179176      -0.00150936     -0.00051266        -0.874625        0.419326
                        0.649466        0.754667      -0.00161583    -0.000555419        0.0468458      -0.0778474      -0.00157322      0.00184643
                     -0.00202441      8.9522e-05        -0.874554        0.419317      -0.00150496       0.0018318        0.0363474        0.240897
254800                 0.0736372      -0.0307649     -0.000763283     -0.00172678          0.71224        0.697383      -0.00215862     0.000120147
                    -0.000802669     -0.00169039         0.173488        0.171386      -0.00151646    -0.000411039        -0.843958        0.477968
                        0.712093        0.697256      -0.00162922    -0.000457048        0.0291666      -0.0742283      -0.00143669      0.00191771
                     -0.00200956     0.000271797        -0.843853        0.477927      -0.00136839      0.00190411         0.057804        0.236884
255000                 0.0642739      -0.0256062     -0.000906958     -0.00165389         0.769729        0.634606       -0.0021724      0.00033082
                    -0.000942927      -0.0016149         0.181371        0.163112      -0.00151787    -0.000312793        -0.809352         0.53447
                        0.769581        0.634511      -0.00163381     -0.00036046        0.0128322      -0.0678938      -0.00129677      0.00197595
                     -0.00197729     0.000451897        -0.809213        0.534388      -0.00122929      0.00196627        0.0788331        0.230806
255200                 0.0559918       -0.019393      -0.00104265     -0.00156804         0.821596        0.566974      -0.00216335     0.000556205
                     -0.00107483     -0.00152764         0.188735         0.15439      -0.00151428    -0.000218018        -0.770948        0.588566
                        0.821454        0.566912      -0.00162965    -0.000266178      -0.00177717      -0.0591114      -0.00115426      0.00202078
                     -0.00192794     0.000628033        -0.770778        0.588438      -0.00108832      0.00201843        0.0992263        0.222707
255400                  0.048896      -0.0122727      -0.00116911     -0.00147015         0.867414        0.495016      -0.00212393     0.000793464
                     -0.00119739     -0.00142961         0.195552        0.145257      -0.00150635    -0.000126705        -0.728904        0.640004
                        0.867285        0.494985      -0.00161669    -0.000174735       -0.0143287      -0.0482001      -0.00100977      0.00205179
                     -0.00186211     0.000798484        -0.728709        0.639823     -0.000946065      0.00206077         0.118779        0.212651
255600                 0.0430726     -0.00440314      -0.00128519     -0.00136133         0.906809        0.419298      -0.00204681      0.00103587
                      -0.0013097     -0.00132189         0.201794        0.135754      -0.00149467    -3.87615e-05        -0.683396        0.688536
                        0.906698        0.419295      -0.00159472    -8.66934e-05       -0.0245435      -0.0355217     -0.000863754      0.00206857
                     -0.00178053     0.000961628        -0.683184        0.688299     -0.000803075      0.00209345         0.137295        0.200726
255800                 0.0385874      0.00404996      -0.00138987     -0.00124277         0.939466        0.340421      -0.00192716      0.00127265
                       -0.001411     -0.00120562         0.207437        0.125923      -0.00147976     4.59807e-05        -0.634616         0.73393
                        0.939378        0.340442      -0.00156331    -2.67298e-06       -0.0322018      -0.0214725     -0.000716415      0.00207069
                     -0.00168412      0.00111596        -0.634394        0.733635     -0.000659837      0.00211664         0.154583        0.187039
256000                 0.0354854       0.0129157      -0.00148229     -0.00111582         0.965131        0.259013      -0.00176512      0.00149041
                     -0.00150064       -0.001082          0.21246        0.115808      -0.00146206      0.00012775        -0.582772        0.775961
                        0.965068        0.259052      -0.00152159      7.6607e-05       -0.0371464     -0.00647303     -0.000567587      0.00205781
                     -0.00157397      0.00126011        -0.582549        0.775609       -0.0005168      0.00213052         0.170465        0.171717
256200                 0.0337902       0.0220209      -0.00156175    -0.000981908          0.98361         0.17572      -0.00156699       0.0016762
                     -0.00157812    -0.000952303         0.216846        0.105453      -0.00144193     0.000206824        -0.528086        0.814421
                        0.983576        0.175773      -0.00146808     0.000150276        -0.039285      0.00904055     -0.000416647      0.00202974
                     -0.00145125      0.00139287        -0.527872        0.814014     -0.000374386      0.00213521         0.184776        0.154905
