! TOUCHSTONE file generated by CST MICROWAVE STUDIO
! Date and time: Sun Sep 28 17:20:10 2025
! Project name: biblioteca3_folgaOK.cst
! Parameters = {H=600; Lx=200; Ly=260; Nedge=8; P=520; k=0; mesh_pilar_nm=40; n=0; t_air=3800; t_sub=3000; wavelength_nm=0}
! Header version: 2018
! Port assignment regex: !\s*Touchstone port\s*([0-9]+)\s*=\s*(CST MWS port|CST DS port)\s*([0-9]+|Zmin|Zmax)\s*\(\"(.*)\"\)(\s*mode\s*([0-9]+))?.*
! Touchstone port assignment:
! Touchstone port 1 = CST MWS port Zmin ("") mode 1
! Touchstone port 2 = CST MWS port Zmin ("") mode 2
! Touchstone port 3 = CST MWS port Zmax ("") mode 1
! Touchstone port 4 = CST MWS port Zmax ("") mode 2
! S-Parameters are not renormalized. Each port impedance will be approximated by the real part at minimum frequency. The values are described via the [Reference] keyword.
! Default impedance is overridden by [Reference]
[Version] 2.0
# GHz S RI R 376.73
[Number of Ports] 4
[Reference]
376.73 376.73 376.73 376.73 
[Number of Frequencies] 401
[Network Data]
250000                -0.0189827        0.166881      0.000248188      -0.0013408        -0.564726        0.807939      -0.00121716     -0.00259172
                     0.000211039      -0.0012117         0.237626       0.0227745      0.000418241     -0.00245339        -0.793701       -0.559489
                       -0.564317        0.807941      0.000321036     -0.00237789         0.150168      -0.0752443     -0.000393887     -0.00112385
                     -0.00120329     -0.00258471         -0.79324        -0.55882     -0.000224421      -0.0011566        -0.101329       -0.216175
250200               -0.00542984        0.179769      0.000128578     -0.00131437        -0.490502        0.852562      -0.00143871     -0.00246403
                     0.000140373     -0.00117759          0.23389       0.0134316      0.000227586       -0.002477        -0.833105       -0.501029
                       -0.490361        0.852295      0.000151973     -0.00237996         0.152637       -0.095093     -0.000481691    -0.000995266
                     -0.00144134     -0.00248351        -0.832547       -0.500466     -0.000314229     -0.00104759        -0.121518       -0.200328
250400                0.00964198        0.191162      1.75883e-05     -0.00127086        -0.412842        0.890312      -0.00164585     -0.00231753
                     6.95307e-05     -0.00113926         0.229692      0.00459713      3.63362e-05      -0.0024874        -0.868263       -0.439686
                       -0.412913        0.889913     -1.76095e-05     -0.00237422         0.152102       -0.116184     -0.000549438    -0.000859895
                     -0.00166862     -0.00235158         -0.86764       -0.439231     -0.000383452    -0.000933069        -0.139649       -0.182453
250600                 0.0260492        0.200911     -8.16543e-05     -0.00121315        -0.332401        0.920948      -0.00183705     -0.00215399
                    -1.01191e-06     -0.00109596         0.225083     -0.00369966     -0.000154789     -0.00248466        -0.898952       -0.375764
                       -0.332615        0.920516      -0.00018766     -0.00236034         0.148324       -0.138024     -0.000596311    -0.000721153
                      -0.0018797     -0.00219117        -0.898294       -0.375412     -0.000432791    -0.000816517        -0.155504       -0.162801
250800                 0.0435949        0.208887     -0.000167087     -0.00114463         -0.24984        0.944295      -0.00201101     -0.00197526
                    -7.05756e-05     -0.00104694         0.220117      -0.0114344     -0.000345082     -0.00246882         -0.92497       -0.309585
                       -0.250128        0.943895      -0.00035807     -0.00233793         0.141152       -0.160085     -0.000622208     -0.00058254
                     -0.00206989     -0.00200574        -0.924302        -0.30933     -0.000463418    -0.000700928        -0.168895       -0.141648
251000                 0.0620715        0.214989     -0.000237744     -0.00106889        -0.165829         0.96024      -0.00216668     -0.00178327
                    -0.000138225    -0.000991448         0.214848      -0.0185875     -0.000533835     -0.00243994        -0.946139       -0.241487
                       -0.166126        0.959908     -0.000528667     -0.00230658         0.130526       -0.181821     -0.000627746     -0.00044747
                     -0.00223557     -0.00179975        -0.945482       -0.241318     -0.000476803    -0.000588797        -0.179668       -0.119291
251200                 0.0812647        0.219139     -0.000293634    -0.000989297       -0.0810334        0.968732      -0.00230323     -0.00157998
                     -0.00020272    -0.000928846         0.209332      -0.0251446     -0.000720333     -0.00239807        -0.962305       -0.171823
                      -0.0812839         0.96848     -0.000699204     -0.00226581         0.116474       -0.202689     -0.000614196    -0.000319093
                     -0.00237441      -0.0015782        -0.961676       -0.171729     -0.000474595    -0.000482158        -0.187703      -0.0960452
251400                  0.100956        0.221286     -0.000335522    -0.000908767       0.00388684        0.969781      -0.00242006     -0.00136737
                    -0.000262478    -0.000858681         0.203628      -0.0310964      -0.00090385     -0.00234328        -0.973338       -0.100962
                      0.00372723        0.969602     -0.000869345     -0.00221511        0.0991097       -0.222156     -0.000583378    -0.000200166
                     -0.00248541     -0.00134623        -0.972751       -0.100929     -0.000458524    -0.000382642        -0.192918      -0.0722366
251600                  0.120925        0.221402     -0.000364681    -0.000829669        0.0882845        0.963453      -0.00251676     -0.00114738
                    -0.000315574     -0.00078085         0.197793      -0.0364391      -0.00108364     -0.00227566        -0.979137      -0.0292826
                       0.0882464        0.963329      -0.00103865     -0.00215394        0.0786271       -0.239714     -0.000537534     -9.2947e-05
                     -0.00256882     -0.00110869        -0.978601      -0.0292975     -0.000430339    -0.000291526        -0.195271      -0.0482009
251800                  0.140954        0.219486     -0.000382666     -0.00075378         0.171529        0.949867      -0.00259313    -0.000921942
                    -0.000359794    -0.000695771         0.191884      -0.0411742      -0.00125892     -0.00219529        -0.979629       0.0428262
                         0.17163        0.949774      -0.00120657     -0.00208173         0.055292       -0.254892     -0.000479182     8.48793e-07
                     -0.00262587    -0.000869891        -0.979148       0.0427765      -0.00039177    -0.000209793        -0.194756      -0.0242779
252000                  0.160829        0.215557     -0.000391126    -0.000682336         0.253011        0.929197      -0.00264915    -0.000692906
                    -0.000392781    -0.000604576         0.185959      -0.0453084       -0.0014289     -0.00210231        -0.974769        0.114967
                        0.253254        0.929106      -0.00137243     -0.00199792        0.0294362       -0.267261     -0.000410975     8.00643e-05
                     -0.00265857    -0.000633349        -0.974347        0.114895     -0.000344506    -0.000138179        -0.191412    -0.000806362
252200                  0.180343         0.20966     -0.000391672    -0.000616116         0.332145        0.901662      -0.00268496    -0.000462066
                    -0.000412292    -0.000509256         0.180074       -0.048854      -0.00159273     -0.00199689        -0.964543        0.186739
                        0.332525        0.901547      -0.00153539     -0.00190196       0.00145028       -0.276444     -0.000335575     0.000144072
                     -0.00266933    -0.000401719        -0.964179        0.186655     -0.000290186    -7.72122e-05        -0.185315       0.0218801
252400                  0.199298        0.201858     -0.000385797    -0.000555535         0.408374        0.867527      -0.00270083    -0.000231133
                    -0.000416558    -0.000412703         0.174284      -0.0518285      -0.00174956     -0.00187921        -0.948969        0.257734
                        0.408874        0.867364      -0.00169447     -0.00179332       -0.0282251       -0.282122     -0.000255549     0.000192722
                     -0.00266073      -0.0001768         -0.94866        0.257649     -0.000230397    -2.72403e-05        -0.176581       0.0434583
252600                  0.217506        0.192234     -0.000374833    -0.000500733          0.48117        0.827098      -0.00269717    -1.72708e-06
                    -0.000404703     -0.00031858         0.168641      -0.0542542      -0.00189848     -0.00174955        -0.928095        0.327549
                        0.481769        0.826868      -0.00184854     -0.00167156       -0.0591066       -0.284038     -0.000173292     0.000226273
                     -0.00263529     4.03795e-05        -0.927836        0.327469     -0.000166678     1.15455e-05        -0.165366       0.0636199
252800                  0.234794         0.18089     -0.000359935    -0.000451657         0.550041         0.78072       -0.0026745     0.000224622
                      -0.0003771    -0.000230956         0.163196      -0.0561587      -0.00203855     -0.00160824           -0.902        0.395778
                        0.550711        0.780411      -0.00199625     -0.00153632       -0.0906769       -0.282005     -9.09715e-05     0.000245316
                     -0.00259523     0.000249436        -0.901787        0.395708     -0.000100519     3.90987e-05         -0.15186       0.0820763
253000                  0.250998        0.167943     -0.000342085    -0.000408126         0.614525        0.728769      -0.00263344     0.000446482
                    -0.000335554    -0.000153762         0.157996      -0.0575739      -0.00216882     -0.00145567        -0.870798        0.462021
                        0.615238        0.728377      -0.00213612      -0.0013874        -0.122393       -0.275906     -1.05031e-05     0.000250699
                     -0.00254244     0.000450476        -0.870624        0.461965     -3.33689e-05     5.55094e-05        -0.136291       0.0985631
253200                  0.265975        0.153525     -0.000322107    -0.000369874         0.674199        0.671656      -0.00257469     0.000662517
                    -0.000283181    -9.01807e-05         0.153085      -0.0585365      -0.00228831     -0.00129234        -0.834631        0.525887
                        0.674926        0.671181      -0.00226649     -0.00122477        -0.153697         -0.2657      6.64629e-05     0.000243458
                     -0.00247833     0.000643935         -0.83449        0.525846      3.33698e-05     6.10019e-05        -0.118916        0.112844
253400                  0.279595        0.137778     -0.000300687    -0.000336595         0.728675        0.609815      -0.00249899     0.000871487
                    -0.000223995    -4.21442e-05         0.148502      -0.0590869      -0.00239604     -0.00111885        -0.793676        0.586991
                        0.729391        0.609265      -0.00238552     -0.00104863        -0.184023       -0.251422      0.000138535     0.000224753
                     -0.00240384     0.000830424        -0.793561        0.586965      9.83417e-05     5.59338e-05        -0.100019        0.124715
253600                  0.291745        0.120857     -0.000278392    -0.000307959         0.777606        0.543708      -0.00240717      0.00107224
                    -0.000162303    -1.01025e-05         0.144282      -0.0592691        -0.002491     -0.00093589        -0.748137        0.644964
                        0.778286        0.543097       -0.0024913      -0.0008595        -0.212811       -0.233187      0.000204567     0.000195823
                     -0.00231945      0.00101058        -0.748044         0.64495      0.000160246     4.07982e-05       -0.0799111        0.134009
253800                  0.302331        0.102923     -0.000255693    -0.000283636         0.820681        0.473816      -0.00230011      0.00126373
                    -0.000102085     6.88952e-06         0.140458      -0.0591307      -0.00257224    -0.000744279        -0.698253         0.69945
                        0.821307         0.47316       -0.0025818    -0.000658197        -0.239515       -0.211187      0.000263636     0.000157943
                     -0.00222521      0.00118494        -0.698177        0.699445      0.000217845     1.62245e-05       -0.0589207        0.140595
254000                  0.311275       0.0841458     -0.000232982    -0.000263305          0.85763         0.40064      -0.00217869      0.00144497
                    -4.65412e-05     1.08325e-05         0.137054      -0.0587217      -0.00263882    -0.000544956        -0.644286        0.750111
                        0.858188        0.399959        -0.002655    -0.000445943        -0.263614       -0.185691       0.00031502     0.000112392
                     -0.00212082      0.00135381        -0.644225        0.750111      0.000269982    -1.70211e-05       -0.0373915        0.144385
254200                  0.318521       0.0646979     -0.000210588    -0.000246654         0.888221        0.324697      -0.00204385      0.00161508
                     2.13633e-06     4.32735e-06         0.134092      -0.0580946      -0.00268983    -0.000338987        -0.586531         0.79663
                        0.888703        0.324012      -0.00270895    -0.000224373        -0.284624       -0.157043      0.000358172     6.04393e-05
                     -0.00200571      0.00151719        -0.586483        0.796631      0.000315593    -5.80383e-05       -0.0156771        0.145334
254400                  0.324027       0.0447552     -0.000188797     -0.00023339         0.912264        0.246516      -0.00189655      0.00177324
                     4.27575e-05    -9.85895e-06         0.131587      -0.0573035      -0.00272448    -0.000127565        -0.525305        0.838712
                        0.912667        0.245848      -0.00274186     4.44699e-06        -0.302109       -0.125654        0.0003927     3.32416e-06
                     -0.00187914      0.00167469         -0.52527        0.838709      0.000353728    -0.000105798       0.00586492        0.143441
254600                  0.327772       0.0244945     -0.000167856    -0.000223231         0.929607        0.166638      -0.00173778       0.0019187
                     7.49818e-05    -2.91198e-05         0.129549      -0.0564037      -0.00274202     8.79951e-05        -0.460952        0.876088
                        0.929934        0.166006       -0.0027522     0.000238024         -0.31569      -0.0919968      0.000418342    -5.77481e-05
                     -0.00174038      0.00182549         -0.46093        0.876076       0.00038357    -0.000159151        0.0268784        0.138749
254800                  0.329753      0.00409171     -0.000147989    -0.000215906         0.940141       0.0856109      -0.00156852      0.00205077
                      9.9098e-05    -5.12038e-05         0.127982      -0.0554513      -0.00274185     0.000306259        -0.393837        0.908513
                        0.940398       0.0850332      -0.00273883     0.000473472        -0.325055      -0.0565998      0.000434955    -0.000121611
                     -0.00158879      0.00196836        -0.393831        0.908489      0.000404453    -0.000216843        0.0470139        0.131345
255000                  0.329982        -0.01628     -0.000129404     -0.00021115         0.943796      0.00399049       -0.0013898      0.00216885
                     0.000115803    -7.42935e-05         0.126884      -0.0545023      -0.00272348      0.00052569        -0.324345        0.935774
                        0.943994      0.00348201      -0.00270111     0.000707587        -0.329965       -0.020035      0.000442494    -0.000187135
                     -0.00142401      0.00210167        -0.324358        0.935735      0.000415879    -0.000277533        0.0659349        0.121361
255200                  0.328491      -0.0364515     -0.000112298    -0.000208696         0.940544      -0.0776643      -0.00120264      0.00227236
                     0.000126018    -9.70047e-05         0.126248      -0.0536123       -0.0026866     0.000744656        -0.252878        0.957688
                        0.940697      -0.0780923        -0.002639     0.000936943        -0.330263       0.0170918      0.000441006    -0.000253228
                     -0.00124604      0.00222351        -0.252914        0.957633      0.000417538    -0.000339811        0.0833224        0.108969
255400                  0.325328      -0.0562595     -9.68621e-05    -0.000208265         0.930398       -0.158793      -0.00100809      0.00236081
                     0.000130753    -0.000118339         0.126062      -0.0528358      -0.00263104     0.000961459        -0.179855        0.974104
                        0.930522       -0.159133      -0.00255312      0.00115804        -0.325881       0.0541536       0.00043062    -0.000318829
                     -0.00105538      0.00233181        -0.179917        0.974032      0.000409314    -0.000402228         0.098881       0.0943806
255600                  0.320553      -0.0755481     -8.32792e-05    -0.000209559         0.913412       -0.238835      -0.00080722      0.00243372
                     0.000131013    -0.000137618         0.126306      -0.0522255      -0.00255685      0.00117435        -0.105704        0.984905
                        0.913524       -0.239085       -0.0024448      0.00136744        -0.316837       0.0905145      0.000411546    -0.000382908
                    -0.000853017      0.00242445        -0.105797        0.984816      0.000391299    -0.000463324         0.112343       0.0778441
255800                  0.314247      -0.0941699     -7.17255e-05    -0.000212249         0.889684       -0.317235     -0.000601111      0.00249069
                     0.000127751    -0.000154418         0.126956      -0.0518321      -0.00246426      0.00138156       -0.0308648        0.990008
                          0.8898       -0.317395      -0.00231607      0.00156199        -0.303239        0.125543      0.000384068    -0.000444459
                    -0.000640476      0.00249948       -0.0309935        0.989905      0.000363793    -0.000521654         0.123474       0.0596397
256000                  0.306498       -0.111988     -6.23607e-05    -0.000215959         0.859353       -0.393442     -0.000390872      0.00253137
                     0.000121838    -0.000168508         0.127985      -0.0517035      -0.00235369      0.00158133        0.0442166        0.989366
                         0.85949       -0.393517      -0.00216961      0.00173893        -0.285287        0.158626      0.000348555      -0.0005025
                    -0.000419721      0.00255524        0.0440491        0.989252      0.000327302    -0.000575821         0.132076       0.0400761
256200                  0.297411       -0.128876     -5.53152e-05    -0.000220255         0.822599       -0.466913     -0.000177633      0.00255544
                     0.000114051      -0.0001798         0.129358      -0.0518846       -0.0022258      0.00177193         0.119091        0.982968
                        0.822772       -0.466912      -0.00200864      0.00189612        -0.263265        0.189179      0.000305455    -0.000556068
                    -0.000193062      0.00259046         0.118883        0.982846      0.000282536    -0.000624507          0.13799       0.0194851
