! TOUCHSTONE file generated by CST MICROWAVE STUDIO
! Date and time: Fri Sep 26 20:22:13 2025
! Project name: biblioteca3_folgaOK.cst
! Parameters = {H=600; Lx=200; Ly=260; Nedge=4; P=520; k=0; mesh_pilar_nm=40; n=0; t_air=3800; t_sub=3000; wavelength_nm=0}
! Header version: 2018
! Port assignment regex: !\s*Touchstone port\s*([0-9]+)\s*=\s*(CST MWS port|CST DS port)\s*([0-9]+|Zmin|Zmax)\s*\(\"(.*)\"\)(\s*mode\s*([0-9]+))?.*
! Touchstone port assignment:
! Touchstone port 1 = CST MWS port Zmin ("") mode 1
! Touchstone port 2 = CST MWS port Zmin ("") mode 2
! Touchstone port 3 = CST MWS port Zmax ("") mode 1
! Touchstone port 4 = CST MWS port Zmax ("") mode 2
! S-Parameters are not renormalized. Each port impedance will be approximated by the real part at minimum frequency. The values are described via the [Reference] keyword.
! Default impedance is overridden by [Reference]
[Version] 2.0
# GHz S RI R 376.73
[Number of Ports] 4
[Reference]
376.73 376.73 376.73 376.73 
[Number of Frequencies] 401
[Network Data]
250000                  0.149635      -0.0682218      -0.00206204     -0.00147072         0.959489       -0.226855     -0.000991015     0.000315857
                     -0.00181632     -0.00145344       -0.0997273       -0.220727     -0.000744135      0.00119052         0.211238        0.946217
                        0.960009       -0.226608     -0.000909438      0.00137634        -0.164331      0.00582682       0.00189598      0.00137619
                    -0.000748588      0.00100006         0.212494        0.946652        0.0019692       0.0011653       0.00398589        0.242143
250200                  0.151299      -0.0903594      -0.00220972     -0.00123252         0.928447       -0.325471     -0.000817013      0.00046786
                     -0.00199988     -0.00124778        -0.112885       -0.209385     -0.000632195       0.0013111         0.295634        0.924548
                        0.928767       -0.325323     -0.000737566      0.00144706         -0.17515       0.0231025       0.00200192      0.00118845
                     -0.00065551      0.00107989         0.296644        0.925052       0.00211519      0.00100698        0.0297553        0.235956
250400                  0.149729       -0.113515      -0.00233138     -0.00097553         0.887294       -0.419982     -0.000654984     0.000599593
                     -0.00215917     -0.00101647        -0.124749       -0.197306     -0.000492156      0.00141999         0.377863        0.895343
                        0.887507       -0.419933     -0.000558979      0.00151042        -0.183549       0.0428901       0.00209532     0.000989132
                    -0.000552842      0.00115295          0.37868        0.895901       0.00224794     0.000829518        0.0544306        0.226942
250600                  0.144695        -0.13716      -0.00242436    -0.000703244         0.836573       -0.509362     -0.000500971     0.000713821
                      -0.0022903    -0.000763011        -0.135287        -0.18464     -0.000325226      0.00150907         0.457273        0.858807
                        0.836727        -0.50942     -0.000372764      0.00156486        -0.189119       0.0647712       0.00217506      0.00077889
                    -0.000440953       0.0012179         0.457932        0.859402       0.00236465     0.000634219        0.0776924        0.215251
250800                  0.136072       -0.160727      -0.00248664    -0.000419533          0.77693       -0.592658     -0.000352031     0.000812365
                     -0.00239006    -0.000491534        -0.144484       -0.171537     -0.000135608      0.00157025         0.533222        0.815196
                        0.777039       -0.592828     -0.000178334      0.00160842         -0.19152       0.0882809       0.00224011      0.00055855
                    -0.000320405      0.00127338         0.533746        0.815815       0.00246268     0.000422905        0.0992402        0.201071
251000                  0.123844       -0.183638      -0.00251687    -0.000128517         0.709101       -0.668997     -0.000205951     0.000896328
                     -0.00245603    -0.000206588        -0.152343       -0.158143      6.94695e-05      0.00159689          0.60509        0.764822
                        0.709156       -0.669278      2.44337e-05       0.0016388         -0.19049        0.112916       0.00228956     0.000329124
                    -0.000191963      0.00131806         0.605491        0.765456       0.00253967     0.000197847         0.118797        0.184626
251200                  0.108104       -0.205332      -0.00251441     0.000165596         0.633905       -0.737602     -6.10799e-05     0.000966242
                     -0.00248659     8.70179e-05        -0.158883       -0.144602      0.000280472      0.00158509         0.672274         0.70805
                        0.633884       -0.737977       0.00023502      0.00165335         -0.18584        0.138144       0.00232264     9.18399e-05
                    -5.65991e-05      0.00135065         0.672563        0.708696       0.00259367    -3.82875e-05         0.136112        0.166172
251400                 0.0890376       -0.225306       -0.0024793      0.00045866         0.552226        -0.79779      8.37701e-05      0.00102217
                     -0.00248094       0.0003844        -0.164136       -0.131049      0.000486986      0.00153463         0.734204        0.645298
                        0.552105        -0.79823      0.000452041      0.00164921        -0.177461        0.163411       0.00233874    -0.000151819
                     8.45126e-05      0.00136997         0.734388         0.64596       0.00262316    -0.000282519         0.150969        0.145991
251600                 0.0669143       -0.243148      -0.00241219     0.000746717         0.465007       -0.848981      0.000229374       0.0010638
                     -0.00243901     0.000680749        -0.168153       -0.117615      0.000679419      0.00144893         0.790339        0.577039
                        0.464768       -0.849447      0.000673008       0.0016235        -0.165326        0.188152       0.00233747    -0.000400074
                     0.000230001      0.00137496         0.790428        0.577723       0.00262715    -0.000531654         0.163183        0.124394
251800                  0.042086       -0.258603      -0.00231427      0.00102611         0.373235       -0.890701      0.000376109      0.00109049
                     -0.00236144     0.000971454        -0.170993       -0.104419      0.000850424      0.00133421          0.84018        0.503796
                        0.372869       -0.891149      0.000894088       0.0015736        -0.149488        0.211799       0.00231861    -0.000650803
                     0.000378315      0.00136468         0.840185         0.50451       0.00260517    -0.000782392          0.17261         0.10171
252000                  0.015084       -0.271685      -0.00218716      0.00129356         0.277932       -0.922582       0.00052394      0.00110132
                     -0.00224941      0.00125219        -0.172733      -0.0915725      0.000995634      0.00119811          0.88327        0.426141
                        0.277442       -0.922965       0.00110991      0.00149759        -0.130083        0.233795       0.00228207    -0.000901517
                     0.000527744      0.00133844         0.883208        0.426893        0.0025573     -0.00103143         0.179144        0.078287
252200                -0.0128976       -0.282649      -0.00203281      0.00154622         0.180141       -0.944368      0.000672396       0.0010952
                     -0.00210459      0.00151898        -0.173457      -0.0791726       0.00111363      0.00104833         0.919205        0.344691
                        0.179542       -0.944641       0.00131346      0.00139471        -0.107331        0.253605       0.00222779     -0.00114938
                     0.000676443      0.00129569         0.919093        0.345484       0.00248413     -0.00127558         0.182723       0.0544814
252400                -0.0394727        -0.29042      -0.00185335      0.00178169        0.0809178       -0.955907      0.000820533      0.00107091
                     -0.00192904      0.00176821        -0.173258      -0.0673047       0.00120535     0.000891565         0.947635        0.260102
                       0.0802374       -0.956036       0.00149618      0.00126578        -0.081528        0.270724       0.00215567     -0.00139128
                     0.000822466      0.00123618         0.947494        0.260938       0.00238669     -0.00151183         0.183329       0.0306575
252600                -0.0652446       -0.291374      -0.00165103      0.00199803       -0.0186845       -0.957159      0.000966894      0.00102722
                     -0.00172508      0.00199663         -0.17224      -0.0560403       0.00127326     0.000732988         0.968271        0.173066
                      -0.0194102       -0.957115       0.00164824      0.00111335       -0.0530461        0.284694       0.00206541     -0.00162406
                     0.000963798      0.00115988         0.968121        0.173942        0.0022664     -0.00173743         0.180988      0.00717949
252800                -0.0935174       -0.286768      -0.00142806       0.0021937        -0.117621       -0.948184       0.00110948     0.000963025
                     -0.00149527      0.00220133         -0.17051      -0.0454362       0.00132055     0.000576107         0.980889       0.0843036
                        -0.11835       -0.947956       0.00175912     0.000941283       -0.0223238        0.295112       0.00195661      -0.0018447
                      0.00109839      0.00106701         0.980748       0.0852105       0.00212501     -0.00194995         0.175772      -0.0155931
253000                 -0.123135       -0.279163      -0.00118656      0.00236756        -0.214867       -0.929148       0.00124576     0.000877462
                     -0.00124236      0.00237973         -0.16818       -0.035534       0.00135052     0.000422923          0.98533     -0.00543972
                       -0.215555       -0.928735       0.00181881     0.000753595        0.0101418        0.301641       0.00182883      -0.0020506
                      0.00122419      0.00095807         0.985214     -0.00451533       0.00196445     -0.00214729         0.167795      -0.0373115
253200                 -0.152478        -0.26879     -0.000928405      0.00251882        -0.309426       -0.900314       0.00137269     0.000770108
                    -0.000969194      0.00252954        -0.165363        -0.02636       0.00136615     0.000274213         0.981508       -0.095404
                       -0.310031       -0.899728          0.00182     0.000552611        0.0438048        0.304017       0.00168181      -0.0022397
                       0.0013392     0.000833833         0.981428      -0.0944786       0.00178682     -0.00232774         0.157215      -0.0576425
253400                  -0.18075       -0.255494     -0.000655157      0.00264692        -0.400341       -0.862036       0.00148681     0.000641144
                    -0.000678785      0.00264871        -0.162173      -0.0179251       0.00136982     0.000129843         0.969409        -0.18482
                       -0.400826       -0.861303        0.0017616     0.000337927        0.0780826        0.302057       0.00151576     -0.00241051
                      0.00144147     0.000695316         0.969371       -0.183912       0.00159426     -0.00248994          0.14423      -0.0762745
253600                 -0.207478       -0.239266     -0.000367924      0.00275148        -0.486698        -0.81476        0.0015844     0.000491516
                    -0.000374253      0.00273542        -0.158723      -0.0102246        0.0013632    -1.09442e-05         0.949091       -0.272915
                       -0.487033       -0.813913       0.00165227     0.000108407         0.112368        0.295665       0.00133141     -0.00256198
                      0.00152918     0.000543788         0.949094       -0.272043       0.00138894     -0.00263288         0.129077      -0.0929223
253800                 -0.232294        -0.22023     -6.71915e-05      0.00283212        -0.567637       -0.759013       0.00166167     0.000323063
                    -5.88621e-05       0.0027881        -0.155119     -0.00323919       0.00134716    -0.000149263         0.920687       -0.358923
                       -0.567803       -0.758094       0.00150969    -0.000132547         0.146042        0.284834       0.00113013     -0.00269332
                      0.00160061     0.000380754         0.920726       -0.358105       0.00117297     -0.00275589         0.112026       -0.107332
254000                 -0.254883        -0.19859      0.000247393      0.00288826        -0.642355       -0.695399       0.00171507     0.000138571
                     0.000263964      0.00280535        -0.151465      0.00306473       0.00132167    -0.000286343         0.884402        -0.44209
                       -0.642345       -0.694454       0.00135343    -0.000373691         0.178488        0.269643      0.000913768     -0.00280394
                      0.00165422     0.000207941         0.884465        -0.44134      0.000948407      -0.0028586        0.0933789       -0.119283
254200                 -0.274963       -0.174604      0.000577316      0.00291859        -0.710117       -0.624594       0.00174154    -5.82597e-05
                      0.00059062      0.00278604        -0.147854      0.00873395       0.00128583    -0.000423254         0.840514       -0.521684
                       -0.709933       -0.623668       0.00119696    -0.000599576         0.209104        0.250263      0.000684571     -0.00289333
                      0.00168865     2.72796e-05         0.840585       -0.521011      0.000717195     -0.00294089        0.0734619       -0.128598
254400                 -0.292291       -0.148572      0.000925511      0.00292026        -0.770255       -0.547338       0.00173882     -0.00026296
                     0.000917295      0.00272926        -0.144372       0.0138273       0.00123777    -0.000560572          0.78937       -0.596996
                       -0.769912       -0.546474       0.00104571    -0.000797513         0.237315        0.226947      0.000445013     -0.00296106
                      0.00170272     -0.00015911         0.789432       -0.596405       0.00048119     -0.00300283        0.0526229       -0.135139
254600                  -0.30666       -0.120824       0.00129643      0.00288708        -0.822178       -0.464428       0.00170566    -0.000470531
                      0.00123996      0.00263444        -0.141092       0.0184142       0.00117479     -0.00069794         0.731384       -0.667355
                       -0.821701       -0.463663      0.000900428    -0.000961191         0.262585         0.20003      0.000197684     -0.00300683
                      0.00169552    -0.000348938         0.731418       -0.666842      0.000242126     -0.00304467        0.0312252       -0.138812
254800                 -0.317903      -0.0917168       0.00169496      0.00280643        -0.865375       -0.376711       0.00164201    -0.000675763
                      0.00155436      0.00250134        -0.138078       0.0225731        0.0010936    -0.000833529         0.667034       -0.732127
                       -0.864795       -0.376076      0.000760635     -0.00108995         0.284428         0.16992     -5.48083e-05     -0.00303045
                      0.00166633    -0.000539762         0.667023       -0.731685      1.61746e-06     -0.00306678        0.0096416       -0.139571
255000                 -0.325896      -0.0616244       0.00212141      0.00265462        -0.899416       -0.285079       0.00154895    -0.000873587
                      0.00185601      0.00233016        -0.135377       0.0263898      0.000991011    -0.000963493         0.596858       -0.790727
                       -0.898772       -0.284594        0.0006262     -0.00118649         0.302419        0.137089     -0.000309906     -0.00303195
                      0.00161476    -0.000729009         0.596787       -0.790341     -0.000238842      -0.0030696       -0.0117516       -0.137419
255200                 -0.330559       -0.030936       0.00255769      0.00239538        -0.923959        -0.19046       0.00142866      -0.0010594
                      0.00214027      0.00212161        -0.133025       0.0299555      0.000864977     -0.00108169         0.521447       -0.842619
                        -0.92329       -0.190135      0.000497488     -0.00125489         0.316199         0.10207      -0.00056515     -0.00301151
                      0.00154066    -0.000913996         0.521307       -0.842272     -0.000477876     -0.00305366       -0.0325805       -0.132404
255400                 -0.331861    -4.88861e-05       0.00294521      0.00199799         -0.93875      -0.0938078       0.00128416     -0.00122934
                      0.00240232      0.00187699        -0.131041       0.0333645      0.000716132     -0.00118008         0.441445       -0.887327
                       -0.938098      -0.0936438      0.000375087     -0.00129955         0.325485       0.0654392     -0.000818218     -0.00296954
                      0.00144423     -0.00109196         0.441232       -0.886997     -0.000714219      -0.0030195       -0.0524796       -0.124624
255600                 -0.329819       0.0306374       0.00319128      0.00149121        -0.943627       0.0038993       0.00111907     -0.00138045
                      0.00263733      0.00159825        -0.129431       0.0367128       0.00054911      -0.0012502         0.357538       -0.924437
                       -0.943029      0.00391246      0.000259543     -0.00132458         0.330078       0.0278111      -0.00106694     -0.00290663
                        0.001326     -0.00126008         0.357253       -0.924102     -0.000946707     -0.00296768       -0.0710983        -0.11422
255800                 -0.324502       0.0607277       0.00325401     0.000987353        -0.938521        0.101672      0.000937281     -0.00151073
                      0.00284048      0.00128809        -0.128185       0.0400953      0.000372818     -0.00128566         0.270451       -0.953598
                       -0.938011        0.101553      0.000151218      -0.0013336         0.329863      -0.0101751      -0.00130934     -0.00282354
                      0.00118687     -0.00141554         0.270104       -0.953238      -0.00117426     -0.00289879       -0.0881061       -0.101381
256000                 -0.316027       0.0898382       0.00320239     0.000583665        -0.923457        0.198514      0.000742685      -0.0016191
                      0.00300715     0.000949971        -0.127277       0.0436041      0.000198925     -0.00128454         0.180942       -0.974534
                       -0.923061        0.198289       5.0256e-05     -0.00132971         0.324813      -0.0478668       -0.0015436     -0.00272119
                      0.00102813     -0.00155554         0.180546       -0.974128      -0.00139588     -0.00281341        -0.103199      -0.0863321
256200                 -0.304562        0.117603       0.00313212     0.000280485        -0.898555        0.293435      0.000538954      -0.0017053
                      0.00313304     0.000588174         -0.12667       0.0473264      3.88868e-05     -0.00125052        0.0897925       -0.987037
                       -0.898292        0.293134     -4.34006e-05     -0.00131549         0.314993      -0.0846106      -0.00176812     -0.00260063
                      0.00085145     -0.00167738        0.0893666        -0.98657      -0.00161064     -0.00271211        -0.116102      -0.0693403
