! TOUCHSTONE file generated by CST MICROWAVE STUDIO
! Date and time: Sun Sep 28 20:03:47 2025
! Project name: biblioteca3_folgaOK.cst
! Parameters = {H=600; Lx=300; Ly=300; Nedge=16; P=520; mesh_pilar_nm=40; t_air=3500; t_sub=4000}
! Header version: 2018
! Port assignment regex: !\s*Touchstone port\s*([0-9]+)\s*=\s*(CST MWS port|CST DS port)\s*([0-9]+|Zmin|Zmax)\s*\(\"(.*)\"\)(\s*mode\s*([0-9]+))?.*
! Touchstone port assignment:
! Touchstone port 1 = CST MWS port Zmin ("") mode 1
! Touchstone port 2 = CST MWS port Zmin ("") mode 2
! Touchstone port 3 = CST MWS port Zmax ("") mode 1
! Touchstone port 4 = CST MWS port Zmax ("") mode 2
! S-Parameters are not renormalized. Each port impedance will be approximated by the real part at minimum frequency. The values are described via the [Reference] keyword.
! Default impedance is overridden by [Reference]
[Version] 2.0
# GHz S RI R 376.73
[Number of Ports] 4
[Reference]
376.73 376.73 376.73 376.73 
[Number of Frequencies] 401
[Network Data]
250000                  0.220929        0.200142      0.000319187    -0.000739772        -0.177044       -0.937958     -0.000762978     -0.00021798
                     8.10687e-05    -0.000547099         0.218475        0.201148     -0.000685741     0.000336238        -0.176416       -0.938312
                       -0.177266       -0.937863     -0.000675584      0.00026718         0.132742       -0.266924      1.25755e-05     0.000211506
                    -0.000934507    -0.000207431        -0.176466       -0.938485      6.35438e-05     0.000194374         0.130497       -0.266719
250200                  0.241473        0.170484      0.000207298    -0.000744962        -0.277181       -0.913876     -0.000779938    -0.000145828
                      2.8974e-05    -0.000584697         0.238774         0.17151     -0.000657944     0.000389115        -0.277611       -0.914404
                       -0.279142       -0.913811     -0.000666546     0.000327036         0.105714       -0.275861       2.7286e-05     0.000206035
                     -0.00095838    -0.000124899        -0.277128       -0.915025       7.5392e-05     0.000193824          0.10348       -0.275344
250400                   0.25772        0.138522      0.000100757    -0.000732969        -0.374516       -0.879196     -0.000790564     -6.9727e-05
                    -3.45699e-05    -0.000615285         0.254866        0.139773     -0.000624835     0.000441599        -0.375731       -0.879705
                       -0.377682        -0.87882     -0.000651544     0.000389498        0.0780432       -0.281691      4.22944e-05     0.000198986
                     -0.00097431    -3.55923e-05        -0.375001       -0.880718      8.77567e-05     0.000192196        0.0758558       -0.280895
250600                  0.269392        0.104937      2.38065e-06    -0.000706368        -0.467904       -0.834217     -0.000793981     9.79598e-06
                    -0.000108624    -0.000634685         0.266521        0.106543     -0.000586129     0.000493159        -0.469655       -0.834588
                       -0.471785       -0.833351      -0.00062975     0.000454186        0.0501143       -0.284368      5.74522e-05       0.0001902
                    -0.000980602     5.98698e-05        -0.468887       -0.835895      0.000100566      0.00018931        0.0479998       -0.283324
250800                  0.276326        0.070442     -8.60099e-05    -0.000668048        -0.556231       -0.779361     -0.000789322     9.20321e-05
                    -0.000190388    -0.000638703         0.273591       0.0724588     -0.000541572     0.000543179        -0.558303       -0.779533
                       -0.560406       -0.777959     -0.000600277     0.000520582        0.0223145       -0.283897        7.257e-05      0.00017952
                    -0.000975493     0.000160461        -0.557635        -0.78102      0.000113708     0.000184966        0.0202916       -0.282633
251000                   0.27848       0.0357615     -0.000163492     -0.00062087        -0.638431       -0.715171      -0.00077577     0.000176075
                     -0.00027506     -0.00062415         0.276023        0.038179     -0.000490965     0.000590965        -0.640641        -0.71513
                       -0.642558       -0.713282     -0.000562168     0.000588007      -0.00497506        -0.28033      8.74129e-05      0.00016681
                    -0.000957242     0.000264675        -0.640151       -0.716682      0.000127021     0.000178954       -0.0068927       -0.278871
251200                  0.275925      0.00160997     -0.000229864    -0.000567444        -0.713492       -0.642311     -0.000752602     0.000260812
                    -0.000356392    -0.000589956         0.273862      0.00436926     -0.000434169     0.000635737        -0.715698       -0.642072
                       -0.717317       -0.640046     -0.000514393     0.000655599       -0.0313839       -0.273767      0.000101697     0.000151959
                    -0.000924264     0.000370471        -0.715412       -0.643587      0.000140275     0.000171057        -0.033186       -0.272132
251400                  0.268846      -0.0313257     -0.000285448    -0.000510002        -0.780477       -0.561552     -0.000719237     0.000344928
                    -0.000427932    -0.000537862         0.267255       -0.028314     -0.000371132     0.000676628         -0.78257       -0.561153
                       -0.783832       -0.559058     -0.000455807     0.000722277       -0.0565583       -0.264351       0.00011509     0.000134904
                    -0.000875297     0.000475259         -0.78248        -0.56255      0.000153164     0.000161067       -0.0582357       -0.262557
251600                  0.257528      -0.0624026     -0.000330895    -0.000450356         -0.83853       -0.473769     -0.000675299     0.000426919
                     -0.00048455    -0.000472197         0.256449      -0.0592408     -0.000301902      0.00071269        -0.840433        -0.47326
                       -0.841322       -0.471204     -0.000385059     0.000786684       -0.0801656       -0.252268      0.000127214     0.000115644
                     -0.00080959     0.000575931        -0.840506       -0.474482      0.000165288     0.000148812       -0.0817091       -0.250328
251800                  0.242354      -0.0910373      -0.00036704    -0.000389907        -0.886889       -0.379933     -0.000620667     0.000505127
                    -0.000523522    -0.000398795          0.24179      -0.0878257     -0.000226648     0.000742898        -0.888555       -0.379367
                       -0.889092       -0.377446     -0.000300365     0.000846998        -0.101899       -0.237744      0.000137656     9.42677e-05
                    -0.000727104      0.00066897        -0.888743       -0.380386      0.000176145      0.00013418        -0.103298       -0.235669
252000                  0.223785       -0.116718      -0.00039478    -0.000329684        -0.924896       -0.281098     -0.000555526     0.000577789
                    -0.000544746    -0.000323558         0.223714       -0.113545     -0.000145671      0.00076616        -0.926301       -0.280528
                       -0.926536       -0.278818     -0.000199073     0.000900338        -0.121482       -0.221038      0.000145984     7.09687e-05
                     -0.00062869     0.000750636        -0.926557       -0.281338      0.000185137     0.000117169        -0.122725        -0.21884
252200                  0.202354       -0.139017     -0.000414987    -0.000270395        -0.952008       -0.178393     -0.000480412     0.000643101
                    -0.000550148     -0.00025131         0.202736       -0.135951     -5.94039e-05     0.000781333        -0.953149       -0.177866
                       -0.953147       -0.176419     -7.72622e-05     0.000940788        -0.138672       -0.202442      0.000151779     4.60705e-05
                    -0.000516213     0.000817229        -0.953426       -0.178482      0.000191582     9.79312e-05        -0.139745       -0.200133
252400                  0.178649       -0.157595     -0.000428453    -0.000212482        -0.967802      -0.0730083     -0.000396228     0.000699296
                    -0.000542743    -0.000185284         0.179435       -0.154691      3.16227e-05     0.000787231         -0.96869      -0.0725655
                       -0.968527      -0.0714062      6.77547e-05     0.000954098        -0.153264       -0.182277      0.000154667     2.00377e-05
                    -0.000392589       0.0008654        -0.968954      -0.0730157      0.000194764     7.68242e-05         -0.15415       -0.179871
252600                  0.153297       -0.172216     -0.000435832    -0.000156158        -0.971986       0.0338168      -0.00030425      0.00074473
                    -0.000525778    -0.000127159         0.154438       -0.169507      0.000126914     0.000782646        -0.972644       0.0341433
                       -0.972392       0.0350148       0.00022033     0.000914678        -0.165091       -0.160885      0.000154372    -6.52348e-06
                    -0.000261725     0.000892496        -0.972872        0.033821      0.000194001     5.44467e-05        -0.165776       -0.158401
252800                  0.126952       -0.182743     -0.000437586     -0.00010145        -0.964403        0.140807     -0.000206108     0.000777949
                    -0.000502167    -7.74097e-05         0.128404       -0.180253      0.000226419      0.00076638        -0.964861        0.140994
                       -0.964584        0.141598      0.000328238     0.000826979        -0.174032        -0.13863      0.000150772    -3.28851e-05
                     -0.00012837      0.00089689        -0.965044        0.140759      0.000188744     3.16404e-05        -0.174501       -0.136088
253000                  0.100278       -0.189149     -0.000433902    -4.82315e-05        -0.945037        0.246665     -0.000103754     0.000797742
                    -0.000474232    -3.57122e-05         0.101999       -0.186893      0.000331968     0.000737673        -0.945329        0.246702
                       -0.945076        0.247073      0.000384392     0.000755191         -0.18001       -0.115887      0.000143982    -5.82513e-05
                     2.10264e-06     0.000878314         -0.94547        0.246513      0.000178693     9.43641e-06        -0.180249       -0.113313
253200                 0.0739331       -0.191511     -0.000424546     3.70733e-06        -0.914015        0.350089      5.57376e-07       0.0008031
                    -0.000443639     -1.2723e-06        0.0758841       -0.189498      0.000452399     0.000701245        -0.914175        0.349973
                       -0.913979        0.350156      0.000440146     0.000711216        -0.182994      -0.0930419      0.000134496    -8.18694e-05
                     0.000123953     0.000838264        -0.914289        0.349797      0.000163889    -1.10783e-05        -0.182995      -0.0904653
253400                 0.0485576       -0.190011     -0.000408615     5.44766e-05        -0.871612        0.449785      0.000104176     0.000792875
                    -0.000411433     2.69854e-05        0.0506941        -0.18825       0.00058392     0.000711423        -0.871672        0.449529
                       -0.871543        0.449564      0.000509389     0.000667526        -0.183002      -0.0704826      0.000123626    -0.000103252
                      0.00023147      0.00078067         -0.87178        0.449334      0.000144784     -2.9001e-05        -0.182761      -0.0679369
253600                 0.0247507       -0.184916     -0.000384177     0.000103548        -0.818253        0.544475      0.000203492     0.000763552
                    -0.000378103     5.04179e-05        0.0270211       -0.183428      0.000593342     0.000698677        -0.818243        0.544126
                        -0.81816        0.544036      0.000583087     0.000610963        -0.180101      -0.0485952      0.000115657    -0.000122329
                         0.00032     0.000713083        -0.818361        0.543877      0.000122324     -4.4035e-05        -0.179625      -0.0461177
253800                0.00302935       -0.176587     -0.000348163     0.000148336        -0.754489        0.632885      0.000308727     0.000673912
                    -0.000343706      7.0976e-05       0.00539966       -0.175408      0.000641003      0.00060142         -0.75457        0.632563
                       -0.754363        0.632349      0.000652271     0.000539957        -0.174406      -0.0277573       0.00013041    -0.000126008
                     0.000388983     0.000647933         -0.75459        0.632222      9.86818e-05    -5.72582e-05        -0.173711      -0.0254004
254000                -0.0161528       -0.165503      -0.00029825      0.00018153        -0.680866        0.713878      0.000443214     0.000712725
                    -0.000308508     9.21416e-05        -0.013708       -0.164644      0.000703874     0.000506237        -0.681078        0.713278
                        -0.68082        0.713337      0.000711305     0.000457021        -0.166083     -0.00833252      8.30518e-05    -7.17546e-05
                     0.000448341     0.000600069        -0.681156        0.713224      8.18189e-05    -6.96377e-05        -0.165138     -0.00614634
254200                -0.0324049       -0.152203     -0.000240191     0.000190863        -0.598363        0.786546      0.000508962     0.000648127
                    -0.000276481     0.000120097       -0.0299238       -0.151662      0.000759993     0.000410292        -0.598619        0.785832
                       -0.598328        0.785936      0.000757144     0.000365867         -0.15534      0.00933579       4.0959e-05    -8.60216e-05
                     0.000520867     0.000572838        -0.598872        0.785811      7.65953e-05    -6.26977e-05        -0.154181       0.0113659
254400                -0.0454363       -0.137277     -0.000194026     0.000172419        -0.508001        0.849736      0.000581018     0.000575873
                    -0.000263879     0.000155111       -0.0429652       -0.137044      0.000804719     0.000311631        -0.508327        0.848944
                       -0.507859         0.84923      0.000788601     0.000270363        -0.142433       0.0249298      1.86294e-05    -8.42915e-05
                     0.000620729     0.000544021        -0.508662        0.848993      5.61245e-05    -4.25423e-05        -0.141109       0.0267686
254600                -0.0550668       -0.121353     -0.000175047      0.00014482        -0.410801        0.902536      0.000645793     0.000496231
                    -0.000275834     0.000168274       -0.0526531       -0.121412      0.000836525     0.000210882        -0.411213         0.90171
                       -0.410693        0.902325      0.000805853     0.000174051        -0.127661       0.0381627      -8.5572e-07    -7.20509e-05
                     0.000728948     0.000487877        -0.411565        0.901853      3.30653e-05     -2.7238e-05        -0.126211       0.0397869
254800                -0.0612309       -0.105085     -0.000174566     0.000127645        -0.307928        0.944181      0.000700609     0.000409991
                    -0.000278314     0.000154711       -0.0589194       -0.105413      0.000854947     0.000109714        -0.308442         0.94336
                       -0.308028        0.944153      0.000810043     7.98738e-05        -0.111361       0.0487839     -1.88068e-05    -5.28687e-05
                     0.000815857     0.000402595        -0.308761        0.943576      1.41292e-05    -1.27642e-05        -0.109826       0.0501853
255000                -0.0639806      -0.0891336     -0.000177886     0.000122868        -0.200655        0.974032      0.000744384     0.000318413
                    -0.000266944     0.000138433       -0.0618099      -0.0896963      0.000860222     1.01484e-05        -0.201278        0.973253
                       -0.200905        0.974048      0.000802932    -9.97072e-06       -0.0939118       0.0565859     -3.50053e-05    -2.87871e-05
                     0.000869292     0.000299437        -0.201553         0.97351     -6.56947e-07     2.27054e-06       -0.0923258       0.0577707
255200                -0.0634857      -0.0741408     -0.000178428     0.000124637       -0.0903303        0.991594      0.000776599     0.000222859
                    -0.000251697     0.000125304       -0.0614862      -0.0748995      0.000853174    -8.58044e-05       -0.0910627        0.990893
                      -0.0906432        0.991623      0.000786585    -9.40569e-05       -0.0757246       0.0614154     -4.89519e-05     -1.4503e-06
                     0.000892087     0.000188232       -0.0912984        0.991174     -1.17809e-05     1.76809e-05       -0.0741096       0.0623979
255400                 -0.060031      -0.0607142     -0.000175436     0.000127968        0.0216354        0.996523       0.00079704     0.000124666
                    -0.000237139     0.000114139       -0.0582232      -0.0616256      0.000835114    -0.000176383        0.0207998        0.995932
                       0.0213109        0.996571      0.000763116    -0.000171681       -0.0572337       0.0631867      -6.0072e-05     2.76809e-05
                     0.000891239     7.53034e-05        0.0206018        0.996235     -1.97363e-05     3.29247e-05       -0.0555951       0.0639731
255600                  -0.05401      -0.0494054     -0.000170128     0.000130042         0.133788        0.988637      0.000805689     2.50769e-05
                    -0.000224841     0.000103702       -0.0524037      -0.0504247      0.000807718    -0.000260235         0.132861        0.988186
                        0.133479        0.988711      0.000734494    -0.000242756       -0.0388693       0.0618798     -6.78086e-05     5.73103e-05
                     0.000872668    -3.53771e-05         0.132707        0.988508      -2.5033e-05     4.74238e-05       -0.0372135       0.0624566
255800                -0.0459147      -0.0406916     -0.000164136      0.00012949         0.244647        0.967919      0.000802649    -7.47742e-05
                    -0.000215476     9.33994e-05       -0.0445097      -0.0417753      0.000772879    -0.000336515         0.243649        0.967634
                        0.244368        0.968025      0.000702419    -0.000307681       -0.0210478       0.0575188     -7.16971e-05     8.63003e-05
                     0.000840374    -0.000141403         0.243547        0.967969     -2.82131e-05     6.06391e-05       -0.0194022        0.057864
256000                -0.0363233      -0.0349586     -0.000159114     0.000125801          0.35273        0.934525      0.000788091    -0.000173877
                    -0.000209497      8.3117e-05       -0.0351104      -0.0360668      0.000732546    -0.000404929         0.351682        0.934426
                        0.352488        0.934668      0.000668248    -0.000367205      -0.00418623       0.0501624     -7.14207e-05     0.000113642
                     0.000796921    -0.000241415         0.351641        0.934763     -2.98562e-05     7.20732e-05      -0.00259713       0.0502669
256200                -0.0258844      -0.0324869     -0.000156709     0.000119072         0.456565         0.88878      0.000762207    -0.000271337
                    -0.000207308     7.31249e-05       -0.0248472      -0.0335852      0.000688579    -0.000465729         0.455495        0.888881
                        0.456366        0.888963      0.000632964     -0.00042231         0.011291       0.0399163     -6.68428e-05     0.000138406
                     0.000743976    -0.000334724          0.45552        0.889207     -3.05881e-05     8.12475e-05        0.0127733       0.0397919
