! TOUCHSTONE file generated by CST MICROWAVE STUDIO
! Date and time: Fri Sep 26 07:21:59 2025
! Project name: biblioteca3_folgaOK.cst
! Parameters = {H=600; Lx=200; Ly=260; Nedge=20; P=520; k=0; mesh_pilar_nm=40; n=0; t_air=3500; t_sub=2000; wavelength_nm=0}
! Header version: 2018
! Port assignment regex: !\s*Touchstone port\s*([0-9]+)\s*=\s*(CST MWS port|CST DS port)\s*([0-9]+|Zmin|Zmax)\s*\(\"(.*)\"\)(\s*mode\s*([0-9]+))?.*
! Touchstone port assignment:
! Touchstone port 1 = CST MWS port Zmin ("") mode 1
! Touchstone port 2 = CST MWS port Zmin ("") mode 2
! Touchstone port 3 = CST MWS port Zmax ("") mode 1
! Touchstone port 4 = CST MWS port Zmax ("") mode 2
! S-Parameters are not renormalized. Each port impedance will be approximated by the real part at minimum frequency. The values are described via the [Reference] keyword.
! Default impedance is overridden by [Reference]
[Version] 2.0
# GHz S RI R 376.73
[Number of Ports] 4
[Reference]
376.73 376.73 376.73 376.73 
[Number of Frequencies] 401
[Network Data]
250000                 -0.291376       -0.112714      0.000532046     -0.00124446         0.650753       -0.692062      0.000530905      0.00163414
                     0.000566435     -0.00128927       -0.0143004        -0.19666     -0.000667793      0.00170461         0.762533        0.616156
                        0.650614        -0.69208     -0.000691269      0.00165557         -0.13045       -0.283892      0.000146052    -0.000815579
                     0.000542381      0.00167972         0.762747        0.616062      8.07147e-05    -0.000870863          0.19525      -0.0272907
250200                 -0.290705      -0.0925994      0.000414887     -0.00126356          0.59585       -0.742907      0.000635329      0.00160809
                     0.000449294      -0.0013223       -0.0230407       -0.198875     -0.000560873      0.00178452         0.800478        0.565208
                        0.596043        -0.74294     -0.000576307      0.00174829        -0.154755       -0.265725      0.000110222    -0.000840607
                     0.000653433      0.00164341         0.800665         0.56501      4.20335e-05    -0.000891248         0.195161       -0.044824
250400                 -0.288367      -0.0728724      0.000296977     -0.00127574         0.536806       -0.789549      0.000739691      0.00157598
                     0.000328772     -0.00134601       -0.0320131       -0.200595     -0.000442538      0.00185803          0.83503         0.51186
                        0.537243       -0.789633     -0.000448661      0.00183169        -0.176543       -0.244695      7.16075e-05    -0.000864827
                     0.000762844      0.00160162         0.835186        0.511592      8.13019e-07    -0.000910559         0.193376      -0.0625041
250600                 -0.284404      -0.0536917      0.000178541     -0.00128075         0.473922       -0.831635      0.000843696      0.00153764
                     0.000205663     -0.00135996       -0.0411899         -0.2018     -0.000313018      0.00192339         0.866038        0.456344
                        0.474524       -0.831788     -0.000309288      0.00190387         -0.19538        -0.22121      3.00828e-05    -0.000888014
                     0.000870494      0.00155425         0.866164        0.456036     -4.30419e-05    -0.000928577         0.189874      -0.0801533
250800                 -0.278876      -0.0352128      5.98588e-05     -0.00127832         0.407533       -0.868828      0.000947026      0.00149293
                     8.08281e-05     -0.00136374       -0.0505413       -0.202474      -0.00017284      0.00197885         0.893367        0.398904
                        0.408232       -0.869052     -0.000159474       0.0019631        -0.210913       -0.195751     -1.44716e-05    -0.000909916
                     0.000976231      0.00150117         0.893468        0.398579     -8.96178e-05    -0.000945056         0.184652      -0.0975924
251000                  -0.27186      -0.0175853     -5.87332e-05     -0.00126821         0.338006        -0.90081       0.00104934      0.00144169
                    -4.48148e-05     -0.00135705       -0.0600353       -0.202599     -2.28545e-05      0.00202263           0.9169        0.339787
                        0.338743       -0.901098     -8.02966e-07      0.00200782        -0.222881       -0.168856      -6.2165e-05     -0.00093025
                      0.00107986      0.00144226         0.916982        0.339463      -0.00013899    -0.000959724         0.177728       -0.114643
251200                 -0.263446    -0.000951576     -0.000176839     -0.00125015         0.265738       -0.927293       0.00115026      0.00138377
                    -0.000170299      -0.0013397       -0.0696377       -0.202163      0.000135752      0.00205304         0.936537        0.279248
                        0.266467       -0.927629      0.000164889      0.00203678        -0.231128       -0.141101     -0.000113093    -0.000948699
                      0.00118115      0.00137739         0.936607         0.27894     -0.000191216    -0.000972279         0.169139        -0.13113
251400                 -0.253743       0.0145555     -0.000293999     -0.00122389         0.191157       -0.948013       0.00124939      0.00131904
                     -0.00029462     -0.00131157       -0.0793128       -0.201153      0.000301467      0.00206856         0.952196        0.217548
                        0.191844       -0.948376      0.000335583      0.00204903        -0.235604       -0.113072     -0.000167332    -0.000964911
                      0.00127983      0.00130642          0.95226        0.217264     -0.000246337    -0.000982386         0.158941       -0.146883
251600                 -0.242872        0.028814     -0.000409688     -0.00118922          0.11472        -0.96274        0.0013463      0.00124739
                    -0.000416751     -0.00127267       -0.0890232       -0.199561      0.000472473      0.00206788         0.963809        0.154949
                        0.115343       -0.963107      0.000509146      0.00204397        -0.236361       -0.085344     -0.000224933    -0.000978499
                      0.00137558      0.00122921         0.963876        0.154694     -0.000304363    -0.000989681         0.147206       -0.161739
251800                 -0.230969       0.0417148     -0.000523318     -0.00114594        0.0369103       -0.971279       0.00144053       0.0011687
                    -0.000535654      -0.0012231       -0.0987304        -0.19738      0.000646703      0.00205001         0.971329       0.0917169
                       0.0374556       -0.971626      0.000683405      0.00202134        -0.233548      -0.0584655     -0.000285918    -0.000989037
                      0.00146802      0.00114567         0.971404       0.0914937     -0.000365276    -0.000993765         0.134025       -0.175545
252000                 -0.218181       0.0531635     -0.000634232     -0.00109391       -0.0417646       -0.973475       0.00153155      0.00108289
                    -0.000650294     -0.00116312        -0.108395       -0.194605      0.000821902       0.0020143         0.974724       0.0281193
                      -0.0413008       -0.973778      0.000856224      0.00198124        -0.227398      -0.0329378     -0.000350268    -0.000996059
                      0.00155676      0.00105568         0.974813        0.027927     -0.000429015    -0.000994209         0.119501       -0.188154
252200                 -0.204665       0.0630812     -0.000741713     -0.00103304        -0.120777       -0.969214       0.00161885     0.000989924
                    -0.000759657     -0.00109305        -0.117976       -0.191236      0.000995719      0.00196053          0.97398      -0.0355759
                       -0.120391       -0.969455       0.00102556      0.00192407        -0.218216     -0.00920432     -0.000417917    -0.000999065
                      0.00164133     0.000959165         0.974086      -0.0357399     -0.000495474    -0.000990549         0.103754       -0.199436
252400                 -0.190587       0.0714065     -0.000844987    -0.000963321         -0.19958       -0.958429       0.00170185     0.000889773
                    -0.000862759     -0.00101335        -0.127432       -0.187275       0.00116579      0.00188885         0.969099      -0.0991014
                       -0.199263       -0.958593       0.00118952       0.0018505        -0.206362       0.0123579     -0.000488742    -0.000997517
                      0.00172122     0.000856094         0.969223      -0.0992407     -0.000564488    -0.000982297        0.0869143       -0.209269
252600                 -0.176121       0.0780963     -0.000943226    -0.000884807        -0.277618         -0.9411       0.00177993      0.00078246
                    -0.000958667    -0.000924601        -0.136723       -0.182726       0.00132983      0.00179985           0.9601       -0.162191
                       -0.277356       -0.941176       0.00134639      0.00176145        -0.192237       0.0314426     -0.000562552    -0.000990844
                      0.00179589     0.000746462         0.960243        -0.16231     -0.000635826    -0.000968937        0.0691252       -0.217547
252800                 -0.161445       0.0831266      -0.00103556    -0.000797663        -0.354322       -0.917259       0.00185244     0.000668055
                     -0.00104651    -0.000827459        -0.145807       -0.177598       0.00148573      0.00169446         0.947018        -0.22458
                         -0.3541       -0.917243       0.00149467      0.00165797         -0.17627       0.0478155     -0.000639078    -0.000978454
                      0.00186473     0.000630314         0.947179       -0.224685     -0.000709182     -0.00094994        0.0505388       -0.224178
253000                 -0.146737       0.0864933       -0.0011211    -0.000702156        -0.429123       -0.886991       0.00191871     0.000546682
                     -0.00112548    -0.000722687        -0.154643       -0.171902       0.00163162      0.00157391         0.929905       -0.286008
                       -0.428923       -0.886883       0.00163308      0.00154126        -0.158901       0.0613125     -0.000717961    -0.000959732
                       0.0019271     0.000507756          0.93008       -0.286103     -0.000784161    -0.000924766        0.0313162       -0.229086
253200                 -0.132178       0.0882125      -0.00119892     -0.00059867        -0.501453       -0.850434       0.00197803      0.00041853
                     -0.00119487    -0.000611128         -0.16319       -0.165651       0.00176591       0.0014397         0.908828       -0.346218
                        -0.50126       -0.850238       0.00176054       0.0014126        -0.140575       0.0718363      -0.00079874    -0.000934059
                      0.00198234     0.000378961         0.909014       -0.346308     -0.000860273     -0.00089288         0.011625        -0.23221
253400                 -0.117945       0.0883206      -0.00126813    -0.000487716        -0.570753       -0.807782       0.00202965     0.000283857
                     -0.00125406    -0.000493696        -0.171409       -0.158865       0.00188732      0.00129344          0.88387       -0.404957
                       -0.570551       -0.807507        0.0018762      0.00127328        -0.121731       0.0793504     -0.000880842    -0.000900826
                      0.00202974     0.000244176         0.884063       -0.405046     -0.000936921    -0.000853767      -0.00836114       -0.233505
253600                 -0.104212       0.0868742      -0.00132783    -0.000369932        -0.636478       -0.759281       0.00207283     0.000143003
                     -0.00130253    -0.000371367        -0.179262       -0.151562       0.00199491      0.00113684          0.85513       -0.461979
                       -0.636255        -0.75894       0.00197934      0.00112461        -0.102791       0.0838726     -0.000963575    -0.000859448
                      0.00206857     0.000103735         0.855323        -0.46207       -0.0010134    -0.000806948       -0.0284649       -0.232944
253800                -0.0911436       0.0839492      -0.00137718     -0.00024609        -0.698102       -0.705235       0.00210679    -3.60622e-06
                     -0.00133985    -0.000245158         -0.18671       -0.143766       0.00208803     0.000971613         0.822719       -0.517043
                       -0.697847       -0.704842       0.00206945      0.00096787       -0.0841554       0.0854659      -0.00104612    -0.000809389
                       0.0020981    -4.19382e-05         0.822908       -0.517138      -0.00108887    -0.000752005       -0.0485064       -0.230516
254000                -0.0788959       0.0796402      -0.00141542     -0.00011709        -0.755125       -0.645996       0.00213077    -0.000155449
                     -0.00136574    -0.000116122        -0.193718       -0.135505       0.00216629     0.000799405         0.786767       -0.569915
                       -0.754834       -0.645568       0.00214613     0.000804304        -0.066193       0.0842263      -0.00112752    -0.000750187
                      0.00211759    -0.000192316         0.786945       -0.570016      -0.00116241    -0.000688608       -0.0683048       -0.226231
254200                -0.0676127       0.0740592      -0.00144185     1.60433e-05        -0.807082       -0.581968       0.00214401    -0.000311901
                     -0.00137999     1.46709e-05        -0.200251       -0.126806       0.00222954     0.000621757         0.747415       -0.620371
                       -0.806752       -0.581521        0.0022091      0.00063511       -0.0492274       0.0802637      -0.00120669     -0.00068148
                      0.00212632    -0.000346767         0.747576       -0.620478      -0.00123297    -0.000616534       -0.0876802       -0.220111
254400                -0.0574241       0.0673341       -0.0014559     0.000152176        -0.853544         -0.5136       0.00214578    -0.000472231
                     -0.00138252     0.000146145        -0.206279       -0.117702       0.00227779     0.000440072         0.704819       -0.668193
                       -0.853176        -0.51315       0.00225815     0.000461433       -0.0334979       0.0736696      -0.00128245     -0.00060304
                       0.0021236     -0.00050455         0.704957       -0.668306      -0.00129938    -0.000535707        -0.106455         -0.2122
254600                -0.0484438       0.0596071      -0.00145715     0.000290079        -0.894124       -0.441386       0.00213538    -0.000635598
                     -0.00137336     0.000277234         -0.21177       -0.108227       0.00231116     0.000255604         0.659146       -0.713175
                       -0.893722       -0.440948       0.00229315     0.000284374       -0.0190277       0.0644676      -0.00135349      -0.0005148
                      0.00210877     -0.00066481         0.659259       -0.713291      -0.00136044    -0.000446218        -0.124455       -0.202559
254800                -0.0407682       0.0510323      -0.00144529     0.000428447        -0.928484       -0.365854       0.00211218    -0.000801048
                     -0.00135264     0.000406887        -0.216698      -0.0984177       0.00232983     6.94555e-05         0.610581       -0.755117
                       -0.928056       -0.365441       0.00231404      0.00010499      -0.00512057       0.0527338      -0.00141842    -0.000416886
                      0.00208126    -0.000826585         0.610662       -0.755236      -0.00141485    -0.000348354        -0.141513       -0.191263
255000                -0.0344744       0.0417736      -0.00142021     0.000565923        -0.956338       -0.287567       0.00207561    -0.000967518
                     -0.00132058     0.000534087        -0.221038      -0.0883133       0.00233401    -0.000117402         0.559315       -0.793836
                       -0.955893       -0.287189       0.00232077    -7.56935e-05         0.010324       0.0408409      -0.00147582    -0.000309641
                      0.00204057    -0.000988804         0.559363       -0.793955      -0.00146133    -0.000242618        -0.157468       -0.178407
255200                -0.0296195       0.0320024      -0.00138196     0.000701127        -0.977457       -0.207113        0.0020252     -0.00113384
                     -0.00127752     0.000657857        -0.224768      -0.0779548       0.00232385      -0.0003041         0.505555       -0.829154
                       -0.977004       -0.206777       0.00231335    -0.000256674        0.0219517       0.0349886      -0.00152423    -0.000193649
                      0.00198629      -0.0011503         0.505567       -0.829271      -0.00149862    -0.000129747        -0.172169       -0.164102
255400                -0.0262396       0.0218947      -0.00133077     0.000832683        -0.991667       -0.125101       0.00196059     -0.00129874
                     -0.00122385     0.000777265        -0.227868       -0.067385       0.00229946    -0.000489834         0.449519       -0.860911
                       -0.991219       -0.124812       0.00229181    -0.000436962        0.0243417       0.0261527      -0.00156225    -6.97443e-05
                      0.00191815     -0.00130981         0.449493       -0.861022      -0.00152553     -1.0709e-05        -0.185476       -0.148472
255600                -0.0243496       0.0116285      -0.00126704     0.000959246        -0.998856      -0.0421541       0.00188157     -0.00146088
                     -0.00116007     0.000891439        -0.230323      -0.0566484       0.00226087    -0.000673815         0.391433       -0.888957
                       -0.998423      -0.0419133       0.00225621    -0.000615566        0.0247914       0.0132389      -0.00158858      6.0984e-05
                      0.00183601     -0.00146601         0.391369       -0.889059        -0.001541     0.000113301         -0.19726       -0.131657
255800                -0.0239429      0.00138125      -0.00119133      0.00107953        -0.998973       0.0410989       0.00178805     -0.00161882
                     -0.00108673     0.000999567        -0.232119      -0.0457908       0.00220803    -0.000855215         0.331534       -0.913155
                       -0.998565       0.0412926       0.00220666    -0.000791491        0.0239487    -0.000598453      -0.00160202     0.000197206
                      0.00173989     -0.00161752         0.331434       -0.913247      -0.00154417     0.000240883        -0.207407       -0.113809
256000                -0.0249921     -0.00867283      -0.00110439      0.00119234        -0.992026        0.124028       0.00168011      -0.0017711
                     -0.00100445       0.0011009        -0.233249      -0.0348594       0.00214083     -0.00103311          0.27007       -0.933384
                       -0.991654        0.124178       0.00214328    -0.000963725        0.0212794      -0.0142993       -0.0016016     0.000337373
                      0.00162995     -0.00176292         0.269935       -0.933463      -0.00153439     0.000370469        -0.215818      -0.0950931
256200                -0.0274497      -0.0183656      -0.00100706      0.00129658        -0.978086        0.206009       0.00155804     -0.00191621
                    -0.000913888      0.00119477        -0.233705      -0.0239021       0.00205916     -0.00120646         0.207296       -0.949538
                       -0.977756        0.206122       0.00206628     -0.00113123        0.0165582      -0.0273809      -0.00158659     0.000479755
                      0.00150654     -0.00190079         0.207126       -0.949603      -0.00151126     0.000500372        -0.222411      -0.0756838
