! TOUCHSTONE file generated by CST MICROWAVE STUDIO
! Date and time: Sun Sep 28 19:09:18 2025
! Project name: biblioteca3_folgaOK.cst
! Parameters = {H=600; Lx=200; Ly=260; Nedge=34; P=520; mesh_pilar_nm=40; t_air=3800; t_sub=6000}
! Header version: 2018
! Port assignment regex: !\s*Touchstone port\s*([0-9]+)\s*=\s*(CST MWS port|CST DS port)\s*([0-9]+|Zmin|Zmax)\s*\(\"(.*)\"\)(\s*mode\s*([0-9]+))?.*
! Touchstone port assignment:
! Touchstone port 1 = CST MWS port Zmin ("") mode 1
! Touchstone port 2 = CST MWS port Zmin ("") mode 2
! Touchstone port 3 = CST MWS port Zmax ("") mode 1
! Touchstone port 4 = CST MWS port Zmax ("") mode 2
! S-Parameters are not renormalized. Each port impedance will be approximated by the real part at minimum frequency. The values are described via the [Reference] keyword.
! Default impedance is overridden by [Reference]
[Version] 2.0
# GHz S RI R 376.73
[Number of Ports] 4
[Reference]
376.73 376.73 376.73 376.73 
[Number of Frequencies] 401
[Network Data]
250000                  0.302157        0.216358     -0.000874648     0.000646692         0.301058         0.87815     -0.000427256     0.000474542
                    -0.000852332      0.00059946         0.104438       0.0191706      0.000392632    -0.000249667        -0.935818        0.336625
                        0.300827        0.877597      0.000161463     2.94224e-05         0.105835       -0.356257      3.39151e-05    -0.000518111
                    -0.000291557     5.83863e-05         -0.93527        0.336341      0.000259183     -0.00105638       -0.0683172       0.0812956
250200                  0.325535        0.184497     -0.000769126      0.00078764         0.398351        0.837556     -0.000380898     0.000455316
                    -0.000818745     0.000747216         0.102243       0.0211416      0.000364017    -0.000297429        -0.895409        0.433074
                        0.397242         0.83721       0.00020449     0.000152509        0.0629095       -0.368692      3.31464e-05    -0.000552763
                    -0.000251887      0.00011846        -0.895357        0.432831      0.000138431     -0.00108447       -0.0471713       0.0932316
250400                   0.34465        0.149758      -0.00064429     0.000893307         0.490487        0.786512     -0.000333048     0.000434595
                    -0.000754047     0.000894378         0.101345       0.0235124      0.000329399    -0.000343964        -0.844954        0.524727
                        0.488813        0.786482      0.000518328     0.000160858        0.0181994       -0.375073      2.89961e-05    -0.000594849
                    -0.000205156     0.000170274        -0.845227          0.5246      1.34232e-05     -0.00109918       -0.0242787        0.101262
250600                  0.359115         0.11279     -0.000513302     0.000967307         0.576432        0.725632     -0.000283895     0.000412256
                    -0.000657915      0.00103285          0.10178       0.0260249      0.000288519    -0.000388417        -0.785027        0.610519
                        0.574459        0.725948      0.000559503    -0.000180473       -0.0273424       -0.375101      1.95409e-05    -0.000646041
                    -0.000152575     0.000212834        -0.785478        0.610534     -0.000114075     -0.00109986     -0.000326957        0.105132
250800                  0.368648       0.0742946     -0.000383826      0.00101608         0.655211        0.655613     -0.000233689     0.000388159
                    -0.000532712      0.00115461         0.103542       0.0284214      0.000241236    -0.000429814        -0.716322        0.689452
                        0.653152        0.656247      0.000426696    -0.000306108       -0.0727083       -0.368637      1.76682e-06    -0.000708288
                     -9.5555e-05     0.000245323        -0.716833        0.689604     -0.000242221     -0.00108617        0.0239621        0.104713
251000                  0.373082       0.0350097     -0.000259264      0.00104596         0.725914        0.577227     -0.000182741     0.000362158
                    -0.000383267      0.00125279          0.10658       0.0304514       0.00018756     -0.00046707        -0.639639        0.760617
                        0.723927        0.578116      0.000337315    -0.000352478        -0.116866       -0.355718     -2.90871e-05    -0.000783634
                    -3.56777e-05     0.000267151        -0.640119        0.760876     -0.000369164     -0.00105806        0.0478564        0.100005
251200                  0.372367     -0.00431287     -0.000140403        0.001062         0.787696        0.491325     -0.000131438     0.000334098
                    -0.000216181      0.00132251         0.110807       0.0318781       0.00012769    -0.000499012        -0.555873        0.823203
                        0.785885        0.492385      0.000273791     -0.00038356         -0.15879       -0.336556     -8.05439e-05     -0.00087361
                     2.53481e-05     0.000277999        -0.556262        0.823526     -0.000493097     -0.00101575        0.0706367       0.0911328
251400                  0.366567      -0.0429236     -2.66693e-05      0.00106778         0.839781        0.398831     -8.02396e-05     0.000303822
                    -3.88576e-05      0.00136131         0.116095       0.0324844      6.20545e-05    -0.000524412        -0.466002        0.876507
                        0.838204        0.399976      0.000221145     -0.00041188        -0.197494       -0.311539     -0.000164282    -0.000977641
                     8.57442e-05     0.000277861        -0.466266        0.876847     -0.000612314    -0.000959742        0.0916189       0.0783433
251600                   0.35586      -0.0800932      8.30997e-05      0.00106561         0.881464        0.300747     -2.96921e-05     0.000271184
                     0.000141464      0.00136903         0.122285       0.0320785     -8.66002e-06    -0.000542028        -0.371072        0.919939
                        0.880142        0.301896       0.00017222    -0.000440117         -0.23206        -0.28122     -0.000297391     -0.00108927
                     0.000143732     0.000267059        -0.371201        0.920251     -0.000725244    -0.000890713         0.110174       0.0619924
251800                  0.340532       -0.115129      0.000190232      0.00105679         0.912125         0.19815      1.95754e-05      0.00023606
                     0.000318435      0.00134737          0.12919        0.030498     -8.34805e-05    -0.000550669        -0.272184        0.953035
                        0.911047        0.199238      0.000123239    -0.000468712        -0.261667       -0.246308     -0.000501059     -0.00118858
                     0.000197606     0.000246243        -0.272183        0.953282     -0.000830473    -0.000809527         0.125744       0.0425346
252000                  0.320971        -0.14739      0.000296006      0.00104186         0.931231       0.0921946      6.68492e-05     0.000198368
                     0.000487002      0.00129928         0.136599       0.0276142      -0.00016114    -0.000549261        -0.170477        0.975456
                        0.930367       0.0931733      7.18634e-05    -0.000497439        -0.285621       -0.207647     -0.000789867     -0.00123163
                     0.000245812     0.000216379        -0.170365        0.975609     -0.000926758    -0.000717166         0.137857        0.020507
252200                  0.297657       -0.176302      0.000401548      0.00102076         0.938351      -0.0158937      0.000111337     0.000158084
                     0.000643493      0.00122832         0.144284       0.0233344     -0.000240085    -0.000536926       -0.0671133        0.986991
                        0.937659      -0.0150506      1.63992e-05    -0.000525764        -0.303372       -0.166194      -0.00114274     -0.00115016
                     0.000287012     0.000178702       -0.0669169        0.987032      -0.00101302    -0.000614688         0.146139     -0.00348678
252400                  0.271152       -0.201369      0.000507763     0.000992929         0.933167       -0.124818      0.000152181     0.000115273
                     0.000785486      0.00113821         0.152007       0.0176041     -0.000318511    -0.000513066        0.0367362        0.987558
                        0.932603       -0.124118     -4.45548e-05    -0.000552907        -0.314537       -0.122998      -0.00147181    -0.000893528
                     0.000320143     0.000134659        0.0369864         0.98748      -0.00108834    -0.000503197          0.15032      -0.0287939
252600                  0.242088       -0.222188      0.000615291      0.00095742         0.915489       -0.233219      0.000188475     7.01139e-05
                     0.000911566      0.00103244         0.159525       0.0104076     -0.000394415    -0.000477437         0.139906          0.9772
                        0.915012       -0.232653     -0.000112257    -0.000577808        -0.318913      -0.0791639      -0.00165848    -0.000502281
                      0.00034445     8.58457e-05          0.14018        0.977008       -0.0011519    -0.000383811          0.15024      -0.0547305
252800                  0.211154       -0.238456      0.000724448     0.000912904         0.885267       -0.339683      0.000219297     2.29257e-05
                      0.00102105     0.000914143         0.166594      0.00176813     -0.000465682    -0.000430211          0.24125        0.956087
                        0.884843       -0.339229     -0.000187876    -0.000599039        -0.316491      -0.0358301      -0.00165955    -9.83841e-05
                     0.000359506      3.3923e-05          0.24152        0.955792      -0.00120303    -0.000257647          0.14585      -0.0805996
253000                  0.179081        -0.24998      0.000835141     0.000857729          0.84261       -0.442756      0.000243744    -2.58081e-05
                      0.00111373     0.000786008          0.17298      -0.0082535     -0.000530185    -0.000372015         0.339654        0.924507
                        0.842217       -0.442384     -0.000272458    -0.000614701        -0.307457      0.00587133      -0.00153174     0.000222913
                     0.000365204    -1.94523e-05         0.339898        0.924125      -0.00124107    -0.000125816         0.137212       -0.105709
253200                  0.146623       -0.256686      0.000946766     0.000789961         0.787795        -0.54096      0.000260984    -7.54237e-05
                      0.00118968     0.000650309         0.178461      -0.0195607     -0.000585903    -0.000303942         0.434052        0.882858
                        0.787424       -0.540636     -0.000366826    -0.000622288        -0.292196       0.0448459      -0.00135393     0.000442006
                     0.000361737    -7.26969e-05         0.434253        0.882412      -0.00126546     1.05691e-05         0.124498       -0.129386
253400                   0.11454        -0.25862       0.00105807     0.000707464         0.721285       -0.632811      0.000270312    -0.000125074
                      0.00124909     0.000508958         0.182831      -0.0320237     -0.000631034    -0.000227528         0.523427        0.831647
                        0.720937       -0.632503      -0.00047137    -0.000618559        -0.271282        0.080073      -0.00117523     0.000581044
                      0.00034956    -0.000124356         0.523575        0.831161       -0.0012756     0.000150379         0.107981       -0.150997
253600                 0.0835796       -0.255952       0.00116698     0.000608043         0.643734       -0.716848      0.000271208     -0.00017374
                      0.00129219      0.00036359          0.18591      -0.0454836     -0.000664113     -0.00014469         0.606833         0.77148
                        0.643422       -0.716531     -0.000585696    -0.000599444        -0.245472         0.11064      -0.00101506     0.000668044
                     0.000329342    -0.000173145         0.606924        0.770976      -0.00127091     0.000292434        0.0880282       -0.169961
253800                 0.0544536       -0.248976       0.00127048     0.000489665         0.555996       -0.791659      0.000263396    -0.000220269
                      0.00131917     0.000215649         0.187542      -0.0597556     -0.000684096    -5.76422e-05         0.683395        0.703048
                        0.555739       -0.791314     -0.000708118    -0.000560077        -0.215682        0.135778     -0.000877171     0.000724132
                     0.000301915    -0.000217976         0.683429        0.702548      -0.00125077     0.000435467        0.0650932        -0.18576
254000                 0.0278176       -0.238102       0.00136445     0.000350807         0.459127        -0.85591      0.000246889     -0.00026342
                      0.00133015     6.64678e-05         0.187602      -0.0746342      -0.00069043     3.12189e-05         0.752317        0.627126
                        0.458948       -0.855528     -0.000834984    -0.000495083        -0.182965         0.15489     -0.000759228     0.000762857
                      0.00026822    -0.000257967         0.752301         0.62665      -0.00121457     0.000578069        0.0397034       -0.197956
254200                0.00425073       -0.223848       0.00144369     0.000190909         0.354378        -0.90838      0.000222022    -0.000301939
                      0.00132521    -8.26571e-05         0.185996      -0.0898979     -0.000683077     0.000119436         0.812893        0.544558
                        0.354302       -0.907964      -0.00095995    -0.000399329        -0.148475         0.16758     -0.000657288     0.000792407
                     0.000229266    -0.000292442         0.812835        0.544121      -0.00116167     0.000718632        0.0124478       -0.206196
254400                -0.0157651       -0.206827       0.00150211     1.09351e-05         0.243189       -0.947996      0.000189452    -0.000334638
                      0.00130437    -0.000230403         0.182666       -0.105314     -0.000662514     0.000204621         0.864507         0.45625
                        0.243237       -0.947559       -0.0010735    -0.000269298        -0.113434        0.173674     -0.000567419      0.00081763
                     0.000186081    -0.000320922         0.864418        0.455863      -0.00109148     0.000855287       -0.0160376       -0.210223
254600                -0.0318621       -0.187729       0.00153325    -0.000186078         0.127169       -0.973866      0.000150138    -0.000360481
                      0.00126765    -0.000375368         0.177587       -0.120644     -0.000629694     0.000284567         0.906641         0.36316
                        0.127357       -0.973426      -0.00116323    -0.000105078       -0.0790835        0.173232     -0.000486175     0.000841382
                     0.000139683    -0.000343105         0.906532         0.36283      -0.00100353     0.000985833        -0.045084       -0.209883
254800                -0.0438018       -0.167301       0.00153103    -0.000394639       0.00807323       -0.985308      0.000105289    -0.000378649
                      0.00121509     -0.00051604          0.17077       -0.135649     -0.000585977     0.000357359         0.938873        0.266286
                      0.00840784       -0.984893      -0.00121558     8.75661e-05       -0.0466413        0.166554     -0.000410626     0.000865332
                     9.10509e-05    -0.000358846         0.938756        0.266017     -0.000897563      0.00110769        -0.074006       -0.205125
255000                -0.0514843       -0.146319       0.00149092    -0.000606818         -0.11223       -0.981882      5.62905e-05    -0.000388601
                      0.00114684    -0.000650767         0.162261       -0.150094     -0.000533047     0.000421442         0.960886        0.166659
                        -0.11175       -0.981519      -0.00121909     0.000296171       -0.0172498        0.154178     -0.000338253     0.000890417
                     4.11102e-05    -0.000368133         0.960772        0.166452       -0.0007737      0.00121789        -0.102118       -0.196006
255200                -0.0549542       -0.125565       0.00141102    -0.000812831        -0.231794       -0.963411      4.61863e-06    -0.000390098
                      0.00106319    -0.000777754         0.152136       -0.163755     -0.000472812     0.000475682         0.972464       0.0653334
                       -0.231179       -0.963129      -0.00116835     0.000502916        0.0080707        0.136858     -0.000266826     0.000917094
                    -9.28196e-06    -0.000371064         0.972362       0.0651869     -0.000632614      0.00131304        -0.128748       -0.182687
255400                -0.0543995       -0.105795       0.00129289     -0.00100222        -0.348638       -0.929995     -4.82467e-05    -0.000383207
                     0.000964648    -0.000895079         0.140508        -0.17642     -0.000407294     0.000519387         0.973494      -0.0366237
                       -0.347907       -0.929818      -0.00106665     0.000688594        0.0284675         0.11554     -0.000194277     0.000945453
                    -5.93413e-05    -0.000367826         0.973412      -0.0367142      -0.00047575      0.00138949        -0.153259       -0.165431
255600                -0.0501448       -0.087713       0.00114167     -0.00116541        -0.460791       -0.882021     -0.000100903    -0.000368271
                     0.000852019     -0.00100072         0.127513       -0.187896     -0.000338526     0.000552304          0.96397       -0.138141
                       -0.459969       -0.881968     -0.000925503     0.000837661        0.0432941       0.0913261     -0.000118611      0.00097525
                    -0.000108359    -0.000358675         0.963914       -0.138181     -0.000305543      0.00144346        -0.175057         -0.1446
255800                -0.0426389      -0.0719466      0.000965449     -0.00129515         -0.56634        -0.82016     -0.000152087    -0.000345867
                      0.00072644     -0.00109261         0.113316       -0.198013     -0.000268455     0.000574592         0.943985       -0.238152
                       -0.565458       -0.820243     -0.000761129     0.000941789         0.052141       0.0654273      -3.7835e-05      0.00100587
                    -0.000155697     -0.00034392         0.943959       -0.238148     -0.000125591       0.0014714        -0.193609       -0.120643
256000                -0.0324367      -0.0590205      0.000773946     -0.00138747        -0.663479       -0.745357      -0.00020072    -0.000316749
                     0.000589444     -0.00116873        0.0981045       -0.206624     -0.000198858      0.00058678         0.913739       -0.335604
                       -0.662567       -0.745581     -0.000589889       0.0010004        0.0548543        0.039112      5.00717e-05      0.00103625
                     -0.00020079    -0.000323909         0.913744       -0.335562      5.92707e-05      0.00147034         -0.20846      -0.0940863
256200                 -0.020176        -0.04934      0.000576999     -0.00144185        -0.750549       -0.658814     -0.000245931    -0.000281786
                     0.000442985     -0.00122717        0.0820823       -0.213613     -0.000131274     0.000589696         0.873529       -0.429467
                       -0.749637       -0.659176     -0.000424929       0.0010187        0.0515442       0.0136504      0.000147131      0.00106471
                    -0.000243133    -0.000299017         0.873567       -0.429393       0.00024307      0.00143847        -0.219235      -0.0655252
