! TOUCHSTONE file generated by CST MICROWAVE STUDIO
! Date and time: Sun Sep 28 19:09:19 2025
! Project name: biblioteca3_folgaOK.cst
! Parameters = {H=600; Lx=200; Ly=260; Nedge=36; P=520; mesh_pilar_nm=40; t_air=3800; t_sub=6000}
! Header version: 2018
! Port assignment regex: !\s*Touchstone port\s*([0-9]+)\s*=\s*(CST MWS port|CST DS port)\s*([0-9]+|Zmin|Zmax)\s*\(\"(.*)\"\)(\s*mode\s*([0-9]+))?.*
! Touchstone port assignment:
! Touchstone port 1 = CST MWS port Zmin ("") mode 1
! Touchstone port 2 = CST MWS port Zmin ("") mode 2
! Touchstone port 3 = CST MWS port Zmax ("") mode 1
! Touchstone port 4 = CST MWS port Zmax ("") mode 2
! S-Parameters are not renormalized. Each port impedance will be approximated by the real part at minimum frequency. The values are described via the [Reference] keyword.
! Default impedance is overridden by [Reference]
[Version] 2.0
# GHz S RI R 376.73
[Number of Ports] 4
[Reference]
376.73 376.73 376.73 376.73 
[Number of Frequencies] 401
[Network Data]
250000                  0.312584        0.217998     -0.000939918    -0.000254893         0.304305        0.872923       0.00242694     0.000185226
                     -0.00059481    -0.000189656        0.0982275       0.0192914       0.00180962      0.00229942        -0.937252        0.333898
                        0.304755        0.872514       0.00172594      0.00288922          0.10933       -0.365053     -0.000798799     -0.00074318
                      0.00247423     0.000299464         -0.93657        0.333739      -0.00109514    -0.000658425       -0.0639285       0.0770782
250200                  0.336106        0.184374     -0.000925299    -0.000154832         0.400796        0.832181       0.00244374    -4.61202e-05
                    -0.000695161    -0.000104712          0.09592       0.0223224       0.00205273      0.00207638        -0.897081        0.430586
                        0.401283        0.831738       0.00244543      0.00271346        0.0656286       -0.377692     -0.000820682     -0.00068614
                      0.00252294     1.47819e-05        -0.897005          0.4304      -0.00117461      -0.0006393       -0.0426112       0.0887934
250400                  0.355022        0.147929     -0.000903506    -5.20415e-05         0.492199        0.781107       0.00244086    -0.000284464
                    -0.000767258     9.89811e-06        0.0950812       0.0257902       0.00227547      0.00182601        -0.846804        0.522525
                        0.492667        0.780614       0.00305511      0.00223223        0.0201568       -0.384096     -0.000847688      -0.0006198
                      0.00254255    -0.000270404         -0.84716        0.522402       -0.0012585     -0.00061228       -0.0196262       0.0965289
250600                  0.368982        0.109362     -0.000873339     5.34814e-05         0.577486         0.72029        0.0024167    -0.000528235
                    -0.000805536      0.00014363        0.0957588       0.0294049       0.00247389      0.00154948        -0.786993        0.608622
                        0.577889        0.719751        0.0034014      0.00158303       -0.0260851       -0.383995     -0.000881779    -0.000543282
                       0.0025322    -0.000552553        -0.787625        0.608613      -0.00134636    -0.000576015       0.00433782        0.100057
250800                  0.377747       0.0694136     -0.000833266     0.000161546         0.655684        0.650402       0.00236968     -0.00077557
                    -0.000808337     0.000286006        0.0979501        0.032875        0.0026439       0.0012486        -0.718342        0.687858
                        0.655991        0.649838       0.00348581      0.00094656       -0.0720583       -0.377293     -0.000925274    -0.000456087
                      0.00249104    -0.000828356        -0.719119        0.687983      -0.00143747    -0.000529039        0.0285639       0.0992722
251000                  0.381189       0.0288482     -0.000781376     0.000271616         0.725882        0.572195       0.00229835      -0.0010243
                    -0.000776982     0.000427847         0.101602       0.0359155       0.00278137     0.000925954         -0.64166        0.759305
                        0.726078        0.571633       0.00340458     0.000419481        -0.116716       -0.364065     -0.000980659    -0.000358309
                      0.00241832     -0.00109489        -0.642472        0.759563      -0.00153074    -0.000469816         0.052328       0.0941894
251200                  0.379291      -0.0115603     -0.000715371     0.000382584          0.78723          0.4865        0.0022014     -0.00127193
                    -0.000714669     0.000561811         0.106615       0.0382568       0.00288227     0.000584947        -0.557853        0.822136
                        0.787315        0.485969       0.00325003     1.31249e-05        -0.159033       -0.344564      -0.00105021    -0.000250774
                      0.00231359     -0.00134972        -0.558615        0.822511      -0.00162465    -0.000396805         0.074921        0.084946
251400                  0.372153      -0.0510447     -0.000632647     0.000492463         0.838948        0.394226       0.00207777     -0.00151563
                    -0.000625539     0.000682407         0.112845       0.0396517       0.00294287     0.000229905        -0.467915        0.875641
                        0.838931        0.393752       0.00307701      -0.0002975        -0.198034       -0.319208      -0.00113546    -0.000134997
                      0.00217684     -0.00159085         -0.46856        0.876103      -0.00171717    -0.000308573        0.0956683       0.0717946
251600                  0.359986      -0.0888603     -0.000530549     0.000598019         0.880322         0.29636       0.00192666     -0.00175225
                     -0.00051402     0.000785728          0.12011        0.039882       0.00295995    -0.000133912        -0.372908        0.919226
                        0.880225        0.295962       0.00291027    -0.000542053        -0.232818       -0.288573      -0.00123657    -1.28364e-05
                      0.00200874     -0.00181654        -0.373388        0.919741      -0.00180572    -0.000203946         0.113949       0.0550947
251800                  0.343108       -0.124301     -0.000406904     0.000694418         0.910722        0.193968       0.00174763     -0.00197832
                    -0.000384448      0.00086909         0.128198       0.0387639       0.00293109    -0.000500336        -0.273949        0.952428
                         0.91057        0.193658       0.00275793    -0.000744339        -0.262585       -0.253379       -0.0013519     0.000114144
                      0.00181061      -0.0020251         -0.27423        0.952957      -0.00188716    -8.22029e-05         0.129211       0.0353014
252000                   0.32194       -0.156712     -0.000260898     0.000775092         0.929603       0.0881941       0.00154067      -0.0021901
                    -0.000240902     0.000930686         0.136866       0.0361521       0.00285497    -0.000862415         -0.17219        0.974913
                        0.929424       0.0879727        0.0026203    -0.000921223        -0.286657       -0.214474      -0.00147786     0.000245426
                      0.00158441     -0.00221462        -0.172254        0.975418      -0.00195784     5.66981e-05         0.140986       0.0129515
252200                  0.297001        -0.18551     -9.42306e-05     0.000832131         0.936521      -0.0197423       0.00130633     -0.00238358
                      -8.717e-05     0.000969309         0.145857        0.031943       0.00273162     -0.00121263       -0.0688058        0.986482
                         0.93634      -0.0198813       0.00249441     -0.00108411        -0.304498       -0.172813      -0.00160903     0.000382092
                      0.00133248      -0.0023829       -0.0686461        0.986922      -0.00201376     0.000211878         0.148903      -0.0113518
252400                  0.268891       -0.210192      8.78236e-05     0.000857514         0.931143       -0.128548       0.00104572     -0.00255461
                     7.32038e-05     0.000984149         0.154899       0.0260766       0.00256267     -0.00154325        0.0350249        0.987062
                        0.930981       -0.128618       0.00237608     -0.00124057        -0.315733       -0.129438      -0.00173854     0.000526869
                       0.0010575     -0.00252742        0.0354029        0.987401      -0.00205087     0.000381332          0.15269      -0.0369558
252600                  0.238289       -0.230351      0.000276142     0.000845167         0.913262       -0.236862       0.00076065     -0.00269893
                     0.000236834     0.000974678         0.163715       0.0185369       0.00235151     -0.00184675         0.138132        0.976715
                        0.913136       -0.236882       0.00226074      -0.0013955        -0.320161      -0.0854514      -0.00185827     0.000683512
                      0.00076233     -0.00264546         0.138714        0.976916      -0.00206538     0.000561812         0.152187      -0.0631753
252800                   0.20593        -0.24569      0.000458944     0.000793191         0.882816       -0.343267      0.000453675     -0.00281232
                     0.000400399     0.000940583          0.17203        0.009352       0.00210327     -0.00211638         0.239371        0.955621
                        0.882732       -0.343258       0.00214368      -0.0015519        -0.317769      -0.0419892      -0.00195892     0.000855556
                     0.000450015     -0.00273418         0.240131        0.955656      -0.00205427     0.000748859         0.147344      -0.0893111
253000                  0.172595        -0.25603      0.000624427     0.000705046         0.839896       -0.446299      0.000128147     -0.00289071
                     0.000560556     0.000881764         0.179578     -0.00140746       0.00182458     -0.00234667         0.337631        0.924084
                        0.839855       -0.446281       0.00202023      -0.0017113        -0.308741    -0.000187745      -0.00203016      0.00104455
                     0.000123838     -0.00279077         0.338538        0.923927      -0.00201573     0.000937021         0.138224       -0.114667
253200                  0.139089        -0.26132      0.000763738     0.000588764         0.784769       -0.544467     -0.000211765     -0.00293037
                     0.000713863      0.00079837         0.186109      -0.0136307       0.00152317     -0.00253389         0.431851        0.882516
                        0.784765       -0.544457       0.00188567     -0.00187393        -0.293458       0.0388497      -0.00206133      0.00124814
                    -0.000212621     -0.00281251         0.432866        0.882149      -0.00194951      0.00112028         0.124997       -0.138567
253400                   0.10622       -0.261641      0.000872768     0.000454476         0.717888       -0.636269     -0.000561074     -0.00292803
                     0.000856733     0.000690871         0.191391      -0.0271698       0.00120728     -0.00267635         0.521029        0.831433
                         0.71791        -0.63628       0.00173539     -0.00203879        -0.272498       0.0740888      -0.00204332      0.00145856
                    -0.000555419     -0.00279693         0.522109        0.830848      -0.00185714      0.00129261         0.107938       -0.160374
253600                 0.0747775        -0.25721      0.000952002     0.000311599         0.639903       -0.720222     -0.000914033     -0.00288113
                     0.000985421     0.000560151         0.195219      -0.0418436       0.00088495     -0.00277447         0.604228        0.771448
                        0.639938       -0.720263       0.00156489     -0.00220358        -0.246624        0.104602      -0.00197146      0.00166272
                    -0.000900178      -0.0027419         0.605328        0.770645      -0.00174185       0.0014486         0.087416       -0.179499
253800                 0.0455071       -0.248377       0.00100494     0.000166975         0.551669       -0.794892      -0.00126422     -0.00278794
                      0.00109604     0.000407628         0.197418      -0.0574424      0.000563411      -0.0028305         0.680589        0.703258
                        0.551704       -0.794962       0.00137009     -0.00236462         -0.21677        0.129605      -0.00184843      0.00184469
                     -0.00124205     -0.00264572         0.681661        0.702247      -0.00160826      0.00158403        0.0638884       -0.195425
254000                 0.0190882       -0.235616       0.00103617     2.43745e-05         0.454252       -0.858919      -0.00160468     -0.00264777
                      0.00118463     0.000235372         0.197846      -0.0737324      0.000248519     -0.00284815         0.749333        0.627637
                        0.454274       -0.859015        0.0011476     -0.00251675        -0.184011        0.148491      -0.00168513      0.00199031
                     -0.00157573     -0.00250733         0.750332        0.626439      -0.00146191      0.00169619        0.0378861       -0.207707
254200               -0.00389065       -0.219519       0.00104986     -0.00011502         0.348919       -0.911061      -0.00192811     -0.00246107
                      0.00124727     4.62279e-05         0.196398      -0.0904619     -5.55113e-05      -0.0028319         0.809766        0.545427
                        0.348918       -0.911174      0.000895245     -0.00265341         -0.14953        0.160862      -0.00149826      0.00209171
                     -0.00189544     -0.00232637         0.810652        0.544072      -0.00130868      0.00178409        0.0100021       -0.215992
254400                 -0.022953       -0.200772       0.00104894    -0.000251737         0.237132       -0.950223      -0.00222707     -0.00222955
                      0.00128028    -0.000156092         0.193007       -0.107366     -0.000346134     -0.00278641         0.861289        0.457529
                        0.237105       -0.950344       0.00061256     -0.00276681        -0.114582        0.166548      -0.00130546      0.00214931
                     -0.00219508     -0.00210338         0.862029        0.456053      -0.00115426      0.00184833       -0.0191235       -0.220023
254600                -0.0377531        -0.18014       0.00103483    -0.000387148         0.120531         -0.9755      -0.00249427     -0.00195618
                       0.0012804    -0.000366958         0.187647       -0.124175      -0.00062226     -0.00271596         0.903395        0.364889
                        0.120477       -0.975617       0.00030139     -0.00284838       -0.0804386         0.16563      -0.00112086      0.00217034
                      -0.0024683     -0.00183995         0.903964        0.363338      -0.00100375      0.00189094       -0.0488187       -0.219643
254800                -0.0480904       -0.158441       0.00100744    -0.000522783      0.000905722       -0.986203      -0.00272276     -0.00164512
                      0.00124509    -0.000580831          0.18033       -0.140614     -0.000883879     -0.00262408         0.935675        0.268494
                     0.000829133       -0.986306     -3.37002e-05     -0.00288956        -0.048344        0.158436     -0.000952788      0.00216539
                     -0.00270873     -0.00153883         0.936058        0.266918     -0.000861341      0.00191504       -0.0783952       -0.214804
255000                -0.0539188       -0.136511      0.000965397    -0.000659807        -0.119838       -0.981894      -0.00290626      -0.0013016
                      0.00117279    -0.000791371         0.171108       -0.156418      -0.00113162     -0.00251329         0.957818        0.169362
                        -0.11993       -0.981978     -0.000385286      -0.0028828       -0.0194588        0.145538     -0.000804037      0.00214511
                     -0.00291023       -0.001204         0.958013         0.16781     -0.000730209      0.00192453        -0.107165       -0.205561
255200                -0.0553494       -0.115184      0.000906168    -0.000798611        -0.239714       -0.962408      -0.00303938    -0.000931577
                      0.00106323     -0.00099163         0.160073        -0.17133      -0.00136632     -0.00238516         0.969614         0.06853
                       -0.239813       -0.962469     -0.000743404     -0.00282262       0.00519018        0.127734     -0.000673477      0.00211826
                     -0.00306715    -0.000840701         0.969629       0.0670531     -0.000612411       0.0019239        -0.134457       -0.192076
255400                -0.0526474      -0.0952508      0.000826376    -0.000938442        -0.356705       -0.927869      -0.00311785    -0.000541297
                     0.000917623     -0.00117436         0.147351       -0.185108      -0.00158865     -0.00224043         0.970952       -0.032951
                       -0.356802       -0.927907      -0.00109637     -0.00270664        0.0247558        0.106015     -0.000557797      0.00209098
                     -0.00317465    -0.000455363         0.970809      -0.0343081      -0.00050885      0.00191796         -0.15963       -0.174612
255600                -0.0462218      -0.0774354      0.000722091     -0.00107703        -0.468809       -0.878697      -0.00313899    -0.000136691
                     0.000738823     -0.00133238         0.133101       -0.197533      -0.00179892     -0.00207918         0.961824       -0.134027
                       -0.468898       -0.878716      -0.00143201     -0.00253606        0.0386099       0.0815224     -0.000452869      0.00206702
                       -0.003229    -5.54672e-05         0.961552       -0.135226     -0.000419183      0.00191173        -0.182092       -0.153528
255800                -0.0366084      -0.0623646       0.00058929     -0.00121024         -0.57409       -0.815603      -0.00310251     0.000277332
                      0.00053133     -0.00145908         0.117513       -0.208409      -0.00199687      -0.0019011          0.94232       -0.233648
                       -0.574167        -0.81561      -0.00173906     -0.00231568         0.046372       0.0555038     -0.000354561       0.0020482
                     -0.00322785     0.000350709         0.941958        -0.23466     -0.000341656      0.00191022         -0.20131       -0.129271
256000                -0.0244477      -0.0505457      0.000424523     -0.00133173        -0.670729       -0.739583       -0.0030122     0.000696971
                     0.000301161     -0.00154878         0.100803       -0.217573      -0.00218167     -0.00170578          0.91263       -0.330778
                       -0.670792       -0.739583       -0.0020084     -0.00205321        0.0479261       0.0292533     -0.000259156      0.00203491
                     -0.00317044     0.000754415         0.912222       -0.331584     -0.000272878      0.00191812        -0.216824       -0.102363
256200                -0.0104583      -0.0423483       0.00022585     -0.00143286        -0.757065       -0.651887      -0.00287802      0.00111727
                       5.557e-05     -0.00159721        0.0832072        -0.22489      -0.00235195     -0.00149284         0.873041         -0.4244
                       -0.757116       -0.651886      -0.00223386     -0.00175823        0.0434248      0.00405585     -0.000163515      0.00202658
                     -0.00305769       0.0011468         0.872634       -0.424996     -0.000207617      0.00193917        -0.228261      -0.0733963
