! TOUCHSTONE file generated by CST MICROWAVE STUDIO
! Date and time: Sun Sep 28 19:09:09 2025
! Project name: biblioteca3_folgaOK.cst
! Parameters = {H=600; Lx=200; Ly=260; Nedge=4; P=520; mesh_pilar_nm=40; t_air=3800; t_sub=6000}
! Header version: 2018
! Port assignment regex: !\s*Touchstone port\s*([0-9]+)\s*=\s*(CST MWS port|CST DS port)\s*([0-9]+|Zmin|Zmax)\s*\(\"(.*)\"\)(\s*mode\s*([0-9]+))?.*
! Touchstone port assignment:
! Touchstone port 1 = CST MWS port Zmin ("") mode 1
! Touchstone port 2 = CST MWS port Zmin ("") mode 2
! Touchstone port 3 = CST MWS port Zmax ("") mode 1
! Touchstone port 4 = CST MWS port Zmax ("") mode 2
! S-Parameters are not renormalized. Each port impedance will be approximated by the real part at minimum frequency. The values are described via the [Reference] keyword.
! Default impedance is overridden by [Reference]
[Version] 2.0
# GHz S RI R 376.73
[Number of Ports] 4
[Reference]
376.73 376.73 376.73 376.73 
[Number of Frequencies] 401
[Network Data]
250000                  0.315883        0.218796       0.00059139     4.68062e-05         0.289898        0.876582       0.00159596      0.00073603
                     0.000726426      2.6668e-06         0.104801       0.0231137       0.00146875     0.000562829        -0.938587        0.327668
                         0.29012        0.876601       0.00137718     0.000663117         0.123237       -0.364003      0.000261878    -0.000133814
                      0.00141938     0.000717681        -0.938464        0.327566      0.000294015    -0.000170002       -0.0676263       0.0833404
250200                  0.339177        0.185853      0.000600875    -5.38375e-06         0.386802        0.837728       0.00162941     0.000583479
                     0.000688695    -0.000108864         0.102751       0.0257305       0.00153698      0.00043782        -0.899082        0.424295
                         0.38661        0.837736       0.00145306     0.000493827        0.0798278       -0.379151      0.000232463     -7.0949e-05
                      0.00150604     0.000616385        -0.901552        0.422307      0.000260541    -0.000200644       -0.0458364       0.0960006
250400                  0.358097        0.149986      0.000605583    -6.28762e-05         0.478823        0.788403       0.00165436     0.000426353
                     0.000632718    -0.000206742         0.102212       0.0287947        0.0015953     0.000300192        -0.849463        0.516304
                        0.478348        0.788494        0.0015084     0.000315526         0.033958       -0.387953       0.00019653    -2.01807e-05
                      0.00158849     0.000499442        -0.854421        0.513433      0.000219907    -0.000229728       -0.0220813        0.104592
250600                   0.37223        0.111876      0.000603926    -0.000125712         0.564904          0.7292       0.00167004     0.000264889
                      0.00056354    -0.000288009         0.103223       0.0319866       0.00164143     0.000150421        -0.790284        0.602588
                        0.564272        0.729423       0.00154237     0.000131229       -0.0132649       -0.389975      0.000157749     2.03128e-05
                      0.00166392     0.000365915        -0.797435         0.59971      0.000171431    -0.000255782       0.00290195        0.108821
250800                  0.381281       0.0722658      0.000593968    -0.000193565         0.644056        0.660796       0.00167563     9.94074e-05
                     0.000486268    -0.000351606         0.105768       0.0349916       0.00167296    -1.06008e-05        -0.722224        0.682113
                        0.643372        0.661161       0.00155474     -5.6087e-05       -0.0606654       -0.385007       0.00011826     5.27226e-05
                      0.00172896     0.000215367        -0.731124        0.679957      0.000114672    -0.000276921        0.0283384        0.108534
251000                  0.385083       0.0319322      0.000573444    -0.000265533         0.715353        0.583945       0.00167027    -6.96659e-05
                     0.000405436    -0.000397992         0.109775       0.0375098       0.00168749    -0.000181506        -0.646082        0.753935
                        0.714705        0.584437       0.00154575    -0.000243606         -0.10705       -0.373066      7.91249e-05     7.91247e-05
                      0.00177979     4.80805e-05        -0.656164        0.753065      4.96247e-05    -0.000290844        0.0534427        0.103717
251200                  0.383598     -0.00833274      0.000539889    -0.000339864         0.777939        0.499479       0.00165303    -0.000241786
                     0.000324674    -0.000428628         0.115124       0.0392641       0.00168266     -0.00036041        -0.562758        0.817213
                        0.777387        0.500062       0.00151609    -0.000428775        -0.151256        -0.35439       4.0718e-05     0.000101319
                      0.00181228    -0.000134725        -0.573365        0.818019     -2.30642e-05    -0.000294911        0.0774458       0.0944967
251400                  0.376913      -0.0477448      0.000490927    -0.000413671         0.831026          0.4083       0.00162296    -0.000416266
                     0.000246635    -0.000445499         0.121651       0.0400067       0.00165633    -0.000544883        -0.473243        0.871219
                        0.830607        0.408931       0.00146677    -0.000609369         -0.19219       -0.329422      3.00324e-06      0.00012083
                      0.00182228    -0.000330707        -0.483641        0.873906     -0.000101858    -0.000286341        0.0996178       0.0811255
251600                  0.365237      -0.0855476      0.000424796    -0.000482721         0.873895         0.31139       0.00157906    -0.000592255
                     0.000173098    -0.000450739         0.129158        0.039524       0.00160666    -0.000731966        -0.378598        0.915351
                        0.873626        0.312022       0.00139904     -0.00078353        -0.228861       -0.298781     -3.42956e-05     0.000138976
                      0.00180596    -0.000536303        -0.387986        0.919904      -0.00018416    -0.000262549          0.11929       0.0639753
251800                  0.348896       -0.121031      0.000341099    -0.000541474         0.905911        0.209802       0.00152035    -0.000768711
                      0.00010514    -0.000446398         0.137416       0.0376412       0.00153231    -0.000918209         -0.27994        0.949135
                        0.905788        0.210393       0.00131425    -0.000949774        -0.260407       -0.263242     -7.15897e-05     0.000156959
                      0.00176023    -0.000746776        -0.287468         0.95524     -0.000266283    -0.000221607          0.13587       0.0435202
252000                  0.328318       -0.153546      0.000241675      -0.0005836         0.926521        0.104666       0.00144584     -0.00094438
                     4.33213e-05    -0.000434311         0.146173       0.0342247       0.00143251     -0.00109976        -0.178422        0.972228
                        0.926524        0.105183       0.00121379     -0.00110698         -0.28611       -0.223705      -0.00010936     0.000175973
                      0.00168318    -0.000956428          -0.1833        0.979119     -0.000343669    -0.000162766         0.148858       0.0203206
252200                  0.304025       -0.182521      0.000131226    -0.000603096         0.935269     -0.00281437       0.00135462     -0.00111777
                    -1.21457e-05    -0.000416052         0.155162       0.0291843       0.00130723     -0.00127249       -0.0752201        0.984422
                        0.935371     -0.00239534         0.001099     -0.00125436        -0.305412       -0.181171     -0.000148109     0.000197319
                      0.00157439     -0.00115899       -0.0770917        0.990736      -0.00041138    -8.68688e-05         0.157859     -0.00499488
252400                  0.276619       -0.207474      1.72362e-05     -0.00059587         0.931808       -0.111363       0.00124583     -0.00128713
                    -6.12679e-05    -0.000392931         0.164107       0.0224738       0.00115723     -0.00143217        0.0284836        0.985644
                        0.931975       -0.111053      0.000971075     -0.00139143        -0.317924       -0.136715     -0.000188296     0.000222547
                      0.00143511     -0.00134815        0.0288495        0.989803     -0.000464807     3.50033e-06         0.162583      -0.0317477
252600                  0.246768        -0.22802     -9.11523e-05    -0.000561224         0.915914       -0.219637        0.0011188     -0.00145044
                    -0.000104171    -0.000366022          0.17273       0.0140911      0.000984094     -0.00157462         0.131519        0.975948
                         0.91611       -0.219434      0.000831068     -0.00151798        -0.323431      -0.0914647      -0.00023024     0.000253632
                      0.00126822     -0.00151809         0.132266         0.97745     -0.000500414     0.000104246         0.162857      -0.0592281
252800                  0.215194       -0.243887     -0.000185095    -0.000502456         0.887498       -0.326235      0.000973034     -0.00160539
                    -0.000141031    -0.000336201         0.180757      0.00407742      0.000790255     -0.00169597         0.232738        0.955513
                        0.887692       -0.326127      0.000679776     -0.00163402        -0.321906      -0.0465731     -0.000273909     0.000293197
                      0.00107791     -0.00166401         0.232496        0.955402     -0.000516284     0.000210349         0.158623      -0.0867128
253000                   0.18265       -0.254916     -0.000258055     -0.00042616         0.846626       -0.429707      0.000808337     -0.00174938
                    -0.000172024     -0.00030419         0.187925     -0.00748427      0.000578875     -0.00179279         0.331033        0.924638
                        0.846793       -0.429673       0.00051771     -0.00173976        -0.313504     -0.00319366     -0.000318507     0.000344783
                      0.00086929     -0.00178247         0.329736        0.924175     -0.000512294     0.000316634         0.149936       -0.113483
253200                  0.149908        -0.26107     -0.000306968    -0.000340526         0.793533       -0.528571       0.00062487     -0.00187958
                    -0.000197301      -0.0002706         0.193987      -0.0204719      0.000353745      -0.0018623         0.425343        0.883735
                        0.793655       -0.528583       0.00034502     -0.00183561        -0.298578       0.0375479     -0.000361678     0.000413055
                     0.000647837     -0.00187146         0.423518        0.883535     -0.000489911      0.00041848         0.136962       -0.138843
253400                  0.117738       -0.262439     -0.000332198    -0.000253453         0.728638       -0.621333      0.000423249     -0.00199291
                    -0.000216964    -0.000235972         0.198717      -0.0347273      0.000119116     -0.00190244         0.514665        0.833316
                        0.728708       -0.621362      0.000161397     -0.00192212        -0.277667       0.0745845     -0.000398026     0.000503648
                     0.000418942     -0.00193042         0.512797        0.833481     -0.000451714     0.000512299         0.119973       -0.162132
253600                 0.0868867       -0.259235      -0.00033659    -0.000171243         0.652552        -0.70651      0.000204628     -0.00208616
                     -0.00023106    -0.000200816         0.201916      -0.0500602     -0.000120486       -0.001912         0.598067         0.77399
                        0.652572       -0.706528      -3.4078e-05     -0.00200002        -0.251499        0.106941     -0.000416821     0.000621731
                     0.000187512     -0.00195992         0.596439        0.774408     -0.000400837     0.000595703        0.0993363       -0.182744
253800                 0.0580583       -0.251797     -0.000324244    -9.81178e-05         0.566094       -0.782662     -2.92129e-05     -0.00215607
                    -0.000239581    -0.000165656         0.203416      -0.0662523     -0.000360454     -0.00189061         0.674689         0.70645
                        0.566075       -0.782642     -0.000243171      -0.0020702        -0.220978        0.133771     -0.000399715     0.000767485
                    -4.22629e-05     -0.00196141          0.67342        0.706962     -0.000340479     0.000667429         0.075508       -0.200137
254000                 0.0318925       -0.240575     -0.000299498    -3.63709e-05         0.470287       -0.848418     -0.000275807     -0.00219944
                    -0.000242474    -0.000131067         0.203084      -0.0830626     -0.000596281      -0.0018387         0.743756        0.631467
                        0.470248       -0.848341     -0.000468902     -0.00213369        -0.187162        0.154392     -0.000322676     0.000926867
                    -0.000267005     -0.00193684         0.742855        0.631931     -0.000273571     0.000727106        0.0490206       -0.213846
254200                0.00894341       -0.226127     -0.000266303     1.31604e-05         0.366363       -0.902518      -0.00053196     -0.00221332
                    -0.000239656     -9.7723e-05         0.200823       -0.100233     -0.000823715     -0.00175742         0.804576        0.549876
                        0.366327       -0.902373     -0.000716238     -0.00219162         -0.15124        0.168318     -0.000170369      0.00106289
                    -0.000484125     -0.00188839         0.803997        0.550192     -0.000202605     0.000774984        0.0204703       -0.223495
254400                -0.0103397       -0.209101     -0.000227953     5.05836e-05         0.255746       -0.943843     -0.000793752     -0.00219515
                    -0.000231055    -6.64396e-05         0.196576       -0.117493      -0.00103888     -0.00164856         0.856551        0.462569
                        0.255738       -0.943627     -0.000993348     -0.00224494        -0.114489        0.175294      3.88876e-05      0.00112668
                    -0.000691719     -0.00181826         0.856219        0.462681     -0.000129586     0.000811672      -0.00949664       -0.228803
254600                -0.0256297       -0.190217     -0.000187057     7.65287e-05         0.140044       -0.971455      -0.00105659     -0.00214301
                    -0.000216662    -3.82212e-05         0.190326       -0.134567      -0.00123837      -0.0015144         0.899175        0.370487
                        0.140088       -0.971175      -0.00131394      -0.0022937       -0.0782308        0.175313      0.000250527      0.00109574
                    -0.000888422     -0.00172845         0.899007        0.370373      -5.6068e-05     0.000837948       -0.0401989       -0.229591
254800                -0.0367349       -0.170242     -0.000145631     9.18537e-05        0.0210164       -0.984631       -0.0013153     -0.00205574
                    -0.000196623    -1.42967e-05         0.182095       -0.151178      -0.00141926     -0.00135762         0.932038        0.274608
                       0.0211332       -0.984301      -0.00170178     -0.00233464       -0.0437807        0.168629      0.000413394     0.000994459
                     -0.00107324     -0.00162072         0.931958        0.274276      1.67637e-05     0.000854612       -0.0709353       -0.225786
255000                -0.0436082       -0.149964      -0.00010523     9.74652e-05       -0.0994525        -0.98289      -0.00156435     -0.00193317
                    -0.000171361     3.86762e-06         0.171948       -0.167059      -0.00157917     -0.00118114         0.954828         0.17594
                      -0.0992479       -0.982531       -0.0021996     -0.00235369       -0.0123888         0.15576      0.000512244     0.000866817
                     -0.00124542     -0.00149655         0.954772        0.175418      8.80056e-05     0.000862409        -0.101001       -0.217423
255200                -0.0463501       -0.130166     -6.70902e-05      9.4224e-05        -0.219394       -0.966021      -0.00179799     -0.00177619
                    -0.000141742     1.46041e-05         0.159985       -0.181949       -0.0017162    -0.000988042         0.967331        0.075511
                       -0.219095       -0.965659      -0.00288499      -0.0023004        0.0148154        0.137467      0.000559277     0.000744375
                     -0.00140427     -0.00135716         0.967251       0.0748406      0.000156944     0.000861981        -0.129705       -0.204642
255400                 -0.045206       -0.111593     -3.22528e-05     8.29094e-05        -0.336801       -0.934099      -0.00201058     -0.00158686
                    -0.000109268     1.61648e-05         0.146346        -0.19561      -0.00182895    -0.000781495         0.969432      -0.0256381
                       -0.336408       -0.933762      -0.00387942      -0.0019983        0.0368758        0.114733      0.000573189     0.000640199
                      -0.0015491     -0.00120354         0.969296      -0.0264102      0.000222979     0.000853857        -0.156381       -0.187689
255600                -0.0405566      -0.0949275     -1.66234e-06     6.42222e-05        -0.449673       -0.887493      -0.00219686     -0.00136834
                    -7.62621e-05     6.97176e-06         0.131202       -0.207822      -0.00191642    -0.000564678         0.961116       -0.126463
                       -0.449195       -0.887208      -0.00516126    -0.000888096         0.053056       0.0887159       0.00056873     0.000556162
                      -0.0016791     -0.00103653         0.960907       -0.127289      0.000285561     0.000838464         -0.18041        -0.16691
255800                -0.0329028      -0.0807592      2.37486e-05      3.8814e-05        -0.556069       -0.826866      -0.00235218      -0.0011248
                    -4.59518e-05    -1.39788e-05         0.114753       -0.218394      -0.00197802    -0.000340756         0.942464       -0.225922
                       -0.555524       -0.826655      -0.00542531      0.00168897        0.0628737       0.0607009      0.000555215     0.000489745
                     -0.00179332    -0.000856912         0.942179       -0.226759      0.000344138     0.000816145        -0.201229        -0.14274
256000                -0.0228442       -0.069566      4.29959e-05     7.33769e-06        -0.654153       -0.753159      -0.00247277    -0.000861268
                    -2.23433e-05    -4.65882e-05        0.0972265       -0.227165      -0.00201349    -0.000112856         0.913657       -0.322986
                       -0.653564       -0.753041      -0.00326533      0.00332531        0.0661228       0.0320416      0.000537948     0.000437481
                      -0.0018906    -0.000665492         0.913302       -0.323797       0.00039813       0.0007872        -0.218346       -0.115698
256200                -0.0110534      -0.0616952      5.49982e-05    -2.94824e-05        -0.742245       -0.667578      -0.00255592    -0.000583341
                    -9.75238e-06    -8.91377e-05        0.0788695       -0.234009      -0.00202292     0.000115914          0.87497       -0.416648
                        -0.74164       -0.667562      -0.00156901      0.00284097         0.062881      0.00409819      0.000519775     0.000396219
                     -0.00196962    -0.000463195         0.874559       -0.417402      0.000446907     0.000751923        -0.231353      -0.0863747
