! TOUCHSTONE file generated by CST MICROWAVE STUDIO
! Date and time: Sun Sep 28 21:29:16 2025
! Project name: biblioteca3_folgaOK.cst
! Parameters = {H=600; Lx=300; Ly=300; Nedge=8; P=520; mesh_pilar_nm=40; t_air=3500; t_sub=4000}
! Header version: 2018
! Port assignment regex: !\s*Touchstone port\s*([0-9]+)\s*=\s*(CST MWS port|CST DS port)\s*([0-9]+|Zmin|Zmax)\s*\(\"(.*)\"\)(\s*mode\s*([0-9]+))?.*
! Touchstone port assignment:
! Touchstone port 1 = CST MWS port Zmin ("") mode 1
! Touchstone port 2 = CST MWS port Zmin ("") mode 2
! Touchstone port 3 = CST MWS port Zmax ("") mode 1
! Touchstone port 4 = CST MWS port Zmax ("") mode 2
! S-Parameters are not renormalized. Each port impedance will be approximated by the real part at minimum frequency. The values are described via the [Reference] keyword.
! Default impedance is overridden by [Reference]
[Version] 2.0
# GHz S RI R 376.73
[Number of Ports] 4
[Reference]
376.73 376.73 376.73 376.73 
[Number of Frequencies] 401
[Network Data]
250000                  0.209316        0.217245      0.000256393     7.92507e-05         0.167822        0.938524      0.000710707    -0.000237538
                     0.000254654     8.12279e-05         0.211603        0.215825      0.000726973    -0.000170741         0.168142         0.93828
                        0.167823        0.938523       0.00072325    -0.000172562         0.121059       -0.276322     -0.000218762     -0.00035315
                     0.000714129    -0.000238322         0.168143        0.938285     -0.000220594    -0.000353411          0.12349       -0.275873
250200                  0.227504        0.194568      0.000277488     5.02695e-05         0.257078        0.918872       0.00068262    -0.000307406
                     0.000263344     5.51361e-05         0.229682        0.192773      0.000708698    -0.000237889         0.257384         0.91861
                         0.25708        0.918872      0.000704809    -0.000238959        0.0936227       -0.284329      -0.00022925    -0.000337967
                     0.000689702    -0.000310861         0.257391        0.918624     -0.000230977    -0.000338432        0.0962099        -0.28401
250400                  0.243011        0.170187      0.000295947     1.84515e-05         0.344177        0.890826       0.00064815    -0.000374595
                     0.000269871     2.51611e-05         0.245025        0.168036      0.000683769    -0.000303909         0.344472         0.89055
                         0.34418        0.890826      0.000679767    -0.000304178         0.065646       -0.289305      -0.00023935    -0.000323022
                     0.000657248    -0.000380596         0.344484        0.890567     -0.000240912    -0.000323709         0.068371       -0.289142
250600                  0.255655        0.144445      0.000311284     -1.6043e-05         0.428342        0.854607      0.000607499    -0.000438384
                     0.000274227    -9.67489e-06         0.257451        0.141965      0.000652219    -0.000367967         0.428629        0.854319
                        0.428346        0.854608      0.000648201    -0.000367399        0.0374888       -0.291212     -0.000249076    -0.000308288
                     0.000617216      -0.0004465         0.428643        0.854336     -0.000250425    -0.000309216        0.0403308       -0.291227
250800                  0.265299        0.117706      0.000322998    -5.29695e-05         0.508817        0.810507      0.000560971    -0.000498073
                     0.000277303     -5.0445e-05          0.26683         0.11493      0.000614212    -0.000429226         0.509097        0.810207
                        0.508821        0.810509      0.000610312    -0.000427814       0.00951269       -0.290056     -0.000258443    -0.000293737
                     0.000570205    -0.000507653         0.509113        0.810221     -0.000259539    -0.000294927        0.0124489        -0.29027
251000                  0.271856       0.0903473      0.000330598    -9.19907e-05         0.584872        0.758886      0.000508961    -0.000552995
                     0.000281474    -9.71813e-05         0.273079       0.0873173      0.000570044    -0.000486871         0.585146        0.758571
                        0.584876        0.758887      0.000566426    -0.000484652       -0.0179246       -0.285889     -0.000267463    -0.000279346
                     0.000516935    -0.000563258         0.585162        0.758581     -0.000268275    -0.000280818        -0.014919       -0.286317
251200                  0.275289       0.0627565      0.000333612    -0.000132671         0.655811        0.700166      0.000451959    -0.000602536
                     0.000289394    -0.000146661         0.276168       0.0595173      0.000520139    -0.000540135         0.656079        0.699835
                        0.655814        0.700168      0.000516979    -0.000537199       -0.0444743       -0.278804     -0.000276147    -0.000265094
                     0.000458216    -0.000612664         0.656094        0.699841      -0.00027665    -0.000266866       -0.0414257       -0.279459
251400                  0.275612       0.0353207      0.000331615    -0.000174473         0.720974        0.634838      0.000390532    -0.000646148
                     0.000299726    -0.000192885         0.276119       0.0319223      0.000465034    -0.000588324         0.721236        0.634486
                        0.720976         0.63484      0.000462506     -0.00058482       -0.0698021       -0.268938     -0.000284502    -0.000250963
                     0.000394914    -0.000655365         0.721249         0.63449      -0.00028468    -0.000253052       -0.0667383       -0.269829
251600                   0.27289      0.00842126      0.000324248    -0.000216763         0.779747         0.56345      0.000325317    -0.000683361
                      0.00030639    -0.000232946         0.273003      0.00491725      0.000405364    -0.000630839         0.780002        0.563074
                        0.779749        0.563452      0.000403619    -0.000626973       -0.0935926       -0.256464     -0.000292537    -0.000236934
                     0.000327923    -0.000691004         0.780011        0.563075      -0.00029238    -0.000239355       -0.0905426       -0.257599
251800                  0.267238      -0.0175729      0.000311245    -0.000258819         0.831564        0.486607      0.000257006    -0.000713794
                     0.000304565    -0.000268966         0.266942      -0.0211264      0.000341841    -0.000667187         0.831809        0.486204
                        0.831566        0.486609      0.000340989    -0.000663218        -0.115554       -0.241597     -0.000300257    -0.000222992
                     0.000258133    -0.000719365         0.831815        0.486202     -0.000299761    -0.000225758        -0.112548       -0.242977
252000                  0.258815      -0.0423115      0.000292451    -0.000299843         0.875913        0.404968       0.00018633    -0.000737159
                     0.000293284    -0.000303697         0.258107      -0.0458572      0.000275232    -0.000696997         0.876145        0.404534
                        0.875915         0.40497      0.000275323    -0.000693223        -0.135423        -0.22458     -0.000307667    -0.000209125
                     0.000186407    -0.000740356         0.876148        0.404531     -0.000306834    -0.000212244         -0.13249       -0.226205
252200                  0.247828      -0.0654693      0.000267845    -0.000338987         0.912344         0.31924      0.000114043    -0.000753267
                     0.000273345    -0.000338098         0.246709      -0.0689495      0.000206328     -0.00072002         0.912556        0.318773
                        0.912345        0.319242      0.000207345    -0.000716761        -0.152968       -0.205691     -0.000314771    -0.000195321
                     0.000113566    -0.000753996         0.912558        0.318769     -0.000313607    -0.000198796        -0.150138       -0.207553
252400                  0.234522      -0.0867511      0.000237553    -0.000375377         0.940467        0.230174      4.09029e-05    -0.000762028
                     0.000245684    -0.000371738         0.233004       -0.090109      0.000135926    -0.000736128         0.940655        0.229671
                        0.940468        0.230177      0.000137773    -0.000733705         -0.16799       -0.185231      -0.00032157    -0.000181571
                     4.03749e-05    -0.000760396         0.940654        0.229668     -0.000320088    -0.000185402        -0.165292       -0.187321
252600                  0.219177       -0.105897      0.000201859    -0.000408143         0.959963         0.13856     -3.23387e-05    -0.000763446
                      0.00021105    -0.000403552         0.217281       -0.109078      6.48028e-05    -0.000745309          0.96012        0.138021
                        0.959964        0.138563      6.73066e-05    -0.000744022         -0.18033       -0.163524     -0.000328067    -0.000167866
                    -3.24661e-05    -0.000759738         0.960118        0.138019     -0.000326283    -0.000172046        -0.177792       -0.165828
252800                  0.202109       -0.122687        0.0001612    -0.000436458         0.970584       0.0452218     -0.000104956    -0.000757616
                     0.000170116    -0.000432274         0.199861        -0.12564     -6.30141e-06    -0.000747656         0.970703       0.0446464
                        0.970586       0.0452246     -3.38579e-06    -0.000747758        -0.189869       -0.140912     -0.000334262    -0.000154203
                    -0.000104323    -0.000752261         0.970701       0.0446444     -0.000332196    -0.000158717        -0.187517       -0.143413
253000                  0.183657       -0.136944       0.00011616    -0.000459562         0.972161       -0.048992     -0.000176258    -0.000744713
                     0.000123619     -0.00045663         0.181092       -0.139622     -7.67019e-05    -0.000743348         0.972234      -0.0496027
                        0.972162      -0.0489895     -7.36784e-05    -0.000745026        -0.196531       -0.117751     -0.000340154    -0.000140577
                    -0.000174629    -0.000738243         0.972232      -0.0496042     -0.000337832    -0.000145403        -0.194387       -0.120425
253200                  0.164179       -0.148539      6.74545e-05    -0.000476802         0.964601       -0.143212     -0.000245602    -0.000724984
                     7.24486e-05     -0.00047546          0.16134         -0.1509     -0.000145778    -0.000732638         0.964621       -0.143855
                        0.964603        -0.14321     -0.000142991    -0.000735995        -0.200281      -0.0944012     -0.000345743    -0.000126988
                    -0.000242878    -0.000717987          0.96462       -0.143856     -0.000343192    -0.000132094        -0.198365      -0.0972238
253400                  0.144053       -0.157391      1.59027e-05     -0.00048765         0.947896       -0.236555     -0.000312397    -0.000698737
                     1.76716e-05     -0.00048779         0.140985       -0.159401     -0.000212982    -0.000715834         0.947855       -0.237228
                        0.947898       -0.236553     -0.000210793    -0.000720874         -0.20113      -0.0712289     -0.000351026    -0.000113438
                    -0.000308621    -0.000691809         0.947855       -0.237229     -0.000348278    -0.000118779        -0.199458      -0.0741721
253600                  0.123659       -0.163471     -3.75981e-05    -0.000491721         0.922121       -0.328135     -0.000376115     -0.00066633
                    -3.94913e-05    -0.000492895         0.120416       -0.165104     -0.000277841    -0.000693282         0.922011       -0.328831
                        0.922123       -0.328133     -0.000276598      -0.0006999        -0.199135      -0.0485963     -0.000356002    -9.99329e-05
                     -0.00037146     -0.00066003         0.922013       -0.328832     -0.000353089     -0.00010545        -0.197718      -0.0516298
253800                  0.103382       -0.166803     -9.21063e-05    -0.000488787         0.887437       -0.417066     -0.000436289    -0.000628157
                    -9.77171e-05    -0.000490341         0.100019       -0.168039     -0.000339955    -0.000665347         0.887252       -0.417779
                        0.887439       -0.417064     -0.000339964     -0.00067333        -0.194397      -0.0268579     -0.000360666    -8.64813e-05
                    -0.000431037    -0.000622969         0.887255       -0.417781     -0.000357625    -9.21014e-05         -0.19324      -0.0299502
254000                 0.0835996       -0.167464     -0.000146668    -0.000478773         0.844093       -0.502474      -0.00049252    -0.000584637
                    -0.000155652    -0.000479995        0.0801748       -0.168291     -0.000398998      -0.0006324         0.843826       -0.503196
                        0.844094       -0.502473     -0.000400486    -0.000641432        -0.187059      -0.0063548     -0.000365015    -7.30963e-05
                    -0.000487025    -0.000580936          0.84383       -0.503199     -0.000361884    -7.87259e-05        -0.186166     -0.00947368
254200                 0.0646776       -0.165582     -0.000200346    -0.000461754         0.792422       -0.583504      -0.00054447    -0.000536208
                    -0.000211988    -0.000462021        0.0612504       -0.165999     -0.000454709    -0.000594805         0.792069       -0.584227
                        0.792423       -0.583504     -0.000457788    -0.000604477        -0.177311       0.0125905     -0.000369046     -5.9796e-05
                    -0.000539125    -0.000534235         0.792073       -0.584231     -0.000365862    -6.53193e-05        -0.176677      0.00947695
254400                 0.0469614       -0.161336     -0.000252248    -0.000437937         0.732844       -0.659331     -0.000591866    -0.000483308
                    -0.000265528    -0.000436839        0.0435906        -0.16135     -0.000506884    -0.000552902           0.7324       -0.660045
                        0.732846       -0.659331     -0.000511516    -0.000562738        -0.165377       0.0296796     -0.000372754    -4.66045e-05
                    -0.000587049    -0.000483158         0.732405        -0.66005     -0.000369554    -5.18787e-05        -0.164995       0.0266022
254600                 0.0307693       -0.154954     -0.000301541    -0.000407651         0.665865       -0.729165     -0.000634499    -0.000426377
                    -0.000315241     -0.00040508        0.0275124       -0.154582     -0.000555372    -0.000507003         0.665326       -0.729858
                        0.665866       -0.729165     -0.000561327    -0.000516492        -0.151525       0.0446431     -0.000376136    -3.35534e-05
                    -0.000630519     -0.00042799         0.665331       -0.729864     -0.000372955    -3.84031e-05        -0.151381       0.0416306
254800                 0.0163865       -0.146708     -0.000347474    -0.000371319         0.592067       -0.792263     -0.000672213    -0.000365839
                    -0.000360294    -0.000367517        0.0132974       -0.145973     -0.000600059    -0.000457373         0.591433       -0.792922
                        0.592068       -0.792263     -0.000606883    -0.000466016        -0.136052       0.0572454     -0.000379186    -2.06833e-05
                    -0.000669256    -0.000369009         0.591437       -0.792929     -0.000376057    -2.48937e-05        -0.136129       0.0543238
255000                0.00405772       -0.136911     -0.000389376    -0.000329439         0.512114       -0.847934     -0.000704914    -0.000302101
                    -0.000400059    -0.000325007       0.00118649       -0.135847     -0.000640861    -0.000404226         0.511384       -0.848548
                        0.512115       -0.847935     -0.000647842    -0.000411596        -0.119286       0.0672888     -0.000381901    -8.04643e-06
                    -0.000702972    -0.000306494         0.511387       -0.848554     -0.000378853    -1.13542e-05        -0.119563       0.0644808
255200               -0.00601784       -0.125911     -0.000426666    -0.000282566          0.42674       -0.895552     -0.000732558    -0.000235544
                    -0.000434107    -0.000278428      -0.00862688       -0.124557     -0.000677711    -0.000347714         0.425915       -0.896108
                        0.426741       -0.895553     -0.000683851    -0.000353536        -0.101583       0.0746177     -0.000384279     4.29031e-06
                    -0.000731367    -0.000240727         0.425917       -0.896114     -0.000381332     2.20878e-06        -0.102036       0.0719416
255400                -0.0136921       -0.114084     -0.000458846    -0.000231294         0.336746       -0.934562     -0.000755158    -0.000166516
                    -0.000462184    -0.000228637       -0.0160011       -0.112486     -0.000710543    -0.000287912         0.335828       -0.935045
                        0.336746       -0.934563      -0.00071454    -0.000292167       -0.0833138       0.0791214     -0.000386316     1.62409e-05
                    -0.000754117    -0.000172006         0.335829        -0.93505      -0.00038348     1.57847e-05       -0.0839167       0.0765911
255600                -0.0188722       -0.101831     -0.000485498    -0.000176236         0.242992       -0.964485     -0.000772783    -9.53269e-05
                    -0.000484182    -0.000176432       -0.0208507       -0.100041     -0.000739271    -0.000224803         0.241988       -0.964881
                        0.242993       -0.964486     -0.000739524    -0.000227861       -0.0648676       0.0807367      -0.00038801     2.76942e-05
                    -0.000770876    -0.000100651         0.241988       -0.964884     -0.000385284     2.93584e-05       -0.0655926       0.0783613
255800                 -0.021524       -0.089564     -0.000506268     -0.00011802         0.146393       -0.984926     -0.000785568    -2.22419e-05
                    -0.000500101    -0.000122531       -0.0231498      -0.0876367     -0.000763765    -0.000158261         0.145308       -0.985222
                        0.146394       -0.984927     -0.000758399     -0.00016105       -0.0466394       0.0794495     -0.000389363     3.85046e-05
                    -0.000781265    -2.70181e-05         0.145308       -0.985224     -0.000386724     4.29091e-05       -0.0474585        0.077233
256000                -0.0216741      -0.0777042     -0.000520867     -5.7275e-05        0.0479052       -0.995584     -0.000793722     5.25291e-05
                    -0.000510014    -6.75608e-05       -0.0229336      -0.0756981     -0.000783809    -8.80215e-05        0.0467485       -0.995766
                       0.0479059       -0.995585     -0.000770758    -9.22418e-05       -0.0290267       0.0752957     -0.000390374     4.84798e-05
                    -0.000784875     4.84838e-05        0.0467477       -0.995765     -0.000387779     5.64088e-05        -0.029912       0.0732369
256200                -0.0194114      -0.0666701      -0.00052905     5.36807e-06       -0.0514799       -0.996249     -0.000797555      0.00012884
                    -0.000514036     -1.2057e-05       -0.0202997      -0.0646448     -0.000799034    -1.36514e-05       -0.0526978       -0.996304
                      -0.0514792       -0.996251     -0.000776198    -2.20435e-05       -0.0124221       0.0683607     -0.000391047      5.7361e-05
                    -0.000781262     0.000125376       -0.0526984       -0.996301     -0.000388418     6.98199e-05        -0.013347       0.0664536
