! TOUCHSTONE file generated by CST MICROWAVE STUDIO
! Date and time: Mon Sep 22 15:52:55 2025
! Project name: biblioteca3_folgaOK.cst
! Parameters = {Nedge=28; mesh_pilar_nm=40; t_sub=2000; t_air=1200; k=0; n=0; wavelength_nm=0; H=600; Lx=200; Ly=260; P=520}
! Header version: 2018
! Port assignment regex: !\s*Touchstone port\s*([0-9]+)\s*=\s*(CST MWS port|CST DS port)\s*([0-9]+|Zmin|Zmax)\s*\(\"(.*)\"\)(\s*mode\s*([0-9]+))?.*
! Touchstone port assignment:
! Touchstone port 1 = CST MWS port Zmin ("") mode 1
! Touchstone port 2 = CST MWS port Zmin ("") mode 2
! Touchstone port 3 = CST MWS port Zmax ("") mode 1
! Touchstone port 4 = CST MWS port Zmax ("") mode 2
! S-Parameters are not renormalized. Each port impedance will be approximated by the real part at minimum frequency. The values are described via the [Reference] keyword.
! Default impedance is overridden by [Reference]
[Version] 2.0
# GHz S RI R 376.73
[Number of Ports] 4
[Reference]
376.73 376.73 376.73 376.73 
[Number of Frequencies] 401
[Network Data]
250000                 -0.225604       -0.219249      -0.00102153    -0.000410561        -0.942812       -0.110275     -0.000564519     0.000760859
                     -0.00104984    -0.000424228        0.0643054       -0.179511     -0.000513889     0.000493655        0.0681109       -0.979246
                       -0.942827       -0.110293     -0.000505477     0.000526558         0.270104       -0.161272      0.000344785     0.000730508
                    -0.000562115     0.000725599        0.0679657       -0.979243      0.000358635     0.000778663        0.0388315        0.186669
250200                 -0.231043       -0.202995      -0.00105044    -0.000357717        -0.948622      -0.0568667     -0.000531354     0.000784629
                     -0.00108557    -0.000360939        0.0597137       -0.184357     -0.000500368     0.000522943        0.0272279       -0.980621
                       -0.948771      -0.0569746     -0.000491909     0.000551187         0.254246       -0.172655      0.000367547     0.000725363
                    -0.000473275     0.000762405        0.0271083        -0.98059      0.000388061     0.000776365        0.0493416        0.187372
250400                 -0.235163       -0.186423      -0.00107715    -0.000301713        -0.951856     -0.00323867     -0.000496853     0.000807053
                     -0.00111734     -0.00029514        0.0547993       -0.189023     -0.000485205     0.000552291       -0.0136858       -0.980299
                       -0.952067     -0.00338354     -0.000477237     0.000576096         0.237569       -0.182717      0.000390591     0.000719697
                     -0.00039376     0.000795207       -0.0137835       -0.980247      0.000417699     0.000773594        0.0599669        0.187409
250600                 -0.237922       -0.169657      -0.00110132    -0.000242578        -0.952417       0.0505909     -0.000461084     0.000828045
                     -0.00114496    -0.000227055        0.0495719       -0.193485     -0.000468349     0.000581604       -0.0545609       -0.978279
                       -0.952639       0.0504397     -0.000461394     0.000601263         0.220187       -0.191362      0.000413916     0.000713487
                    -0.000322575     0.000824601       -0.0546406       -0.978212      0.000447512     0.000770353        0.0706632         0.18677
250800                 -0.239293       -0.152829      -0.00112258    -0.000180384        -0.950207        0.104567     -0.000424124     0.000847525
                     -0.00116828    -0.000156924        0.0440427       -0.197723     -0.000449753     0.000610784       -0.0953282       -0.974566
                       -0.950407        0.104426     -0.000444312     0.000626659         0.202229       -0.198504      0.000437517     0.000706711
                    -0.000258967      0.00085096       -0.0953936       -0.974487      0.000477451     0.000766648        0.0813855        0.185447
251000                  -0.23926       -0.136074      -0.00114055    -0.000115245        -0.945133        0.158604     -0.000386053     0.000865415
                     -0.00118713    -8.49983e-05        0.0382242       -0.201717     -0.000429379     0.000639723        -0.135919       -0.969162
                        -0.94529         0.15848     -0.000425921     0.000652249         0.183835       -0.204071      0.000461392     0.000699343
                    -0.000202346     0.000874457        -0.135973       -0.969076      0.000507458     0.000762485         0.092088        0.183436
251200                 -0.237826       -0.119531      -0.00115484    -4.73253e-05        -0.937109        0.212588     -0.000346959     0.000881647
                     -0.00120137    -1.15434e-05        0.0321305       -0.205445     -0.000407195      0.00066831        -0.176265       -0.962077
                       -0.937212        0.212482     -0.000406143     0.000677995         0.165155       -0.208005      0.000485536     0.000691358
                    -0.000152224     0.000895082        -0.176311       -0.961986      0.000537464     0.000757864         0.102725        0.180734
251400                 -0.235008       -0.103341      -0.00116507     2.31581e-05        -0.926059        0.266381     -0.000306933     0.000896157
                     -0.00121089     6.31631e-05         0.025777       -0.208891     -0.000383178     0.000696427        -0.216297       -0.953321
                       -0.926102        0.266293       -0.0003849     0.000703848         0.146352       -0.210263      0.000509943      0.00068273
                    -0.000108144     0.000912659        -0.216339       -0.953226      0.000567383     0.000752782         0.113249        0.177344
251600                  -0.23084      -0.0876401      -0.00117086     9.59314e-05        -0.911919        0.319824     -0.000266071     0.000908889
                     -0.00121557     0.000138833        0.0191805       -0.212035     -0.000357315     0.000723952        -0.255949       -0.942906
                       -0.911901        0.319751     -0.000362109     0.000729756         0.127594       -0.210823      0.000534606     0.000673431
                    -6.96108e-05     0.000926872        -0.255989        -0.94281      0.000597115     0.000747227         0.123614        0.173271
251800                 -0.225371       -0.072565      -0.00117186     0.000170664        -0.894637        0.372741     -0.000224472     0.000919795
                     -0.00121532     0.000215166        0.0123589       -0.214862     -0.000329601     0.000750762        -0.295154       -0.930848
                       -0.894563        0.372679     -0.000337684     0.000755653         0.109055        -0.20968      0.000559519     0.000663434
                    -3.60269e-05     0.000937326        -0.295194       -0.930752      0.000626546     0.000741172         0.133774        0.168523
252000                 -0.218666      -0.0582451      -0.00116772     0.000246965         -0.87418        0.424937     -0.000182239     0.000928832
                     -0.00121007     0.000291855       0.00533127       -0.217355     -0.000300044     0.000776729        -0.333845       -0.917166
                       -0.874055        0.424885     -0.000311537     0.000781468        0.0909118       -0.206849      0.000584672     0.000652708
                    -6.64931e-06     0.000943613        -0.333887        -0.91707      0.000655543     0.000734572         0.143683        0.163111
252200                 -0.210806      -0.0448029      -0.00115815     0.000324391        -0.850532        0.476208     -0.000139476     0.000935969
                     -0.00119978     0.000368583      -0.00188235       -0.219502     -0.000268661     0.000801727        -0.371957       -0.901879
                       -0.850364        0.476165     -0.000283576     0.000807115        0.0733409       -0.202368      0.000610055     0.000641224
                     1.94214e-05     0.000945412        -0.372004       -0.901783      0.000683963     0.000727352         0.153297         0.15705
252400                 -0.201884      -0.0323512      -0.00114292     0.000402446        -0.823697        0.526337     -9.62875e-05     0.000941179
                      -0.0011844     0.000445028       -0.0092609       -0.221288     -0.000235483     0.000825631        -0.409426       -0.885011
                       -0.823493        0.526302     -0.000253709     0.000832499        0.0565167       -0.196296      0.000635658     0.000628949
                     4.32041e-05     0.000942581        -0.409478       -0.884915      0.000711655     0.000719404         0.162569        0.150357
252600                 -0.192007      -0.0209922      -0.00112183     0.000480587          -0.7937        0.575101     -5.27803e-05     0.000944445
                     -0.00116393     0.000520862       -0.0167825       -0.222703     -0.000200549     0.000848318        -0.446188       -0.866586
                       -0.793466        0.575074     -0.000221843     0.000857508        0.0406074       -0.188712      0.000661467     0.000615851
                     6.57559e-05     0.000935222        -0.446246        -0.86649      0.000738473     0.000710579         0.171459        0.143054
252800                 -0.181292      -0.0108152      -0.00109476     0.000558237        -0.760587        0.622272     -9.05979e-06     0.000945756
                     -0.00113839     0.000595752       -0.0244244       -0.223737      -0.00016391      0.00086967        -0.482181       -0.846631
                       -0.760329        0.622253     -0.000187885     0.000882018        0.0257725       -0.179716      0.000687468     0.000601897
                     8.80635e-05     0.000923699        -0.482245       -0.846536      0.000764288     0.000700682         0.179923        0.135163
253000                 -0.169866       -0.001896      -0.00106168     0.000634795        -0.724426        0.667619      3.47695e-05     0.000945109
                      -0.0011078     0.000669366       -0.0321633       -0.224381     -0.000125625     0.000889577        -0.517343       -0.825178
                       -0.724152        0.667611     -0.000151744     0.000905887        0.0121601       -0.169428      0.000713645      0.00058705
                     0.000110939     0.000908603        -0.517413       -0.825081      0.000789005     0.000689474         0.187922        0.126711
253200                 -0.157862      0.00570462      -0.00102262     0.000709646         -0.68531        0.710914      7.86045e-05     0.000942509
                     -0.00107222     0.000741369       -0.0399754       -0.224627      -8.5762e-05     0.000907935        -0.551612       -0.802256
                       -0.685023        0.710917     -0.000113333     0.000928955     -9.59347e-05       -0.157986      0.000739981     0.000571274
                     0.000134951     0.000890662        -0.551689       -0.802158      0.000812585     0.000676685         0.195416        0.117728
253400                 -0.145421       0.0119412       -0.0009777     0.000782178        -0.643352        0.751931      0.000122344     0.000937968
                     -0.00103173     0.000811428       -0.0478362       -0.224471     -4.43963e-05     0.000924651        -0.584931       -0.777901
                       -0.643057        0.751948     -7.25707e-05     0.000951043       -0.0108783       -0.145544      0.000766455     0.000554534
                     0.000160401     0.000870643        -0.585015       -0.777801      0.000835057     0.000662029         0.202369        0.108245
253600                 -0.132687       0.0167841     -0.000927137     0.000851797        -0.598691        0.790454      0.000165891     0.000931502
                    -0.000986447     0.000879214       -0.0557209       -0.223908     -1.60621e-06     0.000939642         -0.61724       -0.752149
                       -0.598389        0.790486     -2.93847e-05     0.000971951       -0.0200884       -0.132268      0.000793046      0.00053679
                     0.000187355     0.000849258         -0.61733       -0.752047      0.000856529     0.000645231         0.208745       0.0982976
253800                 -0.119802       0.0202199     -0.000871213      0.00091794        -0.551483        0.826272       0.00020915     0.000923136
                    -0.000936484       0.0009444       -0.0636045       -0.222936      4.25281e-05     0.000952838        -0.648483       -0.725037
                       -0.551178         0.82632      1.62859e-05      0.00099146       -0.0276481       -0.118337      0.000819729     0.000518002
                     0.000215697     0.000827106        -0.648578       -0.724932      0.000877183     0.000626062         0.214513       0.0879221
254000                 -0.106913       0.0222511     -0.000810287      0.00098009        -0.501909         0.85919      0.000252029     0.000912899
                    -0.000881995      0.00100667       -0.0714617       -0.221554      8.79283e-05     0.000964179        -0.678604       -0.696607
                         -0.5016        0.859255      6.44868e-05      0.00100933       -0.0335008       -0.103937      0.000846477      0.00049813
                     0.000245197     0.000804638        -0.678703       -0.696499      0.000897253      0.00060436         0.219642        0.077158
254200                -0.0941616       0.0228954     -0.000744783      0.00103779        -0.450165        0.889026      0.000294442     0.000900825
                    -0.000823154      0.00106571       -0.0792671       -0.219763      0.000134521      0.00097362        -0.707548         -0.6669
                       -0.449853        0.889108      0.000115244      0.00102528       -0.0376124       -0.089261       0.00087326     0.000477133
                     0.000275571     0.000782163        -0.707651       -0.666788      0.000917001     0.000580055         0.224103       0.0660465
254400                -0.0816859       0.0221861     -0.000675174      0.00109064        -0.396466        0.915614      0.000336307     0.000886952
                    -0.000760155      0.00112122       -0.0869953       -0.217565      0.000182243     0.000981123        -0.735263       -0.635961
                       -0.396152        0.915714       0.00016856      0.00103904        -0.039972      -0.0745019      0.000900048     0.000454967
                     0.000306526     0.000759865        -0.735367       -0.635846      0.000936681     0.000553167         0.227873       0.0546312
254600                -0.0696187       0.0201701     -0.000601975      0.00113834        -0.341043         0.93881      0.000377544     0.000871323
                    -0.000693216      0.00117292       -0.0946211       -0.214965      0.000231042     0.000986661        -0.761695       -0.603837
                       -0.340727        0.938925      0.000224409       0.0010503       -0.0405915      -0.0598537      0.000926803      0.00043159
                      0.00033779     0.000737828        -0.761801       -0.603717      0.000956503       0.0005238         0.230928       0.0429573
254800                -0.0580859       0.0169081     -0.000525718      0.00118064        -0.284139        0.958487       0.00041808     0.000853985
                    -0.000622574      0.00122053        -0.102119       -0.211967      0.000280885     0.000990211        -0.786796       -0.570574
                        -0.28382        0.958616      0.000282729      0.00105873        -0.039505       -0.045506      0.000953487     0.000406956
                     0.000369127     0.000716064        -0.786902       -0.570452      0.000976615     0.000492112         0.233249       0.0310717
255000                -0.0472048       0.0124726     -0.000446949      0.00121739        -0.225917        0.974147      0.000457846     0.000834986
                    -0.000548487      0.00126378        -0.109465        -0.20858       0.00033176     0.000991749        -0.810517       -0.536224
                        -0.22558        0.974225       0.00034342      0.00106399       -0.0367685      -0.0316422      0.000980057     0.000381021
                     0.000400341     0.000694535        -0.810621       -0.536099      0.000997092     0.000458295         0.234819        0.019023
255200                -0.0370833      0.00694749     -0.000366203      0.00124849        -0.166761        0.985997      0.000496778     0.000814378
                    -0.000471231      0.00130244        -0.116634       -0.204811      0.000383678     0.000991244        -0.832809       -0.500839
                        -0.16642        0.986055      0.000406336      0.00106572        -0.032458      -0.0184368       0.00100647     0.000353738
                     0.000431278     0.000673173        -0.832911       -0.500711       0.00101794     0.000422546         0.235624      0.00686073
255400                -0.0278189     0.000426143     -0.000283999      0.00127395        -0.106986         0.99426      0.000534818     0.000792213
                    -0.000391102      0.00133629        -0.123602       -0.200671      0.000436677     0.000988652        -0.853628       -0.464473
                       -0.106646        0.994297      0.000471283      0.00106358       -0.0266685     -0.00605276       0.00103267     0.000325061
                     0.000461818     0.000651895        -0.853726       -0.464342       0.00103909     0.000385045         0.235655     -0.00536398
255600                -0.0194978     -0.00698952     -0.000200824      0.00129381       -0.0468304        0.998903      0.000571909     0.000768547
                     -0.00030841      0.00136511        -0.130345       -0.196173       0.00049082     0.000983902        -0.872928       -0.427181
                       -0.046495        0.998919      0.000538009       0.0010572       -0.0195121      0.00536011       0.00105861     0.000294944
                     0.000491871     0.000630607        -0.873022       -0.427048       0.00106045     0.000345946         0.234905      -0.0175993
255800                -0.0121943      -0.0151906     -0.000117124      0.00130818        0.0134684        0.999909      0.000608003     0.000743435
                    -0.000223479      0.00138873        -0.136841       -0.191329      0.000546195     0.000976886        -0.890669       -0.389022
                       0.0137947        0.999905      0.000606208      0.00104625       -0.0111155       0.0156671       0.00108422     0.000263338
                     0.000521371     0.000609218        -0.890756       -0.388888       0.00108187     0.000305373          0.23337      -0.0297924
256000               -0.00597017      -0.0240624     -3.33025e-05      0.00131719        0.0736723        0.997283      0.000643053     0.000716933
                     -0.00013665      0.00140697        -0.143067       -0.186154      0.000602906     0.000967446        -0.906808       -0.350054
                       0.0739855        0.997259      0.000675512       0.0010304      -0.00161856       0.0247501       0.00110945     0.000230196
                      0.00055027     0.000587636        -0.906889        -0.34992        0.0011032     0.000263416          0.23105      -0.0418902
256200              -0.000874793      -0.0334861      5.02888e-05      0.00132105         0.133545        0.991043      0.000677018     0.000689099
                    -4.82733e-05      0.00141971        -0.149002       -0.180666      0.000661067      0.00095536        -0.921308       -0.310339
                        0.133842        0.991003      0.000745497      0.00100937       0.00882834       0.0325083       0.00113421     0.000195472
                     0.000578536     0.000565776        -0.921382       -0.310205       0.00112428     0.000220135         0.227948      -0.0538389
