! TOUCHSTONE file generated by CST MICROWAVE STUDIO
! Date and time: Mon Sep 22 15:52:52 2025
! Project name: biblioteca3_folgaOK.cst
! Parameters = {Nedge=12; mesh_pilar_nm=40; t_sub=2000; t_air=1200; k=0; n=0; wavelength_nm=0; H=600; Lx=200; Ly=260; P=520}
! Header version: 2018
! Port assignment regex: !\s*Touchstone port\s*([0-9]+)\s*=\s*(CST MWS port|CST DS port)\s*([0-9]+|Zmin|Zmax)\s*\(\"(.*)\"\)(\s*mode\s*([0-9]+))?.*
! Touchstone port assignment:
! Touchstone port 1 = CST MWS port Zmin ("") mode 1
! Touchstone port 2 = CST MWS port Zmin ("") mode 2
! Touchstone port 3 = CST MWS port Zmax ("") mode 1
! Touchstone port 4 = CST MWS port Zmax ("") mode 2
! S-Parameters are not renormalized. Each port impedance will be approximated by the real part at minimum frequency. The values are described via the [Reference] keyword.
! Default impedance is overridden by [Reference]
[Version] 2.0
# GHz S RI R 376.73
[Number of Ports] 4
[Reference]
376.73 376.73 376.73 376.73 
[Number of Frequencies] 401
[Network Data]
250000                 -0.211198       -0.225394      0.000474148    -0.000372246        -0.938772       -0.153225       0.00039566    -0.000819792
                     0.000428338    -0.000368501        0.0645226       -0.177601      0.000992644     -1.5923e-05         0.070351       -0.979481
                       -0.938691       -0.154089      0.000961072    -1.90558e-05         0.272032       -0.146333      0.000350837     1.05601e-05
                     0.000326129     -0.00082485        0.0704989       -0.979565      0.000462123     8.82394e-07        0.0384444        0.184996
250200                 -0.217097       -0.209684      0.000430617    -0.000403347        -0.948018       -0.101833      0.000364233    -0.000832909
                     0.000394587    -0.000422219         0.059888       -0.182429       0.00100303    -6.23905e-05        0.0295017       -0.980973
                       -0.947896         -0.1026      0.000986421    -4.83669e-05         0.256795       -0.158643      0.000367622     1.47081e-05
                     0.000278796    -0.000844893        0.0296406       -0.981048       0.00047416    -2.91782e-06        0.0487774        0.185699
250400                 -0.221733       -0.193728      0.000384845    -0.000432813        -0.954497      -0.0496158      0.000331799    -0.000846014
                     0.000355933    -0.000472358        0.0549347       -0.187059       0.00101156    -0.000110871       -0.0113791        -0.98077
                       -0.954344      -0.0503046         0.001011    -8.11976e-05         0.240725       -0.169597      0.000386319     1.78766e-05
                     0.000234277    -0.000858079       -0.0112424       -0.980846      0.000486697      -7.479e-06        0.0592155        0.185738
250600                 -0.225086       -0.177634      0.000336873    -0.000460432        -0.958121       0.0032809      0.000298367    -0.000859067
                     0.000312688    -0.000518638         0.049674       -0.191471       0.00101803    -0.000161317       -0.0522227       -0.978872
                       -0.957949      0.00265595       0.00103436    -0.000117811         0.223941       -0.179118       0.00040695     1.97421e-05
                     0.000193303    -0.000867193       -0.0520843       -0.978958      0.000499737    -1.28872e-05        0.0697149        0.185106
250800                 -0.227142       -0.161511      0.000286758    -0.000485988        -0.958812       0.0567005      0.000263947     -0.00087202
                     0.000265165    -0.000560789        0.0441186       -0.195645       0.00102219    -0.000213654       -0.0929608       -0.975284
                       -0.958632       0.0561291         0.001056    -0.000158443         0.206573       -0.187138      0.000429479     1.99512e-05
                     0.000155485    -0.000874273       -0.0928186       -0.975385      0.000513278    -1.92343e-05        0.0802315        0.183797
251000                   -0.2279       -0.145472      0.000234577    -0.000509255        -0.956499        0.110477       0.00022855    -0.000884816
                      0.00021369    -0.000598554        0.0382824       -0.199562       0.00102379    -0.000267784        -0.133525        -0.97001
                       -0.956321        0.109953       0.00107528    -0.000203282         0.188759         -0.1936      0.000453802     1.81318e-05
                     0.000120021    -0.000880565        -0.133379        -0.97013      0.000527312    -2.66181e-05        0.0907207        0.181809
251200                 -0.227367       -0.129631      0.000180427    -0.000530003        -0.951121        0.164437      0.000192186    -0.000897387
                     0.000158596    -0.000631683        0.0321804       -0.203204       0.00102259    -0.000323578        -0.173849       -0.963058
                       -0.950952        0.163955       0.00109151    -0.000252446         0.170641       -0.198464      0.000479735     1.39087e-05
                     8.60663e-05     -0.00088673        -0.173699       -0.963202      0.000541824    -3.51413e-05         0.101138        0.179143
251400                 -0.225563       -0.114101      0.000124427    -0.000547997        -0.942626        0.218397      0.000154866    -0.000909656
                     0.000100229     -0.00065994        0.0258289       -0.206555       0.00101834    -0.000380874        -0.213864       -0.954439
                       -0.942472        0.217955       0.00110389    -0.000305955          0.15237         -0.2017      0.000507009     6.92316e-06
                     5.28854e-05    -0.000893052        -0.213712       -0.954607       0.00055679    -4.49115e-05         0.111438        0.175801
251600                 -0.222516      -0.0989952      6.67217e-05    -0.000562998        -0.930974        0.272166      0.000116599    -0.000921537
                     3.89503e-05    -0.000683102        0.0192453       -0.209597       0.00101081    -0.000439478        -0.253504       -0.944166
                        -0.93084        0.271763       0.00111156    -0.000363698         0.134099       -0.203293      0.000535271    -3.14374e-06
                     1.98848e-05    -0.000899598        -0.253352        -0.94436      0.000572179    -5.60397e-05         0.121576        0.171792
251800                 -0.218267       -0.084425      7.47781e-06     -0.00057477        -0.916138        0.325546      7.73895e-05    -0.000932935
                    -2.48654e-05    -0.000700961        0.0124479       -0.212316      0.000999739    -0.000499161        -0.292703       -0.932254
                       -0.916027        0.325184        0.0011136    -0.000425403         0.115984       -0.203247      0.000564092    -1.65475e-05
                    -1.33997e-05    -0.000906309        -0.292553       -0.932472      0.000587945    -6.86398e-05         0.131508        0.167123
252000                 -0.212868      -0.0704979     -5.31104e-05    -0.000583075        -0.898106        0.378334      3.72439e-05    -0.000943746
                     -9.0826e-05    -0.000713323       0.00545614       -0.214699      0.000984921    -0.000559657        -0.331396       -0.918721
                       -0.898018        0.378012       0.00110906    -0.000490606        0.0981807       -0.201577      0.000592977    -3.34576e-05
                    -4.73266e-05    -0.000913059         -0.33125       -0.918962      0.000604031    -8.28268e-05         0.141191        0.161806
252200                 -0.206381      -0.0573179     -0.000114822    -0.000587683        -0.876879        0.430319     -3.83574e-06    -0.000953856
                    -0.000158523    -0.000720017      -0.00170989       -0.216732      0.000966149    -0.000620665        -0.369518       -0.903586
                       -0.876812        0.430039       0.00109704    -0.000558629        0.0808465       -0.198317      0.000621396    -5.39401e-05
                    -8.21728e-05    -0.000919689        -0.369377       -0.903849      0.000620364    -9.87148e-05         0.150581        0.155858
252400                 -0.198878      -0.0449831      -0.00017741    -0.000588369        -0.852472        0.481289     -4.58489e-05    -0.000963144
                    -0.000227531    -0.000720891      -0.00902911       -0.218403      0.000943246    -0.000681848        -0.407006       -0.886873
                       -0.852426        0.481051       0.00107674    -0.000628566        0.0641347       -0.193516      0.000648803    -7.79473e-05
                    -0.000118153    -0.000926017         -0.40687       -0.887154      0.000636856    -0.000116416         0.159635        0.149294
252600                 -0.190443      -0.0335852     -0.000240597    -0.000584922         -0.82492        0.531026     -8.87968e-05    -0.000971481
                    -0.000297409    -0.000715819       -0.0164797       -0.219704      0.000916066    -0.000742839        -0.443795       -0.868606
                       -0.824891        0.530831       0.00104751    -0.000699298        0.0481948        -0.18724      0.000674677    -0.000105317
                    -0.000155432     -0.00093185        -0.443666       -0.868901      0.000653399    -0.000136036         0.168313        0.142137
252800                 -0.181167      -0.0232079     -0.000304082    -0.000577141        -0.794273        0.579315     -0.000132682    -0.000978733
                    -0.000367697      -0.0007047       -0.0240393       -0.220624        0.0008845    -0.000803241        -0.479824       -0.848811
                       -0.794256        0.579161       0.00100893    -0.000769521        0.0331701        -0.17957      0.000698542    -0.000135783
                     -0.00019414    -0.000936988        -0.479702       -0.849118      0.000669868    -0.000157673         0.176575        0.134409
253000                 -0.171152      -0.0139261     -0.000367535    -0.000564845        -0.760598        0.625938     -0.000177506    -0.000984757
                    -0.000437925    -0.000687464       -0.0316849       -0.221158      0.000848485     -0.00086263        -0.515032       -0.827518
                        -0.76059        0.625823      0.000960891    -0.000837803        0.0191961       -0.170602      0.000720002     -0.00016899
                    -0.000234372    -0.000941223        -0.514917       -0.827834      0.000686116    -0.000181416         0.184381        0.126136
253200                 -0.160507     -0.00580479       -0.0004306    -0.000547875        -0.723981         0.67068      -0.00022327    -0.000989406
                    -0.000507605    -0.000664073       -0.0393929       -0.221297      0.000808006    -0.000920566        -0.549359       -0.804757
                       -0.723977        0.670601      0.000903638    -0.000902663       0.00639873       -0.160448       0.00073875    -0.000204523
                    -0.000276199    -0.000944343         -0.54925       -0.805079      0.000701974    -0.000207336         0.191694        0.117346
253400                 -0.149348       0.0011023     -0.000492898    -0.000526096        -0.684527         0.71333     -0.000269975    -0.000992525
                    -0.000576241    -0.000634526       -0.0471393       -0.221039      0.000763099    -0.000976599        -0.582744       -0.780563
                       -0.684523        0.713283      0.000837775    -0.000962674      -0.00510764       -0.149234      0.000754584    -0.000241932
                    -0.000319667    -0.000946129        -0.582641       -0.780888      0.000717257    -0.000235489          0.19848        0.108071
253600                 -0.137797      0.00675312     -0.000554028      -0.0004994        -0.642356        0.753683     -0.000317615    -0.000993958
                     -0.00064333    -0.000598856       -0.0548999       -0.220379      0.000713859     -0.00103027        -0.615131       -0.754969
                        -0.64235        0.753664      0.000764263     -0.00101656       -0.0152217       -0.137095      0.000767402    -0.000280761
                    -0.000364798    -0.000946355        -0.615031       -0.755296      0.000731756    -0.000265906         0.204704       0.0983444
253800                 -0.125979       0.0111182      -0.00061357    -0.000467716        -0.597609         0.79154     -0.000366181    -0.000993539
                     -0.00070836    -0.000557139       -0.0626501       -0.219317      0.000660436     -0.00108113        -0.646461       -0.728015
                       -0.597597        0.791544      0.000684366      -0.0010633       -0.0238567       -0.124182      0.000777198    -0.000320572
                    -0.000411593    -0.000944788        -0.646365        -0.72834      0.000745248    -0.000298594         0.210335       0.0882014
254000                 -0.114024       0.0141814     -0.000671086    -0.000431004        -0.550442        0.826715     -0.000415658    -0.000991101
                    -0.000770821     -0.00050949       -0.0703652       -0.217851       0.00060304     -0.00112875         -0.67668       -0.699739
                       -0.550424        0.826735      0.000599571     -0.00110218        -0.030942       -0.110652      0.000784043    -0.000360966
                    -0.000460027    -0.000941191        -0.676585       -0.700062      0.000757494    -0.000333531         0.215344       0.0776803
254200                 -0.102062         0.01594     -0.000726128    -0.000389268        -0.501029        0.859028     -0.000466019    -0.000986471
                    -0.000830203    -0.000456069       -0.0780203       -0.215984      0.000541936     -0.00117271        -0.705732       -0.670184
                       -0.501003         0.85906      0.000511485     -0.00113286        -0.036424      -0.0966713      0.000788077    -0.000401595
                    -0.000510053    -0.000935318        -0.705636       -0.670503      0.000768246     -0.00037066         0.219703       0.0668211
254400                -0.0902242       0.0164051     -0.000778238    -0.000342548        -0.449557        0.888318      -0.00051723    -0.000979472
                    -0.000886003     -0.00039708       -0.0855907       -0.213719       0.00047744     -0.00121263        -0.733564       -0.639392
                       -0.449526        0.888356      0.000421728     -0.00115536       -0.0402675      -0.0824108       0.00078948    -0.000442172
                    -0.000561596    -0.000926921        -0.733467       -0.639708      0.000777249    -0.000409891         0.223387       0.0556659
254600                -0.0786392       0.0156016     -0.000826957    -0.000290935         -0.39623        0.914432     -0.000569243    -0.000969925
                    -0.000937727     -0.00033277       -0.0930517       -0.211059      0.000409917     -0.00124818        -0.760124       -0.607409
                       -0.396195        0.914472      0.000331836     -0.00117003        -0.042456       -0.068046      0.000788464    -0.000482468
                    -0.000614555    -0.000915748        -0.760025       -0.607721      0.000784251    -0.000451098         0.226376       0.0442586
254800                -0.0674326       0.0135682     -0.000871824    -0.000234562        -0.341264         0.93724     -0.000621996    -0.000957644
                      -0.0009849    -0.000263431        -0.100379       -0.208012      0.000339772     -0.00127906        -0.785362       -0.574284
                       -0.341227        0.937277      0.000243177      -0.0011775       -0.0429924       -0.053753      0.000785255    -0.000522317
                    -0.000668799    -0.000901547        -0.785259       -0.574593      0.000789005    -0.000494116         0.228649       0.0326447
255000                -0.0567253       0.0103566     -0.000912388     -0.00017361        -0.284886        0.956623      -0.00067541    -0.000942443
                     -0.00102706    -0.000189399        -0.107547       -0.204584       0.00026744     -0.00130504        -0.809228       -0.540066
                       -0.284851        0.956655      0.000156899     -0.00117861       -0.0418993      -0.0397074      0.000780079    -0.000561607
                    -0.000724166    -0.000884067         -0.80912       -0.540371      0.000791279    -0.000538745          0.23019       0.0208714
255200                -0.0466315      0.00603098     -0.000948209    -0.000108308        -0.227332        0.972486     -0.000729388    -0.000924135
                     -0.00106378    -0.000111053        -0.114534       -0.200785      0.000193382     -0.00132594        -0.831674       -0.504805
                       -0.227303        0.972511      7.38974e-05     -0.00117431       -0.0392183      -0.0260811      0.000773156    -0.000600274
                    -0.000780461     -0.00086306        -0.831562       -0.505109      0.000790862    -0.000584751         0.230986      0.00898717
255400                 -0.037258     0.000667565     -0.000978865    -3.89359e-05        -0.168847         0.98475     -0.000783813    -0.000902529
                     -0.00109466    -2.88128e-05        -0.121314       -0.196625      0.000118071     -0.00134164        -0.852654       -0.468557
                       -0.168828        0.984767      -5.1864e-06     -0.00116563       -0.0350101      -0.0130406      0.000764692    -0.000638296
                    -0.000837456    -0.000838291        -0.852539        -0.46886       0.00078757    -0.000631869         0.231027     -0.00295842
255600                -0.0287019     -0.00564688      -0.00100396     3.41837e-05         -0.10968        0.993358     -0.000838546    -0.000877437
                     -0.00111932     5.68649e-05        -0.127867       -0.192117      4.19843e-05     -0.00135208        -0.872124       -0.431376
                       -0.109675        0.993366     -7.99555e-05     -0.00115356       -0.0293538    -0.000744388      0.000754874    -0.000675688
                    -0.000894888    -0.000809533        -0.872005       -0.431679      0.000781254    -0.000679811         0.230305      -0.0149147
255800                -0.0210504       -0.012816      -0.00102312      0.00011068       -0.0500837        0.998272     -0.000893421    -0.000848672
                     -0.00113742     0.000145487        -0.134168       -0.187275     -3.44056e-05     -0.00135727        -0.890041        -0.39332
                      -0.0500973        0.998274     -0.000150231     -0.00113905        -0.022345        0.010659      0.000743871    -0.000712491
                    -0.000952459    -0.000776582         -0.88992       -0.393624      0.000771801     -0.00072827         0.228817      -0.0268301
256000                -0.0143791      -0.0207351      -0.00103602     0.000190142       0.00968629        0.999475     -0.000948249    -0.000816053
                     -0.00114869     0.000236528        -0.140197       -0.182113     -0.000110641     -0.00135727        -0.906363       -0.354447
                      0.00965145        0.999474     -0.000216023     -0.00112297       -0.0140957       0.0210329       0.00073183    -0.000748774
                     -0.00100984    -0.000739251        -0.906242       -0.354754      0.000759141    -0.000776925         0.226563      -0.0386526
256200               -0.00875159      -0.0292928      -0.00104235     0.000272115        0.0693764        0.996973      -0.00100281    -0.000779404
                     -0.00115287     0.000329437        -0.145932       -0.176649     -0.000186285     -0.00135217        -0.921051        -0.31482
                       0.0693178        0.996971     -0.000277496     -0.00110608      -0.00473146       0.0302548       0.00071888    -0.000784623
                     -0.00106666    -0.000697386        -0.920931        -0.31513      0.000743246    -0.000825455         0.223546      -0.0503297
