! TOUCHSTONE file generated by CST MICROWAVE STUDIO
! Date and time: Wed Sep 24 18:10:43 2025
! Project name: biblioteca3_folgaOK.cst
! Parameters = {H=600; Lx=200; Ly=260; Nedge=24; P=520; k=0; mesh_pilar_nm=40; n=0; t_air=1200; t_sub=2000; wavelength_nm=0}
! Header version: 2018
! Port assignment regex: !\s*Touchstone port\s*([0-9]+)\s*=\s*(CST MWS port|CST DS port)\s*([0-9]+|Zmin|Zmax)\s*\(\"(.*)\"\)(\s*mode\s*([0-9]+))?.*
! Touchstone port assignment:
! Touchstone port 1 = CST MWS port Zmin ("") mode 1
! Touchstone port 2 = CST MWS port Zmin ("") mode 2
! Touchstone port 3 = CST MWS port Zmax ("") mode 1
! Touchstone port 4 = CST MWS port Zmax ("") mode 2
! S-Parameters are not renormalized. Each port impedance will be approximated by the real part at minimum frequency. The values are described via the [Reference] keyword.
! Default impedance is overridden by [Reference]
[Version] 2.0
# GHz S RI R 376.73
[Number of Ports] 4
[Reference]
376.73 376.73 376.73 376.73 
[Number of Frequencies] 401
[Network Data]
250000                 -0.227352       -0.213575      1.15654e-05    -1.17217e-06        -0.945946      -0.0887621     -2.54673e-05     1.65146e-05
                     8.02168e-06     -3.3537e-06         0.061566       -0.177759     -9.41248e-06     8.10156e-06        0.0696916       -0.979633
                       -0.945955      -0.0887309     -6.06285e-06     1.59574e-05         0.263153       -0.167475     -7.82478e-06    -2.51521e-05
                    -1.17381e-05    -1.80574e-06        0.0697592       -0.979674      1.31454e-05    -8.37461e-06        0.0357866        0.184698
250200                 -0.232145       -0.197029      1.18631e-05    -9.39231e-07        -0.952165      -0.0357929     -2.61632e-05     1.81648e-05
                     7.96937e-06    -3.20917e-06        0.0570709       -0.182493     -8.70914e-06     8.47561e-06        0.0286914       -0.981094
                       -0.952158      -0.0356119     -6.65745e-06     1.44919e-05         0.246399       -0.178254       -9.498e-06     -2.5782e-05
                     -1.1608e-05    -1.19719e-06        0.0288338       -0.981161      1.22422e-05    -8.52521e-06        0.0462317        0.185586
250400                 -0.235612       -0.180273      1.22002e-05    -6.64906e-07        -0.955382        0.017846     -2.68565e-05     2.00599e-05
                     7.92611e-06    -3.06506e-06        0.0522569       -0.187051     -7.99347e-06     8.80684e-06       -0.0123362       -0.980846
                       -0.955339        0.018141     -7.14001e-06     1.29595e-05         0.228968       -0.187599     -1.14296e-05    -2.64027e-05
                    -1.14605e-05    -5.93599e-07       -0.0121367       -0.980941      1.12885e-05    -8.66758e-06        0.0568075        0.185799
250600                 -0.237724       -0.163425      1.25842e-05    -3.38497e-07        -0.955526        0.071982      -2.7524e-05     2.22486e-05
                     7.89241e-06     -2.9218e-06        0.0471332       -0.191411      -7.2686e-06     9.09475e-06       -0.0533221        -0.97889
                       -0.955435       0.0723569     -7.50367e-06     1.13754e-05         0.210982       -0.195438     -1.36747e-05    -2.69868e-05
                    -1.12953e-05       4.399e-09       -0.0530814       -0.979014      1.02817e-05    -8.79945e-06        0.0674677        0.185327
250800                 -0.238467       -0.146611      1.30247e-05     5.45635e-08        -0.952533        0.126435     -2.81294e-05       2.479e-05
                     7.86882e-06    -2.77983e-06         0.041711       -0.195551     -6.53761e-06     9.33908e-06       -0.0941977       -0.975229
                        -0.95239        0.126859     -7.74483e-06     9.75608e-06         0.192572       -0.201711     -1.63013e-05    -2.74897e-05
                    -1.11126e-05     5.96167e-07       -0.0939296       -0.975382      9.21966e-06     -8.9181e-06        0.0781652        0.184162
251000                 -0.237837       -0.129956      1.35341e-05     5.34559e-07        -0.946352        0.181018     -2.86157e-05     2.77547e-05
                     7.85591e-06    -2.63968e-06        0.0360026       -0.199452     -5.80358e-06     9.53987e-06        -0.134894        -0.96987
                       -0.946157        0.181464      -7.8634e-06     8.11793e-06         0.173879       -0.206368     -1.93915e-05    -2.78404e-05
                    -1.09121e-05     1.18105e-06        -0.134611       -0.970049      8.10005e-06    -9.02035e-06        0.0888524        0.182299
251200                 -0.235845       -0.113591      1.41277e-05     1.13049e-06        -0.936941        0.235536     -2.88954e-05     3.12244e-05
                     7.85425e-06    -2.50193e-06        0.0300218       -0.203093     -5.06951e-06     9.69741e-06        -0.175344       -0.962821
                       -0.936699        0.235981     -7.86279e-06     6.47692e-06         0.155051       -0.209374     -2.30407e-05    -2.79259e-05
                    -1.06939e-05     1.75839e-06        -0.175055       -0.963024      6.92093e-06    -9.10243e-06        0.0994816        0.179738
251400                 -0.232515      -0.0976432      1.48258e-05      1.8851e-06         -0.92427        0.289788     -2.88342e-05      3.5288e-05
                     7.86445e-06    -2.36725e-06        0.0237839       -0.206457      -4.3383e-06     9.81221e-06        -0.215479       -0.954092
                        -0.92399        0.290215     -7.74965e-06     4.84766e-06         0.136244        -0.21071     -2.73503e-05    -2.75681e-05
                     -1.0458e-05     2.32749e-06        -0.215194       -0.954315      5.68066e-06    -9.15994e-06         0.110005         0.17648
251600                 -0.227885       -0.082242      1.56535e-05     2.86367e-06        -0.908321        0.343568     -2.82294e-05     4.00295e-05
                     7.88713e-06    -2.23638e-06        0.0173054       -0.209525     -3.61277e-06     9.88504e-06        -0.255232       -0.943698
                       -0.908013        0.343963     -7.53355e-06     3.24277e-06         0.117616       -0.210371      -3.2406e-05    -2.64906e-05
                    -1.02043e-05     2.88765e-06        -0.254957       -0.943936      4.37801e-06    -9.18772e-06         0.120374         0.17253
251800                 -0.222007       -0.067512      1.66413e-05     4.17015e-06        -0.889092        0.396664     -2.67819e-05      4.5499e-05
                     7.92289e-06    -2.11015e-06         0.010604       -0.212282     -2.89557e-06     9.91685e-06        -0.294537       -0.931654
                       -0.888766        0.397016     -7.22647e-06     1.67248e-06        0.0993301       -0.208369     -3.82243e-05    -2.42783e-05
                    -9.93285e-06     3.43818e-06        -0.294278       -0.931903      3.01237e-06    -9.17985e-06         0.130543        0.167899
252000                 -0.214948      -0.0535731      1.78206e-05     5.97817e-06        -0.866592        0.448859     -2.40704e-05     5.16541e-05
                     7.97238e-06    -1.98951e-06       0.00369832        -0.21471     -2.18924e-06     9.90876e-06        -0.333328       -0.917977
                       -0.866261        0.449164     -6.84226e-06     1.44242e-07        0.0815502       -0.204735     -4.46428e-05    -2.03503e-05
                    -9.64361e-06     3.97832e-06        -0.333089       -0.918233      1.58391e-06    -9.12949e-06         0.140464        0.162598
252200                 -0.206787       -0.040539      1.92033e-05     8.59416e-06        -0.840848        0.499933     -1.95499e-05     5.82539e-05
                     8.03623e-06     -1.8755e-06      -0.00339166       -0.216798     -1.49613e-06     9.86209e-06         -0.37154       -0.902689
                       -0.840524        0.500189     -6.39616e-06    -1.33731e-06        0.0644385       -0.199518     -5.11278e-05    -1.40057e-05
                    -9.33663e-06     4.50734e-06        -0.371322       -0.902947      9.37806e-08    -9.02891e-06         0.150092        0.156642
252400                 -0.197616      -0.0285151      2.07018e-05     1.25902e-05        -0.811904        0.549665     -1.26323e-05     6.47034e-05
                     8.11505e-06    -1.76929e-06       -0.0106452       -0.218531      -8.1844e-07     9.77825e-06        -0.409108       -0.885813
                       -0.811596        0.549872     -5.90434e-06    -2.77033e-06        0.0481539       -0.192783     -5.65418e-05    -4.67469e-06
                    -9.01194e-06     5.02446e-06        -0.408914       -0.886067     -1.45561e-06    -8.86938e-06         0.159382        0.150049
252600                 -0.187539      -0.0175969      2.18127e-05     1.90715e-05         -0.77982        0.597831     -2.93479e-06     6.99115e-05
                     8.20946e-06    -1.67219e-06       -0.0180407       -0.219899     -1.58208e-07     9.65879e-06        -0.445968       -0.867372
                       -0.779536        0.597994     -5.38363e-06    -4.15558e-06        0.0328497       -0.184618     -5.91115e-05       7.506e-06
                    -8.66959e-06     5.52889e-06        -0.445798       -0.867621      -3.0603e-06    -8.64123e-06          0.16829        0.142841
252800                 -0.176669     -0.00786905      2.03448e-05     2.99466e-05        -0.744673        0.644211        9.272e-06     7.23588e-05
                     8.32003e-06    -1.58566e-06       -0.0255556        -0.22089      4.82717e-07     9.50534e-06        -0.482059       -0.847394
                        -0.74442        0.644335     -4.85137e-06    -5.49608e-06        0.0186707       -0.175125     -5.70584e-05     2.10261e-05
                    -8.30964e-06     6.01982e-06        -0.481912       -0.847634     -4.71445e-06     -8.3339e-06         0.176774        0.135042
253000                 -0.165131     0.000596662      8.42956e-06     4.52398e-05         -0.70656        0.688584       2.2651e-05      7.0636e-05
                     8.44729e-06    -1.51131e-06       -0.0331671       -0.221498      1.10266e-06     9.31962e-06        -0.517317        -0.82591
                       -0.706342        0.688676      -4.3254e-06    -6.79675e-06        0.0057513       -0.164424      -4.9913e-05     3.31451e-05
                    -7.93218e-06     6.49641e-06        -0.517193       -0.826137     -6.40998e-06    -7.93609e-06         0.184794        0.126679
253200                 -0.153056      0.00774191     -2.17343e-05      4.6161e-05        -0.665596        0.730737      3.49865e-05     6.43535e-05
                     8.59171e-06    -1.45094e-06       -0.0408513       -0.221714      1.70009e-06     9.10338e-06        -0.551682       -0.802949
                       -0.665416        0.730804     -3.82431e-06    -8.06385e-06      -0.00578722       -0.152652     -3.92482e-05     4.13846e-05
                    -7.53729e-06     6.95779e-06         -0.55158       -0.803162      -8.1362e-06    -7.43601e-06         0.192311        0.117782
253400                  -0.14058       0.0135229      -3.6784e-05     2.01494e-05        -0.621914        0.770461      4.42056e-05     5.46257e-05
                     8.75368e-06    -1.40653e-06       -0.0485841       -0.221532      2.27369e-06     8.85839e-06        -0.585095       -0.778547
                       -0.621772         0.77051     -3.36783e-06    -9.30437e-06       -0.0158385       -0.139959     -2.76854e-05     4.50089e-05
                    -7.12508e-06     7.40307e-06        -0.585013       -0.778743     -9.87944e-06    -6.82174e-06         0.199287        0.108384
253600                 -0.127846       0.0179112     -3.02954e-05     2.03165e-06        -0.575665        0.807556       4.9421e-05     4.34783e-05
                     8.93349e-06    -1.38026e-06        -0.056341        -0.22095      2.82225e-06     8.58648e-06        -0.617497        -0.75274
                       -0.575559        0.807594     -2.97743e-06    -1.05252e-05       -0.0243133       -0.126509     -1.72797e-05     4.49199e-05
                    -6.69567e-06     7.83131e-06        -0.617432       -0.752918     -1.16227e-05    -6.08178e-06         0.205689        0.098518
253800                 -0.114997       0.0208938     -2.20049e-05    -5.09534e-06        -0.527018        0.841831      5.10389e-05     3.27483e-05
                     9.13129e-06    -1.37454e-06       -0.0640971       -0.219964      3.34473e-06     8.28942e-06         -0.64883       -0.725564
                       -0.526946        0.841866     -2.67701e-06    -1.17319e-05        -0.031141       -0.112475     -8.90508e-06     4.25632e-05
                    -6.24919e-06     8.24155e-06        -0.648779       -0.725724     -1.33456e-05    -5.20573e-06         0.211483       0.0882226
254000                 -0.102176       0.0224738     -1.59806e-05    -7.75733e-06        -0.476159        0.873111      5.01102e-05     2.34756e-05
                     9.34704e-06    -1.39197e-06       -0.0718274       -0.218573      3.84024e-06     7.96902e-06        -0.679037       -0.697062
                       -0.476117        0.873147     -2.49368e-06    -1.29274e-05       -0.0362712      -0.0980399     -2.58175e-06     3.91379e-05
                     -5.7858e-06     8.63278e-06           -0.679       -0.697203     -1.50241e-05    -4.18514e-06          0.21664       0.0775368
254200                -0.0895283       0.0226698     -1.18045e-05    -8.76894e-06         -0.42329         0.90123      4.76924e-05     1.59613e-05
                     9.58052e-06    -1.43543e-06       -0.0795066       -0.216778      4.30799e-06     7.62702e-06        -0.708064       -0.667274
                       -0.423273        0.901272     -2.45838e-06    -1.41094e-05       -0.0396747      -0.0833901      2.03141e-06     3.53984e-05
                    -5.30567e-06     9.00395e-06        -0.708037       -0.667397     -1.66306e-05    -3.01448e-06         0.221131       0.0665023
254400                -0.0771915        0.021516     -8.83327e-06    -9.13484e-06        -0.368628        0.926043      4.45688e-05     1.00836e-05
                     9.83124e-06    -1.50801e-06       -0.0871095       -0.214582      4.74732e-06     7.26517e-06        -0.735857       -0.636246
                        -0.36863        0.926094       -2.606e-06    -1.52676e-05        -0.041344      -0.0687158      5.33752e-06     3.17429e-05
                      -4.809e-06     9.35395e-06        -0.735838       -0.636351     -1.81349e-05    -1.69228e-06         0.224931       0.0551625
254600                -0.0653004       0.0190613     -6.64122e-06    -9.23466e-06          -0.3124        0.947418      4.12292e-05     5.56195e-06
                     1.00984e-05    -1.61305e-06        -0.094611       -0.211987      5.15768e-06     6.88514e-06        -0.762363       -0.604024
                       -0.312416         0.94748     -2.97423e-06     -1.6379e-05       -0.0412938      -0.0542069      7.68365e-06     2.83505e-05
                      -4.296e-06     9.68162e-06         -0.76235       -0.604111     -1.95045e-05    -2.22144e-07         0.228018       0.0435627
254800                -0.0539825        0.015369     -4.96853e-06    -9.22409e-06        -0.254849        0.965246      3.79449e-05     2.10029e-06
                     1.03808e-05     -1.7541e-06        -0.101986       -0.209001       5.5386e-06     6.48857e-06        -0.787532       -0.570656
                       -0.254873         0.96532     -3.60016e-06    -1.74031e-05       -0.0395607      -0.0400503      9.33563e-06     2.52818e-05
                    -3.76692e-06     9.98574e-06        -0.787522       -0.570727     -2.07061e-05      1.3863e-06         0.230372       0.0317499
255000                -0.0433567       0.0105151      -3.6545e-06    -9.17144e-06        -0.196223        0.979435      3.48493e-05    -5.57086e-07
                     1.06768e-05    -1.93495e-06         -0.10921       -0.205628      5.88968e-06     6.07706e-06        -0.811313       -0.536192
                        -0.19625        0.979519     -4.51302e-06     -1.8277e-05       -0.0362026      -0.0264273      1.04869e-05     2.25391e-05
                    -3.22202e-06      1.0265e-05        -0.811306        -0.53625     -2.17071e-05      3.1167e-06         0.231976       0.0197726
255200                -0.0335324      0.00458777     -2.59645e-06    -9.10824e-06        -0.136778        0.989915      3.19959e-05    -2.61286e-06
                     1.09844e-05    -2.15955e-06        -0.116258       -0.201879      6.21061e-06     5.65212e-06        -0.833659       -0.500686
                       -0.136804        0.990009     -5.72186e-06    -1.89125e-05        -0.031298      -0.0135107      1.12755e-05     2.00993e-05
                    -2.66161e-06     1.05181e-05        -0.833653        -0.50073     -2.24777e-05     4.94585e-06         0.232818      0.00768039
255400                -0.0246075     -0.00231456     -1.72653e-06    -9.04941e-06       -0.0767773        0.996638      2.93951e-05    -4.22143e-06
                     1.13007e-05    -2.43201e-06        -0.123107       -0.197764       6.5011e-06     5.21524e-06        -0.854523       -0.464191
                      -0.0767972        0.996741      -7.1982e-06    -1.92011e-05       -0.0249445     -0.00146251      1.17988e-05     1.79299e-05
                    -2.08605e-06     1.07435e-05        -0.854517       -0.464224     -2.29928e-05     6.84399e-06         0.232886      -0.0044756
255600                -0.0166684      -0.0100842     -9.98389e-07    -9.00213e-06       -0.0164836        0.999579      2.70357e-05    -5.49843e-06
                     1.16225e-05    -2.75651e-06        -0.129732       -0.193294      6.76092e-06     4.76784e-06        -0.873861       -0.426763
                      -0.0164945        0.999686     -8.85854e-06    -1.90318e-05       -0.0172572      0.00956835      1.21259e-05     1.59975e-05
                    -1.49571e-06     1.09396e-05        -0.873853       -0.426788     -2.32339e-05     8.77587e-06         0.232174      -0.0166435
255800               -0.00978798       -0.018606     -3.79479e-07    -8.96976e-06        0.0438387        0.998732      2.48964e-05    -6.53002e-06
                     1.19456e-05    -3.13724e-06        -0.136112       -0.188483      6.98987e-06     4.31129e-06        -0.891628       -0.388462
                       0.0438392        0.998841      -1.0557e-05    -1.83233e-05       -0.0083667       0.0194481      1.23059e-05     1.42706e-05
                    -8.91041e-07     1.11049e-05         -0.89162       -0.388479     -2.31909e-05     1.07024e-05         0.230677      -0.0287704
256000               -0.00402604       -0.027759      1.53646e-07     -8.9538e-06         0.103927        0.994115      2.29521e-05     -7.3805e-06
                      1.2265e-05    -3.57829e-06        -0.142223       -0.183345      7.18776e-06     3.84692e-06        -0.907785       -0.349346
                        0.103941        0.994223      -1.2102e-05    -1.70635e-05       0.00158279       0.0280597      1.23738e-05     1.27212e-05
                     -2.7256e-07     1.12375e-05        -0.907774       -0.349358     -2.28629e-05     1.25829e-05         0.228396      -0.0408032
256200               0.000571688      -0.0374179       6.1823e-07     -8.9549e-06         0.163525        0.985767       2.1177e-05    -8.09822e-06
                     1.25749e-05    -4.08349e-06        -0.148045       -0.177897      7.35441e-06       3.376e-06        -0.922291       -0.309479
                        0.163552        0.985871     -1.33004e-05    -1.53345e-05         0.012436       0.0353042      1.23548e-05     1.13253e-05
                      3.5915e-07     1.13354e-05        -0.922278       -0.309487     -2.22587e-05     1.43774e-05         0.225334      -0.0526879
