! TOUCHSTONE file generated by CST MICROWAVE STUDIO
! Date and time: Mon Sep 22 15:52:54 2025
! Project name: biblioteca3_folgaOK.cst
! Parameters = {Nedge=24; mesh_pilar_nm=40; t_sub=2000; t_air=1200; k=0; n=0; wavelength_nm=0; H=600; Lx=200; Ly=260; P=520}
! Header version: 2018
! Port assignment regex: !\s*Touchstone port\s*([0-9]+)\s*=\s*(CST MWS port|CST DS port)\s*([0-9]+|Zmin|Zmax)\s*\(\"(.*)\"\)(\s*mode\s*([0-9]+))?.*
! Touchstone port assignment:
! Touchstone port 1 = CST MWS port Zmin ("") mode 1
! Touchstone port 2 = CST MWS port Zmin ("") mode 2
! Touchstone port 3 = CST MWS port Zmax ("") mode 1
! Touchstone port 4 = CST MWS port Zmax ("") mode 2
! S-Parameters are not renormalized. Each port impedance will be approximated by the real part at minimum frequency. The values are described via the [Reference] keyword.
! Default impedance is overridden by [Reference]
[Version] 2.0
# GHz S RI R 376.73
[Number of Ports] 4
[Reference]
376.73 376.73 376.73 376.73 
[Number of Frequencies] 401
[Network Data]
250000                 -0.224515       -0.220774      -0.00103084    -0.000411861        -0.942369       -0.113454      3.84439e-05     0.000410675
                    -0.000895677    -0.000460582        0.0642251       -0.180852     -9.81834e-05     2.58382e-05          0.06773       -0.979091
                       -0.942444       -0.113573     -0.000123867    -2.01069e-05          0.27049       -0.161243      0.000248304      0.00096256
                     0.000120793     0.000379344        0.0675996       -0.979048      0.000288844      0.00101627        0.0387257        0.187977
250200                 -0.229816       -0.204156      -0.00105087    -0.000365016        -0.949649      -0.0611808      6.56537e-05     0.000395831
                    -0.000943319    -0.000423645        0.0595646       -0.185731       -0.0001014     3.06966e-05        0.0268535       -0.980445
                       -0.949757      -0.0612672     -0.000125223    -6.40216e-06         0.254123       -0.173015      0.000291308     0.000968974
                     0.000137268     0.000374946        0.0267235       -0.980395      0.000331737      0.00101231        0.0493233        0.188722
250400                 -0.233782       -0.187345      -0.00107008    -0.000316191        -0.954071     -0.00819519      9.39672e-05     0.000384518
                    -0.000989842    -0.000380448        0.0545801       -0.190417     -0.000104637     3.57977e-05       -0.0140497       -0.980101
                       -0.954189     -0.00824244     -0.000125122     6.95311e-06          0.23699       -0.183325      0.000335093     0.000973116
                     0.000154704     0.000369782       -0.0141776       -0.980046      0.000375721      0.00100653        0.0600298        0.188787
250600                 -0.236396       -0.170456      -0.00108834    -0.000265274        -0.955554       0.0453525      0.000121548     0.000376258
                     -0.00103416    -0.000330946        0.0492825        -0.19489     -0.000107906      4.1152e-05       -0.0549104       -0.978061
                       -0.955661       0.0453453     -0.000123608     1.94847e-05         0.219219       -0.192098      0.000379551      0.00097486
                     0.000173725     0.000363852       -0.0550348       -0.978001      0.000420885     0.000998864        0.0708003        0.188162
250800                 -0.237649       -0.153605      -0.00110547    -0.000212142        -0.954023       0.0993023      0.000147232     0.000369898
                     -0.00107518    -0.000275365         0.043684       -0.199128     -0.000111227     4.67724e-05       -0.0956599       -0.974326
                       -0.954104       0.0993314     -0.000120952     3.06257e-05         0.200951       -0.199276      0.000424569     0.000974087
                     0.000196113     0.000357195       -0.0957795       -0.974262      0.000467379     0.000989348        0.0815894        0.186843
251000                 -0.237543        -0.13691      -0.00112126    -0.000156665        -0.949413        0.153484      0.000170594     0.000364183
                     -0.00111188      -0.0002142        0.0377981       -0.203112     -0.000114624     5.26756e-05         -0.13623       -0.968904
                       -0.949454        0.153543      -0.00011777     3.98208e-05         0.182331       -0.204809      0.000470028      0.00097069
                     0.000229209     0.000349573        -0.136344       -0.968837      0.000515422      0.00097819        0.0923514        0.184826
251200                 -0.236093        -0.12049      -0.00113545    -9.87081e-05        -0.941667        0.207719      0.000191699     0.000358109
                     -0.00114339     -0.00014817        0.0316395       -0.206824     -0.000118137     5.88848e-05        -0.176552       -0.961802
                       -0.941658        0.207797     -0.000115119     4.67691e-05         0.163512       -0.208665      0.000515803     0.000964574
                      0.00035746     0.000304642         -0.17666       -0.961732      0.000565223     0.000965951          0.10304        0.182113
251400                 -0.233323       -0.104466      -0.00114773    -3.81429e-05        -0.930737        0.261816      0.000210823     0.000350999
                     -0.00116907    -7.81574e-05        0.0252243       -0.210245      -0.00012182     6.54339e-05        -0.216558       -0.953031
                       -0.930674        0.261905     -0.000114375     5.17966e-05         0.144652       -0.210823      0.000561767      0.00095566
                     0.000146938     0.000292454         -0.21666        -0.95296      0.000616626     0.000953771          0.11361        0.178708
251600                  -0.22927       -0.088956      -0.00115772     2.51409e-05        -0.916589         0.31558       0.00022827     0.000342458
                     -0.00118853    -5.11671e-06        0.0185695       -0.213361     -0.000125747     7.23755e-05        -0.256182       -0.942603
                       -0.916471        0.315667     -0.000116767     5.61545e-05         0.125912       -0.211282      0.000607787     0.000943886
                     0.000202627     0.000302906        -0.256279       -0.942533      0.000668255     0.000943175         0.124015        0.174616
251800                 -0.223982      -0.0740752      -0.00116495     9.12126e-05        -0.899203        0.368805      0.000244282      0.00033228
                     -0.00120161     7.00063e-05        0.0116931       -0.216153     -0.000130017     7.97925e-05        -0.295357       -0.930536
                       -0.899031        0.368879     -0.000122646     6.18528e-05         0.107455       -0.210054      0.000653727     0.000929209
                     0.000228417     0.000293792        -0.295449       -0.930467      0.000716868     0.000934425          0.13421        0.169847
252000                 -0.217519      -0.0599361      -0.00116885     0.000160068        -0.878572        0.421278      0.000259014     0.000320378
                     -0.00120835     0.000146345       0.00461436       -0.218609     -0.000134762       8.782e-05        -0.334017       -0.916847
                       -0.878351         0.42133     -0.000131063     7.08727e-05        0.0894441       -0.207169      0.000699448     0.000911606
                     0.000247599      0.00028091        -0.334105       -0.916779      0.000759572     0.000924396          0.14415        0.164414
252200                 -0.209952      -0.0466458       -0.0011688     0.000231587        -0.854707        0.472781      0.000272538      0.00030674
                     -0.00120898     0.000223156      -0.00264668       -0.220715     -0.000140147     9.66794e-05        -0.372098       -0.901556
                       -0.854444        0.472804     -0.000140119     8.42709e-05        0.0720405       -0.202675      0.000744811     0.000891076
                     0.000263849     0.000265971        -0.372184       -0.901491      0.000797458     0.000908844          0.15379        0.158331
252400                 -0.201366      -0.0343049       -0.0011641     0.000305489        -0.827633        0.523095      0.000284855     0.000291397
                     -0.00120377     0.000299841       -0.0100691       -0.222457     -0.000146355     0.000106735        -0.409535       -0.884686
                       -0.827337        0.523081     -0.000147841     0.000101899        0.0554015       -0.196634       0.00078967     0.000867637
                     0.000278168     0.000249435        -0.409621       -0.884624       0.00083391      0.00088667         0.163087        0.151618
252600                 -0.191853      -0.0230063      -0.00115404     0.000381281        -0.797397        0.571993      0.000295908     0.000274414
                     -0.00119306     0.000375941       -0.0176311       -0.223827     -0.000153539     0.000118582        -0.446265       -0.866262
                       -0.797076        0.571939     -0.000152852     0.000122806         0.039679        -0.18913      0.000833883     0.000841327
                     0.000290857     0.000231506        -0.446352       -0.866203      0.000870914     0.000859273            0.172        0.144295
252800                 -0.181516      -0.0128339        -0.001138     0.000458238        -0.764059        0.619251      0.000305598     0.000255883
                     -0.00117717     0.000451121       -0.0253104       -0.224814     -0.000161686     0.000133152        -0.482226       -0.846312
                       -0.763726        0.619156     -0.000154501     0.000145813        0.0250169       -0.180259      0.000877302     0.000812207
                     0.000301969     0.000212328        -0.482317       -0.846255      0.000908735     0.000828174         0.180486        0.136385
253000                 -0.170468      -0.0038613      -0.00111555     0.000535415        -0.727705        0.664647      0.000313795     0.000235922
                     -0.00115641     0.000525141       -0.0330837       -0.225409     -0.000170305      0.00015179        -0.517357       -0.824866
                       -0.727368        0.664509     -0.000152664     0.000169883        0.0115491       -0.170136      0.000919784     0.000780354
                     0.000311451     0.000192038        -0.517453       -0.824809      0.000946957     0.000794283         0.188507        0.127916
253200                 -0.158829      0.00384923       -0.0010865     0.000611712        -0.688434        0.707959      0.000320352     0.000214683
                       -0.001131      0.00059783       -0.0409276       -0.225607     -0.000177878     0.000176066        -0.551597       -0.801954
                       -0.688105        0.707782     -0.000147499     0.000194236     -0.000602067       -0.158889      0.000961184     0.000745861
                      0.00031921     0.000170788        -0.551701       -0.801895      0.000985062     0.000758046         0.196024        0.118916
253400                 -0.146728       0.0102479      -0.00105105     0.000686005        -0.646369        0.748973      0.000325116     0.000192346
                     -0.00110113     0.000669055       -0.0488177       -0.225402     -0.000181286     0.000206901        -0.584887       -0.777611
                       -0.646056        0.748761     -0.000139263     0.000218325        -0.011328        -0.14666       0.00100136     0.000708837
                     0.000325135     0.000148755           -0.585       -0.777548       0.00102261     0.000719675         0.203001        0.109418
253600                 -0.134295       0.0152983      -0.00100972     0.000757295        -0.601649        0.787481      0.000327937     0.000169125
                     -0.00106693       0.0007387       -0.0567297        -0.22479     -0.000176218      0.00024279         -0.61717       -0.751873
                        -0.60136        0.787239     -0.000128224     0.000241775       -0.0205355       -0.133604       0.00104018     0.000669403
                     0.000329122      0.00012614        -0.617291       -0.751802       0.00105925     0.000679286         0.209403       0.0994543
253800                 -0.121667        0.018978     -0.000963282     0.000824844        -0.554435        0.823285      0.000328682      0.00014527
                     -0.00102849     0.000806643       -0.0646387       -0.223768      -0.00015982     0.000278681        -0.648387       -0.724778
                       -0.554177        0.823021     -0.000114622     0.000264316       -0.0281483       -0.119887        0.0010775      0.00062769
                     0.000331084     0.000103172        -0.648517       -0.724696        0.0010947     0.000636962         0.215198       0.0890629
254000                 -0.108983       0.0212789     -0.000912622     0.000888251        -0.504903        0.856201      0.000327244     0.000121061
                    -0.000985857     0.000872748       -0.0725197       -0.222336     -0.000133819     0.000308386        -0.678485       -0.696366
                        -0.50468        0.855921     -9.86672e-05     0.000285744       -0.0341086       -0.105681        0.0011132     0.000583839
                      0.00033096     8.01006e-05        -0.678621        -0.69627       0.00112873      0.00059278         0.220356       0.0782822
254200                -0.0963822       0.0222081      -0.00085858     0.000947439        -0.453247        0.886054      0.000323554     9.68047e-05
                    -0.000939043      0.00093685       -0.0803473       -0.220496      -0.00010358     0.000329022        -0.707407       -0.666679
                       -0.453061        0.885767     -8.05388e-05     0.000305894       -0.0383778      -0.0911651       0.00114717     0.000537995
                     0.000328727     5.71909e-05        -0.707547       -0.666566       0.00116115     0.000546821         0.224849       0.0671531
254400                -0.0840018       0.0217873     -0.000801833      0.00100258        -0.399675        0.912689      0.000317591     7.28286e-05
                    -0.000888065     0.000998756       -0.0880965       -0.218248     -7.38958e-05     0.000341955        -0.735102       -0.635761
                       -0.399529        0.912402     -6.03957e-05     0.000324617       -0.0409374      -0.0765238        0.0011793     0.000490307
                     0.000324402     3.47178e-05        -0.735243        -0.63563       0.00119181      0.00049918         0.228652       0.0557186
254600                -0.0719767        0.020053     -0.000742834      0.00105397        -0.344412        0.935966      0.000309385     4.94692e-05
                    -0.000832931      0.00105823        -0.095742       -0.215597     -4.68018e-05     0.000350202        -0.761518       -0.603659
                       -0.344304        0.935686     -3.83837e-05     0.000341779       -0.0417898      -0.0619415       0.00120948     0.000440928
                     0.000318045     1.29559e-05        -0.761656       -0.603508       0.00122055      0.00044996         0.231742       0.0440235
254800                -0.0604367       0.0170562     -0.000681817      0.00110194        -0.287691        0.955763      0.000299026     2.70612e-05
                    -0.000773663      0.00111502        -0.103259       -0.212549     -2.22566e-05     0.000356241        -0.786604       -0.570419
                       -0.287621        0.955497     -1.46426e-05      0.00035725       -0.0409581       -0.047602       0.00123764     0.000390009
                     0.000309762    -7.82967e-06        -0.786736        -0.57025       0.00124727     0.000399275           0.2341       0.0321144
255000                -0.0495051       0.0128613     -0.000618841      0.00114676        -0.229758        0.971979      0.000286662     5.92391e-06
                    -0.000710301      0.00116883        -0.110622        -0.20911      5.91724e-07     0.000361482        -0.810311       -0.536093
                       -0.229721        0.971733      1.06894e-05     0.000370907       -0.0384858      -0.0336853        0.0012637     0.000337701
                       0.0002997    -2.73921e-05        -0.810434       -0.535906       0.00127186     0.000347245         0.235708       0.0200394
255200                -0.0392973       0.0075457     -0.000553844      0.00118859        -0.170866        0.984534      0.000272496    -1.36516e-05
                    -0.000642915      0.00121934        -0.117807       -0.205289      2.26783e-05      0.00036652        -0.832593       -0.500733
                       -0.170859        0.984312      3.74715e-05     0.000382629       -0.0344367      -0.0203652       0.00128759     0.000284154
                     0.000288046    -4.55117e-05        -0.832704       -0.500529       0.00129425        0.000294         0.236553      0.00784794
255400                 -0.029919      0.00119854     -0.000486706      0.00122749        -0.111272        0.993368      0.000256781     -3.1415e-05
                    -0.000571609      0.00126622        -0.124789       -0.201097      4.47698e-05     0.000371475        -0.853403       -0.464391
                        -0.11129        0.993174      6.55581e-05     0.000392304       -0.0288935     -0.00780721       0.00130927     0.000229512
                     0.000275018    -6.20034e-05        -0.853499       -0.464173       0.00131437     0.000239672         0.236623     -0.00440911
255600                -0.0214651     -0.00608067     -0.000417295      0.00126339        -0.051238        0.998445       0.00023981    -4.71666e-05
                    -0.000496528       0.0013091        -0.131546       -0.196546      6.74296e-05     0.000376215        -0.872697       -0.427124
                      -0.0512773         0.99828      9.47973e-05     0.000399825       -0.0219572      0.00383425       0.00132868     0.000173915
                     0.000260861    -7.67213e-05        -0.872777       -0.426894       0.00133217     0.000184395         0.235912        -0.01668
255800                -0.0140184      -0.0141833     -0.000345498      0.00129614       0.00897223        0.999749      0.000221903    -6.07644e-05
                    -0.000417859      0.00134765        -0.138054       -0.191648       9.1046e-05      0.00038049        -0.890433       -0.388989
                      0.00891693        0.999614       0.00012503     0.000405092       -0.0137449       0.0144176       0.00134582     0.000117498
                     0.000245832     -8.9563e-05        -0.890496        -0.38875       0.00134762     0.000128305         0.234416       -0.028912
256000               -0.00764891      -0.0229933      -0.00027125      0.00132551        0.0690972        0.997285      0.000203391    -7.21275e-05
                    -0.000335839       0.0013815         -0.14429       -0.186419       0.00011587     0.000383987         -0.90657       -0.350046
                       0.0690305        0.997181       0.00015609     0.000408015      -0.00438861        0.023816       0.00136064     6.03899e-05
                     0.000230197     -0.00010047        -0.906615         -0.3498       0.00136069     7.15358e-05         0.232134      -0.0410519
256200               -0.00241307      -0.0323888      -0.00019454      0.00135122         0.128878        0.991082       0.00018461    -8.12362e-05
                    -0.000250748      0.00141031        -0.150234       -0.180875      0.000142041     0.000386363        -0.921068       -0.310355
                        0.128804        0.991006      0.000187804     0.000408516       0.00596712       0.0319191       0.00137315     2.71117e-06
                     0.000214221    -0.000109425        -0.921096       -0.310105       0.00137139     1.42174e-05         0.229068      -0.0530459
