! TOUCHSTONE file generated by CST MICROWAVE STUDIO
! Date and time: Mon Sep 22 15:52:54 2025
! Project name: biblioteca3_folgaOK.cst
! Parameters = {Nedge=20; mesh_pilar_nm=40; t_sub=2000; t_air=1200; k=0; n=0; wavelength_nm=0; H=600; Lx=200; Ly=260; P=520}
! Header version: 2018
! Port assignment regex: !\s*Touchstone port\s*([0-9]+)\s*=\s*(CST MWS port|CST DS port)\s*([0-9]+|Zmin|Zmax)\s*\(\"(.*)\"\)(\s*mode\s*([0-9]+))?.*
! Touchstone port assignment:
! Touchstone port 1 = CST MWS port Zmin ("") mode 1
! Touchstone port 2 = CST MWS port Zmin ("") mode 2
! Touchstone port 3 = CST MWS port Zmax ("") mode 1
! Touchstone port 4 = CST MWS port Zmax ("") mode 2
! S-Parameters are not renormalized. Each port impedance will be approximated by the real part at minimum frequency. The values are described via the [Reference] keyword.
! Default impedance is overridden by [Reference]
[Version] 2.0
# GHz S RI R 376.73
[Number of Ports] 4
[Reference]
376.73 376.73 376.73 376.73 
[Number of Frequencies] 401
[Network Data]
250000                 -0.224381       -0.222869     -0.000584654    -0.000149386        -0.940896       -0.121381     -0.000539998     0.000294312
                    -0.000582832    -0.000195568        0.0628821       -0.181622     -0.000315698     0.000572935        0.0703988       -0.978845
                       -0.940615       -0.121655     -0.000292446      0.00059701         0.273596       -0.158612      0.000235552     0.000286155
                    -0.000533731     0.000355349        0.0702412       -0.978728      0.000344222      0.00029105         0.036276        0.188757
250200                 -0.229893       -0.206395     -0.000608215    -0.000112604        -0.948801      -0.0691321     -0.000534193     0.000325941
                    -0.000602459    -0.000137388         0.058221       -0.186428     -0.000289295     0.000586464        0.0295033       -0.980312
                       -0.948476      -0.0697737     -0.000275264     0.000606424         0.257479       -0.170603      0.000219512     0.000285566
                    -0.000521898     0.000370068        0.0295579       -0.980291      0.000343444     0.000278035        0.0468859        0.189609
250400                 -0.234075       -0.189681     -0.000629422    -7.29949e-05        -0.953795      -0.0161497     -0.000526007     0.000357029
                    -0.000617272      -7.837e-05        0.0532366       -0.191046     -0.000262687     0.000599207       -0.0114134        -0.98008
                       -0.953493      -0.0170751     -0.000257406     0.000615673         0.240557       -0.181175       0.00020451     0.000287826
                     -0.00050948     0.000384674       -0.0112009       -0.980155      0.000340465     0.000265687        0.0576156        0.189784
250600                 -0.236904       -0.172844     -0.000647914     -3.0713e-05        -0.955804       0.0374069      -0.00051551     0.000387412
                    -0.000627316     -1.8921e-05        0.0479396       -0.195454     -0.000235873     0.000611181       -0.0522838       -0.978151
                       -0.955573       0.0362787     -0.000238842     0.000624729         0.222955       -0.190249      0.000190864     0.000292761
                    -0.000496463     0.000399142       -0.0519617       -0.978318      0.000335245     0.000254441        0.0684198        0.189271
250800                 -0.238364       -0.156005      -0.00066334     1.40314e-05        -0.954765        0.091371     -0.000502788     0.000416936
                    -0.000632669     4.05728e-05        0.0423423        -0.19963      -0.00020885     0.000622401       -0.0930406       -0.974528
                       -0.954633        0.090116     -0.000219543     0.000633562         0.204809       -0.197754      0.000178859     0.000300166
                     -0.00048283     0.000413451       -0.0926507       -0.974777      0.000327828     0.000244782        0.0792528        0.188063
251000                 -0.238455       -0.139289     -0.000675369     6.09749e-05        -0.950622        0.145569      -0.00048794     0.000445459
                    -0.000633444     9.97521e-05        0.0364581       -0.203555     -0.000181613      0.00063288        -0.133617       -0.969219
                       -0.950601        0.144255     -0.000199476     0.000642141         0.186264       -0.203635      0.000168744     0.000309811
                    -0.000468567     0.000427575        -0.133195       -0.969536      0.000318364     0.000237228        0.0900682        0.186156
251200                 -0.237188        -0.12282     -0.000683698     0.000109802        -0.943325        0.199819     -0.000471075     0.000472851
                     -0.00062978     0.000158286         0.030302       -0.207209     -0.000154155     0.000642632        -0.173945       -0.962231
                       -0.943416        0.198507     -0.000178607      0.00065043         0.167472       -0.207849      0.000160734     0.000321442
                    -0.000453656     0.000441488        -0.173521       -0.962601      0.000307132     0.000232304         0.100819        0.183551
251400                 -0.234586       -0.106722     -0.000688064     0.000160151        -0.932838        0.253933     -0.000452313     0.000498998
                    -0.000621837     0.000215872          0.02389       -0.210575     -0.000126466     0.000651666        -0.213959       -0.953575
                       -0.933029        0.252671     -0.000156901     0.000658389         0.148592       -0.210371      0.000155003     0.000334797
                    -0.000438082     0.000455161        -0.213558       -0.953982      0.000294546     0.000230506          0.11146         0.18025
251600                 -0.230684      -0.0911179     -0.000688254     0.000211618        -0.919132        0.307715     -0.000431779     0.000523798
                     -0.00060979     0.000272239        0.0172396       -0.213635      -9.8532e-05     0.000659991        -0.253594       -0.943265
                       -0.919407        0.306543     -0.000134322     0.000665975         0.129786       -0.211189      0.000151694     0.000349601
                    -0.000421827     0.000468565        -0.253232        -0.94369      0.000281159     0.000232266         0.121943        0.176258
251800                 -0.225531       -0.076128     -0.000684108     0.000263768        -0.902195        0.360965     -0.000409605     0.000547165
                    -0.000593828     0.000327144         0.010369       -0.216373      -7.0339e-05     0.000667612        -0.292782       -0.931315
                        -0.90253        0.359911     -0.000110831     0.000673142          0.11122        -0.21031      0.000150912     0.000365582
                    -0.000404874     0.000481667        -0.292474        -0.93174       0.00026765     0.000237903         0.132223        0.171584
252000                 -0.219188      -0.0618674      -0.00067553     0.000316141        -0.882023        0.413474     -0.000385925     0.000569027
                    -0.000574146      0.00038037       0.00329767       -0.218776      -4.1869e-05     0.000674534         -0.33146       -0.917744
                       -0.882393        0.412556     -8.63866e-05     0.000679839        0.0930599        -0.20776      0.000152733     0.000382464
                    -0.000387206     0.000494435        -0.331215       -0.918152      0.000254797     0.000247587         0.142253         0.16624
252200                 -0.211727      -0.0484461     -0.000662489     0.000368268        -0.858631         0.46503     -0.000360875     0.000589325
                    -0.000550941     0.000431729      -0.00395409       -0.220828     -1.31013e-05     0.000680757        -0.369563       -0.902572
                       -0.859009        0.464258     -6.09461e-05     0.000686008        0.0754716        -0.20358      0.000157201     0.000399982
                    -0.000368801     0.000506833        -0.369384       -0.902946      0.000243434     0.000261304          0.15199        0.160241
252400                 -0.203231      -0.0359668     -0.000645019     0.000419681        -0.832044        0.515418     -0.000334589     0.000608013
                    -0.000524412     0.000481055       -0.0113651       -0.222519      1.59876e-05     0.000686279        -0.407028       -0.885821
                       -0.832406        0.514792     -3.44639e-05      0.00069159        0.0586162        -0.19783      0.000164338     0.000417874
                     -0.00034964     0.000518822        -0.406915       -0.886145      0.000234396     0.000278846         0.161388        0.153605
252600                 -0.193796      -0.0245238     -0.000623223     0.000469923         -0.80231         0.56442     -0.000307202     0.000625058
                    -0.000494757     0.000528208       -0.0189134       -0.223837      4.54241e-05     0.000691095        -0.443791       -0.867517
                       -0.802633        0.563934     -6.89133e-06     0.000696516        0.0426495        -0.19059      0.000174139     0.000435891
                      -0.0003297     0.000530365        -0.443741       -0.867778      0.000228464     0.000299806         0.170405        0.146353
252800                 -0.183526      -0.0142022     -0.000597262     0.000518562        -0.769487        0.611816     -0.000278846     0.000640438
                    -0.000462169     0.000573062       -0.0265765       -0.224773      7.52379e-05     0.000695195        -0.479791       -0.847684
                       -0.769754        0.611458      2.18237e-05     0.000700715        0.0277196       -0.181955      0.000186582     0.000453794
                    -0.000308954     0.000541421        -0.479798       -0.847872       0.00022631     0.000323608            0.179        0.138508
253000                 -0.172533     -0.00507592     -0.000567353       0.0005652        -0.733657         0.65739     -0.000249646     0.000654143
                    -0.000426834     0.000615514        -0.034331       -0.225319      0.000105462     0.000698565        -0.514967       -0.826354
                       -0.733853        0.657143      5.17378e-05     0.000704108        0.0139646       -0.172036      0.000201626     0.000471358
                    -0.000287373     0.000551946        -0.515021       -0.826459      0.000228455     0.000349545         0.187131        0.130097
253200                  -0.16094       0.0027924     -0.000533763     0.000609482        -0.694917        0.700924     -0.000219726      0.00066617
                    -0.000388933     0.000655472       -0.0421533       -0.225468      0.000136132     0.000701185        -0.549257       -0.803557
                       -0.695033         0.70077      8.29129e-05     0.000706611       0.00151068       -0.160962      0.000219218     0.000488368
                    -0.000264921       0.0005619        -0.549349       -0.803574      0.000235243     0.000376825         0.194761        0.121148
253400                 -0.148872      0.00935292     -0.000496793     0.000651101        -0.653381        0.742207     -0.000189202     0.000676526
                    -0.000348637     0.000692859       -0.0500191       -0.225215      0.000167288     0.000703031        -0.582604       -0.779326
                       -0.653415        0.742127      0.000115418     0.000708134      -0.00952989       -0.148874      0.000239289     0.000504623
                    -0.000241555     0.000571238        -0.582721       -0.779253      0.000246833     0.000404629         0.201852        0.111694
253600                 -0.136462       0.0145691     -0.000456777     0.000689804        -0.609186        0.781035     -0.000158187     0.000685224
                    -0.000306112     0.000727608        -0.057904       -0.224557      0.000198972     0.000704068        -0.614949       -0.753698
                       -0.609136        0.781008      0.000149329      0.00070858       -0.0190605       -0.135927      0.000261764     0.000519934
                    -0.000217221     0.000579921        -0.615078       -0.753535      0.000263212      0.00043216          0.20837        0.101769
253800                 -0.123847       0.0184183     -0.000414064     0.000725396        -0.562483        0.817212     -0.000126784     0.000692285
                    -0.000261512      0.00075966       -0.0657832       -0.223492      0.000231231     0.000704257        -0.646235       -0.726709
                       -0.562355        0.817218      0.000184737     0.000707851       -0.0270016       -0.122284      0.000286558     0.000534123
                    -0.000191852     0.000587915        -0.646363       -0.726461      0.000284216     0.000458682         0.214282        0.091409
254000                 -0.111163       0.0208922      -0.00036901     0.000757735        -0.513443         0.85055     -9.50919e-05     0.000697734
                    -0.000214986     0.000788963       -0.0736316       -0.222018      0.000264114     0.000703547        -0.676407         -0.6984
                       -0.513245        0.850574      0.000221744     0.000705844       -0.0332924        -0.10812      0.000313578     0.000547023
                    -0.000165359     0.000595197         -0.67652       -0.698073      0.000309564     0.000483544         0.219557       0.0806532
254200                -0.0985482        0.021997     -0.000321971     0.000786734        -0.462252        0.880877     -6.32034e-05       0.0007016
                    -0.000166673     0.000815468       -0.0814242       -0.220138      0.000297672     0.000701877        -0.705409       -0.668813
                       -0.461995        0.880904      0.000260473      0.00070246       -0.0378914      -0.0936147      0.000342728     0.000558477
                    -0.000137629     0.000601765        -0.705496       -0.668419      0.000338889     0.000506204         0.224167       0.0695425
254400                -0.0861398       0.0217536     -0.000273293     0.000812358        -0.409114        0.908033     -3.12036e-05     0.000703916
                    -0.000116705     0.000839132        -0.089136       -0.217853      0.000331958     0.000699172        -0.733188        -0.63799
                        -0.40881        0.908052      0.000301075      0.00069761       -0.0407774      -0.0789509      0.000373904     0.000568337
                    -0.000108516     0.000607658        -0.733239       -0.637544      0.000371776     0.000526224         0.228087       0.0581202
254600                -0.0740709        0.020197     -0.000223303     0.000834618        -0.354244        0.931876      8.28131e-07     0.000704717
                    -6.52084e-05     0.000859909       -0.0967418       -0.215167      0.000367027     0.000695343        -0.759694       -0.605979
                       -0.353907        0.931877       0.00034373     0.000691224       -0.0419499      -0.0643142         0.000407     0.000576463
                     -7.7836e-05     0.000612984        -0.759702       -0.605501      0.000407785     0.000543268         0.231294       0.0464309
254800                -0.0624706       0.0173764     -0.000172305     0.000853568        -0.297872        0.952278      3.28186e-05     0.000704041
                     -1.2302e-05     0.000877755        -0.104217       -0.212087      0.000402932     0.000690284        -0.784874       -0.572827
                       -0.297517        0.952259      0.000388665     0.000683273       -0.0414293      -0.0498888      0.000441907     0.000582723
                     -4.5374e-05      0.00061797        -0.784837       -0.572339      0.000446479     0.000557092         0.233767       0.0345213
255000                -0.0514615        0.013354     -0.000120572     0.000869297        -0.240239        0.969135      6.47006e-05     0.000701926
                     4.18988e-05     0.000892626        -0.111536       -0.208619      0.000439724      0.00068387         -0.80868       -0.538584
                       -0.239879        0.969093      0.000436154     0.000673802       -0.0392564      -0.0358553       0.00047851      0.00058699
                    -1.09208e-05     0.000623044        -0.808604       -0.538114      0.000487433     0.000567528          0.23549       0.0224396
255200                -0.0411586      0.00820488     -6.83474e-05     0.000881924        -0.181593        0.982359      9.64124e-05      0.00069841
                     9.72827e-05     0.000904473        -0.118676       -0.204773      0.000477447     0.000675953        -0.831065       -0.503301
                        -0.18124        0.982296      0.000486527     0.000662982       -0.0354918      -0.0223885      0.000516693     0.000589146
                     2.56122e-05     0.000628942        -0.830965       -0.502879      0.000530251     0.000574472         0.236448       0.0102354
255400                -0.0316677      0.00201548     -1.58362e-05     0.000891594        -0.122189        0.991885      0.000127897     0.000693533
                     0.000153741     0.000913244        -0.125612       -0.200558      0.000516139     0.000666361        -0.851982       -0.467033
                       -0.121855        0.991804      0.000540148     0.000651191       -0.0302156     -0.00965474      0.000556334     0.000589075
                     6.39203e-05     0.000636779         -0.85189       -0.466688      0.000574568     0.000577868         0.236631     -0.00204051
255600                -0.0230843     -0.00511734      3.67937e-05      0.00089847       -0.0622892        0.997669      0.000159104     0.000687334
                     0.000211165     0.000918883        -0.132322       -0.195986       0.00055582     0.000654898        -0.871387       -0.429834
                      -0.0619816        0.997575       0.00059735     0.000639143       -0.0235255      0.00219013      0.000597309     0.000586666
                     0.000102813     0.000647892        -0.871355       -0.429587      0.000620051     0.000577693          0.23603      -0.0143363
255800                -0.0154923      -0.0130877      8.94146e-05     0.000902729      -0.00215406         0.99969      0.000189985     0.000679849
                     0.000269448     0.000921329        -0.138781       -0.191072      0.000596493     0.000641335        -0.889237       -0.391763
                     -0.00187966        0.999589      0.000658258     0.000628036       -0.0155357       0.0130028       0.00063949     0.000581814
                     0.000139733     0.000663045        -0.889343       -0.391607      0.000666401     0.000573951         0.234641      -0.0265993
256000               -0.00896345      -0.0217819       0.00014194     0.000904557         0.057954        0.997946      0.000220496     0.000671117
                     0.000328478     0.000920515        -0.144969       -0.185829      0.000638133     0.000625419        -0.905491       -0.352879
                        0.058191        0.997845      0.000722407     0.000619678      -0.00637508       0.0226544      0.000682743     0.000574417
                     0.000171226     0.000680926         -0.90582       -0.352754      0.000713348      0.00056666         0.232464      -0.0387761
256200               -0.00355618      -0.0310803      0.000194328     0.000904143         0.117775         0.99246        0.0002506     0.000661171
                     0.000388141     0.000916368        -0.150863       -0.180275      0.000680677     0.000606864        -0.920111       -0.313242
                        0.117973        0.992366      0.000788064     0.000616334       0.00381452       0.0310319      0.000726929     0.000564377
                     0.000195245     0.000697472        -0.920711       -0.313023      0.000760649      0.00055585         0.229501      -0.0508129
