! TOUCHSTONE file generated by CST MICROWAVE STUDIO
! Date and time: Mon Sep 22 15:52:53 2025
! Project name: biblioteca3_folgaOK.cst
! Parameters = {Nedge=10; mesh_pilar_nm=40; t_sub=2000; t_air=1200; k=0; n=0; wavelength_nm=0; H=600; Lx=200; Ly=260; P=520}
! Header version: 2018
! Port assignment regex: !\s*Touchstone port\s*([0-9]+)\s*=\s*(CST MWS port|CST DS port)\s*([0-9]+|Zmin|Zmax)\s*\(\"(.*)\"\)(\s*mode\s*([0-9]+))?.*
! Touchstone port assignment:
! Touchstone port 1 = CST MWS port Zmin ("") mode 1
! Touchstone port 2 = CST MWS port Zmin ("") mode 2
! Touchstone port 3 = CST MWS port Zmax ("") mode 1
! Touchstone port 4 = CST MWS port Zmax ("") mode 2
! S-Parameters are not renormalized. Each port impedance will be approximated by the real part at minimum frequency. The values are described via the [Reference] keyword.
! Default impedance is overridden by [Reference]
[Version] 2.0
# GHz S RI R 376.73
[Number of Ports] 4
[Reference]
376.73 376.73 376.73 376.73 
[Number of Frequencies] 401
[Network Data]
250000                 -0.214879       -0.223821      -0.00156464     0.000193025        -0.939415       -0.146163      -0.00126165      0.00144577
                     -0.00152969     0.000201911        0.0607882       -0.183871      -0.00153012     0.000850727        0.0753806        -0.97822
                       -0.938675        -0.14563      -0.00155814     0.000811538         0.272762       -0.147925     -0.000193124     0.000667261
                     -0.00125079      0.00142151        0.0755176       -0.977945     -0.000205992     0.000605011        0.0319551           0.191
250200                 -0.220554       -0.207973      -0.00155925      0.00027415        -0.948332      -0.0944401      -0.00120138      0.00150696
                      -0.0015243     0.000297624        0.0557454       -0.188428      -0.00150912     0.000929522         0.034617       -0.979939
                       -0.947741       -0.094135      -0.00154422     0.000888879         0.257278       -0.160361      -0.00018145     0.000678811
                     -0.00119826      0.00148484        0.0347587       -0.979669     -0.000201153     0.000623483        0.0423554        0.191879
250400                 -0.224964        -0.19191      -0.00154938     0.000356892        -0.954441      -0.0419236      -0.00113738      0.00156615
                      -0.0015127     0.000392819        0.0504032       -0.192758      -0.00148426      0.00100929      -0.00618325       -0.979968
                       -0.954004       -0.041784      -0.00152642     0.000968105         0.240964       -0.171419     -0.000169557     0.000690053
                     -0.00114096      0.00154553      -0.00603925        -0.97971     -0.000195222     0.000642899        0.0528707        0.192094
250600                 -0.228091       -0.175739      -0.00153476     0.000440996        -0.957659       0.0112375      -0.00106969      0.00162311
                       -0.001495     0.000487105        0.0447751       -0.196843      -0.00145534      0.00108987       -0.0469532        -0.97831
                       -0.957374       0.0112674      -0.00150444      0.00104908         0.223943       -0.181022     -0.000157655     0.000700858
                     -0.00107909      0.00160341       -0.0468096       -0.978069     -0.000188056     0.000663252        0.0634573        0.191637
250800                 -0.229927        -0.15957      -0.00151512     0.000526171        -0.957912        0.064885     -0.000998385      0.00167759
                     -0.00147137     0.000580122         0.038876       -0.200666      -0.00142213       0.0011711       -0.0876261       -0.974968
                       -0.957767       0.0648536      -0.00147797      0.00113165         0.206345       -0.189104     -0.000146104      0.00071106
                     -0.00101287      0.00165836       -0.0874858       -0.974746     -0.000179503     0.000684516        0.0740708        0.190503
251000                 -0.230474       -0.143512      -0.00149018     0.000612085        -0.955132        0.118852     -0.000923557      0.00172936
                     -0.00144197     0.000671541        0.0327215       -0.204208      -0.00138443      0.00125278        -0.128136       -0.969947
                       -0.955112          0.1188      -0.00144668      0.00121559         0.188306       -0.195611     -0.000135548     0.000720462
                    -0.000942559      0.00171025        -0.128001       -0.969747       -0.0001694     0.000706652        0.0846667        0.188688
251200                 -0.229742       -0.127679      -0.00145972     0.000698365        -0.949261        0.172961     -0.000845311      0.00177821
                     -0.00140695     0.000761058        0.0263283       -0.207454      -0.00134201      0.00133467        -0.168416       -0.963256
                       -0.949345        0.172922      -0.00141025      0.00130069         0.169973       -0.200502     -0.000127184     0.000728875
                    -0.000868411      0.00175893         -0.16829       -0.963078     -0.000157577       0.0007296        0.0951998        0.186193
251400                 -0.227755       -0.112181      -0.00142351     0.000784599        -0.940251         0.22703     -0.000763766      0.00182394
                     -0.00136647     0.000848393        0.0197142        -0.21039      -0.00129467      0.00141652        -0.208401       -0.954905
                       -0.940417        0.227029      -0.00136836      0.00138664         0.151495        -0.20375       -0.0001234      0.00073635
                    -0.000790706      0.00180431        -0.208286       -0.954747     -0.000143856     0.000753276         0.105625         0.18302
251600                 -0.224545      -0.0971284      -0.00138139     0.000870336        -0.928066        0.280866     -0.000679055      0.00186634
                     -0.00132069     0.000933278        0.0128979          -0.213      -0.00124221      0.00149805        -0.248027       -0.944905
                       -0.928291         0.28092      -0.00132068      0.00147312         0.133026       -0.205342     -0.000129316     0.000744287
                    -0.000709731      0.00184624        -0.247924       -0.944768     -0.000128056     0.000777572         0.115899        0.179175
251800                 -0.220154      -0.0826293      -0.00133321     0.000955089        -0.912682        0.334269      -0.00059132      0.00190526
                     -0.00126976      0.00101546        0.0058987       -0.215273      -0.00118443      0.00157893        -0.287227       -0.933271
                       -0.912942        0.334391      -0.00126691      0.00155975         0.114722        -0.20528     -0.000155997     0.000761168
                    -0.000625771       0.0018846        -0.287138       -0.933152     -0.000109995     0.000802353         0.125975        0.174666
252000                 -0.214637      -0.0687885      -0.00127888      0.00103834         -0.89409        0.387035     -0.000500715      0.00194054
                     -0.00121382      0.00109468      -0.00126305       -0.217197      -0.00112115      0.00165881        -0.325939        -0.92002
                       -0.894363        0.387231      -0.00120676       0.0016461        0.0967425       -0.203584     -0.000212983     0.000830478
                    -0.000539114      0.00191928        -0.325864       -0.919917     -8.94946e-05      0.00082745         0.135811        0.169506
252200                 -0.208057      -0.0557061      -0.00121837      0.00111954        -0.872295        0.438954     -0.000407399      0.00197208
                       -0.001153      0.00117069      -0.00856641       -0.218761      -0.00105223      0.00173732        -0.364098       -0.905169
                       -0.872559        0.439223      -0.00113996      0.00173169        0.0792434       -0.200287     -0.000175565      0.00101655
                    -0.000450045      0.00195015        -0.364037       -0.905081     -6.63844e-05     0.000852665         0.145362        0.163708
252400                 -0.200489      -0.0434765       -0.0011517      0.00119811        -0.847316        0.489812     -0.000311539       0.0019998
                     -0.00108743      0.00124324       -0.0159898       -0.219956     -0.000977516      0.00181402        -0.401641       -0.888741
                       -0.847553        0.490149      -0.00106627      0.00181598        0.0623797       -0.195442      1.09831e-05      0.00106096
                    -0.000358842       0.0019771        -0.401593       -0.888664     -4.05086e-05     0.000877766         0.154586        0.157289
252600                 -0.192016      -0.0321874      -0.00107896      0.00127349        -0.819192        0.539392     -0.000213309      0.00202371
                     -0.00101725      0.00131204       -0.0235109       -0.220775     -0.000896914      0.00188846        -0.438506       -0.870757
                       -0.819387        0.539789     -0.000985505      0.00189839        0.0463015       -0.189115      0.000102438      0.00101345
                    -0.000265777      0.00200001        -0.438471        -0.87069     -1.17317e-05     0.000902487         0.163443         0.15027
252800                 -0.182732      -0.0219185      -0.00100031      0.00134509        -0.787975        0.587476     -0.000112896      0.00204386
                    -0.000942593      0.00137682       -0.0311071        -0.22121     -0.000810352      0.00196016         -0.47463       -0.851244
                       -0.788117        0.587924     -0.000897519      0.00197828        0.0311528        -0.18139      0.000146349     0.000983133
                    -0.000171118      0.00201878        -0.474606       -0.851184      2.00547e-05     0.000926531          0.17189        0.142673
253000                 -0.172738      -0.0127402     -0.000915998      0.00141232        -0.753739        0.633849     -1.05194e-05      0.00206044
                    -0.000863623      0.00143726       -0.0387552       -0.221257     -0.000717801      0.00202861        -0.509954       -0.830227
                       -0.753818        0.634334     -0.000802228      0.00205496        0.0170693       -0.172367      0.000179202     0.000968553
                    -7.51241e-05       0.0020333        -0.509939       -0.830173      5.49251e-05     0.000949574          0.17989        0.134523
253200                 -0.162142     -0.00471319     -0.000826331      0.00147463        -0.716572        0.678296      9.35324e-05      0.00207377
                    -0.000780509      0.00149305       -0.0464318       -0.220913     -0.000619277      0.00209325        -0.544415       -0.807736
                       -0.716585        0.678804     -0.000699621      0.00212772       0.00417686       -0.162159      0.000210331     0.000962314
                     2.19515e-05       0.0020435        -0.544408       -0.807686      9.29133e-05     0.000971265         0.187405        0.125849
253400                 -0.151059      0.00211308     -0.000731709      0.00153148        -0.676583        0.720607      0.000198812      0.00208436
                    -0.000693458      0.00154384        -0.054113       -0.220174     -0.000514852      0.00215353        -0.577955       -0.783804
                       -0.676527        0.721125     -0.000589762      0.00219578      -0.00741084       -0.150895      0.000242241     0.000960332
                     0.000119861      0.00204929        -0.577953       -0.783757      0.000134007     0.000991237         0.194398         0.11668
253600                  -0.13961      0.00770091     -0.000632603      0.00158239        -0.633896        0.760578      0.000304538      0.00209295
                    -0.000602711      0.00158928       -0.0617749        -0.21904     -0.000404652      0.00220886        -0.610515       -0.758463
                       -0.633775        0.761092     -0.000472806      0.00225838       -0.0175935       -0.138714      0.000275687     0.000960427
                      0.00021836       0.0020506        -0.610517       -0.758419      0.000178141      0.00100911         0.200836         0.10705
253800                 -0.127918       0.0120251     -0.000529566      0.00162691        -0.588656        0.798012      0.000409298      0.00210034
                     -0.00050856        0.001629       -0.0693934       -0.217512     -0.000288869      0.00225864        -0.642038        -0.73175
                       -0.588473         0.79851     -0.000349001       0.0023147       -0.0262862       -0.125768      0.000310908      0.00096134
                     0.000317209      0.00204737         -0.64204       -0.731708      0.000225197      0.00102451         0.206686       0.0969935
254000                  -0.11611       0.0150732     -0.000423221      0.00166467        -0.541023        0.832724      0.000510665      0.00210698
                    -0.000411348      0.00166264       -0.0769444       -0.215592     -0.000167759      0.00230227        -0.672465       -0.703702
                       -0.540785        0.833196     -0.000218695      0.00236397       -0.0334202       -0.112218      0.000347975     0.000962268
                     0.000416173      0.00203955        -0.672467       -0.703662      0.000275001      0.00103707         0.211919       0.0865482
254200                 -0.104312       0.0168464     -0.000314263      0.00169536        -0.491173        0.864539      0.000605197      0.00211179
                    -0.000311481      0.00168984       -0.0844037       -0.213283     -4.16521e-05      0.00233916        -0.701743        -0.67436
                       -0.490889        0.864975     -8.23408e-05       0.0024054       -0.0389447      -0.0982317      0.000386895     0.000962649
                     0.000515019      0.00202711        -0.701741       -0.674323      0.000327323      0.00104643         0.216506       0.0757536
254400                -0.0926509       0.0173591     -0.000203454      0.00171876        -0.439298        0.893295      0.000689906      0.00211082
                    -0.000209426      0.00171027       -0.0917475       -0.210591      8.90513e-05      0.00236874        -0.729815       -0.643765
                       -0.438978         0.89369      5.95033e-05      0.00243824       -0.0428276      -0.0839823      0.000427647      0.00096205
                     0.000613514      0.00201002        -0.729809       -0.643732      0.000381883      0.00105228         0.220423       0.0646515
254600                -0.0812519       0.0166389     -9.16121e-05      0.00173469        -0.385604        0.918847      0.000765483      0.00209786
                    -0.000105718      0.00172364        -0.098952       -0.207522      0.000223876      0.00239043        -0.756629       -0.611963
                       -0.385258        0.919196      0.000206176      0.00246179       -0.0450558       -0.069646      0.000470194      0.00096011
                     0.000711428      0.00198827        -0.756617       -0.611934      0.000438356      0.00105434         0.223646       0.0532853
254800                -0.0702352       0.0147266      2.03895e-05      0.00174306        -0.330308        0.941064      0.000837588      0.00206895
                     -9.5035e-07      0.00172971        -0.105994       -0.204085      0.000362276      0.00240373        -0.782132          -0.579
                       -0.329948        0.941366      0.000356919      0.00247543       -0.0456359         -0.0554       0.00051448     0.000956513
                     0.000808534      0.00196185        -0.782114       -0.578977      0.000496378      0.00105237         0.226156       0.0417002
255000                -0.0597161       0.0116755      0.000131639      0.00174382        -0.273641        0.959834       0.00091265      0.00202582
                      0.00010423       0.0017283         -0.11285       -0.200288      0.000503634      0.00240816        -0.806274       -0.544925
                       -0.273276        0.960088      0.000510883      0.00247859       -0.0445944      -0.0414194      0.000560437     0.000950965
                     0.000904603      0.00193076        -0.806249       -0.544909       0.00055556      0.00104619         0.227934       0.0299431
255200                -0.0498034      0.00755082      0.000241206      0.00173694        -0.215839        0.975064      0.000993291      0.00197341
                     0.000209136      0.00171934        -0.119499       -0.196144       0.00064727      0.00240329        -0.829005       -0.509788
                       -0.215479        0.975273      0.000667141      0.00247082       -0.0419768      -0.0278757      0.000607975     0.000943187
                      0.00099941      0.00189505        -0.828973       -0.509781      0.000615497      0.00103569         0.228968       0.0180623
255400                -0.0405977       0.0024286      0.000348178       0.0017224        -0.157149        0.986679       0.00107855      0.00191588
                     0.000313052      0.00170282        -0.125917       -0.191664      0.000792442      0.00238878        -0.850277       -0.473643
                       -0.156802        0.986847      0.000824701      0.00245177       -0.0378476      -0.0149339      0.000656983      0.00093291
                      0.00109273      0.00185472        -0.850238       -0.473645      0.000675776       0.0010208         0.229245      0.00610741
255600                -0.0321905     -0.00360509      0.000451719      0.00170013       -0.0978197        0.994626       0.00116628      0.00185531
                     0.000415259      0.00167885        -0.132084       -0.186863      0.000938364      0.00236436        -0.870044       -0.436545
                      -0.0974935        0.994758      0.000982526      0.00242122       -0.0322892     -0.00275033      0.000707326     0.000919871
                      0.00118433      0.00180983        -0.869999       -0.436558      0.000735995      0.00100151         0.228758     -0.00587098
255800                -0.0246628      -0.0104555      0.000551143      0.00167004       -0.0381047        0.998871       0.00125453      0.00179237
                     0.000515049      0.00164765         -0.13798       -0.181757       0.00108421      0.00232982        -0.888261        -0.39855
                      -0.0378043        0.998973       0.00113955      0.00237906       -0.0254006      0.00852902      0.000758843     0.000903816
                        0.001274      0.00176043        -0.888211       -0.398576      0.000795764     0.000977864         0.227502      -0.0178213
256000                -0.0180844      -0.0180204      0.000645988      0.00163206        0.0217416        0.999402       0.00134192      0.00172709
                     0.000611754      0.00160952        -0.143584       -0.176362       0.00122911      0.00228506        -0.904885       -0.359718
                       0.0220127        0.999481       0.00129469      0.00232532       -0.0172961       0.0187708      0.000811342     0.000884496
                      0.00136151       0.0017066        -0.904832       -0.359757      0.000854719     0.000949953         0.225476      -0.0296912
256200                -0.0125134      -0.0261918      0.000736053      0.00158623        0.0814661        0.996225       0.00142755       0.0016593
                     0.000704756      0.00156487        -0.148879       -0.170696       0.00137221      0.00223009        -0.919875       -0.320111
                        0.081706        0.996288        0.0014469      0.00226014      -0.00810374       0.0278559      0.000864601     0.000861674
                      0.00144665       0.0016484         -0.91982       -0.320163       0.00091253     0.000917901         0.222681      -0.0414281
