! TOUCHSTONE file generated by CST MICROWAVE STUDIO
! Date and time: Mon Sep 22 15:52:56 2025
! Project name: biblioteca3_folgaOK.cst
! Parameters = {Nedge=30; mesh_pilar_nm=40; t_sub=2000; t_air=1200; k=0; n=0; wavelength_nm=0; H=600; Lx=200; Ly=260; P=520}
! Header version: 2018
! Port assignment regex: !\s*Touchstone port\s*([0-9]+)\s*=\s*(CST MWS port|CST DS port)\s*([0-9]+|Zmin|Zmax)\s*\(\"(.*)\"\)(\s*mode\s*([0-9]+))?.*
! Touchstone port assignment:
! Touchstone port 1 = CST MWS port Zmin ("") mode 1
! Touchstone port 2 = CST MWS port Zmin ("") mode 2
! Touchstone port 3 = CST MWS port Zmax ("") mode 1
! Touchstone port 4 = CST MWS port Zmax ("") mode 2
! S-Parameters are not renormalized. Each port impedance will be approximated by the real part at minimum frequency. The values are described via the [Reference] keyword.
! Default impedance is overridden by [Reference]
[Version] 2.0
# GHz S RI R 376.73
[Number of Ports] 4
[Reference]
376.73 376.73 376.73 376.73 
[Number of Frequencies] 401
[Network Data]
250000                 -0.226097       -0.218957      -0.00112059    -0.000499056        -0.943002       -0.106649     -6.21881e-06     0.000452665
                     -0.00107274    -0.000563109          0.06392       -0.179555     -1.30389e-05     5.08625e-05        0.0678635       -0.979347
                       -0.943276       -0.106553     -7.86026e-05     0.000110007         0.269292       -0.162942      0.000356989      0.00114255
                     -2.1368e-05     0.000438119        0.0677687       -0.979397      0.000341085      0.00113634        0.0385302        0.186668
250200                 -0.231353       -0.202435      -0.00115608    -0.000442741        -0.949998      -0.0537164      1.77436e-05     0.000453681
                     -0.00111895     -0.00050885        0.0593329       -0.184399     -1.87861e-05     4.98703e-05        0.0269735       -0.980724
                        -0.95054      -0.0537396     -8.04463e-05     0.000112984         0.253102       -0.174508      0.000399294      0.00114597
                     7.03953e-06     0.000440043        0.0268559       -0.980762       0.00039689      0.00113614        0.0490408        0.187406
250400                 -0.235279        -0.18567      -0.00118961    -0.000383483        -0.954014    -0.000209263      4.23676e-05     0.000453189
                      -0.0011628    -0.000450681         0.054421       -0.189059     -2.48639e-05     4.92353e-05        -0.013948         -0.9804
                       -0.954778    -0.000268686     -8.23152e-05     0.000116423         0.236106       -0.184656      0.000443107      0.00114805
                     3.60106e-05     0.000439792       -0.0140819       -0.980426      0.000453257      0.00113367        0.0596699        0.187473
250600                 -0.237847       -0.168782      -0.00122096    -0.000321291        -0.955003       0.0537234      6.75579e-05     0.000451067
                     -0.00120396     -0.00038866        0.0491947       -0.193513     -3.12744e-05     4.90057e-05       -0.0548313       -0.978375
                       -0.955938       0.0536895     -8.41777e-05     0.000120351         0.218435       -0.193301       0.00048843      0.00114866
                     6.53432e-05     0.000437252       -0.0549756       -0.978391       0.00051009      0.00112886        0.0703725        0.186858
250800                 -0.239039       -0.151894      -0.00124987    -0.000256191        -0.952924        0.107927      9.32014e-05     0.000447197
                     -0.00124208    -0.000322875        0.0436658        -0.19774     -3.80164e-05      4.9235e-05       -0.0956066       -0.974653
                       -0.953974        0.107961     -8.59988e-05     0.000124796         0.200227       -0.200369       0.00053525      0.00114764
                     9.48139e-05     0.000432327       -0.0957567        -0.97466      0.000567287      0.00112164        0.0811025        0.185554
251000                 -0.238852       -0.135134      -0.00127608    -0.000188228        -0.947737        0.162243      0.000119166     0.000441465
                     -0.00127682    -0.000253446        0.0378475        -0.20172     -4.50848e-05     4.99824e-05        -0.136205       -0.969239
                       -0.948849        0.162368     -8.77393e-05     0.000129785         0.181634       -0.205801      0.000583545      0.00114483
                      0.00012418     0.000424948        -0.136357       -0.969238      0.000624742      0.00111197        0.0918134        0.183557
251200                 -0.237295       -0.118631      -0.00129932    -0.000117471        -0.939405        0.216501      0.000145301     0.000433767
                     -0.00130784    -0.000180526        0.0317545       -0.205433     -5.24692e-05     5.13131e-05        -0.176557       -0.962141
                       -0.940531        0.216728     -8.93556e-05     0.000135344         0.162813       -0.209553      0.000633277      0.00114008
                     0.000153184     0.000415077        -0.176708       -0.962135      0.000682341      0.00109979         0.102458        0.180866
251400                  -0.23439       -0.102512      -0.00131931    -4.40109e-05        -0.927901        0.270528      0.000171434     0.000424007
                     -0.00133479    -0.000104303        0.0254025        -0.20886     -6.01526e-05     5.32989e-05        -0.216595       -0.953369
                       -0.928996        0.270855     -9.07997e-05     0.000141499         0.143929       -0.211599      0.000684393       0.0011332
                     0.000181557     0.000402704        -0.216743        -0.95336      0.000739969      0.00108506          0.11299        0.177483
251600                 -0.230173      -0.0869053      -0.00133577     3.20363e-05        -0.913201        0.324141      0.000197375     0.000412102
                     -0.00135733    -2.49987e-05        0.0188087       -0.211985     -6.81104e-05     5.60183e-05        -0.256251       -0.942938
                       -0.914232        0.324555     -9.20184e-05     0.000148273         0.125151       -0.211928      0.000736823      0.00112403
                     0.000209022     0.000387857        -0.256394       -0.942927      0.000797506      0.00106774         0.123362        0.173413
251800                 -0.224694      -0.0719353      -0.00134842     0.000110527        -0.895294        0.377148      0.000222912     0.000397989
                     -0.00137514     5.71299e-05        0.0119912       -0.214791     -7.63078e-05     5.95566e-05        -0.295458       -0.930862
                       -0.896235        0.377632      -9.2953e-05      0.00015569         0.106652       -0.210553      0.000790478      0.00111239
                     0.000235303     0.000370601        -0.295596       -0.930852      0.000854827       0.0010478         0.133528        0.168667
252000                 -0.218016      -0.0577215      -0.00135697     0.000191288        -0.874178         0.42935      0.000247817     0.000381625
                     -0.00138791     0.000141791       0.00496938       -0.217263     -8.46983e-05     6.40065e-05        -0.334151       -0.917161
                       -0.875011        0.429882     -9.35395e-05     0.000163769        0.0886043         -0.2075      0.000845247      0.00109808
                     0.000260127     0.000351035        -0.334282       -0.917154      0.000911804      0.00102521         0.143442        0.163254
252200                 -0.210216      -0.0443775      -0.00136114     0.000274117        -0.849866        0.480544      0.000271845     0.000362989
                     -0.00139536     0.000228659      -0.00223659       -0.219388     -9.32209e-05     6.94669e-05        -0.372263       -0.901855
                       -0.850582          0.4811     -9.37075e-05     0.000172526        0.0711768       -0.202819      0.000900996      0.00108094
                     0.000283231     0.000329298        -0.372388       -0.901851      0.000968306     0.000999952         0.153058        0.157192
252400                 -0.201381      -0.0320087      -0.00136064     0.000358781        -0.822385        0.530517      0.000294736     0.000342092
                     -0.00139721     0.000317378      -0.00960561       -0.221153     -0.000101797     7.60432e-05         -0.40973       -0.884966
                       -0.822981        0.531075     -9.33803e-05     0.000181974         0.054535       -0.196576       0.00095757      0.00106078
                     0.000304369     0.000305563        -0.409849       -0.884968        0.0010242     0.000972016         0.162332        0.150497
252600                 -0.191612      -0.0207115      -0.00135522     0.000445015        -0.791776        0.579055      0.000316219     0.000318976
                     -0.00139323     0.000407559       -0.0171158       -0.222546     -0.000110328     8.38455e-05        -0.446488       -0.866522
                       -0.792257        0.579594     -9.24744e-05      0.00019212        0.0388374       -0.188859       0.00101479      0.00103743
                     0.000323317     0.000280034        -0.446603        -0.86653       0.00107935       0.0009414         0.171222        0.143191
252800                 -0.181018      -0.0105717      -0.00134462     0.000532519          -0.7581        0.625941      0.000336018     0.000293715
                     -0.00138321     0.000498788       -0.0247444       -0.223559      -0.00011869     9.29869e-05        -0.482476       -0.846548
                       -0.758475        0.626442     -9.08995e-05     0.000202968        0.0242325       -0.179772       0.00107244      0.00101074
                     0.000339876     0.000252946        -0.482587       -0.846563       0.00113362     0.000908107         0.179686        0.135298
253000                 -0.169719     -0.00166319       -0.0013286     0.000620964        -0.721434        0.670955      0.000353852     0.000266427
                     -0.00136698     0.000590626       -0.0324684       -0.224182     -0.000126731     0.000103581        -0.517631       -0.825075
                       -0.721717        0.671404     -8.85581e-05     0.000214512        0.0108578       -0.169436       0.00113029     0.000980557
                     0.000353878     0.000224559        -0.517739       -0.825097       0.00118687     0.000872149         0.187682        0.126844
253200                 -0.157841      0.00595293      -0.00130694     0.000709986        -0.681878        0.713882      0.000369446     0.000237264
                      -0.0013444      0.00068261       -0.0402638        -0.22441     -0.000134265     0.000115737        -0.551894       -0.802136
                       -0.682083        0.714269     -8.53453e-05      0.00022674      -0.00116331       -0.157988       0.00118809     0.000946752
                      0.00036519     0.000195152           -0.552       -0.802164       0.00123897     0.000833546         0.195174         0.11786
253400                 -0.145516       0.0122293      -0.00127945     0.000799194        -0.639546        0.754508      0.000382534     0.000206422
                     -0.00131537     0.000774263       -0.0481065       -0.224236     -0.000141071     0.000129557        -0.585204       -0.777763
                       -0.639692        0.754826     -8.11492e-05     0.000239628        -0.011723       -0.145577       0.00124555     0.000909223
                     0.000373713     0.000165018         -0.58531       -0.777798       0.00128978     0.000792327         0.202124        0.108377
253600                 -0.132883       0.0171331      -0.00124596     0.000888164        -0.594577        0.792627      0.000392864      0.00017414
                     -0.00127984     0.000865093        -0.055972       -0.223657     -0.000146883     0.000145124        -0.617503       -0.751994
                        -0.59468        0.792875     -7.58508e-05     0.000253143       -0.0207307       -0.132367       0.00130238     0.000867891
                     0.000379387      0.00013446         -0.61761       -0.752035       0.00133915     0.000748528         0.208498       0.0984302
253800                 -0.120081       0.0206463      -0.00120635     0.000976447        -0.547126        0.828039      0.000400208     0.000140696
                     -0.00123778     0.000954599       -0.0638353       -0.222671     -0.000151391     0.000162497        -0.648736       -0.724867
                       -0.547203        0.828219     -6.93248e-05     0.000267237       -0.0281145       -0.118529       0.00135825     0.000822711
                     0.000382189     0.000103783        -0.648844       -0.724913       0.00138696     0.000702192         0.214263       0.0880562
254000                 -0.107252       0.0227659      -0.00116052      0.00106357        -0.497366        0.860557       0.00040437     0.000106407
                     -0.00118925      0.00104228       -0.0716713       -0.221277      -0.00015424     0.000181699        -0.678845       -0.696422
                       -0.497432        0.860674     -6.14398e-05     0.000281849       -0.0338223       -0.104242       0.00141283     0.000773669
                     0.000382133     7.32915e-05        -0.678956       -0.696473       0.00143307     0.000653373          0.21939       0.0772944
254200                 -0.094536       0.0235041      -0.00110841      0.00114904        -0.445492        0.890006      0.000405187     7.16256e-05
                      -0.0011343      0.00112762       -0.0794551       -0.219476     -0.000155025     0.000202699        -0.707778       -0.666701
                       -0.445559        0.890068     -5.20598e-05     0.000296897       -0.0378223       -0.089691       0.00146577     0.000720792
                     0.000379267     4.32819e-05        -0.707891       -0.666755       0.00147736     0.000602128          0.22385       0.0661861
254400                -0.0820713       0.0228881      -0.00105001      0.00123234        -0.391711        0.916227      0.000402541     3.67355e-05
                     -0.00107305      0.00121013       -0.0871613        -0.21727     -0.000153297     0.000225402         -0.73548        -0.63575
                       -0.391789        0.916243     -4.10455e-05     0.000312282       -0.0401041      -0.0750611       0.00151673     0.000664148
                     0.000373674     1.40399e-05        -0.735597       -0.635806       0.00151969     0.000548525         0.227619       0.0547745
254600                -0.0699917       0.0209595     -0.000985373      0.00131295        -0.336247        0.939077      0.000396364     2.14537e-06
                     -0.00100568      0.00128931       -0.0947648       -0.214664     -0.000148572     0.000249624          -0.7619       -0.603613
                       -0.336344        0.939058     -2.82561e-05     0.000327884       -0.0406779       -0.060539       0.00156535     0.000603847
                     0.000365464    -1.41635e-05        -0.762021       -0.603671       0.00155994     0.000492637         0.230674       0.0431048
254800                -0.0584255       0.0177739     -0.000914571      0.00139034        -0.279336        0.958433      0.000386641     -3.1718e-05
                    -0.000932388       0.0013647        -0.102241       -0.211662     -0.000140346     0.000275081        -0.786988        -0.57034
                       -0.279457         0.95839     -1.35523e-05     0.000343556        -0.039575       -0.046308       0.00161131     0.000540039
                     0.000354777    -4.10755e-05        -0.787114       -0.570397       0.00159799     0.000434546         0.232996       0.0312237
255000                -0.0474935       0.0133999     -0.000837746      0.00146398        -0.221227         0.97419      0.000373415    -6.44176e-05
                    -0.000853413      0.00143582        -0.109565       -0.208272     -0.000128113     0.000301367        -0.810696       -0.535981
                       -0.221373        0.974136      3.20123e-06     0.000359126        -0.036847      -0.0325461       0.00165427      0.00047292
                     0.000341777     -6.6463e-05        -0.810825       -0.536036       0.00163372     0.000374338         0.234568       0.0191794
255200                -0.0373077      0.00791815     -0.000755086      0.00153333        -0.162173        0.986269       0.00035679     -9.5515e-05
                    -0.000769039      0.00150224        -0.116712       -0.204503     -0.000111396     0.000327942        -0.832975       -0.500587
                       -0.162344        0.986212      2.21313e-05     0.000374392       -0.0325648      -0.0194239       0.00169395     0.000402723
                     0.000326646    -9.01149e-05        -0.833108        -0.50064       0.00166703     0.000312106         0.235377      0.00702151
255400                -0.0279705       0.0014202     -0.000666831      0.00159789        -0.102438        0.994608       0.00033693     -0.00012458
                    -0.000679585      0.00156355        -0.123659       -0.200365     -8.97852e-05     0.000354128        -0.853781       -0.464213
                       -0.102632        0.994558       4.3352e-05     0.000389124       -0.0268176     -0.00710209       0.00173006      0.00032972
                     0.000309584    -0.000111843        -0.853917       -0.464262       0.00169781     0.000247948         0.235412     -0.00519925
255600                -0.0195728     -0.00599273     -0.000573273      0.00165716       -0.0422848        0.999106      0.000314062    -0.000151198
                      -0.0005854      0.00161936        -0.130382       -0.195869      -6.2977e-05     0.000379116        -0.873069       -0.426914
                      -0.0424978        0.999097      6.69592e-05      0.00040306       -0.0197115      0.00427036       0.00176238     0.000254213
                     0.000290808    -0.000131482        -0.873207       -0.426958       0.00172595     0.000181969         0.234667      -0.0174312
255800                -0.0121937      -0.0142112     -0.000474751      0.00171064        0.0180107        0.999838      0.000288472    -0.000174983
                    -0.000486861      0.00166931        -0.136858        -0.19103     -3.08223e-05     0.000401982        -0.890796       -0.388748
                        0.017786        0.999842      9.30241e-05     0.000415904       -0.0113678       0.0145582        0.0017907      0.00017653
                     0.000270543    -0.000148892        -0.890937       -0.388787       0.00175137     0.000114276         0.233138      -0.0296217
256000               -0.00589963      -0.0231192     -0.000371655      0.00175789        0.0781964        0.996932      0.000260501    -0.000195584
                    -0.000384374      0.00171308        -0.143065       -0.185861      6.63407e-06     0.000421729        -0.906923       -0.349775
                       0.0779641        0.996941      0.000121587     0.000427334      -0.00192113       0.0236412       0.00181487     9.70179e-05
                     0.000249025    -0.000163955        -0.907065       -0.349807       0.00177398     4.49825e-05         0.230824      -0.0417177
256200              -0.000743626      -0.0325953     -0.000264416      0.00179849         0.138002        0.990168      0.000230539    -0.000212694
                    -0.000278363      0.00175038        -0.148983        -0.18038      4.91213e-05     0.000437337        -0.921411       -0.310055
                        0.137769        0.990203      0.000152649     0.000436995       0.00848234       0.0314158       0.00183479     1.60364e-05
                     0.000226495    -0.000176575        -0.921552        -0.31008       0.00179369    -2.57961e-05         0.227728      -0.0536657
