! TOUCHSTONE file generated by CST MICROWAVE STUDIO
! Date and time: Mon Sep 22 15:52:53 2025
! Project name: biblioteca3_folgaOK.cst
! Parameters = {Nedge=16; mesh_pilar_nm=40; t_sub=2000; t_air=1200; k=0; n=0; wavelength_nm=0; H=600; Lx=200; Ly=260; P=520}
! Header version: 2018
! Port assignment regex: !\s*Touchstone port\s*([0-9]+)\s*=\s*(CST MWS port|CST DS port)\s*([0-9]+|Zmin|Zmax)\s*\(\"(.*)\"\)(\s*mode\s*([0-9]+))?.*
! Touchstone port assignment:
! Touchstone port 1 = CST MWS port Zmin ("") mode 1
! Touchstone port 2 = CST MWS port Zmin ("") mode 2
! Touchstone port 3 = CST MWS port Zmax ("") mode 1
! Touchstone port 4 = CST MWS port Zmax ("") mode 2
! S-Parameters are not renormalized. Each port impedance will be approximated by the real part at minimum frequency. The values are described via the [Reference] keyword.
! Default impedance is overridden by [Reference]
[Version] 2.0
# GHz S RI R 376.73
[Number of Ports] 4
[Reference]
376.73 376.73 376.73 376.73 
[Number of Frequencies] 401
[Network Data]
250000                 -0.223597       -0.216816       0.00152356    -0.000161224        -0.940767       -0.133991     -0.000269332    -7.86001e-05
                       0.0015483    -0.000210391        0.0628091       -0.178582     -0.000197953     0.000433418        0.0721616       -0.979172
                       -0.940867       -0.133686     -0.000181491     0.000412099         0.275181        -0.14586      0.000621543     -0.00152033
                    -0.000277879    -4.04022e-05        0.0721169       -0.979346      0.000660323     -0.00165923         0.035971        0.185839
250200                 -0.228973       -0.200254       0.00154189    -0.000260301        -0.949195      -0.0820702     -0.000278953    -5.23361e-05
                      0.00155367    -0.000302632        0.0582225       -0.183359     -0.000161228     0.000450481        0.0313248       -0.980754
                       -0.949172      -0.0818031     -0.000158394     0.000423436         0.259997       -0.158043      0.000581232     -0.00157046
                    -0.000298345    -5.73123e-06        0.0313328       -0.980949       0.00060072     -0.00170114        0.0463993        0.186761
250400                 -0.232993       -0.183458       0.00155305    -0.000363606        -0.954774      -0.0293761     -0.000287041    -2.44768e-05
                      0.00155403    -0.000397473        0.0533116       -0.187948     -0.000123027     0.000460785      -0.00954534       -0.980639
                       -0.954661      -0.0291573     -0.000133886     0.000433488         0.243961       -0.168862      0.000537174     -0.00162026
                    -0.000313187      3.0872e-05      -0.00950048       -0.980852      0.000538706       -0.001741        0.0569484        0.186993
250600                 -0.235635       -0.166552       0.00155643    -0.000470545        -0.957425       0.0239376     -0.000293375     4.92902e-06
                        0.001549    -0.000494677        0.0480877       -0.192325     -8.50628e-05     0.000464634       -0.0503803       -0.978828
                       -0.957253       0.0241036     -0.000108006     0.000442035           0.2272       -0.178232       0.00048925     -0.00166942
                    -0.000322651     6.83754e-05       -0.0503117       -0.979053      0.000474383     -0.00177867        0.0675705        0.186531
250800                 -0.236889       -0.149657       0.00155152    -0.000580445        -0.957076       0.0777088     -0.000297727     3.58052e-05
                      0.00153822    -0.000593959         0.042564       -0.196471     -4.86957e-05     0.000462788       -0.0911118       -0.975326
                       -0.956871       0.0778225     -8.08242e-05     0.000448842         0.209848       -0.186079      0.000437368     -0.00171761
                    -0.000327141     0.000105965         -0.09103       -0.975556      0.000407862     -0.00181402        0.0782178         0.18537
251000                 -0.236757         -0.1329       0.00153784    -0.000692558        -0.953663        0.131767     -0.000299861     6.80444e-05
                      0.00152134    -0.000694996        0.0367545       -0.200365     -1.48506e-05     0.000456242        -0.131672       -0.970136
                       -0.953448        0.131833     -5.24497e-05     0.000453664         0.192053       -0.192344      0.000381478     -0.00176445
                    -0.000327127     0.000143037        -0.131585       -0.970367      0.000339263     -0.00184693        0.0888432        0.183511
251200                 -0.235252       -0.116406       0.00151502    -0.000806072         -0.94713        0.185932     -0.000299541     0.000101505
                      0.00149802    -0.000797418        0.0306749       -0.203988      1.59591e-05     0.000446044        -0.171993       -0.963268
                       -0.946926        0.185959      -2.3037e-05     0.000456246         0.173968       -0.196981      0.000321568     -0.00180958
                    -0.000323096     0.000179167        -0.171907       -0.963493      0.000268712     -0.00187729        0.0993998        0.180956
251400                 -0.232401         -0.1003       0.00148279    -0.000920125        -0.937435        0.240018     -0.000296531     0.000136007
                      0.00146793    -0.000900809        0.0243416       -0.207323      4.35514e-05     0.000433159        -0.212009       -0.954731
                       -0.937256        0.240017      7.20851e-06     0.000456338         0.155751       -0.199961      0.000257679     -0.00185259
                    -0.000315501     0.000214076        -0.211927       -0.954946      0.000196341     -0.00190501         0.109841         0.17771
251600                 -0.228243      -0.0847051       0.00144095     -0.00103382        -0.924544         0.29383     -0.000290606     0.000171333
                      0.00143077     -0.00100471        0.0177726       -0.210352      6.79775e-05     0.000418406        -0.251652        -0.94454
                         -0.9244        0.293813      3.80244e-05     0.000453697         0.137565       -0.201273      0.000189902      -0.0018931
                    -0.000304748     0.000247595        -0.251577       -0.944739      0.000122286        -0.00193         0.120121        0.173783
251800                 -0.222827      -0.0697403       0.00138944     -0.00114623        -0.908437        0.347168     -0.000281554     0.000207223
                      0.00138627     -0.00110861        0.0109865       -0.213061      8.94309e-05     0.000402432        -0.290856       -0.932708
                       -0.908335        0.347147      6.90876e-05     0.000448104         0.119576       -0.200922      0.000118382      -0.0019307
                    -0.000291184      0.00027963         -0.29079       -0.932888      4.66829e-05     -0.00195217         0.130196        0.169185
252000                 -0.216217      -0.0555204       0.00132829     -0.00125643        -0.889107        0.399824     -0.000269188     0.000243376
                       0.0013342     -0.00121195       0.00400304       -0.215434      0.000108177     0.000385725        -0.329557       -0.919255
                        -0.88905        0.399812      0.000100013     0.000439379          0.10195       -0.198931      4.33224e-05     -0.00196501
                    -0.000275093     0.000310138        -0.329498       -0.919412     -3.03271e-05     -0.00197148         0.140021         0.16393
252200                 -0.208486      -0.0421544       0.00125764     -0.00136349        -0.866562        0.451587      -0.00025335     0.000279454
                      0.00127435     -0.00131415      -0.00315731        -0.21746      0.000124504     0.000368635        -0.367689         -0.9042
                        -0.86655        0.451596      0.000130357     0.000427395        0.0848501       -0.195341     -3.50216e-05     -0.00199567
                    -0.000256703     0.000339106        -0.367637       -0.904333     -0.000108605     -0.00198785         0.149552        0.158034
252400                  -0.19972      -0.0297439       0.00117771     -0.00146654        -0.840826         0.50224     -0.000233924     0.000315079
                       0.0012066     -0.00141457       -0.0104733       -0.219125      0.000138691       0.0003514        -0.405188       -0.887565
                       -0.840855         0.50228      0.000159623     0.000412098        0.0684356       -0.190212     -0.000116344     -0.00202237
                    -0.000236192     0.000366538        -0.405142       -0.887672     -0.000188013     -0.00200126         0.158749        0.151516
252600                 -0.190014      -0.0183826       0.00108886     -0.00156469        -0.811939        0.551567     -0.000210837     0.000349845
                      0.00113085     -0.00151254       -0.0179228       -0.220421      0.000150993     0.000334172        -0.441993       -0.869374
                       -0.812003        0.551646      0.000187272     0.000393521        0.0528603        -0.18362     -0.000200295     -0.00204483
                    -0.000213694     0.000392439        -0.441949       -0.869456     -0.000268415     -0.00201165         0.167569        0.144397
252800                 -0.179472     -0.00815438      0.000991492     -0.00165715        -0.779959        0.599347     -0.000184074     0.000383318
                      0.00104707     -0.00160737       -0.0254835       -0.221338      0.000161627     0.000317041        -0.478039       -0.849656
                       -0.780049        0.599472      0.000212746     0.000371805        0.0382693       -0.175658     -0.000286489     -0.00206281
                    -0.000189304     0.000416808        -0.477997       -0.849712     -0.000349678     -0.00201902         0.175974        0.136701
253000                 -0.168208     0.000867206      0.000886122     -0.00174316        -0.744961        0.645363      -0.00015368     0.000415052
                     0.000955306     -0.00169833       -0.0331321       -0.221868      0.000170777     0.000300053        -0.513267       -0.828438
                       -0.745068        0.645538      0.000235487     0.000347206        0.0247978       -0.166435     -0.000374515     -0.00207615
                    -0.000163089     0.000439634        -0.513223        -0.82847     -0.000431673     -0.00202334         0.183924        0.128454
253200                 -0.156341      0.00862003      0.000773316     -0.00182202        -0.707038        0.689398     -0.000119766     0.000444592
                     0.000855669     -0.00178469        -0.040845       -0.222006      0.000178587     0.000283222        -0.547615       -0.805752
                       -0.707153        0.689624      0.000254967     0.000320101         0.012569       -0.156075     -0.000463949     -0.00208475
                    -0.000135094      0.00046089        -0.547568       -0.805763     -0.000514276      -0.0020246         0.191384        0.119685
253400                    -0.144       0.0150543        0.0006537     -0.00189314        -0.666302        0.731242     -8.25098e-05     0.000471491
                     0.000748345      -0.0018657       -0.0485984       -0.221746      0.000185167     0.000266543        -0.581026       -0.781631
                       -0.666415        0.731518       0.00027072     0.000290983       0.00169224       -0.144716     -0.000554365     -0.00208856
                    -0.000105345      0.00048053        -0.580973       -0.781623      -0.00059737      -0.0020228         0.198317        0.110424
253600                 -0.131316       0.0201331      0.000527946     -0.00195596        -0.622882        0.770689     -4.21582e-05     0.000495322
                     0.000633599     -0.00194063       -0.0563679       -0.221085      0.000190595     0.000250001        -0.613439       -0.756111
                       -0.622985        0.771011      0.000282368     0.000260454       -0.0077382       -0.132506      -0.00064535     -0.00208761
                    -7.38575e-05     0.000498488        -0.613379       -0.756087      -0.00068084     -0.00201793         0.204692        0.100705
253800                 -0.118423       0.0238332       0.00039676     -0.00201003        -0.576928        0.807541      9.76588e-07     0.000515687
                     0.000511776     -0.00200873        -0.064129       -0.220022      0.000194919     0.000233574        -0.644799        -0.72923
                       -0.577011        0.807906      0.000289656     0.000229198       -0.0156448       -0.119603     -0.000736509     -0.00208197
                    -4.06423e-05     0.000514673        -0.644731       -0.729193     -0.000764579     -0.00201001         0.210475       0.0905633
254000                  -0.10546       0.0261454       0.00026087     -0.00205495        -0.528604        0.841612      4.65227e-05     0.000532232
                       0.0003833      -0.0020693       -0.0718571       -0.218557       0.00019816     0.000217241         -0.67505       -0.701026
                       -0.528661        0.842012      0.000292465     0.000197953       -0.0219677       -0.106174     -0.000827486     -0.00207178
                    -5.70869e-06     0.000528974        -0.674973        -0.70098     -0.000848487     -0.00199903         0.215639       0.0800358
254200                -0.0925649       0.0270747      0.000121019     -0.00209042        -0.478094        0.872727      9.40561e-05     0.000544656
                     0.000248671     -0.00212165       -0.0795275        -0.21669      0.000200316     0.000200987        -0.704136       -0.671542
                       -0.478118        0.873155      0.000290831     0.000167476       -0.0266655      -0.0923927      -0.00091796      -0.0020572
                     3.09289e-05     0.000541253         -0.70405       -0.671492     -0.000932469     -0.00198501         0.220154       0.0691624
254400                -0.0798734       0.0266404      -2.2045e-05     -0.00211619        -0.425593        0.900725      0.000143112     0.000552725
                     0.000108467     -0.00216515       -0.0871154       -0.214424      0.000201362     0.000184803        -0.732005       -0.640821
                       -0.425582        0.901171      0.000284939     0.000138508       -0.0297164       -0.078434      -0.00100766     -0.00203844
                     6.92454e-05     0.000551351        -0.731911        -0.64077      -0.00101643     -0.00196796         0.223998       0.0579845
254600                -0.0675202        0.024876     -0.000167578     -0.00213209        -0.371315         0.92546      0.000193194     0.000556268
                    -3.66637e-05      -0.0021992       -0.0945962       -0.211764      0.000201252     0.000168693        -0.758606        -0.60891
                       -0.371267        0.925916      0.000275115     0.000111731       -0.0311176      -0.0644756      -0.00109637     -0.00201573
                       0.0001092     0.000559083        -0.758504       -0.608861       -0.0011003     -0.00194788         0.227146       0.0465454
254800                 -0.055635       0.0218288     -0.000314844     -0.00213802        -0.315484        0.946805      0.000243793     0.000555192
                     -0.00018601     -0.00222327        -0.101945       -0.208715      0.000199921     0.000152675        -0.783886       -0.575855
                       -0.315398        0.947261      0.000261809     8.77453e-05       -0.0308864      -0.0506944      -0.00118391      -0.0019893
                     0.000150731     0.000564245        -0.783778       -0.575813      -0.00118398     -0.00192478          0.22958       0.0348901
255000                 -0.044342       0.0175596     -0.000463122     -0.00213392        -0.258336        0.964648      0.000294394     0.000549476
                    -0.000338802      -0.0022369        -0.109139       -0.205285      0.000197288     0.000136789        -0.807798       -0.541706
                       -0.258214        0.965097      0.000245565     6.70413e-05        -0.029059      -0.0372639      -0.00127017      -0.0019594
                     0.000193749     0.000566612        -0.807686       -0.541674      -0.00126741     -0.00189867         0.231282       0.0230653
255200                -0.0337576       0.0121418     -0.000611708     -0.00211978        -0.200115          0.9789      0.000344491      0.00053917
                    -0.000494219     -0.00223969        -0.116152       -0.201483      0.000193255     0.000121096        -0.830293       -0.506516
                        -0.19996        0.979334      0.000226992     4.99881e-05       -0.0256909      -0.0243521      -0.00135508     -0.00192625
                      0.00023813     0.000565944         -0.83018       -0.506495      -0.00135052     -0.00186955         0.232238       0.0111191
255400                  -0.02399      0.00566029     -0.000759921     -0.00209567        -0.141073        0.989491      0.000393602      0.00052439
                    -0.000651403     -0.00223133        -0.122962       -0.197318      0.000187715     0.000105686        -0.851325       -0.470337
                       -0.140889        0.989903      0.000206733     3.68284e-05       -0.0208552      -0.0121197      -0.00143861     -0.00189007
                     0.000283712      0.00056199        -0.851213       -0.470331      -0.00143323     -0.00183742         0.232437    -0.000899206
255600                -0.0151371     -0.00178915     -0.000907101     -0.00206166       -0.0814656        0.996373      0.000441276     0.000505314
                    -0.000809462     -0.00221159        -0.129546       -0.192803      0.000180549     9.06833e-05        -0.870851       -0.433225
                      -0.0812539        0.996693      0.000185432      2.7683e-05       -0.0146426      -0.0007177      -0.00152077     -0.00185104
                     0.000330289     0.000554491        -0.870743       -0.433235      -0.00151548     -0.00180228          0.23187       -0.012939
255800               -0.00728561      -0.0101015      -0.00105261     -0.00201789       -0.0215528        0.999518      0.000487101     0.000482171
                    -0.000967488     -0.00218033        -0.135881       -0.187952      0.000171634     7.62518e-05        -0.888828       -0.395237
                       -0.021327        0.999773      0.000163715     2.25612e-05      -0.00715901      0.00971427      -0.00160161     -0.00180933
                     0.000377604     0.000543194        -0.888726       -0.395265       -0.0015972     -0.00176411         0.230534      -0.0249488
256000              -0.000510255      -0.0191635      -0.00119585     -0.00196451        0.0384064         0.99892      0.000530711      0.00045523
                     -0.00112456     -0.00213749        -0.141946       -0.182778      0.000160853     6.26011e-05        -0.905213       -0.356433
                        0.038641         0.99924      0.000142169     2.13758e-05       0.00147505       0.0190498      -0.00168119     -0.00176506
                     0.000425349     0.000527854        -0.905122       -0.356478      -0.00167833      -0.0017229         0.228426      -0.0368764
256200                0.00512721      -0.0288556      -0.00133622     -0.00190171        0.0981545        0.994595      0.000571789     0.000424795
                     -0.00127975     -0.00208309         -0.14772       -0.177299      0.000148096     4.99932e-05        -0.919969       -0.316873
                       0.0983935         0.99488      0.000121328     2.39609e-05        0.0111266        0.027177      -0.00175959     -0.00171832
                     0.000473156     0.000508252         -0.91989       -0.316936      -0.00175881     -0.00167863         0.225549      -0.0486691
