! TOUCHSTONE file generated by CST MICROWAVE STUDIO
! Date and time: Wed Sep 24 18:10:42 2025
! Project name: biblioteca3_folgaOK.cst
! Parameters = {H=600; Lx=200; Ly=260; Nedge=20; P=520; k=0; mesh_pilar_nm=40; n=0; t_air=1200; t_sub=2000; wavelength_nm=0}
! Header version: 2018
! Port assignment regex: !\s*Touchstone port\s*([0-9]+)\s*=\s*(CST MWS port|CST DS port)\s*([0-9]+|Zmin|Zmax)\s*\(\"(.*)\"\)(\s*mode\s*([0-9]+))?.*
! Touchstone port assignment:
! Touchstone port 1 = CST MWS port Zmin ("") mode 1
! Touchstone port 2 = CST MWS port Zmin ("") mode 2
! Touchstone port 3 = CST MWS port Zmax ("") mode 1
! Touchstone port 4 = CST MWS port Zmax ("") mode 2
! S-Parameters are not renormalized. Each port impedance will be approximated by the real part at minimum frequency. The values are described via the [Reference] keyword.
! Default impedance is overridden by [Reference]
[Version] 2.0
# GHz S RI R 376.73
[Number of Ports] 4
[Reference]
376.73 376.73 376.73 376.73 
[Number of Frequencies] 401
[Network Data]
250000                 -0.227182       -0.213778      2.10321e-05    -2.90194e-05        -0.945902      -0.0896792     -4.64013e-07     1.56154e-05
                     1.44663e-05     -1.6462e-05        0.0622881       -0.178242     -1.09334e-06     5.82814e-06        0.0690527       -0.979608
                        -0.94586      -0.0896991     -1.20203e-06     2.36668e-06         0.263328       -0.167223      2.33983e-05    -1.33737e-05
                     2.27191e-06     1.70118e-05        0.0689728       -0.979664      1.50851e-05    -1.33331e-05        0.0366742        0.185209
250200                 -0.232004       -0.197103      1.93549e-05    -3.66323e-05        -0.952286      -0.0363739     -1.81041e-07     1.53743e-05
                     1.35849e-05    -1.68583e-05        0.0577581       -0.183024     -1.27128e-06     5.58845e-06        0.0280809       -0.981036
                       -0.952299      -0.0369606     -2.64647e-06     1.37086e-06         0.246712       -0.178354      2.32531e-05    -1.41946e-05
                     3.00049e-06     1.65396e-05        0.0279619       -0.981149      1.51109e-05    -1.35094e-05        0.0472744        0.186018
250400                 -0.235474       -0.180235      1.38612e-05     -4.5418e-05        -0.955575       0.0175334      1.10888e-07     1.51165e-05
                     1.26777e-05    -1.72346e-05        0.0529074       -0.187625     -1.45872e-06     5.35833e-06       -0.0129226       -0.980759
                       -0.955729       0.0165256     -4.08419e-06     4.98666e-07         0.229338       -0.188008      2.30717e-05    -1.50345e-05
                     3.72414e-06     1.60306e-05        -0.013077       -0.980915      1.51281e-05    -1.36992e-05        0.0579652        0.186147
250600                  -0.23757       -0.163296      2.74507e-06    -5.25144e-05        -0.955726        0.071866      4.12121e-07     1.48397e-05
                     1.17443e-05    -1.75885e-05        0.0477459       -0.192021     -1.65576e-06     5.13905e-06       -0.0538882       -0.978777
                       -0.956069       0.0705754     -5.51467e-06    -2.50694e-07         0.211342       -0.196107      2.28507e-05    -1.58935e-05
                     4.44003e-06     1.54838e-05       -0.0540736       -0.978963      1.51355e-05    -1.39038e-05        0.0687052        0.185587
250800                 -0.238281       -0.146413     -1.24067e-05    -5.30203e-05          -0.9527        0.126445      7.22967e-07     1.45415e-05
                     1.07842e-05    -1.79174e-05        0.0422853       -0.196193     -1.86248e-06       4.932e-06       -0.0947467       -0.975093
                       -0.953251        0.124997     -6.93725e-06    -8.76993e-07         0.192873       -0.202583      2.25866e-05    -1.67717e-05
                     5.14498e-06     1.48979e-05       -0.0949579       -0.975299      1.51317e-05    -1.41243e-05        0.0794522        0.184337
251000                  -0.23761       -0.129711      -2.5319e-05    -4.53637e-05        -0.946466         0.18109      1.04365e-06     1.42189e-05
                     9.79711e-06    -1.82186e-05        0.0365382       -0.200121     -2.07882e-06     4.73871e-06        -0.135429       -0.969711
                       -0.947216         0.17959     -8.35101e-06    -1.37894e-06         0.174084       -0.207387      2.22754e-05    -1.76689e-05
                     5.83553e-06      1.4272e-05        -0.135661       -0.969928      1.51152e-05    -1.43619e-05        0.0901635        0.182394
251200                 -0.235573       -0.113321     -3.16281e-05    -3.41544e-05        -0.936998        0.235613      1.37427e-06     1.38682e-05
                     8.78296e-06    -1.84889e-05        0.0305191       -0.203785     -2.30462e-06     4.56085e-06        -0.175866       -0.962641
                       -0.937923        0.234151      -9.7546e-06    -1.75412e-06         0.155138       -0.210483      2.19126e-05    -1.85846e-05
                     6.50789e-06     1.36057e-05        -0.176113       -0.962862      1.50841e-05    -1.46181e-05         0.100796        0.179759
251400                 -0.232198      -0.0973696      -3.2491e-05    -2.41435e-05        -0.924281        0.289826       1.7147e-06     1.34853e-05
                     7.74182e-06    -1.87251e-05        0.0242433       -0.207167     -2.53958e-06     4.40024e-06        -0.215991       -0.953891
                        -0.92534        0.288469      -1.1146e-05    -1.99896e-06         0.136204       -0.211855      2.14931e-05    -1.95182e-05
                     7.15795e-06     1.28984e-05        -0.216247       -0.954111      1.50363e-05    -1.48942e-05         0.111305        0.176435
251600                 -0.227528      -0.0819824     -3.06949e-05    -1.67847e-05        -0.908305        0.343532      2.06446e-06     1.30647e-05
                     6.67401e-06    -1.89237e-05        0.0177276        -0.21025     -2.78321e-06     4.25886e-06        -0.255735       -0.943476
                       -0.909453        0.342327     -1.25225e-05    -2.10866e-06         0.117453       -0.211504      2.10111e-05    -2.04686e-05
                     7.78133e-06     1.21505e-05        -0.255995        -0.94369      1.49693e-05    -1.51917e-05         0.121648         0.17243
251800                 -0.221618      -0.0672815     -2.80465e-05    -1.17255e-05        -0.889073        0.396532      2.42255e-06     1.25999e-05
                     5.58014e-06     -1.9081e-05        0.0109898       -0.213018     -3.03482e-06     4.13882e-06        -0.295031       -0.931411
                       -0.890261        0.395507       -1.388e-05    -2.07713e-06        0.0990572       -0.209447        2.046e-05    -2.14342e-05
                     8.37333e-06     1.13622e-05         -0.29529       -0.931616      1.48804e-05    -1.55121e-05         0.131781        0.167752
252000                 -0.214539      -0.0533835     -2.53495e-05    -8.28033e-06        -0.866598         0.44862       2.7871e-06      1.2083e-05
                     4.46117e-06    -1.91928e-05       0.00404876       -0.215456     -3.29347e-06     4.04239e-06        -0.333813       -0.917714
                       -0.867779        0.447787      -1.5213e-05      -1.897e-06        0.0811871       -0.205725      1.98325e-05    -2.24126e-05
                     8.92903e-06     1.05347e-05        -0.334067       -0.917907      1.47662e-05    -1.58571e-05          0.14166        0.162413
252200                 -0.206369      -0.0403981     -2.28871e-05     -5.8998e-06        -0.840905        0.499586      3.15486e-06     1.15037e-05
                     3.31841e-06    -1.92551e-05      -0.00307563       -0.217551     -3.55792e-06     3.97197e-06        -0.372015       -0.902404
                       -0.842038        0.498942     -1.65139e-05    -1.55962e-06        0.0640106       -0.200395      1.91204e-05    -2.34006e-05
                     9.44328e-06     9.66944e-06         -0.37226       -0.902586      1.46228e-05    -1.62281e-05         0.151242        0.156428
252400                 -0.197203      -0.0284269     -2.07251e-05    -4.21447e-06        -0.812036        0.549217      3.52047e-06     1.08495e-05
                     2.15367e-06    -1.92632e-05       -0.0103626       -0.219289     -3.82658e-06     3.93007e-06        -0.409572       -0.885506
                       -0.813086        0.548749     -1.77725e-05    -1.05518e-06        0.0476898       -0.193533      1.83143e-05    -2.43937e-05
                     9.91082e-06     8.76875e-06        -0.409804       -0.885676      1.44456e-05    -1.66265e-05         0.160484        0.149813
252600                 -0.187144      -0.0175618     -1.88501e-05    -2.98758e-06        -0.780047        0.597297       3.8751e-06     1.01046e-05
                     9.69236e-07    -1.92127e-05       -0.0177906        -0.22066     -4.09746e-06     3.91929e-06        -0.446421       -0.867044
                       -0.780986        0.596984     -1.89754e-05    -3.72917e-07        0.0323786       -0.185233      1.74039e-05    -2.53858e-05
                     1.03263e-05     7.83549e-06        -0.446637       -0.867202      1.42295e-05    -1.70537e-05         0.169346         0.14259
252800                 -0.176305     -0.00788376      -1.7224e-05    -2.06792e-06        -0.745009         0.64361      4.20438e-06     9.24918e-06
                    -2.31996e-07    -1.90987e-05       -0.0253372       -0.221653     -4.36813e-06     3.94225e-06        -0.482499       -0.847045
                        -0.74582        0.643425      -2.0105e-05      4.9843e-07        0.0182206       -0.175608      1.63779e-05    -2.63688e-05
                     1.06843e-05     6.87332e-06        -0.482697       -0.847192      1.39683e-05    -1.75105e-05         0.177785        0.134781
253000                 -0.164808      0.00053841     -1.58054e-05     -1.3576e-06        -0.707015        0.687938      4.48492e-06     8.25921e-06
                    -1.44649e-06    -1.89163e-05       -0.0329795       -0.222261     -4.63565e-06     4.00158e-06        -0.517743        -0.82554
                       -0.707689        0.687853     -2.11386e-05     1.56993e-06         0.005347       -0.164784      1.52237e-05    -2.73318e-05
                     1.09796e-05     5.88669e-06         -0.51792       -0.825677      1.36551e-05    -1.79977e-05         0.185762        0.126412
253200                 -0.152783      0.00764886      -1.4556e-05    -7.91944e-07        -0.666173        0.730069      4.67862e-06      7.1066e-06
                    -2.66997e-06    -1.86606e-05        -0.040694       -0.222476     -4.89652e-06      4.0998e-06        -0.552092       -0.802559
                       -0.666708        0.730056     -2.20473e-05     2.85133e-06      -0.00612509       -0.152904      1.39284e-05    -2.82605e-05
                     1.12073e-05     4.88086e-06        -0.552249       -0.802689      1.32815e-05     -1.8515e-05          0.19324        0.117512
253400                 -0.140363       0.0134057     -1.34429e-05    -3.27178e-07         -0.62261        0.769794      4.72354e-06     5.76234e-06
                    -3.89739e-06    -1.83268e-05       -0.0484564       -0.222293     -5.14663e-06     4.23927e-06        -0.585488       -0.778138
                       -0.623013        0.769826     -2.27953e-05     4.34935e-06       -0.0160948       -0.140123      1.24787e-05    -2.91364e-05
                     1.13627e-05     3.86195e-06        -0.585622       -0.778261      1.28383e-05    -1.90613e-05         0.200181        0.108111
253600                 -0.127688       0.0177814     -1.24376e-05     6.70478e-08        -0.576474        0.806911      4.52025e-06     4.20628e-06
                    -5.12284e-06    -1.79103e-05       -0.0562425       -0.221708     -5.38124e-06     4.42203e-06        -0.617869       -0.752312
                       -0.576756        0.806965     -2.33386e-05     6.06529e-06       -0.0244789       -0.126607      1.08615e-05    -2.99355e-05
                     1.14415e-05     2.83686e-06        -0.617982       -0.752431       1.2315e-05    -1.96344e-05         0.206551       0.0982447
253800                 -0.114897       0.0207635     -1.15155e-05     4.12304e-07         -0.52793        0.841228      3.91525e-06     2.45243e-06
                    -6.33949e-06    -1.74067e-05       -0.0640275       -0.220718     -5.59498e-06     4.64973e-06        -0.649181        -0.72512
                       -0.528105        0.841286     -2.36253e-05     7.99175e-06       -0.0312129       -0.112531      9.06591e-06    -3.06275e-05
                     1.14403e-05     1.81332e-06        -0.649271       -0.725236      1.16996e-05      -2.023e-05         0.212318       0.0879481
254000                 -0.102133       0.0223546     -1.06547e-05      7.2428e-07         -0.47716        0.872565       2.6936e-06     6.05033e-07
                    -7.53961e-06     -1.6812e-05       -0.0717863       -0.219322     -5.78183e-06     4.92341e-06        -0.679365       -0.696602
                       -0.477248        0.872612      -2.3596e-05     1.01085e-05       -0.0362523      -0.0980767      7.08442e-06    -3.11749e-05
                     1.13563e-05     7.99759e-07        -0.679435       -0.696717      1.09792e-05    -2.08418e-05         0.217449         0.07726
254200                 -0.089536       0.0225725     -9.83447e-06     1.01459e-06        -0.424366        0.900754      6.23816e-07    -1.04406e-06
                    -8.71448e-06     -1.6123e-05       -0.0794938       -0.217522     -5.93519e-06     5.24344e-06        -0.708368       -0.666801
                       -0.424383        0.900782     -2.31867e-05     1.23779e-05       -0.0395733      -0.0834284      4.91597e-06    -3.15317e-05
                     1.11877e-05    -1.94775e-07        -0.708417       -0.666916      1.01397e-05      -2.146e-05         0.221918       0.0662215
254400                -0.0772422       0.0214496     -9.03421e-06      1.2918e-06        -0.369761        0.925645     -2.35932e-06    -1.92822e-06
                    -9.85448e-06    -1.53372e-05       -0.0871249       -0.215319     -6.04795e-06     5.60923e-06        -0.736134       -0.635762
                       -0.369727        0.925649     -2.23339e-05     1.47395e-05       -0.0411727      -0.0687734      2.56951e-06    -3.16441e-05
                     1.09336e-05    -1.16071e-06        -0.736166       -0.635878      9.16679e-06    -2.20714e-05         0.225699       0.0548756
254600                -0.0653846        0.019033     -8.23176e-06     1.56191e-06        -0.313575        0.947103     -5.81922e-06    -1.34862e-06
                    -1.09491e-05     -1.4453e-05       -0.0946545       -0.212718     -6.11262e-06      6.0192e-06        -0.762614        -0.60353
                       -0.313507        0.947083     -2.09822e-05     1.71073e-05       -0.0410687      -0.0542974      6.85398e-08    -3.14516e-05
                     1.05942e-05     -2.0881e-06        -0.762628       -0.603649      8.04641e-06    -2.26579e-05         0.228768       0.0432673
254800                -0.0540894       0.0153835     -7.40135e-06     1.82809e-06         -0.25605        0.965016     -8.71607e-06     9.41693e-07
                     -1.1987e-05    -1.34702e-05        -0.102058       -0.209722     -6.12156e-06     6.47052e-06        -0.787754       -0.570155
                       -0.255962        0.964974      -1.9096e-05     1.93685e-05       -0.0392998      -0.0401828     -2.54389e-06    -3.08907e-05
                     1.01712e-05    -2.96682e-06        -0.787754       -0.570278      6.76619e-06     -2.3196e-05         0.231105       0.0314435
255000                 -0.043475       0.0105747     -6.51079e-06      2.0894e-06        -0.197437        0.979288     -1.00763e-05     4.25741e-06
                    -1.29563e-05    -1.23899e-05        -0.109309       -0.206341     -6.06714e-06     6.95911e-06        -0.811506       -0.535687
                       -0.197341        0.979229     -1.66719e-05     2.13889e-05       -0.0359249      -0.0266059     -5.20056e-06     -2.9901e-05
                     9.66723e-06    -3.78674e-06        -0.811494       -0.535814      5.31716e-06    -2.36562e-05         0.232692       0.0194525
255200                -0.0336505      0.00469199     -5.51721e-06     2.33759e-06        -0.137994        0.989849     -9.78504e-06      7.4886e-06
                    -1.38445e-05    -1.12148e-05        -0.116385       -0.202581     -5.94207e-06     7.47949e-06        -0.833823       -0.500178
                       -0.137899         0.98978     -1.37506e-05     2.30241e-05       -0.0310219       -0.013735     -7.80763e-06    -2.84353e-05
                     9.08627e-06    -4.53791e-06          -0.8338       -0.500309      3.69612e-06    -2.40031e-05         0.233517      0.00734452
255400                -0.0247147     -0.00216837     -4.36095e-06     2.54962e-06       -0.0779835        0.996648     -8.41351e-06     9.95182e-06
                     -1.4639e-05    -9.94941e-06        -0.123262       -0.198454     -5.73968e-06     8.02487e-06        -0.854657       -0.463684
                      -0.0778965        0.996576     -1.04235e-05     2.41381e-05        -0.024687     -0.00172755     -1.02465e-05    -2.64719e-05
                     8.43356e-06    -5.21074e-06        -0.854626       -0.463819      1.90836e-06    -2.41963e-05         0.233568     -0.00482934
255600                -0.0167546       -0.009901      -2.9576e-06     2.67065e-06        -0.017673        0.999659     -6.58208e-06     1.15377e-05
                    -1.53273e-05    -8.60011e-06        -0.129915       -0.193971     -5.45424e-06     8.58718e-06        -0.873965       -0.426259
                      -0.0175975        0.999591     -6.82938e-06     2.46251e-05       -0.0170327      0.00927109     -1.23822e-05    -2.40275e-05
                     7.71545e-06    -5.79625e-06        -0.873927       -0.426398     -2.94627e-08    -2.41921e-05         0.232837      -0.0170167
255800               -0.00984485      -0.0183926     -1.19265e-06     2.57515e-06        0.0426716        0.998877     -4.67124e-06     1.24112e-05
                    -1.58972e-05    -7.17526e-06        -0.136321       -0.189145      -5.0813e-06     9.15734e-06        -0.891704       -0.387963
                       0.0427344        0.998818     -3.14044e-06     2.44293e-05      -0.00818635         0.01913     -1.40792e-05    -2.11667e-05
                     6.93933e-06    -6.28619e-06        -0.891661       -0.388105     -2.08687e-06    -2.39478e-05          0.23132      -0.0291644
256000                 -0.004047      -0.0275238      1.05561e-06     1.98089e-06         0.102786         0.99432     -2.84945e-06     1.27769e-05
                    -1.63374e-05    -5.68518e-06         -0.14246       -0.183992      -4.6179e-06     9.72543e-06        -0.907832       -0.348855
                        0.102837        0.994276      4.61109e-07     2.35559e-05       0.00171153       0.0277341     -1.52228e-05    -1.80034e-05
                     6.11352e-06    -6.67322e-06        -0.907786       -0.348999     -4.21848e-06    -2.34262e-05         0.229017      -0.0412186
256200                0.00059117      -0.0371702      3.75984e-06     2.96223e-07         0.162411        0.986026     -1.16763e-06     1.27965e-05
                    -1.66377e-05    -4.14212e-06        -0.148308       -0.178527     -4.06282e-06     1.02812e-05         -0.92231       -0.308997
                        0.162452           0.986      3.80893e-06     2.20694e-05        0.0125096       0.0349853     -1.57403e-05    -1.46906e-05
                     5.24705e-06    -6.95101e-06        -0.922263       -0.309143     -6.36508e-06    -2.26017e-05         0.225931      -0.0531249
