! TOUCHSTONE file generated by CST MICROWAVE STUDIO
! Date and time: Wed Oct  8 07:00:40 2025
! Project name: Teste_Macro_Metasurface_Nanopilar.cst
! Parameters = {H=600; L_x=150; L_y=195; Lambda=1064; Max_L=200; Min_L=70; PathPara=1; Phi=0; Step_L=10; Theta=0; p=520; phaseX=180; phaseY=0}
! Header version: 2018
! Port assignment regex: !\s*Touchstone port\s*([0-9]+)\s*=\s*(CST MWS port|CST DS port)\s*([0-9]+|Zmin|Zmax)\s*\(\"(.*)\"\)(\s*mode\s*([0-9]+))?.*
! Touchstone port assignment:
! Touchstone port 1 = CST MWS port Zmax ("") mode 1
! Touchstone port 2 = CST MWS port Zmax ("") mode 2
! Touchstone port 3 = CST MWS port Zmin ("") mode 1
! Touchstone port 4 = CST MWS port Zmin ("") mode 2
! S-Parameters are not renormalized. Each port impedance will be approximated by the real part at minimum frequency. The values are described via the [Reference] keyword.
! Default impedance is overridden by [Reference]
[Version] 2.0
# GHz S RI R 376.73
[Number of Ports] 4
[Reference]
376.73 376.73 376.73 376.73 
[Number of Frequencies] 1001
[Network Data]
281700                -0.0625412        -0.13601     -0.000261162     -9.8967e-05        -0.976558        0.124594     -0.000489552     0.000361395
                     -0.00031382    -0.000174863       -0.0195623        0.104412       0.00037674     0.000450922        -0.921574         -0.3577
                       -0.976732        0.124491      0.000547283     0.000475275         0.021755       -0.147707      0.000414826    -0.000177114
                    -0.000502018     0.000374848        -0.921805       -0.357712      0.000231619    -9.81273e-05       -0.0596146       0.0914814
281700.1              -0.0625454       -0.136015      -0.00026116    -9.89474e-05        -0.976553        0.124623     -0.000489435     0.000361498
                    -0.000313838    -0.000174856       -0.0195557        0.104408      0.000376758     0.000450897        -0.921585       -0.357672
                       -0.976727         0.12452      0.000547313     0.000475256         0.021749       -0.147714      0.000414737     -0.00017724
                    -0.000502025     0.000374862        -0.921816       -0.357683      0.000231601    -9.81507e-05       -0.0596114        0.091478
281700.2              -0.0625496        -0.13602     -0.000261158    -9.89274e-05        -0.976549        0.124652     -0.000489349     0.000361583
                    -0.000313857    -0.000174849       -0.0195491        0.104404      0.000376776     0.000450871        -0.921596       -0.357643
                       -0.976723        0.124549      0.000547342     0.000475238         0.021743       -0.147722      0.000414661    -0.000177346
                    -0.000502031     0.000374876        -0.921828       -0.357655      0.000231584    -9.81741e-05       -0.0596081       0.0914745
281700.3              -0.0625539       -0.136025     -0.000261157    -9.89072e-05        -0.976544        0.124681     -0.000489295     0.000361647
                    -0.000313875    -0.000174842       -0.0195424        0.104401      0.000376793     0.000450846        -0.921608       -0.357615
                       -0.976718        0.124579      0.000547372      0.00047522         0.021737       -0.147729      0.000414598     -0.00017743
                    -0.000502037     0.000374891        -0.921839       -0.357626      0.000231566    -9.81974e-05       -0.0596048       0.0914711
281700.4              -0.0625581        -0.13603     -0.000261156    -9.88868e-05        -0.976539         0.12471     -0.000489274      0.00036169
                    -0.000313893    -0.000174834       -0.0195358        0.104397      0.000376811      0.00045082        -0.921619       -0.357586
                       -0.976713        0.124608      0.000547402     0.000475202         0.021731       -0.147736      0.000414548    -0.000177493
                    -0.000502044     0.000374905        -0.921851       -0.357598      0.000231549    -9.82208e-05       -0.0596015       0.0914677
281700.5              -0.0625623       -0.136035     -0.000261155    -9.88661e-05        -0.976535         0.12474     -0.000489287     0.000361711
                    -0.000313912    -0.000174827       -0.0195291        0.104393      0.000376829     0.000450795        -0.921631       -0.357558
                       -0.976709        0.124637      0.000547431     0.000475184         0.021725       -0.147744      0.000414512    -0.000177535
                    -0.000502051      0.00037492        -0.921862        -0.35757      0.000231531    -9.82442e-05       -0.0595982       0.0914643
281700.6              -0.0625665        -0.13604     -0.000261155    -9.88452e-05         -0.97653        0.124769     -0.000489333     0.000361711
                     -0.00031393     -0.00017482       -0.0195225        0.104389      0.000376846     0.000450769        -0.921642        -0.35753
                       -0.976704        0.124666      0.000547461     0.000475166         0.021719       -0.147751       0.00041449    -0.000177555
                    -0.000502057     0.000374934        -0.921874       -0.357541      0.000231514    -9.82676e-05        -0.059595       0.0914609
281700.7              -0.0625708       -0.136045     -0.000261155    -9.88242e-05        -0.976525        0.124798     -0.000489414     0.000361688
                    -0.000313949    -0.000174813       -0.0195158        0.104386      0.000376864     0.000450744        -0.921654       -0.357501
                       -0.976699        0.124695      0.000547491     0.000475148         0.021713       -0.147759      0.000414481    -0.000177553
                    -0.000502064     0.000374948        -0.921885       -0.357513      0.000231496     -9.8291e-05       -0.0595917       0.0914575
281700.8               -0.062575        -0.13605     -0.000261155    -9.88029e-05         -0.97652        0.124827      -0.00048953     0.000361643
                    -0.000313968    -0.000174805       -0.0195092        0.104382      0.000376881     0.000450718        -0.921665       -0.357473
                       -0.976695        0.124724      0.000547521      0.00047513         0.021707       -0.147766      0.000414487    -0.000177528
                    -0.000502071     0.000374962        -0.921897       -0.357484      0.000231479    -9.83144e-05       -0.0595884       0.0914541
281700.9              -0.0625792       -0.136056     -0.000261155    -9.87815e-05        -0.976516        0.124856     -0.000489681     0.000361576
                    -0.000313987    -0.000174798       -0.0195026        0.104378      0.000376899     0.000450693        -0.921677       -0.357444
                        -0.97669        0.124753       0.00054755     0.000475112         0.021701       -0.147773      0.000414507     -0.00017748
                    -0.000502078     0.000374976        -0.921908       -0.357456      0.000231462    -9.83377e-05       -0.0595851       0.0914507
281701                -0.0625834       -0.136061     -0.000261156    -9.87599e-05        -0.976511        0.124885     -0.000489868     0.000361488
                    -0.000314006    -0.000174791       -0.0194959        0.104374      0.000376917     0.000450667        -0.921688       -0.357416
                       -0.976685        0.124782       0.00054758     0.000475095         0.021695       -0.147781      0.000414542    -0.000177409
                    -0.000502085      0.00037499         -0.92192       -0.357427      0.000231444    -9.83611e-05       -0.0595818       0.0914473
281701.1              -0.0625877       -0.136066     -0.000261157    -9.87382e-05        -0.976506        0.124914      -0.00049009     0.000361378
                    -0.000314025    -0.000174784       -0.0194893        0.104371      0.000376934     0.000450642          -0.9217       -0.357388
                       -0.976681        0.124811       0.00054761     0.000475077         0.021689       -0.147788      0.000414592    -0.000177313
                    -0.000502092     0.000375004        -0.921931       -0.357399      0.000231427    -9.83846e-05       -0.0595786       0.0914439
281701.2              -0.0625919       -0.136071     -0.000261159    -9.87164e-05        -0.976502        0.124943     -0.000490349     0.000361247
                    -0.000314044    -0.000174776       -0.0194826        0.104367      0.000376952     0.000450616        -0.921711       -0.357359
                       -0.976676        0.124841       0.00054764      0.00047506         0.021683       -0.147795      0.000414658    -0.000177192
                    -0.000502099     0.000375018        -0.921943        -0.35737      0.000231409     -9.8408e-05       -0.0595753       0.0914405
281701.3              -0.0625961       -0.136076      -0.00026116    -9.86946e-05        -0.976497        0.124972     -0.000490643     0.000361095
                    -0.000314064    -0.000174769        -0.019476        0.104363       0.00037697     0.000450591        -0.921723       -0.357331
                       -0.976671         0.12487       0.00054767     0.000475043         0.021677       -0.147803       0.00041474    -0.000177045
                    -0.000502106     0.000375032        -0.921954       -0.357342      0.000231392    -9.84314e-05        -0.059572       0.0914371
281701.4              -0.0626004       -0.136081     -0.000261162    -9.86726e-05        -0.976492        0.125001     -0.000490973     0.000360925
                    -0.000314083    -0.000174761       -0.0194694         0.10436      0.000376987     0.000450565        -0.921734       -0.357302
                       -0.976666        0.124899        0.0005477     0.000475025         0.021671        -0.14781      0.000414839    -0.000176871
                    -0.000502113     0.000375046        -0.921966       -0.357313      0.000231374    -9.84548e-05       -0.0595687       0.0914337
281701.5              -0.0626046       -0.136086     -0.000261165    -9.86506e-05        -0.976488        0.125031     -0.000491339     0.000360736
                    -0.000314103    -0.000174754       -0.0194627        0.104356      0.000377005      0.00045054        -0.921746       -0.357274
                       -0.976662        0.124928       0.00054773     0.000475008         0.021665       -0.147818      0.000414955    -0.000176668
                    -0.000502121      0.00037506        -0.921977       -0.357285      0.000231357    -9.84782e-05       -0.0595654       0.0914303
281701.6              -0.0626088       -0.136091     -0.000261167    -9.86285e-05        -0.976483         0.12506     -0.000491739     0.000360531
                    -0.000314122    -0.000174746       -0.0194561        0.104352      0.000377023     0.000450514        -0.921757       -0.357246
                       -0.976657        0.124957       0.00054776     0.000474991         0.021659       -0.147825       0.00041509    -0.000176435
                    -0.000502129     0.000375073        -0.921989       -0.357256      0.000231339    -9.85017e-05       -0.0595621       0.0914269
281701.7              -0.0626131       -0.136096      -0.00026117    -9.86064e-05        -0.976478        0.125089     -0.000492175     0.000360309
                    -0.000314142    -0.000174738       -0.0194494        0.104348       0.00037704     0.000450489        -0.921768       -0.357217
                       -0.976652        0.124986       0.00054779     0.000474974         0.021653       -0.147832      0.000415244    -0.000176171
                    -0.000502136     0.000375087           -0.922       -0.357228      0.000231322    -9.85251e-05       -0.0595588       0.0914236
281701.8              -0.0626173       -0.136101     -0.000261174    -9.85843e-05        -0.976473        0.125118     -0.000492645     0.000360073
                    -0.000314162    -0.000174731       -0.0194428        0.104345      0.000377058     0.000450463         -0.92178       -0.357189
                       -0.976648        0.125015       0.00054782     0.000474957         0.021647        -0.14784      0.000415418    -0.000175875
                    -0.000502144       0.0003751        -0.922012       -0.357199      0.000231304    -9.85485e-05       -0.0595556       0.0914202
281701.9              -0.0626215       -0.136106     -0.000261177    -9.85621e-05        -0.976469        0.125147     -0.000493148     0.000359825
                    -0.000314182    -0.000174723       -0.0194361        0.104341      0.000377076     0.000450438        -0.921791        -0.35716
                       -0.976643        0.125044       0.00054785      0.00047494        0.0216409       -0.147847      0.000415613    -0.000175543
                    -0.000502152     0.000375114        -0.922023       -0.357171      0.000231287     -9.8572e-05       -0.0595523       0.0914168
281702                -0.0626257       -0.136111     -0.000261181      -9.854e-05        -0.976464        0.125176     -0.000493684     0.000359565
                    -0.000314202    -0.000174715       -0.0194295        0.104337      0.000377094     0.000450412        -0.921803       -0.357132
                       -0.976638        0.125073       0.00054788     0.000474924        0.0216349       -0.147854       0.00041583    -0.000175174
                     -0.00050216     0.000375127        -0.922035       -0.357142       0.00023127    -9.85954e-05        -0.059549       0.0914134
281702.1                -0.06263       -0.136116     -0.000261185    -9.85178e-05        -0.976459        0.125205     -0.000494251     0.000359296
                    -0.000314222    -0.000174707       -0.0194229        0.104333      0.000377111     0.000450387        -0.921814       -0.357104
                       -0.976634        0.125103       0.00054791     0.000474907        0.0216289       -0.147862      0.000416071    -0.000174766
                    -0.000502168      0.00037514        -0.922046       -0.357114      0.000231252    -9.86189e-05       -0.0595457         0.09141
281702.2              -0.0626342       -0.136121     -0.000261189    -9.84957e-05        -0.976455        0.125234      -0.00049485     0.000359019
                    -0.000314243    -0.000174699       -0.0194162         0.10433      0.000377129     0.000450361        -0.921826       -0.357075
                       -0.976629        0.125132       0.00054794      0.00047489        0.0216229       -0.147869      0.000416338    -0.000174316
                    -0.000502177     0.000375153        -0.922058       -0.357085      0.000231235    -9.86423e-05       -0.0595424       0.0914066
281702.3              -0.0626384       -0.136126     -0.000261194    -9.84736e-05         -0.97645        0.125263     -0.000495478     0.000358736
                    -0.000314263    -0.000174691       -0.0194096        0.104326      0.000377147     0.000450336        -0.921837       -0.357047
                       -0.976624        0.125161      0.000547971     0.000474873        0.0216169       -0.147876      0.000416631     -0.00017382
                    -0.000502185     0.000375166        -0.922069       -0.357057      0.000231217    -9.86658e-05       -0.0595391       0.0914032
281702.4              -0.0626427       -0.136131     -0.000261198    -9.84515e-05        -0.976445        0.125292     -0.000496134     0.000358448
                    -0.000314284    -0.000174683       -0.0194029        0.104322      0.000377164      0.00045031        -0.921848       -0.357018
                       -0.976619         0.12519      0.000548001     0.000474857        0.0216109       -0.147884      0.000416953    -0.000173276
                    -0.000502194     0.000375178        -0.922081       -0.357028        0.0002312    -9.86893e-05       -0.0595358       0.0913998
281702.5              -0.0626469       -0.136136     -0.000261203    -9.84295e-05         -0.97644        0.125321     -0.000496817     0.000358159
                    -0.000314304    -0.000174674       -0.0193963        0.104318      0.000377182     0.000450285         -0.92186        -0.35699
                       -0.976615        0.125219      0.000548031      0.00047484        0.0216049       -0.147891      0.000417305    -0.000172679
                    -0.000502202     0.000375191        -0.922092          -0.357      0.000231182    -9.87127e-05       -0.0595325       0.0913964
281702.6              -0.0626511       -0.136141     -0.000261208    -9.84075e-05        -0.976436        0.125351     -0.000497525     0.000357868
                    -0.000314325    -0.000174666       -0.0193897        0.104315        0.0003772     0.000450259        -0.921871       -0.356961
                        -0.97661        0.125248      0.000548061     0.000474824        0.0215989       -0.147899      0.000417691    -0.000172026
                    -0.000502211     0.000375204        -0.922104       -0.356971      0.000231165    -9.87362e-05       -0.0595293       0.0913931
281702.7              -0.0626554       -0.136146     -0.000261214    -9.83855e-05        -0.976431         0.12538     -0.000498256     0.000357579
                    -0.000314346    -0.000174657        -0.019383        0.104311      0.000377217     0.000450233        -0.921883       -0.356933
                       -0.976605        0.125277      0.000548092     0.000474807        0.0215929       -0.147906      0.000418112     -0.00017131
                    -0.000502221     0.000375216        -0.922115       -0.356943      0.000231147    -9.87597e-05        -0.059526       0.0913897
281702.8              -0.0626596       -0.136152      -0.00026122    -9.83637e-05        -0.976426        0.125409      -0.00049901     0.000357292
                    -0.000314367    -0.000174648       -0.0193764        0.104307      0.000377235     0.000450208        -0.921894       -0.356905
                       -0.976601        0.125306      0.000548122     0.000474791        0.0215869       -0.147913      0.000418573    -0.000170526
                     -0.00050223     0.000375228        -0.922127       -0.356914       0.00023113    -9.87832e-05       -0.0595227       0.0913863
281702.9              -0.0626638       -0.136157     -0.000261225    -9.83418e-05        -0.976422        0.125438     -0.000499784     0.000357009
                    -0.000314388     -0.00017464       -0.0193698        0.104304      0.000377253     0.000450182        -0.921905       -0.356876
                       -0.976596        0.125335      0.000548152     0.000474775        0.0215809       -0.147921      0.000419075    -0.000169668
                    -0.000502239      0.00037524        -0.922138       -0.356886      0.000231113    -9.88067e-05       -0.0595194       0.0913829
281703                -0.0626681       -0.136162     -0.000261231    -9.83201e-05        -0.976417        0.125467     -0.000500576     0.000356732
                     -0.00031441    -0.000174631       -0.0193631          0.1043       0.00037727     0.000450157        -0.921917       -0.356848
                       -0.976591        0.125365      0.000548183     0.000474759        0.0215749       -0.147928      0.000419623    -0.000168728
                    -0.000502249     0.000375251         -0.92215       -0.356857      0.000231095    -9.88302e-05       -0.0595161       0.0913795
281703.1              -0.0626723       -0.136167     -0.000261238    -9.82984e-05        -0.976412        0.125496     -0.000501385     0.000356463
                    -0.000314431    -0.000174621       -0.0193565        0.104296      0.000377288     0.000450131        -0.921928       -0.356819
                       -0.976586        0.125394      0.000548213     0.000474742        0.0215689       -0.147935      0.000420222    -0.000167698
