! TOUCHSTONE file generated by CST MICROWAVE STUDIO
! Date and time: Wed Oct  8 07:02:14 2025
! Project name: Teste_Macro_Metasurface_Nanopilar.cst
! Parameters = {H=600; L_x=165; L_y=145; Lambda=1064; Max_L=200; Min_L=70; PathPara=1; Phi=0; Step_L=10; Theta=0; p=520; phaseX=180; phaseY=0}
! Header version: 2018
! Port assignment regex: !\s*Touchstone port\s*([0-9]+)\s*=\s*(CST MWS port|CST DS port)\s*([0-9]+|Zmin|Zmax)\s*\(\"(.*)\"\)(\s*mode\s*([0-9]+))?.*
! Touchstone port assignment:
! Touchstone port 1 = CST MWS port Zmax ("") mode 1
! Touchstone port 2 = CST MWS port Zmax ("") mode 2
! Touchstone port 3 = CST MWS port Zmin ("") mode 1
! Touchstone port 4 = CST MWS port Zmin ("") mode 2
! S-Parameters are not renormalized. Each port impedance will be approximated by the real part at minimum frequency. The values are described via the [Reference] keyword.
! Default impedance is overridden by [Reference]
[Version] 2.0
# GHz S RI R 376.73
[Number of Ports] 4
[Reference]
376.73 376.73 376.73 376.73 
[Number of Frequencies] 1001
[Network Data]
281700                 -0.379021        0.334425     -0.000574031     7.38995e-05        -0.422446       -0.730896      0.000329658     -0.00020632
                    -0.000594443     -0.00010304       -0.0875668        0.198915      0.000243114    -8.95956e-05        -0.823691       -0.513628
                       -0.422408       -0.730853      0.000244481     1.54481e-05        -0.484664        0.127049     -0.000267709     0.000473823
                     8.33125e-05     -0.00023006        -0.823498       -0.513674     -0.000343322      0.00029761        -0.144922        0.160794
281700.1               -0.378999        0.334428     -0.000574009     7.39143e-05         -0.42248       -0.730886      0.000329629    -0.000206307
                    -0.000594429    -0.000103024       -0.0875584        0.198911      0.000243095    -8.96074e-05        -0.823708       -0.513604
                       -0.422442       -0.730844      0.000244468     1.54277e-05        -0.484645         0.12707     -0.000267667     0.000473823
                     8.32841e-05    -0.000230046        -0.823515        -0.51365     -0.000343284     0.000297613        -0.144912        0.160794
281700.2               -0.378978        0.334432     -0.000573988     7.39291e-05        -0.422515       -0.730877        0.0003296    -0.000206294
                    -0.000594415    -0.000103008         -0.08755        0.198908      0.000243077    -8.96192e-05        -0.823725       -0.513579
                       -0.422477       -0.730834      0.000244455     1.54074e-05        -0.484625        0.127091     -0.000267626     0.000473822
                     8.32558e-05    -0.000230033        -0.823532       -0.513625     -0.000343247     0.000297616        -0.144903        0.160794
281700.3               -0.378956        0.334436     -0.000573967     7.39439e-05        -0.422549       -0.730868      0.000329572    -0.000206281
                    -0.000594401    -0.000102992       -0.0875416        0.198905      0.000243058    -8.96309e-05        -0.823742       -0.513555
                       -0.422511       -0.730825      0.000244441      1.5387e-05        -0.484606        0.127112     -0.000267585     0.000473822
                     8.32274e-05    -0.000230019        -0.823548       -0.513601     -0.000343209      0.00029762        -0.144894        0.160794
281700.4               -0.378934         0.33444     -0.000573945     7.39587e-05        -0.422583       -0.730858      0.000329543    -0.000206267
                    -0.000594387    -0.000102976       -0.0875332        0.198902      0.000243039    -8.96427e-05        -0.823758       -0.513531
                       -0.422545       -0.730816      0.000244428     1.53667e-05        -0.484587        0.127133     -0.000267543     0.000473822
                     8.31991e-05    -0.000230006        -0.823565       -0.513577     -0.000343172     0.000297623        -0.144885        0.160793
281700.5               -0.378913        0.334443     -0.000573924     7.39734e-05        -0.422618       -0.730849      0.000329514    -0.000206254
                    -0.000594373    -0.000102959       -0.0875248        0.198899       0.00024302    -8.96545e-05        -0.823775       -0.513507
                        -0.42258       -0.730806      0.000244414     1.53463e-05        -0.484567        0.127154     -0.000267502     0.000473821
                     8.31707e-05    -0.000229992        -0.823582       -0.513553     -0.000343134     0.000297626        -0.144876        0.160793
281700.6               -0.378891        0.334447     -0.000573902     7.39882e-05        -0.422652       -0.730839      0.000329485    -0.000206241
                    -0.000594359    -0.000102943       -0.0875164        0.198895      0.000243002    -8.96662e-05        -0.823792       -0.513482
                       -0.422614       -0.730797      0.000244401      1.5326e-05        -0.484548        0.127175     -0.000267461     0.000473821
                     8.31424e-05    -0.000229979        -0.823599       -0.513529     -0.000343097     0.000297629        -0.144867        0.160793
281700.7               -0.378869        0.334451     -0.000573881      7.4003e-05        -0.422686        -0.73083      0.000329456    -0.000206227
                    -0.000594345    -0.000102927        -0.087508        0.198892      0.000242983     -8.9678e-05        -0.823809       -0.513458
                       -0.422648       -0.730787      0.000244388     1.53056e-05        -0.484529        0.127196      -0.00026742      0.00047382
                     8.31141e-05    -0.000229965        -0.823616       -0.513504     -0.000343059     0.000297633        -0.144858        0.160793
281700.8               -0.378848        0.334454      -0.00057386     7.40178e-05        -0.422721        -0.73082      0.000329427    -0.000206214
                    -0.000594331    -0.000102911       -0.0874996        0.198889      0.000242964    -8.96898e-05        -0.823825       -0.513434
                       -0.422683       -0.730778      0.000244374     1.52853e-05        -0.484509        0.127216     -0.000267378      0.00047382
                     8.30857e-05    -0.000229952        -0.823632        -0.51348     -0.000343022     0.000297636        -0.144849        0.160793
281700.9               -0.378826        0.334458     -0.000573838     7.40326e-05        -0.422755       -0.730811      0.000329398    -0.000206201
                    -0.000594318    -0.000102895       -0.0874912        0.198886      0.000242946    -8.97015e-05        -0.823842        -0.51341
                       -0.422717       -0.730768      0.000244361      1.5265e-05         -0.48449        0.127237     -0.000267337      0.00047382
                     8.30574e-05    -0.000229938        -0.823649       -0.513456     -0.000342984     0.000297639         -0.14484        0.160792
281701                 -0.378804        0.334462     -0.000573817     7.40474e-05        -0.422789       -0.730801       0.00032937    -0.000206187
                    -0.000594304    -0.000102879       -0.0874828        0.198883      0.000242927    -8.97133e-05        -0.823859       -0.513385
                       -0.422751       -0.730759      0.000244348     1.52446e-05         -0.48447        0.127258     -0.000267296     0.000473819
                     8.30291e-05    -0.000229925        -0.823666       -0.513432     -0.000342947     0.000297642        -0.144831        0.160792
281701.1               -0.378783        0.334466     -0.000573795     7.40622e-05        -0.422824       -0.730792      0.000329341    -0.000206174
                     -0.00059429    -0.000102863       -0.0874744        0.198879      0.000242908     -8.9725e-05        -0.823876       -0.513361
                       -0.422786        -0.73075      0.000244334     1.52243e-05        -0.484451        0.127279     -0.000267254     0.000473819
                     8.30008e-05    -0.000229911        -0.823683       -0.513407     -0.000342909     0.000297646        -0.144821        0.160792
281701.2               -0.378761        0.334469     -0.000573774      7.4077e-05        -0.422858       -0.730782      0.000329312    -0.000206161
                    -0.000594276    -0.000102847        -0.087466        0.198876      0.000242889    -8.97368e-05        -0.823893       -0.513337
                        -0.42282        -0.73074      0.000244321      1.5204e-05        -0.484432          0.1273     -0.000267213     0.000473818
                     8.29725e-05    -0.000229897          -0.8237       -0.513383     -0.000342872     0.000297649        -0.144812        0.160792
281701.3               -0.378739        0.334473     -0.000573753     7.40917e-05        -0.422893       -0.730773      0.000329283    -0.000206147
                    -0.000594262    -0.000102831       -0.0874576        0.198873      0.000242871    -8.97485e-05        -0.823909       -0.513313
                       -0.422854       -0.730731      0.000244307     1.51836e-05        -0.484412        0.127321     -0.000267172     0.000473818
                     8.29442e-05    -0.000229884        -0.823716       -0.513359     -0.000342834     0.000297652        -0.144803        0.160791
281701.4               -0.378718        0.334477     -0.000573731     7.41065e-05        -0.422927       -0.730763      0.000329254    -0.000206134
                    -0.000594248    -0.000102815       -0.0874492         0.19887      0.000242852    -8.97603e-05        -0.823926       -0.513288
                       -0.422889       -0.730721      0.000244294     1.51633e-05        -0.484393        0.127342      -0.00026713     0.000473818
                     8.29159e-05     -0.00022987        -0.823733       -0.513335     -0.000342797     0.000297655        -0.144794        0.160791
281701.5               -0.378696        0.334481      -0.00057371     7.41213e-05        -0.422961       -0.730754      0.000329225    -0.000206121
                    -0.000594234    -0.000102799       -0.0874408        0.198867      0.000242833     -8.9772e-05        -0.823943       -0.513264
                       -0.422923       -0.730712      0.000244281      1.5143e-05        -0.484374        0.127363     -0.000267089     0.000473817
                     8.28877e-05    -0.000229857         -0.82375        -0.51331     -0.000342759     0.000297659        -0.144785        0.160791
281701.6               -0.378674        0.334484     -0.000573688     7.41361e-05        -0.422996       -0.730744      0.000329196    -0.000206107
                     -0.00059422    -0.000102783       -0.0874324        0.198863      0.000242814    -8.97837e-05         -0.82396        -0.51324
                       -0.422957       -0.730702      0.000244267     1.51227e-05        -0.484354        0.127383     -0.000267048     0.000473817
                     8.28594e-05    -0.000229843        -0.823767       -0.513286     -0.000342722     0.000297662        -0.144776        0.160791
281701.7               -0.378653        0.334488     -0.000573667     7.41508e-05         -0.42303       -0.730735      0.000329167    -0.000206094
                    -0.000594206    -0.000102766       -0.0874241         0.19886      0.000242796    -8.97955e-05        -0.823976       -0.513216
                       -0.422992       -0.730693      0.000244254     1.51024e-05        -0.484335        0.127404     -0.000267006     0.000473816
                     8.28311e-05     -0.00022983        -0.823784       -0.513262     -0.000342684     0.000297665        -0.144767        0.160791
281701.8               -0.378631        0.334492     -0.000573646     7.41656e-05        -0.423064       -0.730726      0.000329138    -0.000206081
                    -0.000594193     -0.00010275       -0.0874157        0.198857      0.000242777    -8.98072e-05        -0.823993       -0.513191
                       -0.423026       -0.730683       0.00024424      1.5082e-05        -0.484315        0.127425     -0.000266965     0.000473816
                     8.28029e-05    -0.000229816          -0.8238       -0.513238     -0.000342647     0.000297668        -0.144758         0.16079
281701.9               -0.378609        0.334495     -0.000573624     7.41804e-05        -0.423099       -0.730716      0.000329109    -0.000206067
                    -0.000594179    -0.000102734       -0.0874073        0.198854      0.000242758     -8.9819e-05         -0.82401       -0.513167
                        -0.42306       -0.730674      0.000244227     1.50617e-05        -0.484296        0.127446     -0.000266924     0.000473816
                     8.27746e-05    -0.000229803        -0.823817       -0.513213     -0.000342609     0.000297671        -0.144749         0.16079
281702                 -0.378588        0.334499     -0.000573603     7.41952e-05        -0.423133       -0.730707       0.00032908    -0.000206054
                    -0.000594165    -0.000102718       -0.0873989        0.198851      0.000242739    -8.98307e-05        -0.824027       -0.513143
                       -0.423095       -0.730664      0.000244214     1.50414e-05        -0.484277        0.127467     -0.000266882     0.000473815
                     8.27464e-05     -0.00022979        -0.823834       -0.513189     -0.000342572     0.000297675         -0.14474         0.16079
281702.1               -0.378566        0.334503     -0.000573582     7.42099e-05        -0.423167       -0.730697      0.000329051    -0.000206041
                    -0.000594151    -0.000102702       -0.0873905        0.198847      0.000242721    -8.98424e-05        -0.824044       -0.513119
                       -0.423129       -0.730655        0.0002442     1.50211e-05        -0.484257        0.127488     -0.000266841     0.000473815
                     8.27181e-05    -0.000229776        -0.823851       -0.513165     -0.000342534     0.000297678        -0.144731         0.16079
281702.2               -0.378544        0.334507      -0.00057356     7.42247e-05        -0.423202       -0.730688      0.000329022    -0.000206027
                    -0.000594137    -0.000102686       -0.0873821        0.198844      0.000242702    -8.98542e-05         -0.82406       -0.513094
                       -0.423163       -0.730645      0.000244187     1.50008e-05        -0.484238        0.127509       -0.0002668     0.000473814
                     8.26899e-05    -0.000229763        -0.823868       -0.513141     -0.000342497     0.000297681        -0.144722        0.160789
281702.3               -0.378523         0.33451     -0.000573539     7.42395e-05        -0.423236       -0.730678      0.000328993    -0.000206014
                    -0.000594123     -0.00010267       -0.0873737        0.198841      0.000242683    -8.98659e-05        -0.824077        -0.51307
                       -0.423198       -0.730636      0.000244173     1.49805e-05        -0.484219        0.127529     -0.000266759     0.000473814
                     8.26617e-05    -0.000229749        -0.823884       -0.513116     -0.000342459     0.000297684        -0.144712        0.160789
281702.4               -0.378501        0.334514     -0.000573517     7.42542e-05         -0.42327       -0.730669      0.000328964       -0.000206
                    -0.000594109    -0.000102654       -0.0873653        0.198838      0.000242664    -8.98776e-05        -0.824094       -0.513046
                       -0.423232       -0.730627       0.00024416     1.49602e-05        -0.484199         0.12755     -0.000266717     0.000473813
                     8.26335e-05    -0.000229736        -0.823901       -0.513092     -0.000342422     0.000297687        -0.144703        0.160789
281702.5               -0.378479        0.334518     -0.000573496      7.4269e-05        -0.423305       -0.730659      0.000328935    -0.000205987
                    -0.000594095    -0.000102638       -0.0873569        0.198835      0.000242646    -8.98893e-05        -0.824111       -0.513021
                       -0.423266       -0.730617      0.000244146     1.49399e-05         -0.48418        0.127571     -0.000266676     0.000473813
                     8.26053e-05    -0.000229722        -0.823918       -0.513068     -0.000342384      0.00029769        -0.144694        0.160789
281702.6               -0.378458        0.334522     -0.000573475     7.42837e-05        -0.423339        -0.73065      0.000328906    -0.000205974
                    -0.000594081    -0.000102622       -0.0873485        0.198831      0.000242627    -8.99011e-05        -0.824127       -0.512997
                       -0.423301       -0.730608      0.000244133     1.49196e-05        -0.484161        0.127592     -0.000266635     0.000473813
                     8.25771e-05    -0.000229709        -0.823935       -0.513044     -0.000342347     0.000297694        -0.144685        0.160789
281702.7               -0.378436        0.334525     -0.000573453     7.42985e-05        -0.423373        -0.73064      0.000328877     -0.00020596
                    -0.000594067    -0.000102606       -0.0873401        0.198828      0.000242608    -8.99128e-05        -0.824144       -0.512973
                       -0.423335       -0.730598       0.00024412     1.48993e-05        -0.484141        0.127613     -0.000266593     0.000473812
                      8.2549e-05    -0.000229695        -0.823952       -0.513019     -0.000342309     0.000297697        -0.144676        0.160788
281702.8               -0.378414        0.334529     -0.000573432     7.43132e-05        -0.423408       -0.730631      0.000328848    -0.000205947
                    -0.000594053     -0.00010259       -0.0873317        0.198825      0.000242589    -8.99245e-05        -0.824161       -0.512949
                       -0.423369       -0.730589      0.000244106      1.4879e-05        -0.484122        0.127634     -0.000266552     0.000473812
                     8.25208e-05    -0.000229682        -0.823968       -0.512995     -0.000342272       0.0002977        -0.144667        0.160788
281702.9               -0.378393        0.334533      -0.00057341      7.4328e-05        -0.423442       -0.730621      0.000328819    -0.000205934
                     -0.00059404    -0.000102574       -0.0873233        0.198822      0.000242571    -8.99362e-05        -0.824178       -0.512924
                       -0.423404       -0.730579      0.000244093     1.48587e-05        -0.484102        0.127655     -0.000266511     0.000473811
                     8.24926e-05    -0.000229668        -0.823985       -0.512971     -0.000342234     0.000297703        -0.144658        0.160788
281703                 -0.378371        0.334536     -0.000573389     7.43428e-05        -0.423476       -0.730612       0.00032879     -0.00020592
                    -0.000594026    -0.000102558        -0.087315        0.198819      0.000242552    -8.99479e-05        -0.824195         -0.5129
                       -0.423438        -0.73057      0.000244079     1.48385e-05        -0.484083        0.127675     -0.000266469     0.000473811
                     8.24645e-05    -0.000229655        -0.824002       -0.512947     -0.000342197     0.000297706        -0.144649        0.160788
281703.1               -0.378349         0.33454     -0.000573368     7.43575e-05        -0.423511       -0.730602      0.000328761    -0.000205907
                    -0.000594012    -0.000102542       -0.0873066        0.198815      0.000242533    -8.99597e-05        -0.824211       -0.512876
                       -0.423472        -0.73056      0.000244066     1.48182e-05        -0.484064        0.127696     -0.000266428      0.00047381
