! TOUCHSTONE file generated by CST MICROWAVE STUDIO
! Date and time: Wed Oct  8 06:54:04 2025
! Project name: Teste_Macro_Metasurface_Nanopilar.cst
! Parameters = {H=600; L_x=95; L_y=190; Lambda=1064; Max_L=200; Min_L=70; PathPara=1; Phi=0; Step_L=10; Theta=0; p=520; phaseX=180; phaseY=0}
! Header version: 2018
! Port assignment regex: !\s*Touchstone port\s*([0-9]+)\s*=\s*(CST MWS port|CST DS port)\s*([0-9]+|Zmin|Zmax)\s*\(\"(.*)\"\)(\s*mode\s*([0-9]+))?.*
! Touchstone port assignment:
! Touchstone port 1 = CST MWS port Zmax ("") mode 1
! Touchstone port 2 = CST MWS port Zmax ("") mode 2
! Touchstone port 3 = CST MWS port Zmin ("") mode 1
! Touchstone port 4 = CST MWS port Zmin ("") mode 2
! S-Parameters are not renormalized. Each port impedance will be approximated by the real part at minimum frequency. The values are described via the [Reference] keyword.
! Default impedance is overridden by [Reference]
[Version] 2.0
# GHz S RI R 376.73
[Number of Ports] 4
[Reference]
376.73 376.73 376.73 376.73 
[Number of Frequencies] 1001
[Network Data]
281700                   -0.9752      -0.0636867      0.000431521     0.000698029       -0.0102238      -0.0278267      0.000586732     0.000749345
                     0.000663334     0.000183586        -0.184494      0.00547879     -0.000976823    -0.000763117         0.508845         0.83334
                     -0.00984782      -0.0277357     -0.000154905     -0.00137257        -0.605312       -0.762066     -0.000636021      -0.0013317
                      0.00059238     0.000733883          0.50895        0.833198     -0.000361435     -0.00145312       -0.0907003        0.160338
281700.1               -0.975203      -0.0636468      0.000431543     0.000698044       -0.0102128      -0.0278496        0.0005868     0.000749276
                     0.000663341     0.000183549         -0.18449      0.00548415     -0.000976839    -0.000763062         0.508872        0.833324
                     -0.00983682      -0.0277587     -0.000154964     -0.00137256         -0.60536       -0.762027     -0.000636092      -0.0013316
                      0.00059242     0.000733836         0.508978        0.833182     -0.000361526     -0.00145309       -0.0906926        0.160337
281700.2               -0.975205      -0.0636069      0.000431564      0.00069806       -0.0102018      -0.0278725      0.000586869     0.000749207
                     0.000663347     0.000183512        -0.184485      0.00548952     -0.000976855    -0.000763007         0.508899        0.833309
                     -0.00982582      -0.0277816     -0.000155024     -0.00137255        -0.605409       -0.761989     -0.000636163     -0.00133151
                      0.00059246      0.00073379         0.509005        0.833166     -0.000361617     -0.00145305       -0.0906849        0.160336
281700.3               -0.975207       -0.063567      0.000431586     0.000698075       -0.0101908      -0.0278954      0.000586937     0.000749138
                     0.000663353     0.000183475         -0.18448      0.00549488     -0.000976871    -0.000762952         0.508926        0.833293
                     -0.00981483      -0.0278045     -0.000155084     -0.00137254        -0.605457        -0.76195     -0.000636233     -0.00133141
                       0.0005925     0.000733743         0.509032         0.83315     -0.000361709     -0.00145301       -0.0906771        0.160335
281700.4               -0.975209       -0.063527      0.000431607     0.000698091       -0.0101798      -0.0279183      0.000587006     0.000749069
                      0.00066336     0.000183438        -0.184475      0.00550025     -0.000976887    -0.000762897         0.508954        0.833277
                     -0.00980383      -0.0278274     -0.000155143     -0.00137253        -0.605506       -0.761911     -0.000636304     -0.00133132
                      0.00059254     0.000733696         0.509059        0.833135       -0.0003618     -0.00145297       -0.0906694        0.160334
281700.5               -0.975211      -0.0634871      0.000431629     0.000698107       -0.0101687      -0.0279412      0.000587074        0.000749
                     0.000663366     0.000183401        -0.184471      0.00550561     -0.000976903    -0.000762842         0.508981        0.833261
                     -0.00979284      -0.0278503     -0.000155203     -0.00137252        -0.605554       -0.761872     -0.000636374     -0.00133123
                      0.00059258     0.000733649         0.509087        0.833119     -0.000361892     -0.00145293       -0.0906616        0.160334
281700.6               -0.975213      -0.0634472       0.00043165     0.000698122       -0.0101577      -0.0279641      0.000587143     0.000748931
                     0.000663373     0.000183364        -0.184466      0.00551097     -0.000976919    -0.000762787         0.509008        0.833245
                     -0.00978186      -0.0278733     -0.000155263     -0.00137251        -0.605603       -0.761833     -0.000636445     -0.00133113
                      0.00059262     0.000733602         0.509114        0.833103     -0.000361983     -0.00145289       -0.0906539        0.160333
281700.7               -0.975215      -0.0634073      0.000431672     0.000698138       -0.0101467       -0.027987      0.000587211     0.000748862
                     0.000663379     0.000183327        -0.184461      0.00551633     -0.000976935    -0.000762732         0.509036         0.83323
                     -0.00977087      -0.0278962     -0.000155322      -0.0013725        -0.605651       -0.761795     -0.000636515     -0.00133104
                      0.00059266     0.000733556         0.509141        0.833087     -0.000362074     -0.00145285       -0.0906462        0.160332
281700.8               -0.975217      -0.0633674      0.000431693     0.000698153       -0.0101358      -0.0280099       0.00058728     0.000748793
                     0.000663386      0.00018329        -0.184456       0.0055217     -0.000976951    -0.000762677         0.509063        0.833214
                     -0.00975989      -0.0279191     -0.000155382     -0.00137249        -0.605699       -0.761756     -0.000636586     -0.00133094
                       0.0005927     0.000733509         0.509168        0.833071     -0.000362166     -0.00145281       -0.0906384        0.160331
281700.9                -0.97522      -0.0633275      0.000431715     0.000698168       -0.0101248      -0.0280328      0.000587348     0.000748724
                     0.000663392     0.000183253        -0.184452      0.00552706     -0.000976967    -0.000762622          0.50909        0.833198
                     -0.00974891       -0.027942     -0.000155442     -0.00137248        -0.605748       -0.761717     -0.000636657     -0.00133085
                      0.00059274     0.000733462         0.509196        0.833056     -0.000362257     -0.00145277       -0.0906307         0.16033
281701                 -0.975222      -0.0632876      0.000431736     0.000698184       -0.0101138      -0.0280557      0.000587417     0.000748655
                     0.000663398     0.000183216        -0.184447      0.00553242     -0.000976982    -0.000762567         0.509117        0.833182
                     -0.00973793       -0.027965     -0.000155502     -0.00137248        -0.605796       -0.761678     -0.000636727     -0.00133075
                      0.00059278     0.000733415         0.509223         0.83304     -0.000362348     -0.00145273        -0.090623        0.160329
281701.1               -0.975224      -0.0632477      0.000431758     0.000698199       -0.0101028      -0.0280786      0.000587485     0.000748586
                     0.000663405     0.000183179        -0.184442      0.00553778     -0.000976998    -0.000762512         0.509145        0.833166
                     -0.00972696      -0.0279879     -0.000155562     -0.00137247        -0.605845       -0.761639     -0.000636798     -0.00133066
                      0.00059282     0.000733368          0.50925        0.833024      -0.00036244     -0.00145269       -0.0906152        0.160328
281701.2               -0.975226      -0.0632078      0.000431779     0.000698215       -0.0100918      -0.0281015      0.000587554     0.000748517
                     0.000663411     0.000183142        -0.184438      0.00554314     -0.000977014    -0.000762457         0.509172         0.83315
                     -0.00971598      -0.0280108     -0.000155621     -0.00137246        -0.605893       -0.761601     -0.000636868     -0.00133056
                      0.00059286     0.000733321         0.509277        0.833008     -0.000362531     -0.00145265       -0.0906075        0.160327
281701.3               -0.975228      -0.0631678      0.000431801      0.00069823       -0.0100808      -0.0281245      0.000587622     0.000748447
                     0.000663418     0.000183105        -0.184433       0.0055485      -0.00097703    -0.000762402         0.509199        0.833135
                     -0.00970502      -0.0280338     -0.000155681     -0.00137245        -0.605942       -0.761562     -0.000636939     -0.00133047
                       0.0005929     0.000733275         0.509305        0.832992     -0.000362622     -0.00145261       -0.0905997        0.160326
281701.4                -0.97523      -0.0631279      0.000431822     0.000698246       -0.0100698      -0.0281474      0.000587691     0.000748378
                     0.000663424     0.000183068        -0.184428      0.00555386     -0.000977046    -0.000762347         0.509227        0.833119
                     -0.00969405      -0.0280567     -0.000155741     -0.00137244         -0.60599       -0.761523     -0.000637009     -0.00133037
                      0.00059294     0.000733228         0.509332        0.832976     -0.000362714     -0.00145257        -0.090592        0.160325
281701.5               -0.975232       -0.063088      0.000431844     0.000698261       -0.0100589      -0.0281703      0.000587759     0.000748309
                      0.00066343     0.000183031        -0.184423      0.00555922     -0.000977062    -0.000762292         0.509254        0.833103
                     -0.00968309      -0.0280796     -0.000155801     -0.00137243        -0.606038       -0.761484      -0.00063708     -0.00133028
                      0.00059298     0.000733181         0.509359        0.832961     -0.000362805     -0.00145254       -0.0905843        0.160325
281701.6               -0.975234      -0.0630481      0.000431865     0.000698276       -0.0100479      -0.0281932      0.000587828      0.00074824
                     0.000663437     0.000182994        -0.184419      0.00556458     -0.000977078    -0.000762237         0.509281        0.833087
                     -0.00967212      -0.0281026     -0.000155861     -0.00137242        -0.606087       -0.761445      -0.00063715     -0.00133018
                      0.00059302     0.000733134         0.509386        0.832945     -0.000362896      -0.0014525       -0.0905765        0.160324
281701.7               -0.975236      -0.0630082      0.000431887     0.000698292       -0.0100369      -0.0282161      0.000587896     0.000748171
                     0.000663443     0.000182957        -0.184414      0.00556994     -0.000977094    -0.000762182         0.509308        0.833071
                     -0.00966116      -0.0281255     -0.000155921     -0.00137241        -0.606135       -0.761407     -0.000637221     -0.00133009
                      0.00059306     0.000733087         0.509414        0.832929     -0.000362988     -0.00145246       -0.0905688        0.160323
281701.8               -0.975238      -0.0629683      0.000431908     0.000698307       -0.0100259       -0.028239      0.000587964     0.000748102
                     0.000663449      0.00018292        -0.184409       0.0055753      -0.00097711    -0.000762127         0.509336        0.833055
                     -0.00965021      -0.0281484      -0.00015598      -0.0013724        -0.606184       -0.761368     -0.000637291     -0.00132999
                     0.000593099      0.00073304         0.509441        0.832913     -0.000363079     -0.00145242       -0.0905611        0.160322
281701.9               -0.975241      -0.0629284       0.00043193     0.000698322        -0.010015      -0.0282619      0.000588033     0.000748033
                     0.000663456     0.000182883        -0.184404      0.00558065     -0.000977126    -0.000762072         0.509363         0.83304
                     -0.00963925      -0.0281714      -0.00015604     -0.00137239        -0.606232       -0.761329     -0.000637362      -0.0013299
                     0.000593139     0.000732994         0.509468        0.832897      -0.00036317     -0.00145238       -0.0905533        0.160321
281702                 -0.975243      -0.0628885      0.000431951     0.000698337        -0.010004      -0.0282848      0.000588101     0.000747964
                     0.000663462     0.000182846          -0.1844      0.00558601     -0.000977141    -0.000762017          0.50939        0.833024
                      -0.0096283      -0.0281943       -0.0001561     -0.00137238         -0.60628        -0.76129     -0.000637432      -0.0013298
                     0.000593179     0.000732947         0.509495        0.832882     -0.000363262     -0.00145234       -0.0905456         0.16032
281702.1               -0.975245      -0.0628486      0.000431973     0.000698353      -0.00999306      -0.0283078       0.00058817     0.000747894
                     0.000663469     0.000182809        -0.184395      0.00559137     -0.000977157    -0.000761962         0.509417        0.833008
                     -0.00961736      -0.0282172      -0.00015616     -0.00137237        -0.606329       -0.761251     -0.000637503     -0.00132971
                     0.000593219       0.0007329         0.509523        0.832866     -0.000363353      -0.0014523       -0.0905379        0.160319
281702.2               -0.975247      -0.0628087      0.000431994     0.000698368       -0.0099821      -0.0283307      0.000588238     0.000747825
                     0.000663475     0.000182772         -0.18439      0.00559673     -0.000977173    -0.000761907         0.509445        0.832992
                     -0.00960641      -0.0282402      -0.00015622     -0.00137236        -0.606377       -0.761212     -0.000637573     -0.00132961
                     0.000593259     0.000732853          0.50955         0.83285     -0.000363444     -0.00145226       -0.0905301        0.160318
281702.3               -0.975249      -0.0627687      0.000432015     0.000698383      -0.00997114      -0.0283536      0.000588307     0.000747756
                     0.000663481     0.000182735        -0.184386      0.00560209     -0.000977189    -0.000761852         0.509472        0.832976
                     -0.00959547      -0.0282631      -0.00015628     -0.00137235        -0.606425       -0.761174     -0.000637644     -0.00132952
                     0.000593299     0.000732806         0.509577        0.832834     -0.000363535     -0.00145222       -0.0905224        0.160317
281702.4               -0.975251      -0.0627288      0.000432037     0.000698398      -0.00996019      -0.0283765      0.000588375     0.000747687
                     0.000663488     0.000182698        -0.184381      0.00560744     -0.000977205    -0.000761797         0.509499         0.83296
                     -0.00958453      -0.0282861      -0.00015634     -0.00137234        -0.606474       -0.761135     -0.000637714     -0.00132943
                     0.000593339     0.000732759         0.509604        0.832818     -0.000363627     -0.00145218       -0.0905147        0.160316
281702.5               -0.975253      -0.0626889      0.000432058     0.000698414      -0.00994924      -0.0283994      0.000588443     0.000747618
                     0.000663494     0.000182661        -0.184376       0.0056128     -0.000977221    -0.000761742         0.509527        0.832944
                     -0.00957359       -0.028309       -0.0001564     -0.00137233        -0.606522       -0.761096     -0.000637785     -0.00132933
                     0.000593379     0.000732712         0.509632        0.832802     -0.000363718     -0.00145214       -0.0905069        0.160315
281702.6               -0.975255       -0.062649       0.00043208     0.000698429      -0.00993829      -0.0284224      0.000588512     0.000747548
                       0.0006635     0.000182624        -0.184371      0.00561815     -0.000977237    -0.000761687         0.509554        0.832929
                     -0.00956265      -0.0283319      -0.00015646     -0.00137232        -0.606571       -0.761057     -0.000637855     -0.00132924
                     0.000593419     0.000732665         0.509659        0.832787     -0.000363809      -0.0014521       -0.0904992        0.160315
281702.7               -0.975257      -0.0626091      0.000432101     0.000698444      -0.00992734      -0.0284453       0.00058858     0.000747479
                     0.000663507     0.000182587        -0.184367      0.00562351     -0.000977253    -0.000761632         0.509581        0.832913
                     -0.00955172      -0.0283549      -0.00015652     -0.00137231        -0.606619       -0.761018     -0.000637926     -0.00132914
                     0.000593459     0.000732619         0.509686        0.832771     -0.000363901     -0.00145206       -0.0904914        0.160314
281702.8               -0.975259      -0.0625692      0.000432122     0.000698459       -0.0099164      -0.0284682      0.000588649      0.00074741
                     0.000663513      0.00018255        -0.184362      0.00562887     -0.000977268    -0.000761576         0.509608        0.832897
                     -0.00954079      -0.0283778      -0.00015658      -0.0013723        -0.606667       -0.760979     -0.000637996     -0.00132905
                     0.000593498     0.000732572         0.509713        0.832755     -0.000363992     -0.00145202       -0.0904837        0.160313
281702.9               -0.975261      -0.0625293      0.000432144     0.000698474      -0.00990546      -0.0284911      0.000588717     0.000747341
                      0.00066352     0.000182513        -0.184357      0.00563422     -0.000977284    -0.000761521         0.509636        0.832881
                     -0.00952986      -0.0284008      -0.00015664      -0.0013723        -0.606716        -0.76094     -0.000638067     -0.00132895
                     0.000593538     0.000732525         0.509741        0.832739     -0.000364083     -0.00145198        -0.090476        0.160312
281703                 -0.975263      -0.0624894      0.000432165     0.000698489      -0.00989452      -0.0285141      0.000588785     0.000747271
                     0.000663526     0.000182476        -0.184352      0.00563958       -0.0009773    -0.000761466         0.509663        0.832865
                     -0.00951894      -0.0284237       -0.0001567     -0.00137229        -0.606764       -0.760902     -0.000638137     -0.00132886
                     0.000593578     0.000732478         0.509768        0.832723     -0.000364174     -0.00145194       -0.0904682        0.160311
281703.1               -0.975265      -0.0624495      0.000432186     0.000698505      -0.00988359       -0.028537      0.000588854     0.000747202
                     0.000663532     0.000182439        -0.184348      0.00564493     -0.000977316    -0.000761411          0.50969        0.832849
                     -0.00950802      -0.0284467      -0.00015676     -0.00137228        -0.606812       -0.760863     -0.000638208     -0.00132876
