! TOUCHSTONE file generated by CST MICROWAVE STUDIO
! Date and time: Wed Oct  8 06:56:35 2025
! Project name: Teste_Macro_Metasurface_Nanopilar.cst
! Parameters = {H=600; L_x=120; L_y=85; Lambda=1064; Max_L=200; Min_L=70; PathPara=1; Phi=0; Step_L=10; Theta=0; p=520; phaseX=180; phaseY=0}
! Header version: 2018
! Port assignment regex: !\s*Touchstone port\s*([0-9]+)\s*=\s*(CST MWS port|CST DS port)\s*([0-9]+|Zmin|Zmax)\s*\(\"(.*)\"\)(\s*mode\s*([0-9]+))?.*
! Touchstone port assignment:
! Touchstone port 1 = CST MWS port Zmax ("") mode 1
! Touchstone port 2 = CST MWS port Zmax ("") mode 2
! Touchstone port 3 = CST MWS port Zmin ("") mode 1
! Touchstone port 4 = CST MWS port Zmin ("") mode 2
! S-Parameters are not renormalized. Each port impedance will be approximated by the real part at minimum frequency. The values are described via the [Reference] keyword.
! Default impedance is overridden by [Reference]
[Version] 2.0
# GHz S RI R 376.73
[Number of Ports] 4
[Reference]
376.73 376.73 376.73 376.73 
[Number of Frequencies] 1001
[Network Data]
281700                 0.0776371      -0.0932613     -0.000523766      4.9246e-05        -0.836591        0.532184      0.000360546     0.000239151
                    -0.000569085     2.58609e-05        -0.289016      -0.0201584      0.000411444     0.000160291        0.0829715        0.948312
                       -0.836447        0.532126      0.000404041     8.07019e-05         -0.11766       0.0310767     -0.000245847    -0.000335092
                     0.000302448     0.000167877        0.0828927        0.948302      -0.00018803    -0.000313135        -0.281876       0.0704878
281700.1               0.0776318      -0.0932647     -0.000523769     4.92601e-05        -0.836577        0.532207      0.000360551     0.000239135
                    -0.000569093     2.58758e-05        -0.289016      -0.0201487      0.000411433     0.000160263        0.0829999        0.948309
                       -0.836432        0.532148      0.000404044     8.06887e-05         -0.11766       0.0310768     -0.000245862     -0.00033509
                     0.000302448     0.000167864        0.0829211          0.9483      -0.00018804    -0.000313145        -0.281873       0.0704951
281700.2               0.0776265      -0.0932681     -0.000523772     4.92742e-05        -0.836563         0.53223      0.000360555      0.00023912
                    -0.000569101     2.58906e-05        -0.289016       -0.020139      0.000411423     0.000160235        0.0830283        0.948307
                       -0.836418        0.532171      0.000404047     8.06755e-05        -0.117659       0.0310769     -0.000245877    -0.000335088
                     0.000302448     0.000167851        0.0829496        0.948298     -0.000188051    -0.000313156         -0.28187       0.0705024
281700.3               0.0776212      -0.0932715     -0.000523775     4.92883e-05        -0.836548        0.532252       0.00036056     0.000239104
                    -0.000569109     2.59055e-05        -0.289015      -0.0201294      0.000411412     0.000160208        0.0830568        0.948305
                       -0.836404        0.532194       0.00040405     8.06623e-05        -0.117658       0.0310769     -0.000245892    -0.000335086
                     0.000302448     0.000167838         0.082978        0.948296     -0.000188061    -0.000313167        -0.281868       0.0705096
281700.4               0.0776159       -0.093275     -0.000523779     4.93023e-05        -0.836534        0.532275      0.000360565     0.000239089
                    -0.000569116     2.59204e-05        -0.289015      -0.0201197      0.000411402      0.00016018        0.0830852        0.948303
                       -0.836389        0.532216      0.000404053     8.06492e-05        -0.117657        0.031077     -0.000245907    -0.000335084
                     0.000302448     0.000167825        0.0830064        0.948293     -0.000188072    -0.000313178        -0.281865       0.0705169
281700.5               0.0776106      -0.0932784     -0.000523782     4.93164e-05         -0.83652        0.532298      0.000360569     0.000239073
                    -0.000569124     2.59353e-05        -0.289015        -0.02011      0.000411392     0.000160152        0.0831136          0.9483
                       -0.836375        0.532239      0.000404056      8.0636e-05        -0.117656       0.0310771     -0.000245923    -0.000335082
                     0.000302448     0.000167812        0.0830349        0.948291     -0.000188082    -0.000313189        -0.281862       0.0705242
281700.6               0.0776053      -0.0932818     -0.000523785     4.93305e-05        -0.836505         0.53232      0.000360574     0.000239058
                    -0.000569131     2.59501e-05        -0.289015      -0.0201003      0.000411381     0.000160124        0.0831421        0.948298
                       -0.836361        0.532262      0.000404059     8.06228e-05        -0.117656       0.0310772     -0.000245938     -0.00033508
                     0.000302448     0.000167799        0.0830633        0.948289     -0.000188093    -0.000313199         -0.28186       0.0705314
281700.7                  0.0776      -0.0932852     -0.000523788     4.93446e-05        -0.836491        0.532343      0.000360579     0.000239042
                    -0.000569139      2.5965e-05        -0.289015      -0.0200907      0.000411371     0.000160097        0.0831705        0.948296
                       -0.836346        0.532284      0.000404062     8.06096e-05        -0.117655       0.0310773     -0.000245953    -0.000335078
                     0.000302448     0.000167786        0.0830918        0.948287     -0.000188103     -0.00031321        -0.281857       0.0705387
281700.8               0.0775946      -0.0932886     -0.000523792     4.93587e-05        -0.836477        0.532366      0.000360583     0.000239027
                    -0.000569147     2.59798e-05        -0.289015       -0.020081       0.00041136     0.000160069         0.083199        0.948294
                       -0.836332        0.532307      0.000404065     8.05965e-05        -0.117654       0.0310774     -0.000245968    -0.000335076
                     0.000302448     0.000167773        0.0831202        0.948284     -0.000188114    -0.000313221        -0.281854        0.070546
281700.9               0.0775893      -0.0932921     -0.000523795     4.93728e-05        -0.836463        0.532388      0.000360588     0.000239012
                    -0.000569154     2.59947e-05        -0.289014      -0.0200713       0.00041135     0.000160041        0.0832274        0.948291
                       -0.836318         0.53233      0.000404068     8.05833e-05        -0.117653       0.0310775     -0.000245983    -0.000335074
                     0.000302448     0.000167759        0.0831487        0.948282     -0.000188125    -0.000313232        -0.281852       0.0705533
281701                  0.077584      -0.0932955     -0.000523798     4.93869e-05        -0.836448        0.532411      0.000360592     0.000238996
                    -0.000569162     2.60095e-05        -0.289014      -0.0200616       0.00041134     0.000160014        0.0832558        0.948289
                       -0.836303        0.532352      0.000404071     8.05701e-05        -0.117652       0.0310776     -0.000245998    -0.000335072
                     0.000302447     0.000167746        0.0831771         0.94828     -0.000188135    -0.000313242        -0.281849       0.0705605
281701.1               0.0775787      -0.0932989     -0.000523801      4.9401e-05        -0.836434        0.532433      0.000360597     0.000238981
                     -0.00056917     2.60243e-05        -0.289014       -0.020052      0.000411329     0.000159986        0.0832843        0.948287
                       -0.836289        0.532375      0.000404074     8.05569e-05        -0.117651       0.0310777     -0.000246013     -0.00033507
                     0.000302447     0.000167733        0.0832056        0.948278     -0.000188146    -0.000313253        -0.281846       0.0705678
281701.2               0.0775734      -0.0933023     -0.000523805     4.94151e-05         -0.83642        0.532456      0.000360602     0.000238965
                    -0.000569177     2.60391e-05        -0.289014      -0.0200423      0.000411319     0.000159958        0.0833127        0.948285
                       -0.836275        0.532398      0.000404077     8.05438e-05        -0.117651       0.0310778     -0.000246029    -0.000335068
                     0.000302447      0.00016772         0.083234        0.948275     -0.000188156    -0.000313264        -0.281844       0.0705751
281701.3               0.0775681      -0.0933057     -0.000523808     4.94292e-05        -0.836405        0.532479      0.000360606      0.00023895
                    -0.000569185     2.60539e-05        -0.289014      -0.0200326      0.000411308      0.00015993        0.0833411        0.948282
                        -0.83626         0.53242       0.00040408     8.05306e-05         -0.11765       0.0310779     -0.000246044    -0.000335066
                     0.000302447     0.000167707        0.0832624        0.948273     -0.000188167    -0.000313275        -0.281841       0.0705824
281701.4               0.0775628      -0.0933091     -0.000523811     4.94433e-05        -0.836391        0.532501      0.000360611     0.000238934
                    -0.000569193     2.60687e-05        -0.289014      -0.0200229      0.000411298     0.000159903        0.0833696         0.94828
                       -0.836246        0.532443      0.000404083     8.05174e-05        -0.117649        0.031078     -0.000246059    -0.000335064
                     0.000302447     0.000167694        0.0832909        0.948271     -0.000188177    -0.000313286        -0.281838       0.0705896
281701.5               0.0775575      -0.0933126     -0.000523815     4.94573e-05        -0.836377        0.532524      0.000360616     0.000238919
                      -0.0005692     2.60835e-05        -0.289013      -0.0200133      0.000411287     0.000159875         0.083398        0.948278
                       -0.836232        0.532466      0.000404086     8.05042e-05        -0.117648       0.0310781     -0.000246074    -0.000335063
                     0.000302447     0.000167681        0.0833193        0.948269     -0.000188188    -0.000313297        -0.281835       0.0705969
281701.6               0.0775522       -0.093316     -0.000523818     4.94714e-05        -0.836363        0.532547       0.00036062     0.000238903
                    -0.000569208     2.60983e-05        -0.289013      -0.0200036      0.000411277     0.000159847        0.0834264        0.948276
                       -0.836217        0.532488      0.000404089     8.04911e-05        -0.117647       0.0310781     -0.000246089    -0.000335061
                     0.000302447     0.000167668        0.0833478        0.948266     -0.000188199    -0.000313307        -0.281833       0.0706042
281701.7               0.0775469      -0.0933194     -0.000523821     4.94855e-05        -0.836348        0.532569      0.000360625     0.000238888
                    -0.000569216     2.61131e-05        -0.289013      -0.0199939      0.000411266     0.000159819        0.0834549        0.948273
                       -0.836203        0.532511      0.000404092     8.04779e-05        -0.117646       0.0310782     -0.000246104    -0.000335059
                     0.000302447     0.000167655        0.0833762        0.948264     -0.000188209    -0.000313318         -0.28183       0.0706114
281701.8               0.0775416      -0.0933228     -0.000523824     4.94996e-05        -0.836334        0.532592      0.000360629     0.000238872
                    -0.000569223     2.61279e-05        -0.289013      -0.0199842      0.000411256     0.000159792        0.0834833        0.948271
                       -0.836189        0.532534      0.000404095     8.04647e-05        -0.117646       0.0310783     -0.000246119    -0.000335057
                     0.000302447     0.000167642        0.0834047        0.948262      -0.00018822    -0.000313329        -0.281827       0.0706187
281701.9               0.0775363      -0.0933262     -0.000523828     4.95137e-05         -0.83632        0.532615      0.000360634     0.000238857
                    -0.000569231     2.61427e-05        -0.289013      -0.0199746      0.000411245     0.000159764        0.0835118        0.948269
                       -0.836174        0.532556      0.000404098     8.04515e-05        -0.117645       0.0310784     -0.000246135    -0.000335055
                     0.000302447     0.000167629        0.0834331         0.94826     -0.000188231     -0.00031334        -0.281825        0.070626
281702                  0.077531      -0.0933296     -0.000523831     4.95278e-05        -0.836305        0.532637      0.000360639     0.000238842
                    -0.000569238     2.61574e-05        -0.289013      -0.0199649      0.000411235     0.000159736        0.0835402        0.948267
                        -0.83616        0.532579      0.000404101     8.04383e-05        -0.117644       0.0310785      -0.00024615    -0.000335053
                     0.000302447     0.000167616        0.0834615        0.948257     -0.000188241    -0.000313351        -0.281822       0.0706332
281702.1               0.0775256      -0.0933331     -0.000523834     4.95419e-05        -0.836291         0.53266      0.000360643     0.000238826
                    -0.000569246     2.61722e-05        -0.289012      -0.0199552      0.000411224     0.000159709        0.0835686        0.948264
                       -0.836146        0.532602      0.000404104     8.04252e-05        -0.117643       0.0310786     -0.000246165    -0.000335051
                     0.000302447     0.000167603          0.08349        0.948255     -0.000188252    -0.000313362        -0.281819       0.0706405
281702.2               0.0775203      -0.0933365     -0.000523837      4.9556e-05        -0.836277        0.532683      0.000360648     0.000238811
                    -0.000569254     2.61869e-05        -0.289012      -0.0199455      0.000411213     0.000159681        0.0835971        0.948262
                       -0.836131        0.532624      0.000404107      8.0412e-05        -0.117642       0.0310787      -0.00024618    -0.000335049
                     0.000302447      0.00016759        0.0835184        0.948253     -0.000188262    -0.000313372        -0.281817       0.0706478
281702.3                0.077515      -0.0933399     -0.000523841     4.95701e-05        -0.836262        0.532705      0.000360653     0.000238795
                    -0.000569261     2.62017e-05        -0.289012      -0.0199359      0.000411203     0.000159653        0.0836255         0.94826
                       -0.836117        0.532647       0.00040411     8.03988e-05        -0.117641       0.0310788     -0.000246195    -0.000335047
                     0.000302446     0.000167577        0.0835469        0.948251     -0.000188273    -0.000313383        -0.281814       0.0706551
281702.4               0.0775097      -0.0933433     -0.000523844     4.95842e-05        -0.836248        0.532728      0.000360657      0.00023878
                    -0.000569269     2.62164e-05        -0.289012      -0.0199262      0.000411192     0.000159625        0.0836539        0.948257
                       -0.836103         0.53267      0.000404113     8.03856e-05        -0.117641       0.0310789      -0.00024621    -0.000335045
                     0.000302446     0.000167564        0.0835753        0.948248     -0.000188284    -0.000313394        -0.281811       0.0706623
281702.5               0.0775044      -0.0933467     -0.000523847     4.95983e-05        -0.836234        0.532751      0.000360662     0.000238764
                    -0.000569276     2.62312e-05        -0.289012      -0.0199165      0.000411182     0.000159598        0.0836824        0.948255
                       -0.836088        0.532692      0.000404116     8.03725e-05         -0.11764        0.031079     -0.000246225    -0.000335043
                     0.000302446     0.000167551        0.0836038        0.948246     -0.000188294    -0.000313405        -0.281808       0.0706696
281702.6               0.0774991      -0.0933501      -0.00052385     4.96124e-05         -0.83622        0.532773      0.000360666     0.000238749
                    -0.000569284     2.62459e-05        -0.289011      -0.0199069      0.000411171      0.00015957        0.0837108        0.948253
                       -0.836074        0.532715      0.000404119     8.03593e-05        -0.117639       0.0310791      -0.00024624    -0.000335041
                     0.000302446     0.000167538        0.0836322        0.948244     -0.000188305    -0.000313416        -0.281806       0.0706769
281702.7               0.0774938      -0.0933535     -0.000523854     4.96265e-05        -0.836205        0.532796      0.000360671     0.000238733
                    -0.000569292     2.62606e-05        -0.289011      -0.0198972      0.000411161     0.000159542        0.0837392        0.948251
                        -0.83606        0.532738      0.000404121     8.03461e-05        -0.117638       0.0310792     -0.000246256    -0.000335039
                     0.000302446     0.000167524        0.0836607        0.948242     -0.000188316    -0.000313427        -0.281803       0.0706841
281702.8               0.0774885       -0.093357     -0.000523857     4.96406e-05        -0.836191        0.532818      0.000360676     0.000238718
                    -0.000569299     2.62754e-05        -0.289011      -0.0198875       0.00041115     0.000159514        0.0837677        0.948248
                       -0.836045         0.53276      0.000404124     8.03329e-05        -0.117637       0.0310792     -0.000246271    -0.000335037
                     0.000302446     0.000167511        0.0836891        0.948239     -0.000188326    -0.000313438          -0.2818       0.0706914
281702.9               0.0774832      -0.0933604      -0.00052386     4.96547e-05        -0.836177        0.532841       0.00036068     0.000238703
                    -0.000569307     2.62901e-05        -0.289011      -0.0198778      0.000411139     0.000159487        0.0837961        0.948246
                       -0.836031        0.532783      0.000404127     8.03197e-05        -0.117637       0.0310793     -0.000246286    -0.000335035
                     0.000302446     0.000167498        0.0837175        0.948237     -0.000188337    -0.000313449        -0.281798       0.0706987
281703                 0.0774779      -0.0933638     -0.000523863     4.96688e-05        -0.836162        0.532864      0.000360685     0.000238687
                    -0.000569314     2.63048e-05        -0.289011      -0.0198682      0.000411129     0.000159459        0.0838246        0.948244
                       -0.836017        0.532806       0.00040413     8.03066e-05        -0.117636       0.0310794     -0.000246301    -0.000335033
                     0.000302446     0.000167485         0.083746        0.948235     -0.000188348    -0.000313459        -0.281795        0.070706
281703.1               0.0774726      -0.0933672     -0.000523867     4.96829e-05        -0.836148        0.532886      0.000360689     0.000238672
                    -0.000569322     2.63195e-05        -0.289011      -0.0198585      0.000411118     0.000159431         0.083853        0.948242
                       -0.836002        0.532828      0.000404133     8.02934e-05        -0.117635       0.0310795     -0.000246316    -0.000335032
