! TOUCHSTONE file generated by CST MICROWAVE STUDIO
! Date and time: Wed Oct  8 07:05:28 2025
! Project name: Teste_Macro_Metasurface_Nanopilar.cst
! Parameters = {H=600; L_x=190; L_y=200; Lambda=1064; Max_L=200; Min_L=70; PathPara=1; Phi=0; Step_L=10; Theta=0; p=520; phaseX=180; phaseY=0}
! Header version: 2018
! Port assignment regex: !\s*Touchstone port\s*([0-9]+)\s*=\s*(CST MWS port|CST DS port)\s*([0-9]+|Zmin|Zmax)\s*\(\"(.*)\"\)(\s*mode\s*([0-9]+))?.*
! Touchstone port assignment:
! Touchstone port 1 = CST MWS port Zmax ("") mode 1
! Touchstone port 2 = CST MWS port Zmax ("") mode 2
! Touchstone port 3 = CST MWS port Zmin ("") mode 1
! Touchstone port 4 = CST MWS port Zmin ("") mode 2
! S-Parameters are not renormalized. Each port impedance will be approximated by the real part at minimum frequency. The values are described via the [Reference] keyword.
! Default impedance is overridden by [Reference]
[Version] 2.0
# GHz S RI R 376.73
[Number of Ports] 4
[Reference]
376.73 376.73 376.73 376.73 
[Number of Frequencies] 1001
[Network Data]
281700                 -0.348652        -0.27077     -0.000303544     2.80197e-05        -0.783682        0.428793      0.000546895     0.000785008
                    -0.000328943     1.18828e-05        -0.261115       -0.259665      0.000510017     0.000680813        -0.850672        0.366024
                       -0.783658        0.428891      0.000534721     0.000715636       -0.0436089       -0.438318      -0.00073853    -0.000171317
                     0.000462954     0.000751342        -0.850615        0.366009     -0.000558464    -0.000103279       -0.0125257       -0.367194
281700.1               -0.348661       -0.270767     -0.000303541     2.80214e-05        -0.783667        0.428816       0.00054681     0.000784911
                    -0.000328901     1.19152e-05        -0.261123       -0.259665      0.000510034     0.000680791         -0.85066        0.366048
                       -0.783643        0.428913      0.000534741     0.000715611       -0.0436268       -0.438321     -0.000738322    -0.000171319
                     0.000462887     0.000751265        -0.850602        0.366033     -0.000558501    -0.000103121       -0.0125413       -0.367199
281700.2               -0.348669       -0.270764     -0.000303538     2.80232e-05        -0.783652        0.428839      0.000546725     0.000784814
                    -0.000328859     1.19476e-05        -0.261131       -0.259664      0.000510052      0.00068077        -0.850647        0.366072
                       -0.783628        0.428934      0.000534761     0.000715586       -0.0436448       -0.438325     -0.000738114    -0.000171321
                     0.000462821     0.000751188         -0.85059        0.366057     -0.000558539    -0.000102963       -0.0125569       -0.367204
281700.3               -0.348678       -0.270761     -0.000303535      2.8025e-05        -0.783638        0.428862       0.00054664     0.000784717
                    -0.000328817       1.198e-05        -0.261139       -0.259664      0.000510069     0.000680748        -0.850635        0.366097
                       -0.783614        0.428956      0.000534781     0.000715562       -0.0436628       -0.438328     -0.000737907    -0.000171323
                     0.000462754     0.000751112        -0.850577        0.366081     -0.000558577    -0.000102805       -0.0125726       -0.367209
281700.4               -0.348686       -0.270758     -0.000303532     2.80268e-05        -0.783623        0.428884      0.000546555     0.000784619
                    -0.000328775     1.20124e-05        -0.261147       -0.259663      0.000510087     0.000680727        -0.850623        0.366121
                       -0.783599        0.428978        0.0005348     0.000715537       -0.0436807       -0.438331     -0.000737699    -0.000171325
                     0.000462688     0.000751035        -0.850564        0.366105     -0.000558616    -0.000102646       -0.0125882       -0.367214
281700.5               -0.348695       -0.270755     -0.000303529     2.80286e-05        -0.783608        0.428907       0.00054647     0.000784522
                    -0.000328733     1.20448e-05        -0.261155       -0.259663      0.000510104     0.000680705         -0.85061        0.366145
                       -0.783584           0.429       0.00053482     0.000715512       -0.0436987       -0.438335     -0.000737491    -0.000171327
                     0.000462621     0.000750958        -0.850552        0.366129     -0.000558654    -0.000102487       -0.0126039       -0.367219
281700.6               -0.348703       -0.270752     -0.000303526     2.80304e-05        -0.783593         0.42893      0.000546385     0.000784425
                    -0.000328692     1.20772e-05        -0.261164       -0.259662      0.000510122     0.000680684        -0.850598        0.366169
                        -0.78357        0.429022       0.00053484     0.000715488       -0.0437166       -0.438338     -0.000737283    -0.000171329
                     0.000462555     0.000750882        -0.850539        0.366153     -0.000558693    -0.000102327       -0.0126195       -0.367224
281700.7               -0.348712       -0.270749     -0.000303523     2.80322e-05        -0.783578        0.428953        0.0005463     0.000784328
                     -0.00032865     1.21096e-05        -0.261172       -0.259661      0.000510139     0.000680662        -0.850585        0.366193
                       -0.783555        0.429043       0.00053486     0.000715463       -0.0437346       -0.438341     -0.000737075    -0.000171331
                     0.000462489     0.000750805        -0.850527        0.366177     -0.000558733    -0.000102167       -0.0126352       -0.367229
281700.8                -0.34872       -0.270746     -0.000303521      2.8034e-05        -0.783563        0.428976      0.000546215     0.000784231
                    -0.000328608      1.2142e-05         -0.26118       -0.259661      0.000510156      0.00068064        -0.850573        0.366217
                        -0.78354        0.429065      0.000534879     0.000715439       -0.0437526       -0.438345     -0.000736867    -0.000171333
                     0.000462423     0.000750728        -0.850514        0.366201     -0.000558772    -0.000102007       -0.0126508       -0.367233
281700.9               -0.348729       -0.270743     -0.000303518     2.80358e-05        -0.783548        0.428998       0.00054613     0.000784133
                    -0.000328566     1.21743e-05        -0.261188        -0.25966      0.000510174     0.000680618         -0.85056        0.366242
                       -0.783526        0.429087      0.000534899     0.000715414       -0.0437705       -0.438348     -0.000736659    -0.000171334
                     0.000462356     0.000750651        -0.850501        0.366225     -0.000558812    -0.000101846       -0.0126664       -0.367238
281701                 -0.348737        -0.27074     -0.000303515     2.80376e-05        -0.783534        0.429021      0.000546045     0.000784036
                    -0.000328524     1.22067e-05        -0.261196        -0.25966      0.000510191     0.000680597        -0.850548        0.366266
                       -0.783511        0.429109      0.000534919     0.000715389       -0.0437885       -0.438351     -0.000736451    -0.000171336
                      0.00046229     0.000750575        -0.850489        0.366249     -0.000558852    -0.000101685       -0.0126821       -0.367243
281701.1               -0.348746       -0.270737     -0.000303512     2.80395e-05        -0.783519        0.429044      0.000545959     0.000783939
                    -0.000328482     1.22391e-05        -0.261204       -0.259659      0.000510208     0.000680575        -0.850536         0.36629
                       -0.783496         0.42913      0.000534939     0.000715365       -0.0438065       -0.438355     -0.000736242    -0.000171337
                     0.000462224     0.000750498        -0.850476        0.366273     -0.000558892    -0.000101523       -0.0126977       -0.367248
281701.2               -0.348754       -0.270734     -0.000303509     2.80413e-05        -0.783504        0.429067      0.000545874     0.000783842
                     -0.00032844     1.22715e-05        -0.261212       -0.259659      0.000510226     0.000680553        -0.850523        0.366314
                       -0.783482        0.429152      0.000534958      0.00071534       -0.0438244       -0.438358     -0.000736034    -0.000171339
                     0.000462159     0.000750421        -0.850463        0.366297     -0.000558933    -0.000101361       -0.0127134       -0.367253
281701.3               -0.348763       -0.270731     -0.000303506     2.80432e-05        -0.783489         0.42909      0.000545789     0.000783745
                    -0.000328398     1.23038e-05         -0.26122       -0.259658      0.000510243     0.000680531        -0.850511        0.366338
                       -0.783467        0.429174      0.000534978     0.000715315       -0.0438424       -0.438362     -0.000735826     -0.00017134
                     0.000462093     0.000750344        -0.850451        0.366321     -0.000558974    -0.000101198        -0.012729       -0.367258
281701.4               -0.348771       -0.270728     -0.000303503      2.8045e-05        -0.783474        0.429112      0.000545704     0.000783647
                    -0.000328356     1.23362e-05        -0.261228       -0.259658       0.00051026     0.000680509        -0.850498        0.366362
                       -0.783452        0.429196      0.000534998     0.000715291       -0.0438603       -0.438365     -0.000735618    -0.000171341
                     0.000462027     0.000750267        -0.850438        0.366345     -0.000559015    -0.000101035       -0.0127447       -0.367263
281701.5                -0.34878       -0.270725     -0.000303501     2.80469e-05        -0.783459        0.429135      0.000545619      0.00078355
                    -0.000328314     1.23685e-05        -0.261236       -0.259657      0.000510277     0.000680487        -0.850486        0.366387
                       -0.783438        0.429217      0.000535018     0.000715266       -0.0438783       -0.438368      -0.00073541    -0.000171342
                     0.000461961      0.00075019        -0.850425        0.366369     -0.000559057    -0.000100872       -0.0127603       -0.367268
281701.6               -0.348788       -0.270722     -0.000303498     2.80487e-05        -0.783444        0.429158      0.000545533     0.000783453
                    -0.000328273     1.24009e-05        -0.261244       -0.259656      0.000510294     0.000680465        -0.850474        0.366411
                       -0.783423        0.429239      0.000535037     0.000715241       -0.0438962       -0.438372     -0.000735202    -0.000171343
                     0.000461896     0.000750113        -0.850413        0.366393     -0.000559098    -0.000100708        -0.012776       -0.367273
281701.7               -0.348797       -0.270719     -0.000303495     2.80506e-05        -0.783429        0.429181      0.000545448     0.000783355
                    -0.000328231     1.24333e-05        -0.261252       -0.259656      0.000510311     0.000680443        -0.850461        0.366435
                       -0.783408        0.429261      0.000535057     0.000715217       -0.0439142       -0.438375     -0.000734994    -0.000171344
                      0.00046183     0.000750036          -0.8504        0.366417     -0.000559141    -0.000100543       -0.0127916       -0.367278
281701.8               -0.348805       -0.270716     -0.000303492     2.80525e-05        -0.783414        0.429203      0.000545363     0.000783258
                    -0.000328189     1.24656e-05        -0.261261       -0.259655      0.000510329      0.00068042        -0.850449        0.366459
                       -0.783394        0.429283      0.000535077     0.000715192       -0.0439322       -0.438378     -0.000734785    -0.000171345
                     0.000461765     0.000749959        -0.850387        0.366441     -0.000559183    -0.000100378       -0.0128072       -0.367282
281701.9               -0.348814       -0.270713     -0.000303489     2.80544e-05        -0.783399        0.429226      0.000545277     0.000783161
                    -0.000328147     1.24979e-05        -0.261269       -0.259655      0.000510346     0.000680398        -0.850436        0.366483
                       -0.783379        0.429304      0.000535097     0.000715167       -0.0439501       -0.438382     -0.000734577    -0.000171346
                       0.0004617     0.000749882        -0.850375        0.366465     -0.000559226    -0.000100213       -0.0128229       -0.367287
281702                 -0.348822        -0.27071     -0.000303487     2.80563e-05        -0.783384        0.429249      0.000545192     0.000783064
                    -0.000328105     1.25303e-05        -0.261277       -0.259654      0.000510363     0.000680376        -0.850424        0.366507
                       -0.783364        0.429326      0.000535116     0.000715143       -0.0439681       -0.438385     -0.000734369    -0.000171347
                     0.000461634     0.000749805        -0.850362        0.366489     -0.000559269    -0.000100047       -0.0128385       -0.367292
281702.1               -0.348831       -0.270707     -0.000303484     2.80582e-05        -0.783369        0.429272      0.000545107     0.000782966
                    -0.000328063     1.25626e-05        -0.261285       -0.259654       0.00051038     0.000680354        -0.850411        0.366531
                        -0.78335        0.429348      0.000535136     0.000715118        -0.043986       -0.438388     -0.000734161    -0.000171347
                     0.000461569     0.000749728        -0.850349        0.366513     -0.000559312    -9.98809e-05       -0.0128542       -0.367297
281702.2               -0.348839       -0.270704     -0.000303481     2.80601e-05        -0.783355        0.429294      0.000545021     0.000782869
                    -0.000328021      1.2595e-05        -0.261293       -0.259653      0.000510397     0.000680331        -0.850399        0.366556
                       -0.783335         0.42937      0.000535156     0.000715093        -0.044004       -0.438392     -0.000733952    -0.000171348
                     0.000461504     0.000749651        -0.850337        0.366537     -0.000559356    -9.97142e-05       -0.0128698       -0.367302
281702.3               -0.348848       -0.270701     -0.000303478     2.80621e-05         -0.78334        0.429317      0.000544936     0.000782772
                    -0.000327979     1.26273e-05        -0.261301       -0.259652      0.000510414     0.000680309        -0.850386         0.36658
                        -0.78332        0.429391      0.000535176     0.000715069       -0.0440219       -0.438395     -0.000733744    -0.000171349
                     0.000461439     0.000749574        -0.850324        0.366561       -0.0005594     -9.9547e-05       -0.0128855       -0.367307
281702.4               -0.348856       -0.270698     -0.000303476      2.8064e-05        -0.783325         0.42934      0.000544851     0.000782674
                    -0.000327938     1.26596e-05        -0.261309       -0.259652       0.00051043     0.000680286        -0.850374        0.366604
                       -0.783306        0.429413      0.000535195     0.000715044       -0.0440399       -0.438398     -0.000733536    -0.000171349
                     0.000461374     0.000749497        -0.850311        0.366585     -0.000559445    -9.93793e-05       -0.0129011       -0.367312
281702.5               -0.348865       -0.270695     -0.000303473     2.80659e-05         -0.78331        0.429363      0.000544765     0.000782577
                    -0.000327896      1.2692e-05        -0.261317       -0.259651      0.000510447     0.000680264        -0.850362        0.366628
                       -0.783291        0.429435      0.000535215     0.000715019       -0.0440578       -0.438402     -0.000733327    -0.000171349
                     0.000461309      0.00074942        -0.850299        0.366609     -0.000559489    -9.92112e-05       -0.0129168       -0.367317
281702.6               -0.348873       -0.270692      -0.00030347     2.80679e-05        -0.783295        0.429385       0.00054468      0.00078248
                    -0.000327854     1.27243e-05        -0.261325       -0.259651      0.000510464     0.000680241        -0.850349        0.366652
                       -0.783276        0.429457      0.000535235     0.000714995       -0.0440758       -0.438405     -0.000733119     -0.00017135
                     0.000461244     0.000749343        -0.850286        0.366633     -0.000559534    -9.90426e-05       -0.0129324       -0.367322
281702.7               -0.348882       -0.270689     -0.000303467     2.80698e-05         -0.78328        0.429408      0.000544594     0.000782382
                    -0.000327812     1.27566e-05        -0.261333        -0.25965      0.000510481     0.000680218        -0.850337        0.366676
                       -0.783261        0.429478      0.000535255      0.00071497       -0.0440937       -0.438408     -0.000732911     -0.00017135
                      0.00046118     0.000749266        -0.850273        0.366657      -0.00055958    -9.88734e-05        -0.012948       -0.367327
281702.8                -0.34889       -0.270686     -0.000303465     2.80718e-05        -0.783265        0.429431      0.000544509     0.000782285
                     -0.00032777     1.27889e-05        -0.261341        -0.25965      0.000510498     0.000680196        -0.850324        0.366701
                       -0.783247          0.4295      0.000535274     0.000714945       -0.0441117       -0.438412     -0.000732702     -0.00017135
                     0.000461115     0.000749189        -0.850261        0.366681     -0.000559626    -9.87039e-05       -0.0129637       -0.367331
281702.9               -0.348899       -0.270683     -0.000303462     2.80737e-05         -0.78325        0.429454      0.000544423     0.000782188
                    -0.000327728     1.28212e-05         -0.26135       -0.259649      0.000510514     0.000680173        -0.850312        0.366725
                       -0.783232        0.429522      0.000535294     0.000714921       -0.0441296       -0.438415     -0.000732494     -0.00017135
                      0.00046105     0.000749112        -0.850248        0.366705     -0.000559672    -9.85338e-05       -0.0129793       -0.367336
281703                 -0.348907        -0.27068     -0.000303459     2.80757e-05        -0.783235        0.429476      0.000544338      0.00078209
                    -0.000327686     1.28536e-05        -0.261358       -0.259649      0.000510531      0.00068015        -0.850299        0.366749
                       -0.783217        0.429544      0.000535314     0.000714896       -0.0441476       -0.438418     -0.000732285     -0.00017135
                     0.000460986     0.000749034        -0.850235        0.366729     -0.000559718    -9.83632e-05        -0.012995       -0.367341
281703.1               -0.348916       -0.270677     -0.000303456     2.80777e-05         -0.78322        0.429499      0.000544252     0.000781993
                    -0.000327645     1.28859e-05        -0.261366       -0.259648      0.000510548     0.000680127        -0.850287        0.366773
                       -0.783203        0.429565      0.000535333     0.000714871       -0.0441655       -0.438422     -0.000732077     -0.00017135
