! TOUCHSTONE file generated by CST MICROWAVE STUDIO
! Date and time: Wed Oct  8 06:59:05 2025
! Project name: Teste_Macro_Metasurface_Nanopilar.cst
! Parameters = {H=600; L_x=140; L_y=110; Lambda=1064; Max_L=200; Min_L=70; PathPara=1; Phi=0; Step_L=10; Theta=0; p=520; phaseX=180; phaseY=0}
! Header version: 2018
! Port assignment regex: !\s*Touchstone port\s*([0-9]+)\s*=\s*(CST MWS port|CST DS port)\s*([0-9]+|Zmin|Zmax)\s*\(\"(.*)\"\)(\s*mode\s*([0-9]+))?.*
! Touchstone port assignment:
! Touchstone port 1 = CST MWS port Zmax ("") mode 1
! Touchstone port 2 = CST MWS port Zmax ("") mode 2
! Touchstone port 3 = CST MWS port Zmin ("") mode 1
! Touchstone port 4 = CST MWS port Zmin ("") mode 2
! S-Parameters are not renormalized. Each port impedance will be approximated by the real part at minimum frequency. The values are described via the [Reference] keyword.
! Default impedance is overridden by [Reference]
[Version] 2.0
# GHz S RI R 376.73
[Number of Ports] 4
[Reference]
376.73 376.73 376.73 376.73 
[Number of Frequencies] 1001
[Network Data]
281700                0.00739164       0.0711214     -7.40364e-05     0.000335662         0.970217        0.185678      0.000238193    -0.000836411
                    -0.000222285     0.000318922        -0.218658      -0.0840832     -0.000926256    -4.76226e-05         -0.04976       -0.964442
                        0.970334        0.185658     -0.000837077     -2.9944e-05       -0.0382372       0.0636622      0.000517636     0.000113839
                     0.000128265     -0.00101415       -0.0498892       -0.964804      0.000451888     0.000172966        -0.209489        0.106502
281700.1              0.00739602       0.0711148     -7.40259e-05     0.000335673         0.970224        0.185644       0.00023817    -0.000836407
                    -0.000222262     0.000318939        -0.218659      -0.0840747     -0.000926263    -4.75929e-05         -0.04979       -0.964441
                        0.970341        0.185624     -0.000837073    -2.99103e-05       -0.0382344       0.0636569      0.000517654     0.000113806
                     0.000128237     -0.00101417       -0.0499191       -0.964802      0.000451889     0.000172953        -0.209484        0.106507
281700.2               0.0074004       0.0711083     -7.40155e-05     0.000335685         0.970231         0.18561      0.000238148    -0.000836403
                    -0.000222239     0.000318955         -0.21866      -0.0840663     -0.000926271    -4.75632e-05       -0.0498199        -0.96444
                        0.970348         0.18559     -0.000837069    -2.98767e-05       -0.0382315       0.0636517      0.000517672     0.000113774
                     0.000128209     -0.00101418        -0.049949       -0.964801      0.000451889     0.000172939        -0.209479        0.106512
281700.3              0.00740477       0.0711017      -7.4005e-05     0.000335697         0.970238        0.185576      0.000238126      -0.0008364
                    -0.000222215     0.000318972        -0.218661      -0.0840579     -0.000926279    -4.75335e-05       -0.0498498       -0.964439
                        0.970355        0.185555     -0.000837064    -2.98431e-05       -0.0382287       0.0636464       0.00051769     0.000113741
                     0.000128181      -0.0010142        -0.049979         -0.9648       0.00045189     0.000172926        -0.209475        0.106516
281700.4              0.00740915       0.0710951     -7.39946e-05     0.000335709         0.970245        0.185541      0.000238103    -0.000836396
                    -0.000222192     0.000318988        -0.218662      -0.0840494     -0.000926286    -4.75038e-05       -0.0498797       -0.964438
                        0.970362        0.185521      -0.00083706    -2.98094e-05       -0.0382258       0.0636412      0.000517707     0.000113709
                     0.000128153     -0.00101421       -0.0500089       -0.964799      0.000451891     0.000172912         -0.20947        0.106521
281700.5              0.00741353       0.0710885     -7.39841e-05     0.000335721         0.970252        0.185507      0.000238081    -0.000836393
                    -0.000222168     0.000319004        -0.218663       -0.084041     -0.000926294     -4.7474e-05       -0.0499096       -0.964437
                        0.970369        0.185487     -0.000837056    -2.97758e-05        -0.038223       0.0636359      0.000517725     0.000113676
                     0.000128126     -0.00101422       -0.0500388       -0.964798      0.000451891     0.000172899        -0.209465        0.106525
281700.6              0.00741791       0.0710819     -7.39737e-05     0.000335732         0.970259        0.185473      0.000238058    -0.000836389
                    -0.000222145     0.000319021        -0.218664      -0.0840326     -0.000926302    -4.74443e-05       -0.0499395       -0.964436
                        0.970376        0.185453     -0.000837052    -2.97421e-05       -0.0382202       0.0636307      0.000517743     0.000113644
                     0.000128098     -0.00101424       -0.0500688       -0.964797      0.000451892     0.000172886         -0.20946         0.10653
281700.7              0.00742229       0.0710753     -7.39632e-05     0.000335744         0.970266        0.185439      0.000238036    -0.000836386
                    -0.000222122     0.000319037        -0.218665      -0.0840241     -0.000926309    -4.74146e-05       -0.0499695       -0.964435
                        0.970383        0.185418     -0.000837048    -2.97085e-05       -0.0382173       0.0636254      0.000517761     0.000113611
                      0.00012807     -0.00101425       -0.0500987       -0.964796      0.000451892     0.000172872        -0.209456        0.106535
281700.8              0.00742666       0.0710687     -7.39528e-05     0.000335756         0.970273        0.185405      0.000238013    -0.000836382
                    -0.000222098     0.000319054        -0.218666      -0.0840157     -0.000926317    -4.73849e-05       -0.0499994       -0.964434
                         0.97039        0.185384     -0.000837044    -2.96748e-05       -0.0382145       0.0636202      0.000517779     0.000113579
                     0.000128042     -0.00101426       -0.0501286       -0.964795      0.000451893     0.000172859        -0.209451        0.106539
281700.9              0.00743104       0.0710621     -7.39423e-05     0.000335768          0.97028         0.18537      0.000237991    -0.000836379
                    -0.000222075      0.00031907        -0.218667      -0.0840072     -0.000926325    -4.73551e-05       -0.0500293       -0.964433
                        0.970397         0.18535      -0.00083704    -2.96412e-05       -0.0382116       0.0636149      0.000517797     0.000113546
                     0.000128014     -0.00101428       -0.0501586       -0.964794      0.000451893     0.000172846        -0.209446        0.106544
281701                0.00743542       0.0710555     -7.39319e-05     0.000335779         0.970287        0.185336      0.000237968    -0.000836375
                    -0.000222051     0.000319087        -0.218668      -0.0839988     -0.000926332    -4.73254e-05       -0.0500592       -0.964432
                        0.970404        0.185316     -0.000837036    -2.96076e-05       -0.0382088       0.0636097      0.000517814     0.000113514
                     0.000127987     -0.00101429       -0.0501885       -0.964793      0.000451894     0.000172832        -0.209442        0.106548
281701.1              0.00743979       0.0710489     -7.39214e-05     0.000335791         0.970294        0.185302      0.000237946    -0.000836371
                    -0.000222027     0.000319103        -0.218669      -0.0839904      -0.00092634    -4.72957e-05       -0.0500891        -0.96443
                        0.970411        0.185281     -0.000837032    -2.95739e-05        -0.038206       0.0636044      0.000517832     0.000113481
                     0.000127959      -0.0010143       -0.0502184       -0.964792      0.000451894     0.000172819        -0.209437        0.106553
281701.2              0.00744417       0.0710423     -7.39109e-05     0.000335803         0.970301        0.185268      0.000237923    -0.000836368
                    -0.000222004     0.000319119        -0.218671      -0.0839819     -0.000926348     -4.7266e-05        -0.050119       -0.964429
                        0.970418        0.185247     -0.000837028    -2.95403e-05       -0.0382031       0.0635992       0.00051785     0.000113449
                     0.000127931     -0.00101432       -0.0502484       -0.964791      0.000451895     0.000172806        -0.209432        0.106558
281701.3              0.00744854       0.0710357     -7.39005e-05     0.000335815         0.970308        0.185234      0.000237901    -0.000836364
                     -0.00022198     0.000319136        -0.218672      -0.0839735     -0.000926355    -4.72362e-05       -0.0501489       -0.964428
                        0.970425        0.185213     -0.000837024    -2.95066e-05       -0.0382003       0.0635939      0.000517868     0.000113416
                     0.000127904     -0.00101433       -0.0502783        -0.96479      0.000451896     0.000172792        -0.209427        0.106562
281701.4              0.00745292       0.0710291       -7.389e-05     0.000335827         0.970315        0.185199      0.000237879    -0.000836361
                    -0.000221957     0.000319152        -0.218673       -0.083965     -0.000926363    -4.72065e-05       -0.0501789       -0.964427
                        0.970432        0.185179     -0.000837019     -2.9473e-05       -0.0381974       0.0635887      0.000517886     0.000113384
                     0.000127876     -0.00101434       -0.0503082       -0.964789      0.000451896     0.000172779        -0.209423        0.106567
281701.5              0.00745729       0.0710225     -7.38796e-05     0.000335838         0.970322        0.185165      0.000237856    -0.000836357
                    -0.000221933     0.000319168        -0.218674      -0.0839566     -0.000926371    -4.71768e-05       -0.0502088       -0.964426
                        0.970439        0.185144     -0.000837015    -2.94393e-05       -0.0381946       0.0635834      0.000517904     0.000113351
                     0.000127848     -0.00101436       -0.0503382       -0.964788      0.000451897     0.000172766        -0.209418        0.106572
281701.6              0.00746166       0.0710159     -7.38691e-05      0.00033585         0.970329        0.185131      0.000237834    -0.000836354
                    -0.000221909     0.000319185        -0.218675      -0.0839482     -0.000926378    -4.71471e-05       -0.0502387       -0.964425
                        0.970446         0.18511     -0.000837011    -2.94056e-05       -0.0381918       0.0635782      0.000517921     0.000113319
                      0.00012782     -0.00101437       -0.0503681       -0.964787      0.000451897     0.000172752        -0.209413        0.106576
281701.7              0.00746604       0.0710093     -7.38587e-05     0.000335862         0.970336        0.185097      0.000237811     -0.00083635
                    -0.000221886     0.000319201        -0.218676      -0.0839397     -0.000926386    -4.71173e-05       -0.0502686       -0.964424
                        0.970453        0.185076     -0.000837007     -2.9372e-05       -0.0381889       0.0635729      0.000517939     0.000113286
                     0.000127793     -0.00101439        -0.050398       -0.964786      0.000451898     0.000172739        -0.209409        0.106581
281701.8              0.00747041       0.0710027     -7.38482e-05     0.000335874         0.970343        0.185062      0.000237789    -0.000836347
                    -0.000221862     0.000319218        -0.218677      -0.0839313     -0.000926394    -4.70876e-05       -0.0502985       -0.964423
                         0.97046        0.185042     -0.000837003    -2.93383e-05       -0.0381861       0.0635677      0.000517957     0.000113254
                     0.000127765      -0.0010144        -0.050428       -0.964785      0.000451898     0.000172726        -0.209404        0.106585
281701.9              0.00747478       0.0709961     -7.38377e-05     0.000335885          0.97035        0.185028      0.000237766    -0.000836343
                    -0.000221838     0.000319234        -0.218678      -0.0839229     -0.000926401    -4.70579e-05       -0.0503284       -0.964422
                        0.970466        0.185007     -0.000836999    -2.93047e-05       -0.0381833       0.0635624      0.000517975     0.000113221
                     0.000127737     -0.00101441       -0.0504579       -0.964784      0.000451899     0.000172712        -0.209399         0.10659
281702                0.00747915       0.0709895     -7.38273e-05     0.000335897         0.970357        0.184994      0.000237744     -0.00083634
                    -0.000221814      0.00031925        -0.218679      -0.0839144     -0.000926409    -4.70281e-05       -0.0503584       -0.964421
                        0.970473        0.184973     -0.000836995     -2.9271e-05       -0.0381804       0.0635571      0.000517993     0.000113188
                      0.00012771     -0.00101443       -0.0504878       -0.964783      0.000451899     0.000172699        -0.209395        0.106595
281702.1              0.00748352       0.0709829     -7.38168e-05     0.000335909         0.970364         0.18496      0.000237721    -0.000836336
                    -0.000221791     0.000319267         -0.21868       -0.083906     -0.000926416    -4.69984e-05       -0.0503883        -0.96442
                         0.97048        0.184939     -0.000836991    -2.92374e-05       -0.0381776       0.0635519      0.000518011     0.000113156
                     0.000127682     -0.00101444       -0.0505178       -0.964781        0.0004519     0.000172686         -0.20939        0.106599
281702.2              0.00748789       0.0709763     -7.38063e-05     0.000335921         0.970371        0.184926      0.000237699    -0.000836332
                    -0.000221767     0.000319283        -0.218681      -0.0838975     -0.000926424    -4.69686e-05       -0.0504182       -0.964419
                        0.970487        0.184905     -0.000836987    -2.92037e-05       -0.0381748       0.0635466      0.000518028     0.000113123
                     0.000127654     -0.00101445       -0.0505477        -0.96478      0.000451901     0.000172672        -0.209385        0.106604
281702.3              0.00749226       0.0709697     -7.37959e-05     0.000335932         0.970377        0.184891      0.000237676    -0.000836329
                    -0.000221743     0.000319299        -0.218682      -0.0838891     -0.000926432    -4.69389e-05       -0.0504481       -0.964418
                        0.970494         0.18487     -0.000836983      -2.917e-05       -0.0381719       0.0635414      0.000518046     0.000113091
                     0.000127627     -0.00101447       -0.0505776       -0.964779      0.000451901     0.000172659         -0.20938        0.106608
281702.4              0.00749663       0.0709631     -7.37854e-05     0.000335944         0.970384        0.184857      0.000237654    -0.000836325
                    -0.000221719     0.000319316        -0.218683      -0.0838807     -0.000926439    -4.69092e-05        -0.050478       -0.964416
                        0.970501        0.184836     -0.000836979    -2.91364e-05       -0.0381691       0.0635361      0.000518064     0.000113058
                     0.000127599     -0.00101448       -0.0506076       -0.964778      0.000451902     0.000172646        -0.209376        0.106613
281702.5                0.007501       0.0709565      -7.3775e-05     0.000335956         0.970391        0.184823      0.000237631    -0.000836322
                    -0.000221695     0.000319332        -0.218684      -0.0838722     -0.000926447    -4.68794e-05       -0.0505079       -0.964415
                        0.970508        0.184802     -0.000836974    -2.91027e-05       -0.0381662       0.0635309      0.000518082     0.000113026
                     0.000127572     -0.00101449       -0.0506375       -0.964777      0.000451902     0.000172633        -0.209371        0.106618
281702.6              0.00750537       0.0709499     -7.37645e-05     0.000335968         0.970398        0.184789      0.000237609    -0.000836318
                    -0.000221672     0.000319348        -0.218685      -0.0838638     -0.000926454    -4.68497e-05       -0.0505379       -0.964414
                        0.970515        0.184768      -0.00083697     -2.9069e-05       -0.0381634       0.0635256        0.0005181     0.000112993
                     0.000127544     -0.00101451       -0.0506674       -0.964776      0.000451903     0.000172619        -0.209366        0.106622
281702.7              0.00750974       0.0709433      -7.3754e-05     0.000335979         0.970405        0.184755      0.000237586    -0.000836315
                    -0.000221648     0.000319365        -0.218686      -0.0838553     -0.000926462      -4.682e-05       -0.0505678       -0.964413
                        0.970522        0.184733     -0.000836966    -2.90354e-05       -0.0381606       0.0635204      0.000518118     0.000112961
                     0.000127516     -0.00101452       -0.0506973       -0.964775      0.000451903     0.000172606        -0.209362        0.106627
281702.8               0.0075141       0.0709367     -7.37436e-05     0.000335991         0.970412         0.18472      0.000237564    -0.000836311
                    -0.000221624     0.000319381        -0.218687      -0.0838469      -0.00092647    -4.67902e-05       -0.0505977       -0.964412
                        0.970529        0.184699     -0.000836962    -2.90017e-05       -0.0381578       0.0635151      0.000518136     0.000112928
                     0.000127489     -0.00101453       -0.0507273       -0.964774      0.000451904     0.000172593        -0.209357        0.106631
281702.9              0.00751847       0.0709301     -7.37331e-05     0.000336003         0.970419        0.184686      0.000237541    -0.000836308
                      -0.0002216     0.000319397        -0.218688      -0.0838385     -0.000926477    -4.67605e-05       -0.0506276       -0.964411
                        0.970536        0.184665     -0.000836958     -2.8968e-05       -0.0381549       0.0635099      0.000518153     0.000112895
                     0.000127461     -0.00101455       -0.0507572       -0.964773      0.000451904     0.000172579        -0.209352        0.106636
281703                0.00752284       0.0709235     -7.37226e-05     0.000336015         0.970426        0.184652      0.000237519    -0.000836304
                    -0.000221576     0.000319413        -0.218689        -0.08383     -0.000926485    -4.67307e-05       -0.0506575        -0.96441
                        0.970543        0.184631     -0.000836954    -2.89344e-05       -0.0381521       0.0635046      0.000518171     0.000112863
                     0.000127434     -0.00101456       -0.0507871       -0.964772      0.000451905     0.000172566        -0.209347        0.106641
281703.1               0.0075272       0.0709169     -7.37122e-05     0.000336026         0.970433        0.184618      0.000237496    -0.000836301
                    -0.000221552      0.00031943         -0.21869      -0.0838216     -0.000926492     -4.6701e-05       -0.0506874       -0.964409
                         0.97055        0.184596      -0.00083695    -2.89007e-05       -0.0381493       0.0634993      0.000518189      0.00011283
