! TOUCHSTONE file generated by CST MICROWAVE STUDIO
! Date and time: Wed Oct  8 06:59:03 2025
! Project name: Teste_Macro_Metasurface_Nanopilar.cst
! Parameters = {H=600; L_x=140; L_y=100; Lambda=1064; Max_L=200; Min_L=70; PathPara=1; Phi=0; Step_L=10; Theta=0; p=520; phaseX=180; phaseY=0}
! Header version: 2018
! Port assignment regex: !\s*Touchstone port\s*([0-9]+)\s*=\s*(CST MWS port|CST DS port)\s*([0-9]+|Zmin|Zmax)\s*\(\"(.*)\"\)(\s*mode\s*([0-9]+))?.*
! Touchstone port assignment:
! Touchstone port 1 = CST MWS port Zmax ("") mode 1
! Touchstone port 2 = CST MWS port Zmax ("") mode 2
! Touchstone port 3 = CST MWS port Zmin ("") mode 1
! Touchstone port 4 = CST MWS port Zmin ("") mode 2
! S-Parameters are not renormalized. Each port impedance will be approximated by the real part at minimum frequency. The values are described via the [Reference] keyword.
! Default impedance is overridden by [Reference]
[Version] 2.0
# GHz S RI R 376.73
[Number of Ports] 4
[Reference]
376.73 376.73 376.73 376.73 
[Number of Frequencies] 1001
[Network Data]
281700                 -0.227662      -0.0641028      0.000435907    -6.94277e-05          0.11739        0.959075     -3.71282e-05    -0.000436434
                      0.00030968    -0.000147686        -0.136404       -0.168767     -0.000265807    -0.000303204         0.308007       -0.918214
                        0.117605        0.958814      0.000109979    -0.000266112        -0.205831        0.117183     -0.000164255      7.8133e-05
                     3.08683e-05    -0.000355454         0.307961       -0.918097     -0.000426482    -0.000123371        -0.211937       0.0542954
281700.1               -0.227662      -0.0640943      0.000435894    -6.94277e-05         0.117419        0.959072     -3.71451e-05    -0.000436429
                     0.000309668    -0.000147676         -0.13641       -0.168761     -0.000265817    -0.000303179         0.307978       -0.918224
                        0.117634         0.95881      0.000109977    -0.000266127        -0.205826        0.117188     -0.000164248     7.81288e-05
                     3.08571e-05    -0.000355448         0.307931       -0.918107      -0.00042649    -0.000123339        -0.211936       0.0543001
281700.2               -0.227662      -0.0640859      0.000435881    -6.94276e-05         0.117449        0.959069     -3.71619e-05    -0.000436424
                     0.000309657    -0.000147665        -0.136417       -0.168755     -0.000265827    -0.000303153         0.307948       -0.918234
                        0.117663        0.958807      0.000109976    -0.000266142        -0.205821        0.117192     -0.000164241     7.81245e-05
                     3.08458e-05    -0.000355442         0.307901       -0.918117     -0.000426498    -0.000123308        -0.211934       0.0543047
281700.3               -0.227662      -0.0640775      0.000435867    -6.94276e-05         0.117478        0.959066     -3.71787e-05    -0.000436419
                     0.000309645    -0.000147655        -0.136424       -0.168749     -0.000265836    -0.000303128         0.307918       -0.918244
                        0.117693        0.958804      0.000109974    -0.000266157        -0.205816        0.117196     -0.000164234     7.81202e-05
                     3.08345e-05    -0.000355436         0.307872       -0.918127     -0.000426506    -0.000123276        -0.211933       0.0543094
281700.4               -0.227663       -0.064069      0.000435854    -6.94275e-05         0.117507        0.959063     -3.71956e-05    -0.000436414
                     0.000309634    -0.000147645        -0.136431       -0.168743     -0.000265846    -0.000303103         0.307889       -0.918254
                        0.117722        0.958801      0.000109972    -0.000266171        -0.205811        0.117201     -0.000164228     7.81159e-05
                     3.08232e-05     -0.00035543         0.307842       -0.918137     -0.000426513    -0.000123244        -0.211931       0.0543141
281700.5               -0.227663      -0.0640606      0.000435841    -6.94275e-05         0.117536         0.95906     -3.72124e-05    -0.000436409
                     0.000309622    -0.000147634        -0.136438       -0.168737     -0.000265856    -0.000303078         0.307859       -0.918264
                        0.117751        0.958798      0.000109971    -0.000266186        -0.205806        0.117205     -0.000164221     7.81116e-05
                     3.08119e-05    -0.000355424         0.307813       -0.918147     -0.000426521    -0.000123212         -0.21193       0.0543187
281700.6               -0.227663      -0.0640522      0.000435827    -6.94274e-05         0.117566        0.959057     -3.72292e-05    -0.000436404
                     0.000309611    -0.000147624        -0.136445       -0.168731     -0.000265866    -0.000303053          0.30783       -0.918274
                        0.117781        0.958795      0.000109969    -0.000266201        -0.205801        0.117209     -0.000164214     7.81072e-05
                     3.08006e-05    -0.000355418         0.307783       -0.918157     -0.000426529     -0.00012318        -0.211928       0.0543234
281700.7               -0.227663      -0.0640437      0.000435814    -6.94273e-05         0.117595        0.959054      -3.7246e-05    -0.000436399
                     0.000309599    -0.000147613        -0.136452       -0.168725     -0.000265876    -0.000303027           0.3078       -0.918284
                         0.11781        0.958792      0.000109968    -0.000266216        -0.205796        0.117214     -0.000164208     7.81029e-05
                     3.07892e-05    -0.000355411         0.307753       -0.918167     -0.000426536    -0.000123149        -0.211927       0.0543281
281700.8               -0.227663      -0.0640353        0.0004358    -6.94273e-05         0.117624        0.959051     -3.72628e-05    -0.000436394
                     0.000309588    -0.000147603        -0.136459       -0.168719     -0.000265885    -0.000303002          0.30777       -0.918294
                        0.117839        0.958789      0.000109966    -0.000266231        -0.205791        0.117218     -0.000164201     7.80986e-05
                     3.07779e-05    -0.000355405         0.307724       -0.918177     -0.000426544    -0.000123117        -0.211925       0.0543327
281700.9               -0.227663      -0.0640269      0.000435787    -6.94272e-05         0.117654        0.959047     -3.72796e-05    -0.000436389
                     0.000309576    -0.000147593        -0.136466       -0.168713     -0.000265895    -0.000302977         0.307741       -0.918304
                        0.117868        0.958786      0.000109964    -0.000266246        -0.205786        0.117222     -0.000164194     7.80942e-05
                     3.07665e-05    -0.000355399         0.307694       -0.918187     -0.000426552    -0.000123085        -0.211924       0.0543374
281701                 -0.227663      -0.0640184      0.000435774    -6.94271e-05         0.117683        0.959044     -3.72964e-05    -0.000436383
                     0.000309564    -0.000147582        -0.136472       -0.168707     -0.000265905    -0.000302952         0.307711       -0.918314
                        0.117898        0.958783      0.000109963     -0.00026626        -0.205781        0.117227     -0.000164188     7.80899e-05
                     3.07552e-05    -0.000355393         0.307665       -0.918197     -0.000426559    -0.000123053        -0.211922       0.0543421
281701.1               -0.227663        -0.06401       0.00043576     -6.9427e-05         0.117712        0.959041     -3.73132e-05    -0.000436378
                     0.000309552    -0.000147572        -0.136479       -0.168702     -0.000265915    -0.000302926         0.307682       -0.918324
                        0.117927         0.95878      0.000109961    -0.000266275        -0.205776        0.117231     -0.000164181     7.80855e-05
                     3.07438e-05    -0.000355387         0.307635       -0.918207     -0.000426567    -0.000123022         -0.21192       0.0543468
281701.2               -0.227663      -0.0640016      0.000435747    -6.94269e-05         0.117741        0.959038     -3.73299e-05    -0.000436373
                     0.000309541    -0.000147562        -0.136486       -0.168696     -0.000265925    -0.000302901         0.307652       -0.918334
                        0.117956        0.958777      0.000109959     -0.00026629        -0.205771        0.117235     -0.000164174     7.80812e-05
                     3.07324e-05    -0.000355381         0.307605       -0.918217     -0.000426574     -0.00012299        -0.211919       0.0543514
281701.3               -0.227664      -0.0639932      0.000435734    -6.94268e-05         0.117771        0.959035     -3.73467e-05    -0.000436368
                     0.000309529    -0.000147551        -0.136493        -0.16869     -0.000265934    -0.000302876         0.307622       -0.918344
                        0.117986        0.958774      0.000109958    -0.000266305        -0.205766         0.11724     -0.000164168     7.80768e-05
                      3.0721e-05    -0.000355375         0.307576       -0.918227     -0.000426582    -0.000122958        -0.211917       0.0543561
281701.4               -0.227664      -0.0639847       0.00043572    -6.94267e-05           0.1178        0.959032     -3.73635e-05    -0.000436363
                     0.000309517    -0.000147541          -0.1365       -0.168684     -0.000265944    -0.000302851         0.307593       -0.918354
                        0.118015         0.95877      0.000109956     -0.00026632        -0.205761        0.117244     -0.000164161     7.80724e-05
                     3.07095e-05    -0.000355369         0.307546       -0.918237      -0.00042659    -0.000122926        -0.211916       0.0543608
281701.5               -0.227664      -0.0639763      0.000435707    -6.94265e-05         0.117829        0.959029     -3.73802e-05    -0.000436358
                     0.000309505     -0.00014753        -0.136507       -0.168678     -0.000265954    -0.000302826         0.307563       -0.918364
                        0.118044        0.958767      0.000109955    -0.000266335        -0.205756        0.117248     -0.000164154     7.80681e-05
                     3.06981e-05    -0.000355362         0.307517       -0.918247     -0.000426597    -0.000122895        -0.211914       0.0543654
281701.6               -0.227664      -0.0639679      0.000435694    -6.94264e-05         0.117858        0.959026      -3.7397e-05    -0.000436353
                     0.000309493     -0.00014752        -0.136514       -0.168672     -0.000265964      -0.0003028         0.307533       -0.918374
                        0.118073        0.958764      0.000109953    -0.000266349        -0.205751        0.117252     -0.000164148     7.80637e-05
                     3.06866e-05    -0.000355356         0.307487       -0.918257     -0.000426605    -0.000122863        -0.211913       0.0543701
281701.7               -0.227664      -0.0639594       0.00043568    -6.94263e-05         0.117888        0.959023     -3.74137e-05    -0.000436348
                     0.000309481     -0.00014751        -0.136521       -0.168666     -0.000265973    -0.000302775         0.307504       -0.918384
                        0.118103        0.958761      0.000109951    -0.000266364        -0.205746        0.117257     -0.000164141     7.80593e-05
                     3.06752e-05     -0.00035535         0.307457       -0.918267     -0.000426613    -0.000122831        -0.211911       0.0543748
281701.8               -0.227664       -0.063951      0.000435667    -6.94261e-05         0.117917         0.95902     -3.74304e-05    -0.000436343
                     0.000309469    -0.000147499        -0.136528        -0.16866     -0.000265983     -0.00030275         0.307474       -0.918394
                        0.118132        0.958758       0.00010995    -0.000266379        -0.205741        0.117261     -0.000164135     7.80549e-05
                     3.06637e-05    -0.000355344         0.307428       -0.918277      -0.00042662    -0.000122799         -0.21191       0.0543794
281701.9               -0.227664      -0.0639426      0.000435654     -6.9426e-05         0.117946        0.959016     -3.74472e-05    -0.000436338
                     0.000309457    -0.000147489        -0.136534       -0.168654     -0.000265993    -0.000302725         0.307445       -0.918404
                        0.118161        0.958755      0.000109948    -0.000266394        -0.205736        0.117265     -0.000164128     7.80504e-05
                     3.06522e-05    -0.000355337         0.307398       -0.918287     -0.000426628    -0.000122768        -0.211908       0.0543841
281702                 -0.227664      -0.0639341       0.00043564    -6.94258e-05         0.117976        0.959013     -3.74639e-05    -0.000436333
                     0.000309445    -0.000147479        -0.136541       -0.168648     -0.000266003      -0.0003027         0.307415       -0.918414
                         0.11819        0.958752      0.000109947    -0.000266409        -0.205731         0.11727     -0.000164121      7.8046e-05
                     3.06407e-05    -0.000355331         0.307369       -0.918297     -0.000426635    -0.000122736        -0.211907       0.0543888
281702.1               -0.227664      -0.0639257      0.000435627    -6.94257e-05         0.118005         0.95901     -3.74806e-05    -0.000436328
                     0.000309433    -0.000147468        -0.136548       -0.168642     -0.000266012    -0.000302674         0.307385       -0.918425
                         0.11822        0.958749      0.000109945    -0.000266424        -0.205726        0.117274     -0.000164115     7.80416e-05
                     3.06292e-05    -0.000355325         0.307339       -0.918307     -0.000426643    -0.000122704        -0.211905       0.0543934
281702.2               -0.227665      -0.0639173      0.000435613    -6.94255e-05         0.118034        0.959007     -3.74973e-05    -0.000436323
                     0.000309421    -0.000147458        -0.136555       -0.168636     -0.000266022    -0.000302649         0.307356       -0.918435
                        0.118249        0.958746      0.000109943    -0.000266438        -0.205721        0.117278     -0.000164108     7.80372e-05
                     3.06177e-05    -0.000355318         0.307309       -0.918317     -0.000426651    -0.000122672        -0.211903       0.0543981
281702.3               -0.227665      -0.0639088        0.0004356    -6.94253e-05         0.118063        0.959004      -3.7514e-05    -0.000436318
                     0.000309408    -0.000147448        -0.136562        -0.16863     -0.000266032    -0.000302624         0.307326       -0.918445
                        0.118278        0.958743      0.000109942    -0.000266453        -0.205716        0.117283     -0.000164102     7.80327e-05
                     3.06062e-05    -0.000355312          0.30728       -0.918327     -0.000426658     -0.00012264        -0.211902       0.0544028
281702.4               -0.227665      -0.0639004      0.000435587    -6.94251e-05         0.118093        0.959001     -3.75307e-05    -0.000436312
                     0.000309396    -0.000147437        -0.136569       -0.168624     -0.000266041    -0.000302599         0.307297       -0.918455
                        0.118308         0.95874       0.00010994    -0.000266468        -0.205711        0.117287     -0.000164095     7.80283e-05
                     3.05946e-05    -0.000355306          0.30725       -0.918337     -0.000426666    -0.000122609          -0.2119       0.0544074
281702.5               -0.227665       -0.063892      0.000435573     -6.9425e-05         0.118122        0.958998     -3.75474e-05    -0.000436307
                     0.000309384    -0.000147427        -0.136576       -0.168618     -0.000266051    -0.000302574         0.307267       -0.918465
                        0.118337        0.958736      0.000109939    -0.000266483        -0.205706        0.117291     -0.000164089     7.80238e-05
                     3.05831e-05    -0.000355299         0.307221       -0.918347     -0.000426673    -0.000122577        -0.211899       0.0544121
281702.6               -0.227665      -0.0638835       0.00043556    -6.94248e-05         0.118151        0.958995     -3.75641e-05    -0.000436302
                     0.000309372    -0.000147417        -0.136583       -0.168613     -0.000266061    -0.000302548         0.307237       -0.918475
                        0.118366        0.958733      0.000109937    -0.000266498        -0.205701        0.117296     -0.000164082     7.80194e-05
                     3.05715e-05    -0.000355293         0.307191       -0.918357     -0.000426681    -0.000122545        -0.211897       0.0544168
281702.7               -0.227665      -0.0638751      0.000435546    -6.94246e-05          0.11818        0.958992     -3.75807e-05    -0.000436297
                     0.000309359    -0.000147406         -0.13659       -0.168607     -0.000266071    -0.000302523         0.307208       -0.918485
                        0.118395         0.95873      0.000109935    -0.000266513        -0.205696          0.1173     -0.000164076     7.80149e-05
                     3.05599e-05    -0.000355286         0.307161       -0.918367     -0.000426689    -0.000122513        -0.211896       0.0544214
281702.8               -0.227665      -0.0638667      0.000435533    -6.94244e-05          0.11821        0.958988     -3.75974e-05    -0.000436292
                     0.000309347    -0.000147396        -0.136596       -0.168601      -0.00026608    -0.000302498         0.307178       -0.918495
                        0.118425        0.958727      0.000109934    -0.000266527        -0.205691        0.117304     -0.000164069     7.80104e-05
                     3.05483e-05     -0.00035528         0.307132       -0.918377     -0.000426696    -0.000122482        -0.211894       0.0544261
281702.9               -0.227665      -0.0638583       0.00043552    -6.94242e-05         0.118239        0.958985     -3.76141e-05    -0.000436287
                     0.000309334    -0.000147386        -0.136603       -0.168595      -0.00026609    -0.000302473         0.307148       -0.918505
                        0.118454        0.958724      0.000109932    -0.000266542        -0.205686        0.117309     -0.000164063     7.80059e-05
                     3.05367e-05    -0.000355274         0.307102       -0.918387     -0.000426704     -0.00012245        -0.211893       0.0544308
281703                 -0.227665      -0.0638498      0.000435506    -6.94239e-05         0.118268        0.958982     -3.76307e-05    -0.000436282
                     0.000309322    -0.000147375         -0.13661       -0.168589       -0.0002661    -0.000302448         0.307119       -0.918515
                        0.118483        0.958721      0.000109931    -0.000266557        -0.205681        0.117313     -0.000164056     7.80014e-05
                     3.05251e-05    -0.000355267         0.307073       -0.918397     -0.000426711    -0.000122418        -0.211891       0.0544354
281703.1               -0.227665      -0.0638414      0.000435493    -6.94237e-05         0.118298        0.958979     -3.76474e-05    -0.000436277
                     0.000309309    -0.000147365        -0.136617       -0.168583     -0.000266109    -0.000302422         0.307089       -0.918525
                        0.118512        0.958718      0.000109929    -0.000266572        -0.205676        0.117317      -0.00016405     7.79969e-05
