! TOUCHSTONE file generated by CST MICROWAVE STUDIO
! Date and time: Wed Oct  8 07:05:38 2025
! Project name: Teste_Macro_Metasurface_Nanopilar.cst
! Parameters = {H=600; L_x=195; L_y=105; Lambda=1064; Max_L=200; Min_L=70; PathPara=1; Phi=0; Step_L=10; Theta=0; p=520; phaseX=180; phaseY=0}
! Header version: 2018
! Port assignment regex: !\s*Touchstone port\s*([0-9]+)\s*=\s*(CST MWS port|CST DS port)\s*([0-9]+|Zmin|Zmax)\s*\(\"(.*)\"\)(\s*mode\s*([0-9]+))?.*
! Touchstone port assignment:
! Touchstone port 1 = CST MWS port Zmax ("") mode 1
! Touchstone port 2 = CST MWS port Zmax ("") mode 2
! Touchstone port 3 = CST MWS port Zmin ("") mode 1
! Touchstone port 4 = CST MWS port Zmin ("") mode 2
! S-Parameters are not renormalized. Each port impedance will be approximated by the real part at minimum frequency. The values are described via the [Reference] keyword.
! Default impedance is overridden by [Reference]
[Version] 2.0
# GHz S RI R 376.73
[Number of Ports] 4
[Reference]
376.73 376.73 376.73 376.73 
[Number of Frequencies] 1001
[Network Data]
281700                -0.0680218        -0.15312      0.000933073    -0.000572621         0.817786       -0.535309      0.000657622    -3.01833e-05
                     0.000930569    -0.000596205        -0.229173        0.413837      0.000804666    -0.000173168        -0.595792       -0.636285
                        0.817525       -0.535101      0.000699651    -0.000304478        -0.115918       -0.120797      0.000837398     0.000308049
                     0.000744207     -0.00017146        -0.595721        -0.63599       0.00111835     0.000154003        -0.433504        0.187622
281700.1              -0.0680296       -0.153122       0.00093305    -0.000572662         0.817767       -0.535336      0.000657631    -3.01871e-05
                     0.000930563    -0.000596242        -0.229158        0.413837      0.000804664    -0.000173196        -0.595815       -0.636269
                        0.817506       -0.535128      0.000699636    -0.000304509        -0.115925       -0.120797      0.000837402     0.000308015
                      0.00074421    -0.000171482        -0.595744       -0.635974       0.00111836     0.000153958        -0.433491        0.187635
281700.2              -0.0680373       -0.153124      0.000933026    -0.000572704         0.817748       -0.535363      0.000657641    -3.01908e-05
                     0.000930558    -0.000596279        -0.229143        0.413837      0.000804661    -0.000173223        -0.595838       -0.636252
                        0.817487       -0.535156      0.000699622     -0.00030454        -0.115932       -0.120798      0.000837407     0.000307982
                     0.000744213    -0.000171504        -0.595768       -0.635958       0.00111837     0.000153913        -0.433478        0.187648
281700.3              -0.0680451       -0.153126      0.000933003    -0.000572745         0.817729       -0.535391       0.00065765    -3.01945e-05
                     0.000930552    -0.000596315        -0.229128        0.413838      0.000804658     -0.00017325        -0.595861       -0.636236
                        0.817468       -0.535183      0.000699607    -0.000304571        -0.115939       -0.120798      0.000837411     0.000307948
                     0.000744217    -0.000171526        -0.595791       -0.635941       0.00111839     0.000153869        -0.433464        0.187661
281700.4              -0.0680529       -0.153128      0.000932979    -0.000572787          0.81771       -0.535418      0.000657659    -3.01982e-05
                     0.000930546    -0.000596352        -0.229113        0.413838      0.000804655    -0.000173278        -0.595885       -0.636219
                        0.817449        -0.53521      0.000699593    -0.000304602        -0.115946       -0.120798      0.000837415     0.000307915
                      0.00074422    -0.000171548        -0.595814       -0.635925        0.0011184     0.000153824        -0.433451        0.187674
281700.5              -0.0680607        -0.15313      0.000932956    -0.000572828         0.817691       -0.535445      0.000657668    -3.02019e-05
                      0.00093054    -0.000596389        -0.229098        0.413838      0.000804652    -0.000173305        -0.595908       -0.636203
                         0.81743       -0.535238      0.000699579    -0.000304633        -0.115953       -0.120798      0.000837419     0.000307881
                     0.000744223     -0.00017157        -0.595837       -0.635908       0.00111842     0.000153779        -0.433438        0.187687
281700.6              -0.0680685       -0.153132      0.000932932     -0.00057287         0.817673       -0.535473      0.000657677    -3.02056e-05
                     0.000930534    -0.000596426        -0.229083        0.413838       0.00080465    -0.000173333        -0.595931       -0.636186
                        0.817411       -0.535265      0.000699564    -0.000304664         -0.11596       -0.120798      0.000837424     0.000307848
                     0.000744226    -0.000171592         -0.59586       -0.635892       0.00111843     0.000153734        -0.433425          0.1877
281700.7              -0.0680763       -0.153134      0.000932909    -0.000572911         0.817654         -0.5355      0.000657686    -3.02092e-05
                     0.000930528    -0.000596462        -0.229068        0.413839      0.000804647     -0.00017336        -0.595954        -0.63617
                        0.817393       -0.535292       0.00069955    -0.000304695        -0.115967       -0.120798      0.000837428     0.000307814
                      0.00074423    -0.000171614        -0.595884       -0.635875       0.00111844     0.000153689        -0.433411        0.187713
281700.8               -0.068084       -0.153135      0.000932885    -0.000572952         0.817635       -0.535527      0.000657695    -3.02129e-05
                     0.000930522    -0.000596499        -0.229053        0.413839      0.000804644    -0.000173387        -0.595977       -0.636153
                        0.817374        -0.53532      0.000699535    -0.000304726        -0.115974       -0.120799      0.000837432     0.000307781
                     0.000744233    -0.000171635        -0.595907       -0.635859       0.00111846     0.000153644        -0.433398        0.187726
281700.9              -0.0680918       -0.153137      0.000932862    -0.000572994         0.817616       -0.535555      0.000657704    -3.02166e-05
                     0.000930516    -0.000596536        -0.229038        0.413839      0.000804641    -0.000173415        -0.596001       -0.636137
                        0.817355       -0.535347      0.000699521    -0.000304757         -0.11598       -0.120799      0.000837436     0.000307747
                     0.000744236    -0.000171657         -0.59593       -0.635842       0.00111847     0.000153599        -0.433385        0.187739
281701                -0.0680996       -0.153139      0.000932839    -0.000573035         0.817597       -0.535582      0.000657714    -3.02203e-05
                      0.00093051    -0.000596573        -0.229023        0.413839      0.000804638    -0.000173442        -0.596024       -0.636121
                        0.817336       -0.535374      0.000699506    -0.000304787        -0.115987       -0.120799       0.00083744     0.000307714
                      0.00074424    -0.000171679        -0.595953       -0.635826       0.00111849     0.000153554        -0.433372        0.187752
281701.1              -0.0681074       -0.153141      0.000932815    -0.000573077         0.817578       -0.535609      0.000657723     -3.0224e-05
                     0.000930504    -0.000596609        -0.229008         0.41384      0.000804635     -0.00017347        -0.596047       -0.636104
                        0.817317       -0.535401      0.000699492    -0.000304818        -0.115994       -0.120799      0.000837445      0.00030768
                     0.000744243    -0.000171701        -0.595976        -0.63581        0.0011185     0.000153509        -0.433358        0.187765
281701.2              -0.0681152       -0.153143      0.000932792    -0.000573118         0.817559       -0.535637      0.000657732    -3.02276e-05
                     0.000930498    -0.000596646        -0.228993         0.41384      0.000804632    -0.000173497         -0.59607       -0.636088
                        0.817298       -0.535429      0.000699477    -0.000304849        -0.116001       -0.120799      0.000837449     0.000307647
                     0.000744246    -0.000171723           -0.596       -0.635793       0.00111852     0.000153464        -0.433345        0.187778
281701.3               -0.068123       -0.153145      0.000932768     -0.00057316         0.817541       -0.535664      0.000657741    -3.02313e-05
                     0.000930492    -0.000596683        -0.228978         0.41384       0.00080463    -0.000173524        -0.596094       -0.636071
                        0.817279       -0.535456      0.000699463     -0.00030488        -0.116008         -0.1208      0.000837453     0.000307613
                     0.000744249    -0.000171745        -0.596023       -0.635777       0.00111853     0.000153419        -0.433332        0.187791
281701.4              -0.0681307       -0.153147      0.000932745    -0.000573201         0.817522       -0.535691       0.00065775    -3.02349e-05
                     0.000930487     -0.00059672        -0.228963         0.41384      0.000804627    -0.000173552        -0.596117       -0.636055
                         0.81726       -0.535483      0.000699448    -0.000304911        -0.116015         -0.1208      0.000837457     0.000307579
                     0.000744253    -0.000171767        -0.596046        -0.63576       0.00111854     0.000153375        -0.433319        0.187804
281701.5              -0.0681385       -0.153149      0.000932721    -0.000573243         0.817503       -0.535719      0.000657759    -3.02386e-05
                     0.000930481    -0.000596756        -0.228948        0.413841      0.000804624    -0.000173579         -0.59614       -0.636038
                        0.817242       -0.535511      0.000699434    -0.000304942        -0.116022         -0.1208      0.000837461     0.000307546
                     0.000744256    -0.000171789        -0.596069       -0.635744       0.00111856      0.00015333        -0.433305        0.187817
281701.6              -0.0681463       -0.153151      0.000932698    -0.000573284         0.817484       -0.535746      0.000657768    -3.02422e-05
                     0.000930475    -0.000596793        -0.228933        0.413841      0.000804621    -0.000173607        -0.596163       -0.636022
                        0.817223       -0.535538      0.000699419    -0.000304973        -0.116029         -0.1208      0.000837466     0.000307512
                     0.000744259    -0.000171811        -0.596092       -0.635727       0.00111857     0.000153285        -0.433292         0.18783
281701.7              -0.0681541       -0.153153      0.000932674    -0.000573326         0.817465       -0.535773      0.000657777    -3.02459e-05
                     0.000930469     -0.00059683        -0.228918        0.413841      0.000804618    -0.000173634        -0.596186       -0.636005
                        0.817204       -0.535565      0.000699405    -0.000305004        -0.116036         -0.1208       0.00083747     0.000307479
                     0.000744262    -0.000171833        -0.596116       -0.635711       0.00111859      0.00015324        -0.433279        0.187843
281701.8              -0.0681619       -0.153155       0.00093265    -0.000573367         0.817446       -0.535801      0.000657787    -3.02495e-05
                     0.000930463    -0.000596867        -0.228903        0.413841      0.000804615    -0.000173661         -0.59621       -0.635989
                        0.817185       -0.535593      0.000699391    -0.000305035        -0.116042       -0.120801      0.000837474     0.000307445
                     0.000744266    -0.000171855        -0.596139       -0.635694        0.0011186     0.000153195        -0.433266        0.187856
281701.9              -0.0681697       -0.153156      0.000932627    -0.000573408         0.817428       -0.535828      0.000657796    -3.02532e-05
                     0.000930457    -0.000596904        -0.228888        0.413841      0.000804612    -0.000173689        -0.596233       -0.635973
                        0.817166        -0.53562      0.000699376    -0.000305066        -0.116049       -0.120801      0.000837478     0.000307412
                     0.000744269    -0.000171877        -0.596162       -0.635678       0.00111861      0.00015315        -0.433252        0.187869
281702                -0.0681775       -0.153158      0.000932603     -0.00057345         0.817409       -0.535855      0.000657805    -3.02568e-05
                     0.000930451     -0.00059694        -0.228873        0.413842       0.00080461    -0.000173716        -0.596256       -0.635956
                        0.817147       -0.535647      0.000699362    -0.000305097        -0.116056       -0.120801      0.000837482     0.000307378
                     0.000744272    -0.000171898        -0.596185       -0.635661       0.00111863     0.000153106        -0.433239        0.187882
281702.1              -0.0681852        -0.15316       0.00093258    -0.000573491          0.81739       -0.535883      0.000657814    -3.02604e-05
                     0.000930445    -0.000596977        -0.228857        0.413842      0.000804607    -0.000173744        -0.596279        -0.63594
                        0.817128       -0.535675      0.000699347    -0.000305128        -0.116063       -0.120801      0.000837487     0.000307345
                     0.000744275     -0.00017192        -0.596208       -0.635645       0.00111864     0.000153061        -0.433226        0.187895
281702.2               -0.068193       -0.153162      0.000932556    -0.000573533         0.817371        -0.53591      0.000657823     -3.0264e-05
                     0.000930439    -0.000597014        -0.228842        0.413842      0.000804604    -0.000173771        -0.596303       -0.635923
                        0.817109       -0.535702      0.000699333    -0.000305159         -0.11607       -0.120801      0.000837491     0.000307311
                     0.000744279    -0.000171942        -0.596232       -0.635629       0.00111866     0.000153016        -0.433213        0.187908
281702.3              -0.0682008       -0.153164      0.000932533    -0.000573574         0.817352       -0.535937      0.000657832    -3.02677e-05
                     0.000930433    -0.000597051        -0.228827        0.413842      0.000804601    -0.000173798        -0.596326       -0.635907
                         0.81709       -0.535729      0.000699318     -0.00030519        -0.116077       -0.120801      0.000837495     0.000307278
                     0.000744282    -0.000171964        -0.596255       -0.635612       0.00111867     0.000152971        -0.433199        0.187921
281702.4              -0.0682086       -0.153166      0.000932509    -0.000573616         0.817333       -0.535964      0.000657841    -3.02713e-05
                     0.000930427    -0.000597087        -0.228812        0.413843      0.000804598    -0.000173826        -0.596349        -0.63589
                        0.817072       -0.535756      0.000699304    -0.000305221        -0.116084       -0.120802      0.000837499     0.000307244
                     0.000744285    -0.000171986        -0.596278       -0.635596       0.00111869     0.000152926        -0.433186        0.187934
281702.5              -0.0682164       -0.153168      0.000932486    -0.000573657         0.817314       -0.535992       0.00065785    -3.02749e-05
                     0.000930421    -0.000597124        -0.228797        0.413843      0.000804595    -0.000173853        -0.596372       -0.635874
                        0.817053       -0.535784      0.000699289    -0.000305252        -0.116091       -0.120802      0.000837503     0.000307211
                     0.000744288    -0.000172008        -0.596301       -0.635579        0.0011187     0.000152882        -0.433173        0.187947
281702.6              -0.0682242        -0.15317      0.000932462    -0.000573698         0.817296       -0.536019       0.00065786    -3.02785e-05
                     0.000930415    -0.000597161        -0.228782        0.413843      0.000804592    -0.000173881        -0.596395       -0.635857
                        0.817034       -0.535811      0.000699275    -0.000305283        -0.116098       -0.120802      0.000837507     0.000307177
                     0.000744291     -0.00017203        -0.596324       -0.635563       0.00111871     0.000152837         -0.43316         0.18796
281702.7               -0.068232       -0.153172      0.000932438     -0.00057374         0.817277       -0.536046      0.000657869    -3.02821e-05
                     0.000930409    -0.000597198        -0.228767        0.413843      0.000804589    -0.000173908        -0.596419       -0.635841
                        0.817015       -0.535838       0.00069926    -0.000305314        -0.116104       -0.120802      0.000837512     0.000307144
                     0.000744295    -0.000172052        -0.596348       -0.635546       0.00111873     0.000152792        -0.433146        0.187973
281702.8              -0.0682397       -0.153174      0.000932415    -0.000573781         0.817258       -0.536074      0.000657878    -3.02857e-05
                     0.000930403    -0.000597235        -0.228752        0.413844      0.000804586    -0.000173935        -0.596442       -0.635824
                        0.816996       -0.535866      0.000699246    -0.000305345        -0.116111       -0.120802      0.000837516      0.00030711
                     0.000744298    -0.000172074        -0.596371        -0.63553       0.00111874     0.000152748        -0.433133        0.187986
281702.9              -0.0682475       -0.153176      0.000932391    -0.000573823         0.817239       -0.536101      0.000657887    -3.02893e-05
                     0.000930398    -0.000597271        -0.228737        0.413844      0.000804584    -0.000173963        -0.596465       -0.635808
                        0.816977       -0.535893      0.000699231    -0.000305376        -0.116118       -0.120803       0.00083752     0.000307077
                     0.000744301    -0.000172096        -0.596394       -0.635513       0.00111876     0.000152703         -0.43312        0.187999
281703                -0.0682553       -0.153177      0.000932368    -0.000573864          0.81722       -0.536128      0.000657896    -3.02929e-05
                     0.000930392    -0.000597308        -0.228722        0.413844      0.000804581     -0.00017399        -0.596488       -0.635791
                        0.816958        -0.53592      0.000699217    -0.000305407        -0.116125       -0.120803      0.000837524     0.000307043
                     0.000744304    -0.000172118        -0.596417       -0.635497       0.00111877     0.000152658        -0.433107        0.188012
281703.1              -0.0682631       -0.153179      0.000932344    -0.000573906         0.817201       -0.536156      0.000657905    -3.02964e-05
                     0.000930386    -0.000597345        -0.228707        0.413844      0.000804578    -0.000174018        -0.596511       -0.635775
                        0.816939       -0.535948      0.000699202    -0.000305438        -0.116132       -0.120803      0.000837528     0.000307009
