! TOUCHSTONE file generated by CST MICROWAVE STUDIO
! Date and time: Wed Oct  8 06:58:40 2025
! Project name: Teste_Macro_Metasurface_Nanopilar.cst
! Parameters = {H=600; L_x=135; L_y=150; Lambda=1064; Max_L=200; Min_L=70; PathPara=1; Phi=0; Step_L=10; Theta=0; p=520; phaseX=180; phaseY=0}
! Header version: 2018
! Port assignment regex: !\s*Touchstone port\s*([0-9]+)\s*=\s*(CST MWS port|CST DS port)\s*([0-9]+|Zmin|Zmax)\s*\(\"(.*)\"\)(\s*mode\s*([0-9]+))?.*
! Touchstone port assignment:
! Touchstone port 1 = CST MWS port Zmax ("") mode 1
! Touchstone port 2 = CST MWS port Zmax ("") mode 2
! Touchstone port 3 = CST MWS port Zmin ("") mode 1
! Touchstone port 4 = CST MWS port Zmin ("") mode 2
! S-Parameters are not renormalized. Each port impedance will be approximated by the real part at minimum frequency. The values are described via the [Reference] keyword.
! Default impedance is overridden by [Reference]
[Version] 2.0
# GHz S RI R 376.73
[Number of Ports] 4
[Reference]
376.73 376.73 376.73 376.73 
[Number of Frequencies] 1001
[Network Data]
281700                 -0.107767       -0.256819     -4.96258e-05     -2.6539e-05        -0.887764        -0.33227     -5.78118e-05     6.12305e-05
                     5.25548e-05     2.97338e-05        -0.166384       0.0182895      3.98248e-05     6.98186e-05        -0.568361       -0.800071
                        -0.88771       -0.332664      -2.6096e-05     0.000200248         0.232972       -0.136478      3.11036e-05    -3.96479e-05
                     5.49055e-05      1.4497e-05        -0.567972       -0.799724      5.28531e-05     7.75796e-06       -0.0735285        0.149411
281700.1               -0.107772       -0.256833     -4.96306e-05    -2.65548e-05        -0.887775       -0.332229     -5.78088e-05     6.12373e-05
                      5.2553e-05     2.97004e-05        -0.166378       0.0182926       3.9809e-05     6.98299e-05        -0.568386       -0.800055
                        -0.88772       -0.332623     -2.60878e-05     0.000200263         0.232972       -0.136506      3.11075e-05    -3.96571e-05
                     5.49233e-05     1.44778e-05        -0.567997       -0.799707      5.28459e-05     7.73122e-06       -0.0735205        0.149409
281700.2               -0.107778       -0.256846     -4.96353e-05    -2.65706e-05        -0.887785       -0.332189     -5.78057e-05     6.12441e-05
                     5.25514e-05      2.9667e-05        -0.166373       0.0182958      3.97931e-05     6.98411e-05        -0.568411       -0.800038
                        -0.88773       -0.332582     -2.60797e-05     0.000200278         0.232973       -0.136534      3.11115e-05    -3.96663e-05
                      5.4941e-05     1.44587e-05        -0.568022        -0.79969      5.28388e-05     7.70444e-06       -0.0735124        0.149407
281700.3               -0.107783       -0.256859     -4.96401e-05    -2.65865e-05        -0.887795       -0.332149     -5.78026e-05     6.12508e-05
                     5.25501e-05     2.96338e-05        -0.166367        0.018299      3.97772e-05     6.98523e-05        -0.568435       -0.800022
                       -0.887741       -0.332541     -2.60715e-05     0.000200293         0.232974       -0.136562      3.11153e-05    -3.96755e-05
                     5.49586e-05     1.44395e-05        -0.568047       -0.799673      5.28316e-05     7.67764e-06       -0.0735044        0.149405
281700.4               -0.107788       -0.256872     -4.96447e-05    -2.66024e-05        -0.887805       -0.332109     -5.77994e-05     6.12576e-05
                     5.25491e-05     2.96008e-05        -0.166362       0.0183022      3.97613e-05     6.98635e-05         -0.56846       -0.800005
                       -0.887751       -0.332501     -2.60633e-05     0.000200308         0.232975        -0.13659      3.11192e-05    -3.96846e-05
                      5.4976e-05     1.44204e-05        -0.568072       -0.799657      5.28245e-05      7.6508e-06       -0.0734964        0.149403
281700.5               -0.107793       -0.256886     -4.96494e-05    -2.66183e-05        -0.887815       -0.332068     -5.77962e-05     6.12643e-05
                     5.25483e-05     2.95679e-05        -0.166356       0.0183054      3.97453e-05     6.98747e-05        -0.568485       -0.799988
                       -0.887761        -0.33246     -2.60551e-05     0.000200323         0.232976       -0.136618       3.1123e-05    -3.96938e-05
                     5.49933e-05     1.44014e-05        -0.568097        -0.79964      5.28173e-05     7.62393e-06       -0.0734883        0.149401
281700.6               -0.107798       -0.256899     -4.96541e-05    -2.66343e-05        -0.887825       -0.332028     -5.77929e-05      6.1271e-05
                     5.25479e-05     2.95351e-05         -0.16635       0.0183086      3.97293e-05     6.98858e-05         -0.56851       -0.799972
                       -0.887772       -0.332419     -2.60469e-05     0.000200338         0.232976       -0.136645      3.11267e-05    -3.97029e-05
                     5.50105e-05     1.43823e-05        -0.568122       -0.799623      5.28102e-05     7.59702e-06       -0.0734803        0.149399
281700.7               -0.107803       -0.256912     -4.96587e-05    -2.66503e-05        -0.887835       -0.331988     -5.77896e-05     6.12777e-05
                     5.25478e-05     2.95025e-05        -0.166345       0.0183118      3.97133e-05     6.98969e-05        -0.568535       -0.799955
                       -0.887782       -0.332379     -2.60386e-05     0.000200352         0.232977       -0.136673      3.11305e-05     -3.9712e-05
                     5.50276e-05     1.43633e-05        -0.568147       -0.799606       5.2803e-05     7.57009e-06       -0.0734723        0.149397
281700.8               -0.107808       -0.256925     -4.96633e-05    -2.66663e-05        -0.887845       -0.331948     -5.77863e-05     6.12844e-05
                      5.2548e-05       2.947e-05        -0.166339       0.0183149      3.96972e-05      6.9908e-05        -0.568559       -0.799938
                       -0.887792       -0.332338     -2.60303e-05     0.000200367         0.232978       -0.136701      3.11341e-05    -3.97211e-05
                     5.50446e-05     1.43444e-05        -0.568172        -0.79959      5.27959e-05     7.54312e-06       -0.0734642        0.149395
281700.9               -0.107813       -0.256939     -4.96679e-05    -2.66823e-05        -0.887855       -0.331908     -5.77829e-05      6.1291e-05
                     5.25484e-05     2.94376e-05        -0.166334       0.0183181      3.96811e-05      6.9919e-05        -0.568584       -0.799922
                       -0.887803       -0.332297     -2.60219e-05     0.000200382         0.232979       -0.136729      3.11378e-05    -3.97302e-05
                     5.50614e-05     1.43254e-05        -0.568197       -0.799573      5.27888e-05     7.51611e-06       -0.0734562        0.149393
281701                 -0.107818       -0.256952     -4.96724e-05    -2.66984e-05        -0.887866       -0.331867     -5.77795e-05     6.12977e-05
                     5.25492e-05     2.94054e-05        -0.166328       0.0183213       3.9665e-05       6.993e-05        -0.568609       -0.799905
                       -0.887813       -0.332256     -2.60136e-05     0.000200397         0.232979       -0.136757      3.11414e-05    -3.97393e-05
                     5.50781e-05     1.43066e-05        -0.568223       -0.799556      5.27816e-05     7.48908e-06       -0.0734482        0.149392
281701.1               -0.107824       -0.256965      -4.9677e-05    -2.67145e-05        -0.887876       -0.331827      -5.7776e-05     6.13043e-05
                     5.25502e-05     2.93733e-05        -0.166323       0.0183245      3.96489e-05      6.9941e-05        -0.568634       -0.799888
                       -0.887823       -0.332216     -2.60052e-05     0.000200412          0.23298       -0.136785       3.1145e-05    -3.97484e-05
                     5.50947e-05     1.42877e-05        -0.568248       -0.799539      5.27745e-05       7.462e-06       -0.0734401         0.14939
281701.2               -0.107829       -0.256978     -4.96815e-05    -2.67307e-05        -0.887886       -0.331787     -5.77725e-05     6.13109e-05
                     5.25515e-05     2.93414e-05        -0.166317       0.0183277      3.96327e-05      6.9952e-05        -0.568659       -0.799871
                       -0.887833       -0.332175     -2.59967e-05     0.000200427         0.232981       -0.136813      3.11486e-05    -3.97574e-05
                     5.51112e-05     1.42689e-05        -0.568273       -0.799523      5.27674e-05      7.4349e-06       -0.0734321        0.149388
281701.3               -0.107834       -0.256992      -4.9686e-05    -2.67469e-05        -0.887896       -0.331747     -5.77689e-05     6.13175e-05
                     5.25531e-05     2.93097e-05        -0.166311       0.0183309      3.96165e-05      6.9963e-05        -0.568683       -0.799855
                       -0.887844       -0.332134     -2.59883e-05     0.000200442         0.232982       -0.136841      3.11521e-05    -3.97664e-05
                     5.51276e-05     1.42502e-05        -0.568298       -0.799506      5.27602e-05     7.40776e-06       -0.0734241        0.149386
281701.4               -0.107839       -0.257005     -4.96904e-05    -2.67631e-05        -0.887906       -0.331706     -5.77652e-05     6.13241e-05
                      5.2555e-05      2.9278e-05        -0.166306        0.018334      3.96003e-05     6.99739e-05        -0.568708       -0.799838
                       -0.887854       -0.332093     -2.59798e-05     0.000200457         0.232982       -0.136869      3.11555e-05    -3.97755e-05
                     5.51438e-05     1.42315e-05        -0.568323       -0.799489      5.27531e-05     7.38058e-06       -0.0734161        0.149384
281701.5               -0.107844       -0.257018     -4.96949e-05    -2.67794e-05        -0.887916       -0.331666     -5.77616e-05     6.13306e-05
                     5.25572e-05     2.92466e-05          -0.1663       0.0183372       3.9584e-05     6.99848e-05        -0.568733       -0.799821
                       -0.887864       -0.332053     -2.59712e-05     0.000200472         0.232983       -0.136897       3.1159e-05    -3.97845e-05
                       5.516e-05     1.42128e-05        -0.568348       -0.799472       5.2746e-05     7.35337e-06        -0.073408        0.149382
281701.6               -0.107849       -0.257031     -4.96993e-05    -2.67957e-05        -0.887926       -0.331626     -5.77579e-05     6.13372e-05
                     5.25597e-05     2.92152e-05        -0.166295       0.0183404      3.95677e-05     6.99956e-05        -0.568758       -0.799805
                       -0.887875       -0.332012     -2.59627e-05     0.000200487         0.232984       -0.136925      3.11624e-05    -3.97935e-05
                      5.5176e-05     1.41942e-05        -0.568373       -0.799456      5.27388e-05     7.32612e-06          -0.0734         0.14938
281701.7               -0.107854       -0.257045     -4.97036e-05     -2.6812e-05        -0.887936       -0.331586     -5.77541e-05     6.13437e-05
                     5.25624e-05      2.9184e-05        -0.166289       0.0183436      3.95514e-05     7.00064e-05        -0.568783       -0.799788
                       -0.887885       -0.331971     -2.59541e-05     0.000200502         0.232985       -0.136953      3.11657e-05    -3.98024e-05
                     5.51919e-05     1.41756e-05        -0.568398       -0.799439      5.27317e-05     7.29884e-06        -0.073392        0.149378
281701.8               -0.107859       -0.257058      -4.9708e-05    -2.68284e-05        -0.887946       -0.331545     -5.77503e-05     6.13502e-05
                     5.25655e-05      2.9153e-05        -0.166284       0.0183468      3.95351e-05     7.00172e-05        -0.568808       -0.799771
                       -0.887895       -0.331931     -2.59454e-05     0.000200517         0.232985       -0.136981       3.1169e-05    -3.98114e-05
                     5.52076e-05     1.41571e-05        -0.568423       -0.799422      5.27246e-05     7.27152e-06       -0.0733839        0.149376
281701.9               -0.107865       -0.257071     -4.97123e-05    -2.68448e-05        -0.887956       -0.331505     -5.77464e-05     6.13567e-05
                     5.25688e-05     2.91221e-05        -0.166278       0.0183499      3.95187e-05      7.0028e-05        -0.568833       -0.799754
                       -0.887905        -0.33189     -2.59367e-05     0.000200533         0.232986       -0.137009      3.11723e-05    -3.98204e-05
                     5.52233e-05     1.41386e-05        -0.568448       -0.799405      5.27175e-05     7.24416e-06       -0.0733759        0.149374
281702                  -0.10787       -0.257085     -4.97166e-05    -2.68612e-05        -0.887966       -0.331465     -5.77425e-05     6.13631e-05
                     5.25724e-05     2.90914e-05        -0.166272       0.0183531      3.95023e-05     7.00388e-05        -0.568857       -0.799738
                       -0.887916       -0.331849      -2.5928e-05     0.000200548         0.232987       -0.137037      3.11755e-05    -3.98293e-05
                     5.52388e-05     1.41202e-05        -0.568474       -0.799389      5.27103e-05     7.21677e-06       -0.0733679        0.149373
281702.1               -0.107875       -0.257098     -4.97208e-05    -2.68777e-05        -0.887976       -0.331425     -5.77386e-05     6.13696e-05
                     5.25763e-05     2.90608e-05        -0.166267       0.0183563      3.94859e-05     7.00495e-05        -0.568882       -0.799721
                       -0.887926       -0.331808     -2.59193e-05     0.000200563         0.232988       -0.137065      3.11787e-05    -3.98382e-05
                     5.52542e-05     1.41018e-05        -0.568499       -0.799372      5.27032e-05     7.18934e-06       -0.0733599        0.149371
281702.2                -0.10788       -0.257111     -4.97251e-05    -2.68941e-05        -0.887986       -0.331384     -5.77346e-05      6.1376e-05
                     5.25804e-05     2.90304e-05        -0.166261       0.0183595      3.94694e-05     7.00602e-05        -0.568907       -0.799704
                       -0.887936       -0.331768     -2.59105e-05     0.000200578         0.232988       -0.137093      3.11819e-05    -3.98471e-05
                     5.52695e-05     1.40835e-05        -0.568524       -0.799355      5.26961e-05     7.16187e-06       -0.0733518        0.149369
281702.3               -0.107885       -0.257124     -4.97292e-05    -2.69107e-05        -0.887996       -0.331344     -5.77305e-05     6.13824e-05
                     5.25849e-05     2.90001e-05        -0.166256       0.0183627      3.94529e-05     7.00708e-05        -0.568932       -0.799687
                       -0.887947       -0.331727     -2.59017e-05     0.000200593         0.232989       -0.137121       3.1185e-05     -3.9856e-05
                     5.52847e-05     1.40653e-05        -0.568549       -0.799338       5.2689e-05     7.13436e-06       -0.0733438        0.149367
281702.4                -0.10789       -0.257138     -4.97334e-05    -2.69272e-05        -0.888006       -0.331304     -5.77264e-05     6.13888e-05
                     5.25896e-05       2.897e-05         -0.16625       0.0183658      3.94364e-05     7.00815e-05        -0.568957       -0.799671
                       -0.887957       -0.331686     -2.58928e-05     0.000200608          0.23299       -0.137149      3.11881e-05    -3.98649e-05
                     5.52998e-05     1.40471e-05        -0.568574       -0.799322      5.26818e-05     7.10682e-06       -0.0733358        0.149365
281702.5               -0.107895       -0.257151     -4.97375e-05    -2.69438e-05        -0.888016       -0.331264     -5.77223e-05     6.13952e-05
                     5.25946e-05       2.894e-05        -0.166245        0.018369      3.94198e-05     7.00921e-05        -0.568982       -0.799654
                       -0.887967       -0.331646     -2.58839e-05     0.000200624         0.232991       -0.137177      3.11912e-05    -3.98738e-05
                     5.53147e-05     1.40289e-05        -0.568599       -0.799305      5.26747e-05     7.07924e-06       -0.0733277        0.149363
281702.6               -0.107901       -0.257164     -4.97416e-05    -2.69605e-05        -0.888026       -0.331223     -5.77181e-05     6.14016e-05
                     5.25998e-05     2.89102e-05        -0.166239       0.0183722      3.94033e-05     7.01026e-05        -0.569007       -0.799637
                       -0.887977       -0.331605     -2.58749e-05     0.000200639         0.232991       -0.137205      3.11942e-05    -3.98826e-05
                     5.53295e-05     1.40108e-05        -0.568624       -0.799288      5.26676e-05     7.05162e-06       -0.0733197        0.149361
281702.7               -0.107906       -0.257178     -4.97457e-05    -2.69771e-05        -0.888037       -0.331183     -5.77138e-05     6.14079e-05
                     5.26054e-05     2.88805e-05        -0.166233       0.0183754      3.93866e-05     7.01132e-05        -0.569032        -0.79962
                       -0.887988       -0.331564      -2.5866e-05     0.000200654         0.232992       -0.137233      3.11971e-05    -3.98914e-05
                     5.53442e-05     1.39928e-05        -0.568649       -0.799271      5.26605e-05     7.02395e-06       -0.0733117        0.149359
281702.8               -0.107911       -0.257191     -4.97497e-05    -2.69938e-05        -0.888047       -0.331143     -5.77095e-05     6.14142e-05
                     5.26112e-05      2.8851e-05        -0.166228       0.0183786        3.937e-05     7.01237e-05        -0.569057       -0.799603
                       -0.887998       -0.331523     -2.58569e-05     0.000200669         0.232993       -0.137261         3.12e-05    -3.99003e-05
                     5.53588e-05     1.39748e-05        -0.568674       -0.799255      5.26534e-05     6.99626e-06       -0.0733037        0.149357
281702.9               -0.107916       -0.257204     -4.97537e-05    -2.70106e-05        -0.888057       -0.331103     -5.77052e-05     6.14205e-05
                     5.26173e-05     2.88217e-05        -0.166222       0.0183817      3.93533e-05     7.01342e-05        -0.569082       -0.799587
                       -0.888008       -0.331483     -2.58478e-05     0.000200685         0.232993       -0.137289      3.12029e-05    -3.99091e-05
                     5.53733e-05     1.39569e-05        -0.568699       -0.799238      5.26462e-05     6.96852e-06       -0.0732956        0.149355
281703                 -0.107921       -0.257218     -4.97577e-05    -2.70273e-05        -0.888067       -0.331062     -5.77008e-05     6.14268e-05
                     5.26237e-05     2.87925e-05        -0.166217       0.0183849      3.93366e-05     7.01446e-05        -0.569107        -0.79957
                       -0.888018       -0.331442     -2.58387e-05       0.0002007         0.232994       -0.137317      3.12058e-05    -3.99179e-05
                     5.53876e-05     1.39391e-05        -0.568724       -0.799221      5.26391e-05     6.94074e-06       -0.0732876        0.149354
281703.1               -0.107926       -0.257231     -4.97616e-05    -2.70441e-05        -0.888077       -0.331022     -5.76964e-05     6.14331e-05
                     5.26303e-05     2.87634e-05        -0.166211       0.0183881      3.93199e-05      7.0155e-05        -0.569132       -0.799553
                       -0.888029       -0.331401     -2.58296e-05     0.000200715         0.232995       -0.137346      3.12086e-05    -3.99266e-05
