! TOUCHSTONE file generated by CST MICROWAVE STUDIO
! Date and time: Wed Oct  8 06:58:21 2025
! Project name: Teste_Macro_Metasurface_Nanopilar.cst
! Parameters = {H=600; L_x=135; L_y=80; Lambda=1064; Max_L=200; Min_L=70; PathPara=1; Phi=0; Step_L=10; Theta=0; p=520; phaseX=180; phaseY=0}
! Header version: 2018
! Port assignment regex: !\s*Touchstone port\s*([0-9]+)\s*=\s*(CST MWS port|CST DS port)\s*([0-9]+|Zmin|Zmax)\s*\(\"(.*)\"\)(\s*mode\s*([0-9]+))?.*
! Touchstone port assignment:
! Touchstone port 1 = CST MWS port Zmax ("") mode 1
! Touchstone port 2 = CST MWS port Zmax ("") mode 2
! Touchstone port 3 = CST MWS port Zmin ("") mode 1
! Touchstone port 4 = CST MWS port Zmin ("") mode 2
! S-Parameters are not renormalized. Each port impedance will be approximated by the real part at minimum frequency. The values are described via the [Reference] keyword.
! Default impedance is overridden by [Reference]
[Version] 2.0
# GHz S RI R 376.73
[Number of Ports] 4
[Reference]
376.73 376.73 376.73 376.73 
[Number of Frequencies] 1001
[Network Data]
281700                 0.0926321      -0.0783696      0.000228106     0.000261441        -0.859871        0.497992     -0.000132314    -1.13392e-05
                     0.000335917     0.000238813       -0.0708006         0.25581     -0.000167802      3.6028e-05         0.817989        0.492912
                       -0.858263        0.496838      2.07286e-05     5.94353e-05        -0.114367       0.0415525      0.000352677    -0.000204798
                    -3.96477e-05     5.36802e-05         0.817511        0.493695      0.000358838    -0.000203984        -0.196906        0.181531
281700.1               0.0926272      -0.0783735      0.000228115     0.000261429        -0.859858        0.498015     -0.000132309    -1.13386e-05
                     0.000335919     0.000238808       -0.0707898        0.255808     -0.000167797     3.59795e-05         0.818006        0.492885
                        -0.85825        0.496861      2.07265e-05      5.9436e-05        -0.114366       0.0415524      0.000352665    -0.000204808
                    -3.96466e-05     5.36794e-05         0.817529        0.493668       0.00035882    -0.000203978        -0.196898        0.181534
281700.2               0.0926224      -0.0783775      0.000228124     0.000261417        -0.859844        0.498038     -0.000132305     -1.1338e-05
                     0.000335922     0.000238803       -0.0707789        0.255807     -0.000167793      3.5931e-05         0.818024        0.492858
                       -0.858237        0.496884      2.07244e-05     5.94367e-05        -0.114364       0.0415524      0.000352653    -0.000204818
                    -3.96454e-05     5.36787e-05         0.817547        0.493641      0.000358802    -0.000203972        -0.196889        0.181536
281700.3               0.0926175      -0.0783815      0.000228133     0.000261406        -0.859831        0.498061       -0.0001323    -1.13374e-05
                     0.000335924     0.000238797       -0.0707681        0.255805     -0.000167788     3.58825e-05         0.818042        0.492831
                       -0.858223        0.496908      2.07223e-05     5.94373e-05        -0.114363       0.0415523       0.00035264    -0.000204827
                    -3.96442e-05      5.3678e-05         0.817564        0.493614      0.000358784    -0.000203966        -0.196881        0.181539
281700.4               0.0926127      -0.0783855      0.000228142     0.000261394        -0.859818        0.498084     -0.000132295    -1.13369e-05
                     0.000335926     0.000238792       -0.0707573        0.255804     -0.000167783      3.5834e-05         0.818059        0.492804
                        -0.85821        0.496931      2.07202e-05      5.9438e-05        -0.114362       0.0415522      0.000352628    -0.000204837
                     -3.9643e-05     5.36772e-05         0.817582        0.493587      0.000358766     -0.00020396        -0.196873        0.181542
281700.5               0.0926078      -0.0783895      0.000228151     0.000261382        -0.859805        0.498106      -0.00013229    -1.13363e-05
                     0.000335928     0.000238786       -0.0707464        0.255803     -0.000167779     3.57856e-05         0.818077        0.492777
                       -0.858197        0.496954      2.07181e-05     5.94387e-05        -0.114361       0.0415522      0.000352616    -0.000204846
                    -3.96418e-05     5.36765e-05         0.817599         0.49356      0.000358748    -0.000203954        -0.196864        0.181545
281700.6               0.0926029      -0.0783935       0.00022816     0.000261371        -0.859791        0.498129     -0.000132285    -1.13357e-05
                     0.000335931     0.000238781       -0.0707356        0.255801     -0.000167774     3.57371e-05         0.818094         0.49275
                       -0.858183        0.496977       2.0716e-05     5.94394e-05         -0.11436       0.0415521      0.000352604    -0.000204856
                    -3.96406e-05     5.36758e-05         0.817617        0.493534      0.000358729    -0.000203948        -0.196856        0.181548
281700.7               0.0925981      -0.0783974      0.000228169     0.000261359        -0.859778        0.498152      -0.00013228    -1.13351e-05
                     0.000335933     0.000238776       -0.0707247          0.2558      -0.00016777     3.56886e-05         0.818112        0.492724
                        -0.85817           0.497      2.07139e-05       5.944e-05        -0.114358       0.0415521      0.000352592    -0.000204865
                    -3.96394e-05      5.3675e-05         0.817634        0.493507      0.000358711    -0.000203942        -0.196848        0.181551
281700.8               0.0925932      -0.0784014      0.000228178     0.000261347        -0.859765        0.498175     -0.000132275    -1.13346e-05
                     0.000335935      0.00023877       -0.0707139        0.255798     -0.000167765     3.56402e-05         0.818129        0.492697
                       -0.858157        0.497023      2.07118e-05     5.94407e-05        -0.114357        0.041552      0.000352579    -0.000204875
                    -3.96383e-05     5.36743e-05         0.817652         0.49348      0.000358693    -0.000203936        -0.196839        0.181553
281700.9               0.0925884      -0.0784054      0.000228187     0.000261335        -0.859751        0.498198      -0.00013227     -1.1334e-05
                     0.000335937     0.000238765        -0.070703        0.255797     -0.000167761     3.55918e-05         0.818147         0.49267
                       -0.858144        0.497047      2.07096e-05     5.94414e-05        -0.114356        0.041552      0.000352567    -0.000204884
                    -3.96371e-05     5.36736e-05          0.81767        0.493453      0.000358675    -0.000203929        -0.196831        0.181556
281701                 0.0925835      -0.0784094      0.000228196     0.000261324        -0.859738         0.49822     -0.000132266    -1.13334e-05
                      0.00033594      0.00023876       -0.0706922        0.255796     -0.000167756     3.55434e-05         0.818164        0.492643
                        -0.85813         0.49707      2.07075e-05      5.9442e-05        -0.114355       0.0415519      0.000352555    -0.000204894
                    -3.96359e-05     5.36729e-05         0.817687        0.493426      0.000358657    -0.000203923        -0.196823        0.181559
281701.1               0.0925786      -0.0784134      0.000228205     0.000261312        -0.859725        0.498243     -0.000132261    -1.13329e-05
                     0.000335942     0.000238754       -0.0706813        0.255794     -0.000167751      3.5495e-05         0.818182        0.492616
                       -0.858117        0.497093      2.07054e-05     5.94427e-05        -0.114354       0.0415519      0.000352543    -0.000204903
                    -3.96347e-05     5.36721e-05         0.817705        0.493399      0.000358639    -0.000203917        -0.196814        0.181562
281701.2               0.0925738      -0.0784174      0.000228214       0.0002613        -0.859711        0.498266     -0.000132256    -1.13323e-05
                     0.000335944     0.000238749       -0.0706705        0.255793     -0.000167747     3.54466e-05           0.8182        0.492589
                       -0.858104        0.497116      2.07033e-05     5.94434e-05        -0.114352       0.0415518      0.000352531    -0.000204913
                    -3.96335e-05     5.36714e-05         0.817722        0.493372       0.00035862    -0.000203911        -0.196806        0.181565
281701.3               0.0925689      -0.0784213      0.000228223     0.000261289        -0.859698        0.498289     -0.000132251    -1.13317e-05
                     0.000335946     0.000238743       -0.0706596        0.255791     -0.000167742     3.53982e-05         0.818217        0.492562
                       -0.858091        0.497139      2.07012e-05      5.9444e-05        -0.114351       0.0415518      0.000352519    -0.000204923
                    -3.96323e-05     5.36707e-05          0.81774        0.493345      0.000358602    -0.000203905        -0.196798        0.181567
281701.4               0.0925641      -0.0784253      0.000228232     0.000261277        -0.859685        0.498312     -0.000132246    -1.13311e-05
                     0.000335949     0.000238738       -0.0706488         0.25579     -0.000167738     3.53498e-05         0.818235        0.492535
                       -0.858077        0.497163      2.06991e-05     5.94447e-05         -0.11435       0.0415517      0.000352506    -0.000204932
                    -3.96311e-05     5.36699e-05         0.817758        0.493318      0.000358584    -0.000203899        -0.196789         0.18157
281701.5               0.0925592      -0.0784293      0.000228241     0.000261265        -0.859672        0.498334     -0.000132241    -1.13306e-05
                     0.000335951     0.000238733       -0.0706379        0.255789     -0.000167733     3.53015e-05         0.818252        0.492508
                       -0.858064        0.497186       2.0697e-05     5.94454e-05        -0.114349       0.0415517      0.000352494    -0.000204942
                      -3.963e-05     5.36692e-05         0.817775        0.493292      0.000358566    -0.000203893        -0.196781        0.181573
281701.6               0.0925543      -0.0784333       0.00022825     0.000261254        -0.859658        0.498357     -0.000132236      -1.133e-05
                     0.000335953     0.000238727       -0.0706271        0.255787     -0.000167728     3.52531e-05          0.81827        0.492481
                       -0.858051        0.497209      2.06949e-05      5.9446e-05        -0.114348       0.0415516      0.000352482    -0.000204951
                    -3.96288e-05     5.36685e-05         0.817793        0.493265      0.000358548    -0.000203887        -0.196773        0.181576
281701.7               0.0925495      -0.0784373      0.000228259     0.000261242        -0.859645         0.49838     -0.000132231    -1.13294e-05
                     0.000335955     0.000238722       -0.0706162        0.255786     -0.000167724     3.52048e-05         0.818287        0.492454
                       -0.858037        0.497232      2.06928e-05     5.94467e-05        -0.114346       0.0415516       0.00035247    -0.000204961
                    -3.96276e-05     5.36677e-05          0.81781        0.493238       0.00035853    -0.000203881        -0.196764        0.181579
281701.8               0.0925446      -0.0784412      0.000228268      0.00026123        -0.859632        0.498403     -0.000132227    -1.13289e-05
                     0.000335958     0.000238717       -0.0706054        0.255784     -0.000167719     3.51565e-05         0.818305        0.492428
                       -0.858024        0.497255      2.06907e-05     5.94474e-05        -0.114345       0.0415515      0.000352458     -0.00020497
                    -3.96264e-05      5.3667e-05         0.817828        0.493211      0.000358511    -0.000203875        -0.196756        0.181581
281701.9               0.0925398      -0.0784452      0.000228278     0.000261219        -0.859618        0.498425     -0.000132222    -1.13283e-05
                      0.00033596     0.000238711       -0.0705945        0.255783     -0.000167715     3.51082e-05         0.818322        0.492401
                       -0.858011        0.497278      2.06886e-05      5.9448e-05        -0.114344       0.0415515      0.000352445     -0.00020498
                    -3.96252e-05     5.36663e-05         0.817846        0.493184      0.000358493    -0.000203869        -0.196748        0.181584
281702                 0.0925349      -0.0784492      0.000228287     0.000261207        -0.859605        0.498448     -0.000132217    -1.13278e-05
                     0.000335962     0.000238706       -0.0705837        0.255782      -0.00016771     3.50599e-05          0.81834        0.492374
                       -0.857998        0.497302      2.06865e-05     5.94487e-05        -0.114343       0.0415514      0.000352433    -0.000204989
                     -3.9624e-05     5.36655e-05         0.817863        0.493157      0.000358475    -0.000203863        -0.196739        0.181587
281702.1                 0.09253      -0.0784532      0.000228296     0.000261195        -0.859592        0.498471     -0.000132212    -1.13272e-05
                     0.000335964       0.0002387       -0.0705728         0.25578     -0.000167706     3.50116e-05         0.818357        0.492347
                       -0.857984        0.497325      2.06844e-05     5.94493e-05        -0.114342       0.0415514      0.000352421    -0.000204999
                    -3.96228e-05     5.36648e-05         0.817881         0.49313      0.000358457    -0.000203857        -0.196731         0.18159
281702.2               0.0925252      -0.0784572      0.000228305     0.000261184        -0.859578        0.498494     -0.000132207    -1.13266e-05
                     0.000335967     0.000238695        -0.070562        0.255779     -0.000167701     3.49633e-05         0.818375         0.49232
                       -0.857971        0.497348      2.06823e-05       5.945e-05         -0.11434       0.0415513      0.000352409    -0.000205008
                    -3.96216e-05     5.36641e-05         0.817898        0.493103      0.000358439    -0.000203851        -0.196722        0.181593
281702.3               0.0925203      -0.0784611      0.000228314     0.000261172        -0.859565        0.498517     -0.000132202    -1.13261e-05
                     0.000335969      0.00023869       -0.0705512        0.255777     -0.000167696      3.4915e-05         0.818392        0.492293
                       -0.857958        0.497371      2.06802e-05     5.94507e-05        -0.114339       0.0415513      0.000352397    -0.000205018
                    -3.96205e-05     5.36633e-05         0.817916        0.493077      0.000358421    -0.000203845        -0.196714        0.181595
281702.4               0.0925155      -0.0784651      0.000228323      0.00026116        -0.859552        0.498539     -0.000132197    -1.13255e-05
                     0.000335971     0.000238684       -0.0705403        0.255776     -0.000167692     3.48668e-05          0.81841        0.492266
                       -0.857944        0.497394      2.06781e-05     5.94513e-05        -0.114338       0.0415512      0.000352384    -0.000205027
                    -3.96193e-05     5.36626e-05         0.817933         0.49305      0.000358403    -0.000203839        -0.196706        0.181598
281702.5               0.0925106      -0.0784691      0.000228332     0.000261149        -0.859538        0.498562     -0.000132193    -1.13249e-05
                     0.000335973     0.000238679       -0.0705295        0.255775     -0.000167687     3.48185e-05         0.818427        0.492239
                       -0.857931        0.497418       2.0676e-05      5.9452e-05        -0.114337       0.0415512      0.000352372    -0.000205037
                    -3.96181e-05     5.36619e-05         0.817951        0.493023      0.000358384    -0.000203833        -0.196697        0.181601
281702.6               0.0925057      -0.0784731      0.000228341     0.000261137        -0.859525        0.498585     -0.000132188    -1.13244e-05
                     0.000335976     0.000238674       -0.0705186        0.255773     -0.000167683     3.47703e-05         0.818445        0.492212
                       -0.857918        0.497441      2.06739e-05     5.94526e-05        -0.114336       0.0415511       0.00035236    -0.000205046
                    -3.96169e-05     5.36611e-05         0.817969        0.492996      0.000358366    -0.000203827        -0.196689        0.181604
281702.7               0.0925009      -0.0784771       0.00022835     0.000261125        -0.859512        0.498608     -0.000132183    -1.13238e-05
                     0.000335978     0.000238668       -0.0705078        0.255772     -0.000167678     3.47221e-05         0.818463        0.492185
                       -0.857905        0.497464      2.06718e-05     5.94533e-05        -0.114334       0.0415511      0.000352348    -0.000205056
                    -3.96157e-05     5.36604e-05         0.817986        0.492969      0.000358348    -0.000203821        -0.196681        0.181607
281702.8                0.092496       -0.078481      0.000228359     0.000261114        -0.859499        0.498631     -0.000132178    -1.13233e-05
                      0.00033598     0.000238663       -0.0704969         0.25577     -0.000167674     3.46739e-05          0.81848        0.492158
                       -0.857891        0.497487      2.06696e-05     5.94539e-05        -0.114333        0.041551      0.000352336    -0.000205065
                    -3.96145e-05     5.36597e-05         0.818004        0.492942       0.00035833    -0.000203815        -0.196672         0.18161
281702.9               0.0924912       -0.078485      0.000228369     0.000261102        -0.859485        0.498653     -0.000132173    -1.13227e-05
                     0.000335982     0.000238657       -0.0704861        0.255769     -0.000167669     3.46257e-05         0.818498        0.492131
                       -0.857878         0.49751      2.06675e-05     5.94546e-05        -0.114332        0.041551      0.000352323    -0.000205075
                    -3.96133e-05     5.36589e-05         0.818021        0.492915      0.000358312    -0.000203809        -0.196664        0.181612
281703                 0.0924863       -0.078489      0.000228378      0.00026109        -0.859472        0.498676     -0.000132168    -1.13222e-05
                     0.000335985     0.000238652       -0.0704752        0.255768     -0.000167664     3.45775e-05         0.818515        0.492105
                       -0.857865        0.497533      2.06654e-05     5.94552e-05        -0.114331       0.0415509      0.000352311    -0.000205085
                    -3.96122e-05     5.36582e-05         0.818039        0.492888      0.000358294    -0.000203803        -0.196656        0.181615
281703.1               0.0924814       -0.078493      0.000228387     0.000261079        -0.859459        0.498699     -0.000132163    -1.13216e-05
                     0.000335987     0.000238647       -0.0704644        0.255766      -0.00016766     3.45293e-05         0.818533        0.492078
                       -0.857851        0.497557      2.06633e-05     5.94559e-05         -0.11433       0.0415509      0.000352299    -0.000205094
