! TOUCHSTONE file generated by CST MICROWAVE STUDIO
! Date and time: Wed Oct  8 07:00:58 2025
! Project name: Teste_Macro_Metasurface_Nanopilar.cst
! Parameters = {H=600; L_x=155; L_y=130; Lambda=1064; Max_L=200; Min_L=70; PathPara=1; Phi=0; Step_L=10; Theta=0; p=520; phaseX=180; phaseY=0}
! Header version: 2018
! Port assignment regex: !\s*Touchstone port\s*([0-9]+)\s*=\s*(CST MWS port|CST DS port)\s*([0-9]+|Zmin|Zmax)\s*\(\"(.*)\"\)(\s*mode\s*([0-9]+))?.*
! Touchstone port assignment:
! Touchstone port 1 = CST MWS port Zmax ("") mode 1
! Touchstone port 2 = CST MWS port Zmax ("") mode 2
! Touchstone port 3 = CST MWS port Zmin ("") mode 1
! Touchstone port 4 = CST MWS port Zmin ("") mode 2
! S-Parameters are not renormalized. Each port impedance will be approximated by the real part at minimum frequency. The values are described via the [Reference] keyword.
! Default impedance is overridden by [Reference]
[Version] 2.0
# GHz S RI R 376.73
[Number of Ports] 4
[Reference]
376.73 376.73 376.73 376.73 
[Number of Frequencies] 1001
[Network Data]
281700                 -0.207028       0.0152816      0.000286836     0.000521697        -0.415672       -0.880416      0.000306683    -0.000671572
                     -0.00015221     0.000694848        -0.342001       -0.483626      0.000117696    -0.000547778        -0.771069       0.0313488
                       -0.416638       -0.879667     -0.000219561    -0.000882542        -0.144131        0.149284     -0.000455276     0.000614787
                     0.000356093    -0.000480577        -0.770569       0.0309512     -0.000587889     0.000613625          0.23586       -0.532309
281700.1               -0.207024       0.0152874      0.000286845     0.000521717        -0.415699       -0.880404      0.000306621    -0.000671627
                    -0.000152187     0.000694874        -0.342038       -0.483636      0.000117653    -0.000547815        -0.771043       0.0313963
                       -0.416665       -0.879655     -0.000219564    -0.000882524        -0.144124        0.149286     -0.000455268     0.000614828
                     0.000356082     -0.00048061        -0.770543       0.0309987     -0.000587841     0.000613689         0.235823       -0.532357
281700.2                -0.20702       0.0152932      0.000286854     0.000521736        -0.415726       -0.880393      0.000306559    -0.000671682
                    -0.000152163       0.0006949        -0.342075       -0.483645      0.000117611    -0.000547853        -0.771016       0.0314438
                       -0.416692       -0.879644     -0.000219567    -0.000882505        -0.144117        0.149288      -0.00045526     0.000614869
                     0.000356072    -0.000480644        -0.770516       0.0310461     -0.000587793     0.000613754         0.235786       -0.532406
281700.3               -0.207015       0.0152991      0.000286863     0.000521756        -0.415752       -0.880381      0.000306496    -0.000671736
                     -0.00015214     0.000694926        -0.342111       -0.483655      0.000117568     -0.00054789        -0.770989       0.0314913
                       -0.416719       -0.879632     -0.000219569    -0.000882486        -0.144109        0.149289     -0.000455252      0.00061491
                     0.000356061    -0.000480678         -0.77049       0.0310936     -0.000587745     0.000613818          0.23575       -0.532454
281700.4               -0.207011       0.0153049      0.000286872     0.000521776        -0.415779       -0.880369      0.000306434    -0.000671791
                    -0.000152117     0.000694953        -0.342148       -0.483665      0.000117525    -0.000547928        -0.770963       0.0315388
                       -0.416746        -0.87962     -0.000219572    -0.000882467        -0.144102        0.149291     -0.000455244     0.000614951
                      0.00035605    -0.000480711        -0.770463        0.031141     -0.000587698     0.000613882         0.235713       -0.532502
281700.5               -0.207007       0.0153108       0.00028688     0.000521796        -0.415806       -0.880357      0.000306371    -0.000671845
                    -0.000152094     0.000694979        -0.342184       -0.483675      0.000117483    -0.000547965        -0.770936       0.0315863
                       -0.416773       -0.879608     -0.000219575    -0.000882449        -0.144095        0.149292     -0.000455236     0.000614992
                      0.00035604    -0.000480745        -0.770437       0.0311884      -0.00058765     0.000613947         0.235676       -0.532551
281700.6               -0.207003       0.0153166      0.000286889     0.000521815        -0.415833       -0.880345      0.000306309      -0.0006719
                    -0.000152071     0.000695005        -0.342221       -0.483684       0.00011744    -0.000548003         -0.77091       0.0316338
                       -0.416799       -0.879596     -0.000219578     -0.00088243        -0.144088        0.149294     -0.000455228     0.000615033
                     0.000356029    -0.000480779         -0.77041       0.0312359     -0.000587602     0.000614011          0.23564       -0.532599
281700.7               -0.206998       0.0153224      0.000286898     0.000521835         -0.41586       -0.880333      0.000306246    -0.000671955
                    -0.000152047     0.000695032        -0.342258       -0.483694      0.000117397     -0.00054804        -0.770883       0.0316813
                       -0.416826       -0.879584     -0.000219581    -0.000882411         -0.14408        0.149296      -0.00045522     0.000615075
                     0.000356018    -0.000480812        -0.770383       0.0312833     -0.000587554     0.000614075         0.235603       -0.532647
281700.8               -0.206994       0.0153283      0.000286907     0.000521855        -0.415887       -0.880322      0.000306184    -0.000672009
                    -0.000152024     0.000695058        -0.342294       -0.483704      0.000117355    -0.000548078        -0.770857       0.0317288
                       -0.416853       -0.879573     -0.000219584    -0.000882393        -0.144073        0.149297     -0.000455212     0.000615116
                     0.000356008    -0.000480846        -0.770357       0.0313307     -0.000587507     0.000614139         0.235566       -0.532696
281700.9                -0.20699       0.0153341      0.000286916     0.000521875        -0.415914        -0.88031      0.000306121    -0.000672064
                    -0.000152001     0.000695084        -0.342331       -0.483714      0.000117312    -0.000548115         -0.77083       0.0317763
                        -0.41688       -0.879561     -0.000219586    -0.000882374        -0.144066        0.149299     -0.000455204     0.000615157
                     0.000355997     -0.00048088         -0.77033       0.0313782     -0.000587459     0.000614204         0.235529       -0.532744
281701                 -0.206985         0.01534      0.000286925     0.000521894        -0.415941       -0.880298      0.000306059    -0.000672118
                    -0.000151978     0.000695111        -0.342368       -0.483723      0.000117269    -0.000548153        -0.770803       0.0318238
                       -0.416907       -0.879549     -0.000219589    -0.000882355        -0.144059          0.1493     -0.000455196     0.000615198
                     0.000355986    -0.000480913        -0.770304       0.0314256     -0.000587411     0.000614268         0.235493       -0.532792
281701.1               -0.206981       0.0153458      0.000286934     0.000521914        -0.415968       -0.880286      0.000305996    -0.000672173
                    -0.000151955     0.000695137        -0.342404       -0.483733      0.000117227     -0.00054819        -0.770777       0.0318713
                       -0.416933       -0.879537     -0.000219592    -0.000882337        -0.144052        0.149302     -0.000455188     0.000615239
                     0.000355976    -0.000480947        -0.770277        0.031473     -0.000587363     0.000614332         0.235456       -0.532841
281701.2               -0.206977       0.0153516      0.000286943     0.000521934        -0.415995       -0.880274      0.000305934    -0.000672228
                    -0.000151931     0.000695163        -0.342441       -0.483743      0.000117184    -0.000548227         -0.77075       0.0319187
                        -0.41696       -0.879525     -0.000219595    -0.000882318        -0.144044        0.149304      -0.00045518      0.00061528
                     0.000355965     -0.00048098        -0.770251       0.0315205     -0.000587316     0.000614396         0.235419       -0.532889
281701.3               -0.206972       0.0153575      0.000286951     0.000521953        -0.416022       -0.880263      0.000305871    -0.000672282
                    -0.000151908      0.00069519        -0.342478       -0.483753      0.000117141    -0.000548265        -0.770724       0.0319662
                       -0.416987       -0.879513     -0.000219598    -0.000882299        -0.144037        0.149305     -0.000455172     0.000615321
                     0.000355954    -0.000481014        -0.770224       0.0315679     -0.000587268     0.000614461         0.235383       -0.532937
281701.4               -0.206968       0.0153633       0.00028696     0.000521973        -0.416049       -0.880251      0.000305809    -0.000672337
                    -0.000151885     0.000695216        -0.342514       -0.483762      0.000117099    -0.000548302        -0.770697       0.0320137
                       -0.417014       -0.879502     -0.000219601    -0.000882281         -0.14403        0.149307     -0.000455164     0.000615362
                     0.000355943    -0.000481048        -0.770197       0.0316153      -0.00058722     0.000614525         0.235346       -0.532985
281701.5               -0.206964       0.0153692      0.000286969     0.000521993        -0.416076       -0.880239      0.000305746    -0.000672391
                    -0.000151861     0.000695242        -0.342551       -0.483772      0.000117056     -0.00054834         -0.77067       0.0320612
                       -0.417041        -0.87949     -0.000219604    -0.000882262        -0.144023        0.149308     -0.000455156     0.000615403
                     0.000355933    -0.000481081        -0.770171       0.0316627     -0.000587172     0.000614589         0.235309       -0.533034
281701.6                -0.20696        0.015375      0.000286978     0.000522013        -0.416102       -0.880227      0.000305684    -0.000672446
                    -0.000151838     0.000695269        -0.342588       -0.483782      0.000117013    -0.000548377        -0.770644       0.0321087
                       -0.417068       -0.879478     -0.000219607    -0.000882244        -0.144015         0.14931     -0.000455148     0.000615445
                     0.000355922    -0.000481115        -0.770144       0.0317102     -0.000587124     0.000614653         0.235272       -0.533082
281701.7               -0.206955       0.0153808      0.000286987     0.000522032        -0.416129       -0.880215      0.000305621      -0.0006725
                    -0.000151815     0.000695295        -0.342624       -0.483791       0.00011697    -0.000548415        -0.770617       0.0321561
                       -0.417094       -0.879466     -0.000219609    -0.000882225        -0.144008        0.149312      -0.00045514     0.000615486
                     0.000355911    -0.000481149        -0.770117       0.0317576     -0.000587076     0.000614718         0.235236        -0.53313
281701.8               -0.206951       0.0153867      0.000286996     0.000522052        -0.416156       -0.880203      0.000305559    -0.000672555
                    -0.000151791     0.000695321        -0.342661       -0.483801      0.000116928    -0.000548452         -0.77059       0.0322036
                       -0.417121       -0.879454     -0.000219612    -0.000882206        -0.144001        0.149313     -0.000455132     0.000615527
                       0.0003559    -0.000481182        -0.770091        0.031805     -0.000587029     0.000614782         0.235199       -0.533179
281701.9               -0.206947       0.0153925      0.000287005     0.000522072        -0.416183       -0.880192      0.000305496    -0.000672609
                    -0.000151768     0.000695348        -0.342698       -0.483811      0.000116885     -0.00054849        -0.770564       0.0322511
                       -0.417148       -0.879443     -0.000219615    -0.000882188        -0.143994        0.149315     -0.000455124     0.000615568
                      0.00035589    -0.000481216        -0.770064       0.0318524     -0.000586981     0.000614846         0.235162       -0.533227
281702                 -0.206942       0.0153983      0.000287014     0.000522091         -0.41621        -0.88018      0.000305434    -0.000672664
                    -0.000151745     0.000695374        -0.342734       -0.483821      0.000116842    -0.000548527        -0.770537       0.0322986
                       -0.417175       -0.879431     -0.000219618    -0.000882169        -0.143986        0.149316     -0.000455116     0.000615609
                     0.000355879     -0.00048125        -0.770037       0.0318998     -0.000586933      0.00061491         0.235125       -0.533275
281702.1               -0.206938       0.0154042      0.000287023     0.000522111        -0.416237       -0.880168      0.000305371    -0.000672718
                    -0.000151721     0.000695401        -0.342771        -0.48383      0.000116799    -0.000548564         -0.77051        0.032346
                       -0.417202       -0.879419     -0.000219621    -0.000882151        -0.143979        0.149318     -0.000455108     0.000615651
                     0.000355868    -0.000481283        -0.770011       0.0319472     -0.000586885     0.000614975         0.235088       -0.533324
281702.2               -0.206934         0.01541      0.000287032     0.000522131        -0.416264       -0.880156      0.000305308    -0.000672773
                    -0.000151698     0.000695427        -0.342808        -0.48384      0.000116757    -0.000548602        -0.770484       0.0323935
                       -0.417228       -0.879407     -0.000219624    -0.000882132        -0.143972         0.14932       -0.0004551     0.000615692
                     0.000355858    -0.000481317        -0.769984       0.0319946     -0.000586837     0.000615039         0.235052       -0.533372
281702.3               -0.206929       0.0154159      0.000287041      0.00052215        -0.416291       -0.880144      0.000305246    -0.000672827
                    -0.000151675     0.000695453        -0.342844        -0.48385      0.000116714    -0.000548639        -0.770457       0.0324409
                       -0.417255       -0.879395     -0.000219627    -0.000882114        -0.143965        0.149321     -0.000455092     0.000615733
                     0.000355847    -0.000481351        -0.769957        0.032042     -0.000586789     0.000615103         0.235015        -0.53342
281702.4               -0.206925       0.0154217       0.00028705      0.00052217        -0.416318       -0.880132      0.000305183    -0.000672882
                    -0.000151651      0.00069548        -0.342881       -0.483859      0.000116671    -0.000548677         -0.77043       0.0324884
                       -0.417282       -0.879383      -0.00021963    -0.000882095        -0.143958        0.149323     -0.000455084     0.000615774
                     0.000355836    -0.000481384        -0.769931       0.0320894     -0.000586741     0.000615167         0.234978       -0.533468
281702.5               -0.206921       0.0154275      0.000287059      0.00052219        -0.416345       -0.880121      0.000305121    -0.000672936
                    -0.000151628     0.000695506        -0.342918       -0.483869      0.000116628    -0.000548714        -0.770404       0.0325359
                       -0.417309       -0.879372     -0.000219633    -0.000882077         -0.14395        0.149324     -0.000455076     0.000615816
                     0.000355825    -0.000481418        -0.769904       0.0321368     -0.000586693     0.000615232         0.234941       -0.533517
281702.6               -0.206917       0.0154334      0.000287068     0.000522209        -0.416372       -0.880109      0.000305058    -0.000672991
                    -0.000151604     0.000695532        -0.342955       -0.483879      0.000116585    -0.000548752        -0.770377       0.0325833
                       -0.417336        -0.87936     -0.000219636    -0.000882058        -0.143943        0.149326     -0.000455068     0.000615857
                     0.000355815    -0.000481452        -0.769877       0.0321842     -0.000586645     0.000615296         0.234904       -0.533565
281702.7               -0.206912       0.0154392      0.000287077     0.000522229        -0.416398       -0.880097      0.000304996    -0.000673045
                    -0.000151581     0.000695559        -0.342991       -0.483888      0.000116543    -0.000548789         -0.77035       0.0326308
                       -0.417363       -0.879348     -0.000219639     -0.00088204        -0.143936        0.149327      -0.00045506     0.000615898
                     0.000355804    -0.000481485        -0.769851       0.0322316     -0.000586598      0.00061536         0.234867       -0.533613
281702.8               -0.206908        0.015445      0.000287086     0.000522249        -0.416425       -0.880085      0.000304933      -0.0006731
                    -0.000151558     0.000695585        -0.343028       -0.483898        0.0001165    -0.000548826        -0.770324       0.0326782
                       -0.417389       -0.879336     -0.000219642    -0.000882021        -0.143929        0.149329     -0.000455052      0.00061594
                     0.000355793    -0.000481519        -0.769824        0.032279      -0.00058655     0.000615424         0.234831       -0.533662
281702.9               -0.206904       0.0154509      0.000287095     0.000522269        -0.416452       -0.880073       0.00030487    -0.000673154
                    -0.000151534     0.000695612        -0.343065       -0.483908      0.000116457    -0.000548864        -0.770297       0.0327257
                       -0.417416       -0.879324     -0.000219645    -0.000882003        -0.143921        0.149331     -0.000455044     0.000615981
                     0.000355782    -0.000481553        -0.769797       0.0323264     -0.000586502     0.000615489         0.234794        -0.53371
281703                 -0.206899       0.0154567      0.000287104     0.000522288        -0.416479       -0.880061      0.000304808    -0.000673209
                    -0.000151511     0.000695638        -0.343101       -0.483917      0.000116414    -0.000548901         -0.77027       0.0327731
                       -0.417443       -0.879312     -0.000219648    -0.000881985        -0.143914        0.149332     -0.000455036     0.000616022
                     0.000355772    -0.000481586        -0.769771       0.0323738     -0.000586454     0.000615553         0.234757       -0.533758
281703.1               -0.206895       0.0154625      0.000287113     0.000522308        -0.416506        -0.88005      0.000304745    -0.000673263
                    -0.000151487     0.000695665        -0.343138       -0.483927      0.000116371    -0.000548938        -0.770244       0.0328206
                        -0.41747         -0.8793     -0.000219651    -0.000881966        -0.143907        0.149334     -0.000455028     0.000616064
