! TOUCHSTONE file generated by CST MICROWAVE STUDIO
! Date and time: Wed Oct  8 07:04:25 2025
! Project name: Teste_Macro_Metasurface_Nanopilar.cst
! Parameters = {H=600; L_x=185; L_y=100; Lambda=1064; Max_L=200; Min_L=70; PathPara=1; Phi=0; Step_L=10; Theta=0; p=520; phaseX=180; phaseY=0}
! Header version: 2018
! Port assignment regex: !\s*Touchstone port\s*([0-9]+)\s*=\s*(CST MWS port|CST DS port)\s*([0-9]+|Zmin|Zmax)\s*\(\"(.*)\"\)(\s*mode\s*([0-9]+))?.*
! Touchstone port assignment:
! Touchstone port 1 = CST MWS port Zmax ("") mode 1
! Touchstone port 2 = CST MWS port Zmax ("") mode 2
! Touchstone port 3 = CST MWS port Zmin ("") mode 1
! Touchstone port 4 = CST MWS port Zmin ("") mode 2
! S-Parameters are not renormalized. Each port impedance will be approximated by the real part at minimum frequency. The values are described via the [Reference] keyword.
! Default impedance is overridden by [Reference]
[Version] 2.0
# GHz S RI R 376.73
[Number of Ports] 4
[Reference]
376.73 376.73 376.73 376.73 
[Number of Frequencies] 1001
[Network Data]
281700                -0.0646867       0.0401266      0.000209113    -0.000193973         0.910603        0.384718      -0.00081507    -0.000198983
                     0.000158611     0.000180762        -0.952308       0.0920303      0.000247751     7.86066e-05         0.032272       -0.188831
                         0.91059        0.384743      0.000233378      8.6235e-05        0.0121748       0.0738139     -0.000552608    -0.000581767
                     -0.00047996    -0.000255011        0.0323138       -0.188735     -0.000626922    -0.000641163        -0.733885       -0.607442
281700.1              -0.0646814       0.0401233      0.000209112    -0.000193997         0.910618        0.384686     -0.000815088    -0.000198931
                     0.000158601     0.000180628        -0.952299       0.0920704      0.000247765     7.85844e-05        0.0322701       -0.188858
                        0.910604        0.384711       0.00023339     8.62212e-05         0.012179       0.0738067     -0.000552645    -0.000581749
                    -0.000479957    -0.000255045         0.032312       -0.188763     -0.000626971     -0.00064112         -0.73392       -0.607392
281700.2              -0.0646761       0.0401201       0.00020911     -0.00019402         0.910632        0.384655     -0.000815106     -0.00019888
                     0.000158591     0.000180494        -0.952289       0.0921105      0.000247778     7.85622e-05        0.0322682       -0.188886
                        0.910617        0.384679      0.000233402     8.62074e-05        0.0121833       0.0737995     -0.000552683    -0.000581732
                    -0.000479955     -0.00025508        0.0323101        -0.18879     -0.000627021    -0.000641077        -0.733956       -0.607342
281700.3              -0.0646707       0.0401168      0.000209109    -0.000194044         0.910647        0.384624     -0.000815124    -0.000198828
                     0.000158582      0.00018036         -0.95228       0.0921506      0.000247792       7.854e-05        0.0322664       -0.188914
                        0.910631        0.384648      0.000233415     8.61936e-05        0.0121875       0.0737924     -0.000552721    -0.000581714
                    -0.000479952    -0.000255115        0.0323083       -0.188818      -0.00062707    -0.000641034        -0.733991       -0.607292
281700.4              -0.0646654       0.0401136      0.000209107    -0.000194068         0.910661        0.384593     -0.000815142    -0.000198776
                     0.000158572     0.000180226        -0.952271       0.0921907      0.000247805     7.85178e-05        0.0322645       -0.188942
                        0.910645        0.384616      0.000233427     8.61798e-05        0.0121917       0.0737852     -0.000552758    -0.000581697
                     -0.00047995    -0.000255149        0.0323065       -0.188846     -0.000627119    -0.000640991        -0.734026       -0.607241
281700.5              -0.0646601       0.0401103      0.000209106    -0.000194091         0.910675        0.384562      -0.00081516    -0.000198724
                     0.000158562     0.000180092        -0.952262       0.0922308      0.000247819     7.84956e-05        0.0322626       -0.188969
                        0.910658        0.384585      0.000233439      8.6166e-05        0.0121959        0.073778     -0.000552796     -0.00058168
                    -0.000479947    -0.000255184        0.0323046       -0.188874     -0.000627169    -0.000640947        -0.734061       -0.607191
281700.6              -0.0646547       0.0401071      0.000209104    -0.000194115          0.91069        0.384531     -0.000815178    -0.000198673
                     0.000158552     0.000179958        -0.952253        0.092271      0.000247832     7.84734e-05        0.0322608       -0.188997
                        0.910672        0.384553      0.000233451     8.61522e-05        0.0122001       0.0737709     -0.000552834    -0.000581662
                    -0.000479945    -0.000255219        0.0323028       -0.188901     -0.000627218    -0.000640904        -0.734096       -0.607141
281700.7              -0.0646494       0.0401039      0.000209103    -0.000194138         0.910704          0.3845     -0.000815196    -0.000198621
                     0.000158542     0.000179825        -0.952244       0.0923111      0.000247845     7.84511e-05        0.0322589       -0.189025
                        0.910685        0.384521      0.000233463     8.61384e-05        0.0122043       0.0737637     -0.000552871    -0.000581645
                    -0.000479942    -0.000255255        0.0323009       -0.188929     -0.000627267    -0.000640861        -0.734131       -0.607091
281700.8               -0.064644       0.0401006      0.000209101    -0.000194162         0.910718        0.384468     -0.000815213    -0.000198569
                     0.000158531     0.000179691        -0.952235       0.0923512      0.000247859     7.84289e-05         0.032257       -0.189052
                        0.910699         0.38449      0.000233476     8.61246e-05        0.0122085       0.0737565     -0.000552909    -0.000581627
                     -0.00047994     -0.00025529        0.0322991       -0.188957     -0.000627317    -0.000640818        -0.734167       -0.607041
281700.9              -0.0646387       0.0400974        0.0002091    -0.000194186         0.910733        0.384437     -0.000815231    -0.000198518
                     0.000158521     0.000179558        -0.952226       0.0923913      0.000247872     7.84067e-05        0.0322551        -0.18908
                        0.910713        0.384458      0.000233488     8.61107e-05        0.0122127       0.0737494     -0.000552947     -0.00058161
                    -0.000479938    -0.000255325        0.0322972       -0.188985     -0.000627366    -0.000640775        -0.734202       -0.606991
281701                -0.0646334       0.0400941      0.000209098    -0.000194209         0.910747        0.384406     -0.000815249    -0.000198466
                     0.000158511     0.000179425        -0.952217       0.0924314      0.000247886     7.83845e-05        0.0322532       -0.189108
                        0.910726        0.384426        0.0002335     8.60969e-05        0.0122169       0.0737422     -0.000552984    -0.000581592
                    -0.000479936    -0.000255361        0.0322953       -0.189012     -0.000627415    -0.000640732        -0.734237        -0.60694
281701.1               -0.064628       0.0400909      0.000209097    -0.000194233         0.910762        0.384375     -0.000815267    -0.000198414
                       0.0001585     0.000179292        -0.952208       0.0924715      0.000247899     7.83622e-05        0.0322513       -0.189136
                         0.91074        0.384395      0.000233512     8.60831e-05        0.0122211        0.073735     -0.000553022    -0.000581575
                    -0.000479933    -0.000255396        0.0322935        -0.18904     -0.000627465    -0.000640689        -0.734272        -0.60689
281701.2              -0.0646227       0.0400876      0.000209095    -0.000194257         0.910776        0.384344     -0.000815285    -0.000198363
                      0.00015849     0.000179159        -0.952199       0.0925116      0.000247912       7.834e-05        0.0322494       -0.189163
                        0.910753        0.384363      0.000233524     8.60693e-05        0.0122253       0.0737279      -0.00055306    -0.000581557
                    -0.000479931    -0.000255432        0.0322916       -0.189068     -0.000627514    -0.000640646        -0.734307        -0.60684
281701.3              -0.0646174       0.0400844      0.000209094     -0.00019428          0.91079        0.384313     -0.000815303    -0.000198311
                      0.00015848     0.000179027         -0.95219       0.0925517      0.000247926     7.83177e-05        0.0322475       -0.189191
                        0.910767        0.384332      0.000233536     8.60555e-05        0.0122295       0.0737207     -0.000553097     -0.00058154
                    -0.000479929    -0.000255468        0.0322898       -0.189096     -0.000627563    -0.000640603        -0.734342        -0.60679
281701.4               -0.064612       0.0400811      0.000209092    -0.000194304         0.910805        0.384281      -0.00081532    -0.000198259
                     0.000158469     0.000178894        -0.952181       0.0925918      0.000247939     7.82955e-05        0.0322456       -0.189219
                        0.910781          0.3843      0.000233548     8.60416e-05        0.0122337       0.0737135     -0.000553135    -0.000581523
                    -0.000479927    -0.000255504        0.0322879       -0.189123     -0.000627612     -0.00064056        -0.734377        -0.60674
281701.5              -0.0646067       0.0400779      0.000209091    -0.000194327         0.910819         0.38425     -0.000815338    -0.000198207
                     0.000158458     0.000178762        -0.952172       0.0926319      0.000247953     7.82733e-05        0.0322437       -0.189247
                        0.910794        0.384268       0.00023356     8.60278e-05        0.0122379       0.0737064     -0.000553172    -0.000581505
                    -0.000479925     -0.00025554         0.032286       -0.189151     -0.000627662    -0.000640517        -0.734412       -0.606689
281701.6              -0.0646014       0.0400746      0.000209089    -0.000194351         0.910833        0.384219     -0.000815356    -0.000198156
                     0.000158448      0.00017863        -0.952162        0.092672      0.000247966      7.8251e-05        0.0322418       -0.189274
                        0.910808        0.384237      0.000233572      8.6014e-05        0.0122421       0.0736992      -0.00055321    -0.000581488
                    -0.000479924    -0.000255576        0.0322841       -0.189179     -0.000627711    -0.000640473        -0.734448       -0.606639
281701.7               -0.064596       0.0400714      0.000209088    -0.000194375         0.910848        0.384188     -0.000815374    -0.000198104
                     0.000158437     0.000178498        -0.952153       0.0927121      0.000247979     7.82288e-05        0.0322399       -0.189302
                        0.910821        0.384205      0.000233584     8.60001e-05        0.0122462        0.073692     -0.000553248     -0.00058147
                    -0.000479922    -0.000255612        0.0322823       -0.189206      -0.00062776     -0.00064043        -0.734483       -0.606589
281701.8              -0.0645907       0.0400681      0.000209087    -0.000194398         0.910862        0.384157     -0.000815392    -0.000198052
                     0.000158426     0.000178366        -0.952144       0.0927522      0.000247993     7.82065e-05         0.032238        -0.18933
                        0.910835        0.384173      0.000233596     8.59863e-05        0.0122504       0.0736849     -0.000553286    -0.000581453
                     -0.00047992    -0.000255648        0.0322804       -0.189234     -0.000627809    -0.000640387        -0.734518       -0.606539
281701.9              -0.0645854       0.0400648      0.000209085    -0.000194422         0.910877        0.384126      -0.00081541       -0.000198
                     0.000158416     0.000178234        -0.952135       0.0927923      0.000248006     7.81842e-05        0.0322361       -0.189357
                        0.910849        0.384142      0.000233608     8.59724e-05        0.0122546       0.0736777     -0.000553323    -0.000581435
                    -0.000479918    -0.000255685        0.0322785       -0.189262     -0.000627859    -0.000640344        -0.734553       -0.606489
281702                -0.0645801       0.0400616      0.000209084    -0.000194446         0.910891        0.384095     -0.000815427    -0.000197949
                     0.000158405     0.000178103        -0.952126       0.0928324      0.000248019      7.8162e-05        0.0322342       -0.189385
                        0.910862         0.38411       0.00023362     8.59586e-05        0.0122588       0.0736705     -0.000553361    -0.000581418
                    -0.000479917    -0.000255721        0.0322766        -0.18929     -0.000627908    -0.000640301        -0.734588       -0.606438
281702.1              -0.0645747       0.0400583      0.000209082    -0.000194469         0.910905        0.384063     -0.000815445    -0.000197897
                     0.000158394     0.000177972        -0.952117       0.0928725      0.000248033     7.81397e-05        0.0322323       -0.189413
                        0.910876        0.384079      0.000233632     8.59447e-05         0.012263       0.0736634     -0.000553399      -0.0005814
                    -0.000479915    -0.000255758        0.0322747       -0.189317     -0.000627957    -0.000640258        -0.734623       -0.606388
281702.2              -0.0645694       0.0400551      0.000209081    -0.000194493          0.91092        0.384032     -0.000815463    -0.000197845
                     0.000158383      0.00017784        -0.952108       0.0929126      0.000248046     7.81175e-05        0.0322304       -0.189441
                        0.910889        0.384047      0.000233643     8.59309e-05        0.0122672       0.0736562     -0.000553436    -0.000581383
                    -0.000479914    -0.000255795        0.0322728       -0.189345     -0.000628006    -0.000640215        -0.734658       -0.606338
281702.3              -0.0645641       0.0400518       0.00020908    -0.000194516         0.910934        0.384001     -0.000815481    -0.000197794
                     0.000158372     0.000177709        -0.952099       0.0929527       0.00024806     7.80952e-05        0.0322285       -0.189468
                        0.910903        0.384015      0.000233655      8.5917e-05        0.0122713       0.0736491     -0.000553474    -0.000581365
                    -0.000479912    -0.000255832        0.0322709       -0.189373     -0.000628056    -0.000640171        -0.734693       -0.606288
281702.4              -0.0645588       0.0400486      0.000209078     -0.00019454         0.910948         0.38397     -0.000815498    -0.000197742
                     0.000158361     0.000177578         -0.95209       0.0929928      0.000248073     7.80729e-05        0.0322265       -0.189496
                        0.910917        0.383984      0.000233667     8.59031e-05        0.0122755       0.0736419     -0.000553512    -0.000581348
                    -0.000479911    -0.000255869         0.032269       -0.189401     -0.000628105    -0.000640128        -0.734728       -0.606238
281702.5              -0.0645534       0.0400453      0.000209077    -0.000194564         0.910963        0.383939     -0.000815516     -0.00019769
                     0.000158349     0.000177448        -0.952081       0.0930328      0.000248086     7.80506e-05        0.0322246       -0.189524
                         0.91093        0.383952      0.000233679     8.58893e-05        0.0122797       0.0736347     -0.000553549     -0.00058133
                     -0.00047991    -0.000255906        0.0322671       -0.189428     -0.000628154    -0.000640085        -0.734763       -0.606187
281702.6              -0.0645481       0.0400421      0.000209076    -0.000194587         0.910977        0.383908     -0.000815534    -0.000197638
                     0.000158338     0.000177317        -0.952071       0.0930729        0.0002481     7.80284e-05        0.0322227       -0.189552
                        0.910944         0.38392      0.000233691     8.58754e-05        0.0122839       0.0736276     -0.000553587    -0.000581313
                    -0.000479908    -0.000255944        0.0322652       -0.189456     -0.000628203    -0.000640042        -0.734798       -0.606137
281702.7              -0.0645428       0.0400388      0.000209074    -0.000194611         0.910991        0.383876     -0.000815552    -0.000197587
                     0.000158327     0.000177187        -0.952062        0.093113      0.000248113     7.80061e-05        0.0322207       -0.189579
                        0.910957        0.383889      0.000233702     8.58615e-05         0.012288       0.0736204     -0.000553625    -0.000581295
                    -0.000479907    -0.000255981        0.0322633       -0.189484     -0.000628252    -0.000639999        -0.734833       -0.606087
281702.8              -0.0645375       0.0400355      0.000209073    -0.000194635         0.911006        0.383845     -0.000815569    -0.000197535
                     0.000158316     0.000177056        -0.952053       0.0931531      0.000248126     7.79838e-05        0.0322188       -0.189607
                        0.910971        0.383857      0.000233714     8.58476e-05        0.0122922       0.0736133     -0.000553662    -0.000581278
                    -0.000479906    -0.000256019        0.0322614       -0.189512     -0.000628302    -0.000639956        -0.734868       -0.606037
281702.9              -0.0645321       0.0400323      0.000209072    -0.000194658          0.91102        0.383814     -0.000815587    -0.000197483
                     0.000158304     0.000176926        -0.952044       0.0931932       0.00024814     7.79615e-05        0.0322169       -0.189635
                        0.910985        0.383826      0.000233726     8.58338e-05        0.0122964       0.0736061       -0.0005537     -0.00058126
                    -0.000479905    -0.000256056        0.0322595       -0.189539     -0.000628351    -0.000639912        -0.734904       -0.605987
281703                -0.0645268        0.040029       0.00020907    -0.000194682         0.911034        0.383783     -0.000815605    -0.000197431
                     0.000158293     0.000176796        -0.952035       0.0932333      0.000248153     7.79392e-05        0.0322149       -0.189662
                        0.910998        0.383794      0.000233738     8.58199e-05        0.0123005       0.0735989     -0.000553738    -0.000581243
                    -0.000479904    -0.000256094        0.0322576       -0.189567       -0.0006284    -0.000639869        -0.734939       -0.605936
281703.1              -0.0645215       0.0400258      0.000209069    -0.000194706         0.911049        0.383752     -0.000815622    -0.000197379
                     0.000158281     0.000176666        -0.952026       0.0932734      0.000248166     7.79169e-05         0.032213        -0.18969
                        0.911012        0.383762      0.000233749      8.5806e-05        0.0123047       0.0735918     -0.000553775    -0.000581225
