! TOUCHSTONE file generated by CST MICROWAVE STUDIO
! Date and time: Wed Oct  8 06:55:37 2025
! Project name: Teste_Macro_Metasurface_Nanopilar.cst
! Parameters = {H=600; L_x=110; L_y=135; Lambda=1064; Max_L=200; Min_L=70; PathPara=1; Phi=0; Step_L=10; Theta=0; p=520; phaseX=180; phaseY=0}
! Header version: 2018
! Port assignment regex: !\s*Touchstone port\s*([0-9]+)\s*=\s*(CST MWS port|CST DS port)\s*([0-9]+|Zmin|Zmax)\s*\(\"(.*)\"\)(\s*mode\s*([0-9]+))?.*
! Touchstone port assignment:
! Touchstone port 1 = CST MWS port Zmax ("") mode 1
! Touchstone port 2 = CST MWS port Zmax ("") mode 2
! Touchstone port 3 = CST MWS port Zmin ("") mode 1
! Touchstone port 4 = CST MWS port Zmin ("") mode 2
! S-Parameters are not renormalized. Each port impedance will be approximated by the real part at minimum frequency. The values are described via the [Reference] keyword.
! Default impedance is overridden by [Reference]
[Version] 2.0
# GHz S RI R 376.73
[Number of Ports] 4
[Reference]
376.73 376.73 376.73 376.73 
[Number of Frequencies] 1001
[Network Data]
281700                 -0.176089        -0.15149      0.000280952    -0.000212015         0.232885       -0.936451      -0.00028622    -0.000635731
                      0.00030134    -0.000255733       -0.0333427        0.110753     -0.000363181    -0.000586821         0.915913        0.359184
                        0.232447       -0.936693     -0.000359726    -0.000600714        -0.227612       0.0530106     -0.000217434     0.000126509
                    -0.000367762    -0.000583633         0.916169        0.359989      -0.00040613      4.7232e-05       -0.0554811        0.103499
281700.1               -0.176095       -0.151483       0.00028094    -0.000212048         0.232855       -0.936459     -0.000286229    -0.000635729
                     0.000301325    -0.000255762       -0.0333358        0.110748     -0.000363206    -0.000586806         0.915926        0.359152
                        0.232417       -0.936701     -0.000359748    -0.000600704         -0.22761        0.053016     -0.000217431      0.00012651
                    -0.000367787    -0.000583623         0.916182        0.359957     -0.000406145     4.72378e-05        -0.055476        0.103495
281700.2               -0.176101       -0.151476      0.000280928    -0.000212081         0.232825       -0.936466     -0.000286239    -0.000635726
                     0.000301309    -0.000255792       -0.0333289        0.110744      -0.00036323     -0.00058679         0.915939         0.35912
                        0.232387       -0.936708     -0.000359771    -0.000600694        -0.227608       0.0530213     -0.000217429      0.00012651
                    -0.000367811    -0.000583614         0.916195        0.359925     -0.000406161     4.72436e-05       -0.0554709         0.10349
281700.3               -0.176106       -0.151469      0.000280917    -0.000212115         0.232795       -0.936474     -0.000286249    -0.000635724
                     0.000301293    -0.000255822       -0.0333221         0.11074     -0.000363254    -0.000586775         0.915952        0.359088
                        0.232357       -0.936715     -0.000359794    -0.000600684        -0.227606       0.0530267     -0.000217426      0.00012651
                    -0.000367835    -0.000583604         0.916209        0.359894     -0.000406176     4.72494e-05       -0.0554658        0.103486
281700.4               -0.176112       -0.151461      0.000280905    -0.000212148         0.232765       -0.936482     -0.000286259    -0.000635722
                     0.000301277    -0.000255852       -0.0333152        0.110735     -0.000363278    -0.000586759         0.915966        0.359056
                        0.232327       -0.936723     -0.000359817    -0.000600674        -0.227605        0.053032     -0.000217423      0.00012651
                     -0.00036786    -0.000583594         0.916222        0.359862     -0.000406191     4.72552e-05       -0.0554607        0.103482
281700.5               -0.176117       -0.151454      0.000280894    -0.000212181         0.232735       -0.936489     -0.000286268     -0.00063572
                     0.000301261    -0.000255881       -0.0333083        0.110731     -0.000363302    -0.000586744         0.915979        0.359025
                        0.232297        -0.93673     -0.000359839    -0.000600664        -0.227603       0.0530374     -0.000217421      0.00012651
                    -0.000367884    -0.000583585         0.916235         0.35983     -0.000406207      4.7261e-05       -0.0554556        0.103478
281700.6               -0.176123       -0.151447      0.000280882    -0.000212214         0.232706       -0.936497     -0.000286278    -0.000635718
                     0.000301246    -0.000255911       -0.0333014        0.110727     -0.000363326    -0.000586728         0.915992        0.358993
                        0.232267       -0.936738     -0.000359862    -0.000600654        -0.227601       0.0530427     -0.000217418      0.00012651
                    -0.000367908    -0.000583575         0.916248        0.359798     -0.000406222     4.72668e-05       -0.0554505        0.103474
281700.7               -0.176129        -0.15144       0.00028087    -0.000212247         0.232676       -0.936504     -0.000286288    -0.000635715
                      0.00030123    -0.000255941       -0.0332945        0.110723      -0.00036335    -0.000586713         0.916005        0.358961
                        0.232237       -0.936745     -0.000359885    -0.000600644        -0.227599       0.0530481     -0.000217415      0.00012651
                    -0.000367933    -0.000583565         0.916262        0.359767     -0.000406237     4.72726e-05       -0.0554454         0.10347
281700.8               -0.176134       -0.151432      0.000280859    -0.000212281         0.232646       -0.936512     -0.000286298    -0.000635713
                     0.000301214    -0.000255971       -0.0332876        0.110718     -0.000363374    -0.000586697         0.916019        0.358929
                        0.232208       -0.936752     -0.000359908    -0.000600634        -0.227597       0.0530534     -0.000217412      0.00012651
                    -0.000367957    -0.000583555         0.916275        0.359735     -0.000406252     4.72784e-05       -0.0554402        0.103465
281700.9                -0.17614       -0.151425      0.000280847    -0.000212314         0.232616       -0.936519     -0.000286307    -0.000635711
                     0.000301198       -0.000256       -0.0332808        0.110714     -0.000363398    -0.000586682         0.916032        0.358897
                        0.232178        -0.93676      -0.00035993    -0.000600624        -0.227596       0.0530588      -0.00021741     0.000126511
                    -0.000367981    -0.000583545         0.916288        0.359703     -0.000406268     4.72842e-05       -0.0554351        0.103461
281701                 -0.176145       -0.151418      0.000280835    -0.000212347         0.232586       -0.936527     -0.000286317    -0.000635709
                     0.000301183     -0.00025603       -0.0332739         0.11071     -0.000363422    -0.000586666         0.916045        0.358865
                        0.232148       -0.936767     -0.000359953    -0.000600614        -0.227594       0.0530641     -0.000217407     0.000126511
                    -0.000368006    -0.000583536         0.916301        0.359671     -0.000406283       4.729e-05         -0.05543        0.103457
281701.1               -0.176151       -0.151411      0.000280824     -0.00021238         0.232556       -0.936534     -0.000286327    -0.000635707
                     0.000301167     -0.00025606        -0.033267        0.110705     -0.000363446    -0.000586651         0.916058        0.358834
                        0.232118       -0.936775     -0.000359976    -0.000600604        -0.227592       0.0530695     -0.000217404     0.000126511
                     -0.00036803    -0.000583526         0.916314         0.35964     -0.000406298     4.72958e-05       -0.0554249        0.103453
281701.2               -0.176157       -0.151403      0.000280812    -0.000212413         0.232527       -0.936542     -0.000286337    -0.000635704
                     0.000301152     -0.00025609       -0.0332601        0.110701      -0.00036347    -0.000586636         0.916071        0.358802
                        0.232088       -0.936782     -0.000359999    -0.000600593         -0.22759       0.0530749     -0.000217402     0.000126511
                    -0.000368054    -0.000583516         0.916328        0.359608     -0.000406314     4.73016e-05       -0.0554198        0.103449
281701.3               -0.176162       -0.151396        0.0002808    -0.000212447         0.232497       -0.936549     -0.000286346    -0.000635702
                     0.000301136    -0.000256119       -0.0332532        0.110697     -0.000363494     -0.00058662         0.916085         0.35877
                        0.232058       -0.936789     -0.000360021    -0.000600583        -0.227589       0.0530802     -0.000217399     0.000126511
                    -0.000368079    -0.000583506         0.916341        0.359576     -0.000406329     4.73074e-05       -0.0554147        0.103445
281701.4               -0.176168       -0.151389      0.000280789     -0.00021248         0.232467       -0.936557     -0.000286356      -0.0006357
                     0.000301121    -0.000256149       -0.0332463        0.110692     -0.000363518    -0.000586605         0.916098        0.358738
                        0.232028       -0.936797     -0.000360044    -0.000600573        -0.227587       0.0530856     -0.000217396     0.000126511
                    -0.000368103    -0.000583496         0.916354        0.359544     -0.000406344     4.73132e-05       -0.0554096         0.10344
281701.5               -0.176173       -0.151382      0.000280777    -0.000212513         0.232437       -0.936564     -0.000286366    -0.000635698
                     0.000301105    -0.000256179       -0.0332395        0.110688     -0.000363543    -0.000586589         0.916111        0.358706
                        0.231998       -0.936804     -0.000360067    -0.000600563        -0.227585       0.0530909     -0.000217394     0.000126511
                    -0.000368127    -0.000583486         0.916367        0.359513     -0.000406359      4.7319e-05       -0.0554045        0.103436
281701.6               -0.176179       -0.151374      0.000280765    -0.000212546         0.232407       -0.936572     -0.000286376    -0.000635696
                      0.00030109    -0.000256209       -0.0332326        0.110684     -0.000363567    -0.000586574         0.916124        0.358675
                        0.231968       -0.936812      -0.00036009    -0.000600553        -0.227583       0.0530963     -0.000217391     0.000126511
                    -0.000368152    -0.000583476         0.916381        0.359481     -0.000406375     4.73249e-05       -0.0553994        0.103432
281701.7               -0.176185       -0.151367      0.000280754     -0.00021258         0.232377        -0.93658     -0.000286385    -0.000635693
                     0.000301074    -0.000256238       -0.0332257        0.110679     -0.000363591    -0.000586558         0.916137        0.358643
                        0.231938       -0.936819     -0.000360112    -0.000600543        -0.227582       0.0531016     -0.000217388     0.000126512
                    -0.000368176    -0.000583466         0.916394        0.359449      -0.00040639     4.73307e-05       -0.0553943        0.103428
281701.8                -0.17619        -0.15136      0.000280742    -0.000212613         0.232348       -0.936587     -0.000286395    -0.000635691
                     0.000301059    -0.000256268       -0.0332188        0.110675     -0.000363615    -0.000586543         0.916151        0.358611
                        0.231908       -0.936826     -0.000360135    -0.000600533         -0.22758        0.053107     -0.000217386     0.000126512
                      -0.0003682    -0.000583456         0.916407        0.359417     -0.000406405     4.73365e-05       -0.0553892        0.103424
281701.9               -0.176196       -0.151353       0.00028073    -0.000212646         0.232318       -0.936595     -0.000286405    -0.000635689
                     0.000301043    -0.000256298       -0.0332119        0.110671     -0.000363639    -0.000586527         0.916164        0.358579
                        0.231879       -0.936834     -0.000360158    -0.000600523        -0.227578       0.0531123     -0.000217383     0.000126512
                    -0.000368224    -0.000583446          0.91642        0.359385     -0.000406421     4.73423e-05       -0.0553841         0.10342
281702                 -0.176201       -0.151345      0.000280719    -0.000212679         0.232288       -0.936602     -0.000286415    -0.000635687
                     0.000301028    -0.000256328       -0.0332051        0.110666     -0.000363663    -0.000586512         0.916177        0.358547
                        0.231849       -0.936841      -0.00036018    -0.000600513        -0.227576       0.0531177      -0.00021738     0.000126512
                    -0.000368249    -0.000583435         0.916433        0.359354     -0.000406436     4.73481e-05       -0.0553789        0.103415
281702.1               -0.176207       -0.151338      0.000280707    -0.000212713         0.232258        -0.93661     -0.000286424    -0.000635685
                     0.000301013    -0.000256358       -0.0331982        0.110662     -0.000363687    -0.000586496          0.91619        0.358515
                        0.231819       -0.936849     -0.000360203    -0.000600503        -0.227574        0.053123     -0.000217378     0.000126512
                    -0.000368273    -0.000583425         0.916447        0.359322     -0.000406451     4.73539e-05       -0.0553738        0.103411
281702.2               -0.176213       -0.151331      0.000280695    -0.000212746         0.232228       -0.936617     -0.000286434    -0.000635683
                     0.000300998    -0.000256387       -0.0331913        0.110658     -0.000363711    -0.000586481         0.916203        0.358484
                        0.231789       -0.936856     -0.000360226    -0.000600493        -0.227573       0.0531284     -0.000217375     0.000126512
                    -0.000368297    -0.000583415          0.91646         0.35929     -0.000406466     4.73597e-05       -0.0553687        0.103407
281702.3               -0.176218       -0.151323      0.000280684    -0.000212779         0.232198       -0.936625     -0.000286444     -0.00063568
                     0.000300982    -0.000256417       -0.0331844        0.110653     -0.000363735    -0.000586465         0.916217        0.358452
                        0.231759       -0.936863     -0.000360249    -0.000600483        -0.227571       0.0531337     -0.000217372     0.000126512
                    -0.000368321    -0.000583405         0.916473        0.359258     -0.000406482     4.73656e-05       -0.0553636        0.103403
281702.4               -0.176224       -0.151316      0.000280672    -0.000212812         0.232169       -0.936632     -0.000286454    -0.000635678
                     0.000300967    -0.000256447       -0.0331775        0.110649     -0.000363759     -0.00058645          0.91623         0.35842
                        0.231729       -0.936871     -0.000360271    -0.000600473        -0.227569       0.0531391     -0.000217369     0.000126513
                    -0.000368346    -0.000583395         0.916486        0.359227     -0.000406497     4.73714e-05       -0.0553585        0.103399
281702.5               -0.176229       -0.151309       0.00028066    -0.000212846         0.232139        -0.93664     -0.000286464    -0.000635676
                     0.000300952    -0.000256477       -0.0331707        0.110645     -0.000363783    -0.000586434         0.916243        0.358388
                        0.231699       -0.936878     -0.000360294    -0.000600463        -0.227567       0.0531444     -0.000217367     0.000126513
                     -0.00036837    -0.000583384         0.916499        0.359195     -0.000406512     4.73772e-05       -0.0553534        0.103395
281702.6               -0.176235       -0.151302      0.000280649    -0.000212879         0.232109       -0.936647     -0.000286473    -0.000635674
                     0.000300937    -0.000256506       -0.0331638         0.11064     -0.000363807    -0.000586419         0.916256        0.358356
                        0.231669       -0.936886     -0.000360317    -0.000600453        -0.227566       0.0531498     -0.000217364     0.000126513
                    -0.000368394    -0.000583374         0.916513        0.359163     -0.000406528      4.7383e-05       -0.0553483        0.103391
281702.7                -0.17624       -0.151294      0.000280637    -0.000212912         0.232079       -0.936655     -0.000286483    -0.000635672
                     0.000300922    -0.000256536       -0.0331569        0.110636     -0.000363831    -0.000586404         0.916269        0.358324
                        0.231639       -0.936893      -0.00036034    -0.000600442        -0.227564       0.0531552     -0.000217361     0.000126513
                    -0.000368418    -0.000583364         0.916526        0.359131     -0.000406543     4.73889e-05       -0.0553432        0.103386
281702.8               -0.176246       -0.151287      0.000280625    -0.000212945         0.232049       -0.936662     -0.000286493    -0.000635669
                     0.000300906    -0.000256566         -0.03315        0.110632     -0.000363855    -0.000586388         0.916283        0.358293
                        0.231609         -0.9369     -0.000360362    -0.000600432        -0.227562       0.0531605     -0.000217359     0.000126513
                    -0.000368442    -0.000583354         0.916539          0.3591     -0.000406558     4.73947e-05       -0.0553381        0.103382
281702.9               -0.176252        -0.15128      0.000280614    -0.000212979         0.232019        -0.93667     -0.000286503    -0.000635667
                     0.000300891    -0.000256596       -0.0331431        0.110627     -0.000363879    -0.000586373         0.916296        0.358261
                         0.23158       -0.936908     -0.000360385    -0.000600422         -0.22756       0.0531659     -0.000217356     0.000126513
                    -0.000368467    -0.000583343         0.916552        0.359068     -0.000406573     4.74005e-05        -0.055333        0.103378
281703                 -0.176257       -0.151273      0.000280602    -0.000213012          0.23199       -0.936677     -0.000286512    -0.000635665
                     0.000300876    -0.000256626       -0.0331363        0.110623     -0.000363903    -0.000586357         0.916309        0.358229
                         0.23155       -0.936915     -0.000360408    -0.000600412        -0.227558       0.0531712     -0.000217353     0.000126513
                    -0.000368491    -0.000583333         0.916566        0.359036     -0.000406589     4.74063e-05       -0.0553279        0.103374
281703.1               -0.176263       -0.151265       0.00028059    -0.000213045          0.23196       -0.936685     -0.000286522    -0.000635663
                     0.000300861    -0.000256656       -0.0331294        0.110619     -0.000363927    -0.000586342         0.916322        0.358197
                         0.23152       -0.936923      -0.00036043    -0.000600402        -0.227557       0.0531766     -0.000217351     0.000126513
