! TOUCHSTONE file generated by CST MICROWAVE STUDIO
! Date and time: Wed Oct  8 07:04:58 2025
! Project name: Teste_Macro_Metasurface_Nanopilar.cst
! Parameters = {H=600; L_x=190; L_y=90; Lambda=1064; Max_L=200; Min_L=70; PathPara=1; Phi=0; Step_L=10; Theta=0; p=520; phaseX=180; phaseY=0}
! Header version: 2018
! Port assignment regex: !\s*Touchstone port\s*([0-9]+)\s*=\s*(CST MWS port|CST DS port)\s*([0-9]+|Zmin|Zmax)\s*\(\"(.*)\"\)(\s*mode\s*([0-9]+))?.*
! Touchstone port assignment:
! Touchstone port 1 = CST MWS port Zmax ("") mode 1
! Touchstone port 2 = CST MWS port Zmax ("") mode 2
! Touchstone port 3 = CST MWS port Zmin ("") mode 1
! Touchstone port 4 = CST MWS port Zmin ("") mode 2
! S-Parameters are not renormalized. Each port impedance will be approximated by the real part at minimum frequency. The values are described via the [Reference] keyword.
! Default impedance is overridden by [Reference]
[Version] 2.0
# GHz S RI R 376.73
[Number of Ports] 4
[Reference]
376.73 376.73 376.73 376.73 
[Number of Frequencies] 1001
[Network Data]
281700                 -0.181623       -0.117405      0.000214624     0.000148308      -0.00856207        0.972279     -0.000677313    -0.000260388
                     0.000429213    -0.000106819        -0.501401       -0.522757     -0.000410058    -0.000168686        -0.650971        0.144517
                     -0.00838554        0.972245      -0.00072768    -0.000565012        -0.183642        0.114152      0.000281659     0.000113251
                    -0.000703065     -0.00035005        -0.651212        0.144639      0.000481709    -8.02694e-05         0.190717       -0.693416
281700.1               -0.181625       -0.117398      0.000214633       0.0001483      -0.00853324         0.97228     -0.000677308    -0.000260355
                     0.000429208    -0.000106854        -0.501428       -0.522752      -0.00041006    -0.000168664        -0.650948        0.144545
                     -0.00835672        0.972246     -0.000727712    -0.000565001        -0.183638        0.114156      0.000281592     0.000113224
                    -0.000703081    -0.000350003        -0.651188        0.144667       0.00048171    -8.02944e-05         0.190674       -0.693443
281700.2               -0.181627       -0.117391      0.000214642     0.000148292      -0.00850442        0.972281     -0.000677302    -0.000260323
                     0.000429204    -0.000106889        -0.501455       -0.522747     -0.000410061    -0.000168643        -0.650925        0.144573
                      -0.0083279        0.972247     -0.000727745    -0.000564991        -0.183633        0.114159      0.000281526     0.000113196
                    -0.000703096    -0.000349957        -0.651165        0.144695      0.000481711    -8.03194e-05         0.190632        -0.69347
281700.3               -0.181629       -0.117384      0.000214651     0.000148284       -0.0084756        0.972281     -0.000677297     -0.00026029
                       0.0004292    -0.000106924        -0.501482       -0.522742     -0.000410063    -0.000168621        -0.650902          0.1446
                     -0.00829909        0.972247     -0.000727777     -0.00056498        -0.183628        0.114163      0.000281459     0.000113169
                    -0.000703112    -0.000349911        -0.651142        0.144723      0.000481712    -8.03444e-05         0.190589       -0.693498
281700.4               -0.181631       -0.117376      0.000214659     0.000148276      -0.00844677        0.972282     -0.000677291    -0.000260257
                     0.000429195    -0.000106959        -0.501509       -0.522736     -0.000410065      -0.0001686        -0.650878        0.144628
                     -0.00827027        0.972248     -0.000727809     -0.00056497        -0.183623        0.114166      0.000281392     0.000113142
                    -0.000703128    -0.000349864        -0.651118        0.144751      0.000481712    -8.03694e-05         0.190547       -0.693525
281700.5               -0.181634       -0.117369      0.000214668     0.000148268      -0.00841795        0.972283     -0.000677286    -0.000260224
                     0.000429191    -0.000106993        -0.501536       -0.522731     -0.000410067    -0.000168578        -0.650855        0.144656
                     -0.00824145        0.972249     -0.000727842    -0.000564959        -0.183618         0.11417      0.000281325     0.000113114
                    -0.000703144    -0.000349818        -0.651095        0.144779      0.000481713    -8.03944e-05         0.190504       -0.693553
281700.6               -0.181636       -0.117362      0.000214677      0.00014826      -0.00838912        0.972283     -0.000677281    -0.000260192
                     0.000429187    -0.000107028        -0.501563       -0.522726     -0.000410068    -0.000168557        -0.650832        0.144684
                     -0.00821264         0.97225     -0.000727874    -0.000564949        -0.183614        0.114173      0.000281258     0.000113087
                     -0.00070316    -0.000349772        -0.651072        0.144807      0.000481714    -8.04194e-05         0.190462        -0.69358
281700.7               -0.181638       -0.117354      0.000214686     0.000148252       -0.0083603        0.972284     -0.000677275    -0.000260159
                     0.000429182    -0.000107063         -0.50159       -0.522721      -0.00041007    -0.000168536        -0.650808        0.144712
                     -0.00818382         0.97225     -0.000727906    -0.000564938        -0.183609        0.114177      0.000281191      0.00011306
                    -0.000703176    -0.000349725        -0.651048        0.144835      0.000481715    -8.04444e-05         0.190419       -0.693607
281700.8                -0.18164       -0.117347      0.000214695     0.000148243      -0.00833147        0.972285      -0.00067727    -0.000260126
                     0.000429178    -0.000107098        -0.501616       -0.522716     -0.000410072    -0.000168514        -0.650785         0.14474
                       -0.008155        0.972251     -0.000727938    -0.000564928        -0.183604         0.11418      0.000281124     0.000113032
                    -0.000703192    -0.000349679        -0.651025        0.144863      0.000481716    -8.04694e-05         0.190377       -0.693635
281700.9               -0.181642        -0.11734      0.000214704     0.000148235      -0.00830265        0.972286     -0.000677265    -0.000260093
                     0.000429174    -0.000107133        -0.501643       -0.522711     -0.000410074    -0.000168493        -0.650762        0.144768
                     -0.00812618        0.972252     -0.000727971    -0.000564917        -0.183599        0.114184      0.000281058     0.000113005
                    -0.000703208    -0.000349633        -0.651002        0.144891      0.000481716    -8.04944e-05         0.190334       -0.693662
281701                 -0.181644       -0.117333      0.000214712     0.000148227      -0.00827382        0.972286     -0.000677259    -0.000260061
                     0.000429169    -0.000107168         -0.50167       -0.522706     -0.000410075    -0.000168471        -0.650738        0.144796
                     -0.00809737        0.972252     -0.000728003    -0.000564906        -0.183595        0.114187      0.000280991     0.000112978
                    -0.000703224    -0.000349586        -0.650978        0.144919      0.000481717    -8.05194e-05         0.190292       -0.693689
281701.1               -0.181646       -0.117325      0.000214721     0.000148219        -0.008245        0.972287     -0.000677254    -0.000260028
                     0.000429165    -0.000107203        -0.501697       -0.522701     -0.000410077     -0.00016845        -0.650715        0.144824
                     -0.00806855        0.972253     -0.000728035    -0.000564896         -0.18359        0.114191      0.000280924      0.00011295
                     -0.00070324     -0.00034954        -0.650955        0.144947      0.000481718    -8.05444e-05         0.190249       -0.693717
281701.2               -0.181648       -0.117318       0.00021473     0.000148211      -0.00821617        0.972288     -0.000677248    -0.000259995
                     0.000429161    -0.000107238        -0.501724       -0.522696     -0.000410079    -0.000168428        -0.650692        0.144852
                     -0.00803973        0.972254     -0.000728067    -0.000564885        -0.183585        0.114194      0.000280857     0.000112923
                    -0.000703256    -0.000349494        -0.650932        0.144975      0.000481719    -8.05694e-05         0.190207       -0.693744
281701.3                -0.18165       -0.117311      0.000214739     0.000148203      -0.00818735        0.972288     -0.000677243    -0.000259963
                     0.000429156    -0.000107273        -0.501751        -0.52269     -0.000410081    -0.000168407        -0.650668         0.14488
                     -0.00801091        0.972255       -0.0007281    -0.000564875         -0.18358        0.114198       0.00028079     0.000112896
                    -0.000703272    -0.000349447        -0.650908        0.145003      0.000481719    -8.05944e-05         0.190164       -0.693771
281701.4               -0.181652       -0.117303      0.000214748     0.000148194      -0.00815852        0.972289     -0.000677238     -0.00025993
                     0.000429152    -0.000107308        -0.501778       -0.522685     -0.000410082    -0.000168385        -0.650645        0.144908
                      -0.0079821        0.972255     -0.000728132    -0.000564864        -0.183575        0.114201      0.000280724     0.000112868
                    -0.000703288    -0.000349401        -0.650885        0.145031       0.00048172    -8.06194e-05         0.190121       -0.693799
281701.5               -0.181655       -0.117296      0.000214757     0.000148186       -0.0081297         0.97229     -0.000677232    -0.000259897
                     0.000429147    -0.000107343        -0.501805        -0.52268     -0.000410084    -0.000168364        -0.650622        0.144936
                     -0.00795328        0.972256     -0.000728164    -0.000564853        -0.183571        0.114205      0.000280657     0.000112841
                    -0.000703304    -0.000349354        -0.650862        0.145059      0.000481721    -8.06444e-05         0.190079       -0.693826
281701.6               -0.181657       -0.117289      0.000214766     0.000148178      -0.00810087         0.97229     -0.000677227    -0.000259864
                     0.000429143    -0.000107377        -0.501832       -0.522675     -0.000410086    -0.000168342        -0.650598        0.144964
                     -0.00792446        0.972257     -0.000728197    -0.000564843        -0.183566        0.114208       0.00028059     0.000112814
                     -0.00070332    -0.000349308        -0.650838        0.145087      0.000481722    -8.06694e-05         0.190036       -0.693853
281701.7               -0.181659       -0.117282      0.000214774      0.00014817      -0.00807205        0.972291     -0.000677222    -0.000259832
                     0.000429139    -0.000107412        -0.501859        -0.52267     -0.000410088    -0.000168321        -0.650575        0.144992
                     -0.00789564        0.972257     -0.000728229    -0.000564832        -0.183561        0.114212      0.000280523     0.000112787
                    -0.000703336    -0.000349261        -0.650815        0.145115      0.000481723    -8.06944e-05         0.189994       -0.693881
281701.8               -0.181661       -0.117274      0.000214783     0.000148162      -0.00804322        0.972292     -0.000677216    -0.000259799
                     0.000429134    -0.000107447        -0.501886       -0.522665     -0.000410089    -0.000168299        -0.650552         0.14502
                     -0.00786683        0.972258     -0.000728261    -0.000564821        -0.183556        0.114216      0.000280457     0.000112759
                    -0.000703352    -0.000349215        -0.650792        0.145142      0.000481723    -8.07194e-05         0.189951       -0.693908
281701.9               -0.181663       -0.117267      0.000214792     0.000148154      -0.00801439        0.972293     -0.000677211    -0.000259766
                      0.00042913    -0.000107482        -0.501912        -0.52266     -0.000410091    -0.000168278        -0.650528        0.145048
                     -0.00783801        0.972259     -0.000728293    -0.000564811        -0.183551        0.114219       0.00028039     0.000112732
                    -0.000703368    -0.000349169        -0.650768         0.14517      0.000481724    -8.07444e-05         0.189909       -0.693935
281702                 -0.181665        -0.11726      0.000214801     0.000148145      -0.00798557        0.972293     -0.000677205    -0.000259733
                     0.000429125    -0.000107517        -0.501939       -0.522654     -0.000410093    -0.000168257        -0.650505        0.145075
                     -0.00780919        0.972259     -0.000728326      -0.0005648        -0.183547        0.114223      0.000280323     0.000112705
                    -0.000703384    -0.000349122        -0.650745        0.145198      0.000481725    -8.07694e-05         0.189866       -0.693963
281702.1               -0.181667       -0.117252       0.00021481     0.000148137      -0.00795674        0.972294       -0.0006772    -0.000259701
                     0.000429121    -0.000107552        -0.501966       -0.522649     -0.000410094    -0.000168235        -0.650482        0.145103
                     -0.00778037         0.97226     -0.000728358    -0.000564789        -0.183542        0.114226      0.000280257     0.000112677
                      -0.0007034    -0.000349076        -0.650721        0.145226      0.000481726    -8.07945e-05         0.189824        -0.69399
281702.2               -0.181669       -0.117245      0.000214819     0.000148129      -0.00792792        0.972295     -0.000677195    -0.000259668
                     0.000429117    -0.000107587        -0.501993       -0.522644     -0.000410096    -0.000168214        -0.650458        0.145131
                     -0.00775155        0.972261      -0.00072839    -0.000564779        -0.183537         0.11423       0.00028019      0.00011265
                    -0.000703416    -0.000349029        -0.650698        0.145254      0.000481726    -8.08195e-05         0.189781       -0.694017
281702.3               -0.181671       -0.117238      0.000214827     0.000148121      -0.00789909        0.972295     -0.000677189    -0.000259635
                     0.000429112    -0.000107622         -0.50202       -0.522639     -0.000410098    -0.000168192        -0.650435        0.145159
                     -0.00772274        0.972262     -0.000728422    -0.000564768        -0.183532        0.114233      0.000280123     0.000112623
                    -0.000703432    -0.000348983        -0.650675        0.145282      0.000481727    -8.08445e-05         0.189738       -0.694045
281702.4               -0.181674       -0.117231      0.000214836     0.000148113      -0.00787026        0.972296     -0.000677184    -0.000259603
                     0.000429108    -0.000107657        -0.502047       -0.522634       -0.0004101    -0.000168171        -0.650412        0.145187
                     -0.00769392        0.972262     -0.000728455    -0.000564757        -0.183527        0.114237      0.000280057     0.000112596
                    -0.000703447    -0.000348936        -0.650651         0.14531      0.000481728    -8.08695e-05         0.189696       -0.694072
281702.5               -0.181676       -0.117223      0.000214845     0.000148104      -0.00784144        0.972297     -0.000677179     -0.00025957
                     0.000429103    -0.000107691        -0.502074       -0.522629     -0.000410101    -0.000168149        -0.650388        0.145215
                      -0.0076651        0.972263     -0.000728487    -0.000564747        -0.183523         0.11424       0.00027999     0.000112568
                    -0.000703463     -0.00034889        -0.650628        0.145338      0.000481729    -8.08945e-05         0.189653       -0.694099
281702.6               -0.181678       -0.117216      0.000214854     0.000148096      -0.00781261        0.972297     -0.000677173    -0.000259537
                     0.000429099    -0.000107726        -0.502101       -0.522624     -0.000410103    -0.000168128        -0.650365        0.145243
                     -0.00763628        0.972264     -0.000728519    -0.000564736        -0.183518        0.114244      0.000279923     0.000112541
                    -0.000703479    -0.000348843        -0.650605        0.145366      0.000481729    -8.09195e-05         0.189611       -0.694127
281702.7                -0.18168       -0.117209      0.000214863     0.000148088      -0.00778379        0.972298     -0.000677168    -0.000259505
                     0.000429095    -0.000107761        -0.502128       -0.522618     -0.000410105    -0.000168106        -0.650342        0.145271
                     -0.00760746        0.972264     -0.000728552    -0.000564725        -0.183513        0.114247      0.000279857     0.000112514
                    -0.000703495    -0.000348797        -0.650581        0.145394       0.00048173    -8.09445e-05         0.189568       -0.694154
281702.8               -0.181682       -0.117201      0.000214872      0.00014808      -0.00775496        0.972299     -0.000677163    -0.000259472
                      0.00042909    -0.000107796        -0.502155       -0.522613     -0.000410107    -0.000168085        -0.650318        0.145299
                     -0.00757864        0.972265     -0.000728584    -0.000564715        -0.183508        0.114251       0.00027979     0.000112487
                    -0.000703511    -0.000348751        -0.650558        0.145422      0.000481731    -8.09695e-05         0.189526       -0.694181
281702.9               -0.181684       -0.117194       0.00021488     0.000148071      -0.00772613          0.9723     -0.000677157    -0.000259439
                     0.000429086    -0.000107831        -0.502182       -0.522608     -0.000410108    -0.000168063        -0.650295        0.145327
                     -0.00754983        0.972266     -0.000728616    -0.000564704        -0.183504        0.114254      0.000279724     0.000112459
                    -0.000703527    -0.000348704        -0.650535         0.14545      0.000481732    -8.09946e-05         0.189483       -0.694209
281703                 -0.181686       -0.117187      0.000214889     0.000148063      -0.00769731          0.9723     -0.000677152    -0.000259406
                     0.000429081    -0.000107866        -0.502208       -0.522603      -0.00041011    -0.000168042        -0.650272        0.145355
                     -0.00752101        0.972266     -0.000728648    -0.000564693        -0.183499        0.114258      0.000279657     0.000112432
                    -0.000703543    -0.000348658        -0.650511        0.145478      0.000481732    -8.10196e-05          0.18944       -0.694236
281703.1               -0.181688        -0.11718      0.000214898     0.000148055      -0.00766848        0.972301     -0.000677147    -0.000259374
                     0.000429077    -0.000107901        -0.502235       -0.522598     -0.000410112    -0.000168021        -0.650248        0.145382
                     -0.00749219        0.972267     -0.000728681    -0.000564683        -0.183494        0.114261      0.000279591     0.000112405
